Freq.	-V(reflectedwaveover20)/V(minusincidentwaveover20)
7.00000000000000e+07	-9.78062076463162e-01,2.07218775751848e-01
7.00060006000600e+07	-9.78002377475882e-01,2.07498196771578e-01
7.00120012001200e+07	-9.77942598310869e-01,2.07777600482692e-01
7.00180018001800e+07	-9.77882738973076e-01,2.08056986862230e-01
7.00240024002400e+07	-9.77822799467557e-01,2.08336355887241e-01
7.00300030003000e+07	-9.77762779799411e-01,2.08615707534786e-01
7.00360036003600e+07	-9.77702679973707e-01,2.08895041781918e-01
7.00420042004200e+07	-9.77642499995468e-01,2.09174358605692e-01
7.00480048004800e+07	-9.77582239869797e-01,2.09453657983162e-01
7.00540054005400e+07	-9.77521899601777e-01,2.09732939891382e-01
7.00600060006000e+07	-9.77461479196521e-01,2.10012204307430e-01
7.00660066006600e+07	-9.77400978659037e-01,2.10291451208352e-01
7.00720072007200e+07	-9.77340397994586e-01,2.10570680571216e-01
7.00780078007800e+07	-9.77279737208143e-01,2.10849892373093e-01
7.00840084008400e+07	-9.77218996304849e-01,2.11129086591038e-01
7.00900090009000e+07	-9.77158175289871e-01,2.11408263202128e-01
7.00960096009600e+07	-9.77097274168316e-01,2.11687422183433e-01
7.01020102010200e+07	-9.77036292945323e-01,2.11966563512018e-01
7.01080108010800e+07	-9.76975231626056e-01,2.12245687164950e-01
7.01140114011400e+07	-9.76914090215598e-01,2.12524793119319e-01
7.01200120012000e+07	-9.76852868719170e-01,2.12803881352191e-01
7.01260126012600e+07	-9.76791567141917e-01,2.13082951840641e-01
7.01320132013200e+07	-9.76730185488982e-01,2.13362004561752e-01
7.01380138013800e+07	-9.76668723765586e-01,2.13641039492592e-01
7.01440144014400e+07	-9.76607181976914e-01,2.13920056610266e-01
7.01500150015000e+07	-9.76545560128084e-01,2.14199055891836e-01
7.01560156015600e+07	-9.76483858224360e-01,2.14478037314398e-01
7.01620162016200e+07	-9.76422076270968e-01,2.14757000855033e-01
7.01680168016800e+07	-9.76360214273001e-01,2.15035946490825e-01
7.01740174017400e+07	-9.76298272235811e-01,2.15314874198871e-01
7.01800180018000e+07	-9.76236250164486e-01,2.15593783956252e-01
7.01860186018600e+07	-9.76174148064295e-01,2.15872675740066e-01
7.01920192019200e+07	-9.76111965940566e-01,2.16151549527411e-01
7.01980198019800e+07	-9.76049703798426e-01,2.16430405295370e-01
7.02040204020400e+07	-9.75987361643235e-01,2.16709243021055e-01
7.02100210021000e+07	-9.75924939480112e-01,2.16988062681548e-01
7.02160216021600e+07	-9.75862437314410e-01,2.17266864253953e-01
7.02220222022200e+07	-9.75799855151348e-01,2.17545647715381e-01
7.02280228022800e+07	-9.75737192996291e-01,2.17824413042932e-01
7.02340234023400e+07	-9.75674450854406e-01,2.18103160213705e-01
7.02400240024000e+07	-9.75611628731027e-01,2.18381889204799e-01
7.02460246024600e+07	-9.75548726631421e-01,2.18660599993336e-01
7.02520252025200e+07	-9.75485744560914e-01,2.18939292556418e-01
7.02580258025800e+07	-9.75422682524834e-01,2.19217966871153e-01
7.02640264026400e+07	-9.75359540528516e-01,2.19496622914664e-01
7.02700270027000e+07	-9.75296318577186e-01,2.19775260664053e-01
7.02760276027600e+07	-9.75233016676221e-01,2.20053880096430e-01
7.02820282028200e+07	-9.75169634830905e-01,2.20332481188926e-01
7.02880288028800e+07	-9.75106173046688e-01,2.20611063918660e-01
7.02940294029400e+07	-9.75042631328829e-01,2.20889628262736e-01
7.03000300030001e+07	-9.74979009682699e-01,2.21168174198287e-01
7.03060306030601e+07	-9.74915308113637e-01,2.21446701702434e-01
7.03120312031201e+07	-9.74851526627052e-01,2.21725210752299e-01
7.03180318031801e+07	-9.74787665228313e-01,2.22003701325017e-01
7.03240324032401e+07	-9.74723723922779e-01,2.22282173397703e-01
7.03300330033001e+07	-9.74659702715810e-01,2.22560626947495e-01
7.03360336033601e+07	-9.74595601612776e-01,2.22839061951515e-01
7.03420342034201e+07	-9.74531420619163e-01,2.23117478386906e-01
7.03480348034801e+07	-9.74467159740355e-01,2.23395876230790e-01
7.03540354035401e+07	-9.74402818981715e-01,2.23674255460316e-01
7.03600360036001e+07	-9.74338398348662e-01,2.23952616052604e-01
7.03660366036601e+07	-9.74273897846665e-01,2.24230957984806e-01
7.03720372037201e+07	-9.74209317481150e-01,2.24509281234070e-01
7.03780378037801e+07	-9.74144657257514e-01,2.24787585777518e-01
7.03840384038401e+07	-9.74079917181242e-01,2.25065871592299e-01
7.03900390039001e+07	-9.74015097257739e-01,2.25344138655570e-01
7.03960396039601e+07	-9.73950197492486e-01,2.25622386944458e-01
7.04020402040201e+07	-9.73885217890944e-01,2.25900616436123e-01
7.04080408040801e+07	-9.73820158458558e-01,2.26178827107715e-01
7.04140414041401e+07	-9.73755019200852e-01,2.26457018936382e-01
7.04200420042001e+07	-9.73689800123305e-01,2.26735191899281e-01
7.04260426042601e+07	-9.73624501231365e-01,2.27013345973567e-01
7.04320432043201e+07	-9.73559122530524e-01,2.27291481136380e-01
7.04380438043801e+07	-9.73493664026306e-01,2.27569597364897e-01
7.04440444044401e+07	-9.73428125724288e-01,2.27847694636281e-01
7.04500450045001e+07	-9.73362507629830e-01,2.28125772927665e-01
7.04560456045601e+07	-9.73296809748629e-01,2.28403832216239e-01
7.04620462046201e+07	-9.73231032086034e-01,2.28681872479153e-01
7.04680468046801e+07	-9.73165174647737e-01,2.28959893693578e-01
7.04740474047401e+07	-9.73099237439166e-01,2.29237895836685e-01
7.04800480048001e+07	-9.73033220465981e-01,2.29515878885641e-01
7.04860486048601e+07	-9.72967123733559e-01,2.29793842817599e-01
7.04920492049201e+07	-9.72900947247636e-01,2.30071787609755e-01
7.04980498049801e+07	-9.72834691013734e-01,2.30349713239279e-01
7.05040504050401e+07	-9.72768355037428e-01,2.30627619683334e-01
7.05100510051001e+07	-9.72701939324210e-01,2.30905506919110e-01
7.05160516051601e+07	-9.72635443879774e-01,2.31183374923778e-01
7.05220522052201e+07	-9.72568868709627e-01,2.31461223674511e-01
7.05280528052801e+07	-9.72502213819433e-01,2.31739053148507e-01
7.05340534053401e+07	-9.72435479214777e-01,2.32016863322942e-01
7.05400540054001e+07	-9.72368664901248e-01,2.32294654175006e-01
7.05460546054601e+07	-9.72301770884533e-01,2.32572425681878e-01
7.05520552055201e+07	-9.72234797170190e-01,2.32850177820752e-01
7.05580558055801e+07	-9.72167743763851e-01,2.33127910568813e-01
7.05640564056401e+07	-9.72100610671242e-01,2.33405623903263e-01
7.05700570057001e+07	-9.72033397897855e-01,2.33683317801276e-01
7.05760576057601e+07	-9.71966105449471e-01,2.33960992240070e-01
7.05820582058201e+07	-9.71898733331729e-01,2.34238647196831e-01
7.05880588058801e+07	-9.71831281550226e-01,2.34516282648748e-01
7.05940594059401e+07	-9.71763750110698e-01,2.34793898573041e-01
7.06000600060001e+07	-9.71696139018845e-01,2.35071494946898e-01
7.06060606060601e+07	-9.71628448280241e-01,2.35349071747521e-01
7.06120612061201e+07	-9.71560677900642e-01,2.35626628952120e-01
7.06180618061801e+07	-9.71492827885745e-01,2.35904166537903e-01
7.06240624062401e+07	-9.71424898241342e-01,2.36181684482086e-01
7.06300630063001e+07	-9.71356888972966e-01,2.36459182761855e-01
7.06360636063601e+07	-9.71288800086466e-01,2.36736661354438e-01
7.06420642064201e+07	-9.71220631587498e-01,2.37014120237047e-01
7.06480648064801e+07	-9.71152383481791e-01,2.37291559386901e-01
7.06540654065401e+07	-9.71084055775127e-01,2.37568978781204e-01
7.06600660066001e+07	-9.71015648473245e-01,2.37846378397184e-01
7.06660666066601e+07	-9.70947161581831e-01,2.38123758212059e-01
7.06720672067201e+07	-9.70878595106704e-01,2.38401118203046e-01
7.06780678067801e+07	-9.70809949053627e-01,2.38678458347377e-01
7.06840684068401e+07	-9.70741223428323e-01,2.38955778622272e-01
7.06900690069001e+07	-9.70672418236567e-01,2.39233079004957e-01
7.06960696069601e+07	-9.70603533484165e-01,2.39510359472653e-01
7.07020702070201e+07	-9.70534569176966e-01,2.39787620002615e-01
7.07080708070801e+07	-9.70465525320637e-01,2.40064860572043e-01
7.07140714071401e+07	-9.70396401921061e-01,2.40342081158198e-01
7.07200720072001e+07	-9.70327198984029e-01,2.40619281738291e-01
7.07260726072601e+07	-9.70257916515354e-01,2.40896462289564e-01
7.07320732073201e+07	-9.70188554520829e-01,2.41173622789273e-01
7.07380738073801e+07	-9.70119113006329e-01,2.41450763214645e-01
7.07440744074401e+07	-9.70049591977686e-01,2.41727883542925e-01
7.07500750075001e+07	-9.69979991440718e-01,2.42004983751350e-01
7.07560756075601e+07	-9.69910311401227e-01,2.42282063817169e-01
7.07620762076201e+07	-9.69840551865153e-01,2.42559123717632e-01
7.07680768076801e+07	-9.69770712838289e-01,2.42836163429994e-01
7.07740774077401e+07	-9.69700794326502e-01,2.43113182931483e-01
7.07800780078001e+07	-9.69630796335685e-01,2.43390182199363e-01
7.07860786078601e+07	-9.69560718871737e-01,2.43667161210897e-01
7.07920792079201e+07	-9.69490561940546e-01,2.43944119943334e-01
7.07980798079801e+07	-9.69420325547956e-01,2.44221058373926e-01
7.08040804080401e+07	-9.69350009699845e-01,2.44497976479937e-01
7.08100810081001e+07	-9.69279614402273e-01,2.44774874238628e-01
7.08160816081601e+07	-9.69209139660929e-01,2.45051751627247e-01
7.08220822082201e+07	-9.69138585481882e-01,2.45328608623088e-01
7.08280828082801e+07	-9.69067951871017e-01,2.45605445203388e-01
7.08340834083401e+07	-9.68997238834304e-01,2.45882261345440e-01
7.08400840084001e+07	-9.68926446377572e-01,2.46159057026480e-01
7.08460846084601e+07	-9.68855574506877e-01,2.46435832223805e-01
7.08520852085201e+07	-9.68784623228071e-01,2.46712586914690e-01
7.08580858085801e+07	-9.68713592547186e-01,2.46989321076391e-01
7.08640864086401e+07	-9.68642482470159e-01,2.47266034686194e-01
7.08700870087001e+07	-9.68571293002960e-01,2.47542727721382e-01
7.08760876087601e+07	-9.68500024151565e-01,2.47819400159213e-01
7.08820882088201e+07	-9.68428675921975e-01,2.48096051977001e-01
7.08880888088802e+07	-9.68357248320117e-01,2.48372683152002e-01
7.08940894089402e+07	-9.68285741352073e-01,2.48649293661510e-01
7.09000900090002e+07	-9.68214155023754e-01,2.48925883482816e-01
7.09060906090602e+07	-9.68142489341235e-01,2.49202452593199e-01
7.09120912091202e+07	-9.68070744310487e-01,2.49479000969960e-01
7.09180918091802e+07	-9.67998919937599e-01,2.49755528590380e-01
7.09240924092402e+07	-9.67927016228506e-01,2.50032035431764e-01
7.09300930093002e+07	-9.67855033189335e-01,2.50308521471393e-01
7.09360936093602e+07	-9.67782970826077e-01,2.50584986686584e-01
7.09420942094202e+07	-9.67710829144716e-01,2.50861431054609e-01
7.09480948094802e+07	-9.67638608151460e-01,2.51137854552795e-01
7.09540954095402e+07	-9.67566307852212e-01,2.51414257158428e-01
7.09600960096002e+07	-9.67493928253131e-01,2.51690638848808e-01
7.09660966096602e+07	-9.67421469360239e-01,2.51966999601255e-01
7.09720972097202e+07	-9.67348931179708e-01,2.52243339393082e-01
7.09780978097802e+07	-9.67276313717491e-01,2.52519658201571e-01
7.09840984098402e+07	-9.67203616979789e-01,2.52795956004060e-01
7.09900990099002e+07	-9.67130840972591e-01,2.53072232777837e-01
7.09960996099602e+07	-9.67057985702133e-01,2.53348488500244e-01
7.10021002100202e+07	-9.66985051174441e-01,2.53624723148586e-01
7.10081008100802e+07	-9.66912037395652e-01,2.53900936700176e-01
7.10141014101402e+07	-9.66838944371915e-01,2.54177129132337e-01
7.10201020102002e+07	-9.66765772109292e-01,2.54453300422389e-01
7.10261026102602e+07	-9.66692520613967e-01,2.54729450547655e-01
7.10321032103202e+07	-9.66619189892104e-01,2.55005579485469e-01
7.10381038103802e+07	-9.66545779949855e-01,2.55281687213155e-01
7.10441044104402e+07	-9.66472290793376e-01,2.55557773708036e-01
7.10501050105002e+07	-9.66398722428719e-01,2.55833838947441e-01
7.10561056105602e+07	-9.66325074862210e-01,2.56109882908705e-01
7.10621062106202e+07	-9.66251348099911e-01,2.56385905569178e-01
7.10681068106802e+07	-9.66177542148096e-01,2.56661906906179e-01
7.10741074107402e+07	-9.66103657012844e-01,2.56937886897039e-01
7.10801080108002e+07	-9.66029692700483e-01,2.57213845519107e-01
7.10861086108602e+07	-9.65955649217144e-01,2.57489782749741e-01
7.10921092109202e+07	-9.65881526568975e-01,2.57765698566258e-01
7.10981098109802e+07	-9.65807324762343e-01,2.58041592946019e-01
7.11041104110402e+07	-9.65733043803338e-01,2.58317465866358e-01
7.11101110111002e+07	-9.65658683698206e-01,2.58593317304636e-01
7.11161116111602e+07	-9.65584244453229e-01,2.58869147238201e-01
7.11221122112202e+07	-9.65509726074645e-01,2.59144955644410e-01
7.11281128112802e+07	-9.65435128568639e-01,2.59420742500594e-01
7.11341134113402e+07	-9.65360451941504e-01,2.59696507784132e-01
7.11401140114002e+07	-9.65285696199525e-01,2.59972251472380e-01
7.11461146114602e+07	-9.65210861348967e-01,2.60247973542695e-01
7.11521152115202e+07	-9.65135947396061e-01,2.60523673972430e-01
7.11581158115802e+07	-9.65060954347107e-01,2.60799352738949e-01
7.11641164116402e+07	-9.64985882208389e-01,2.61075009819626e-01
7.11701170117002e+07	-9.64910730986178e-01,2.61350645191829e-01
7.11761176117602e+07	-9.64835500686864e-01,2.61626258832921e-01
7.11821182118202e+07	-9.64760191316637e-01,2.61901850720274e-01
7.11881188118802e+07	-9.64684802881812e-01,2.62177420831251e-01
7.11941194119402e+07	-9.64609335388862e-01,2.62452969143246e-01
7.12001200120002e+07	-9.64533788843888e-01,2.62728495633614e-01
7.12061206120602e+07	-9.64458163253377e-01,2.63004000279746e-01
7.12121212121202e+07	-9.64382458623666e-01,2.63279483059020e-01
7.12181218121802e+07	-9.64306674960986e-01,2.63554943948820e-01
7.12241224122402e+07	-9.64230812271738e-01,2.63830382926512e-01
7.12301230123002e+07	-9.64154870562361e-01,2.64105799969497e-01
7.12361236123602e+07	-9.64078849839108e-01,2.64381195055169e-01
7.12421242124202e+07	-9.64002750108420e-01,2.64656568160899e-01
7.12481248124802e+07	-9.63926571376691e-01,2.64931919264091e-01
7.12541254125402e+07	-9.63850313650169e-01,2.65207248342131e-01
7.12601260126002e+07	-9.63773976935401e-01,2.65482555372410e-01
7.12661266126602e+07	-9.63697561238672e-01,2.65757840332331e-01
7.12721272127202e+07	-9.63621066566448e-01,2.66033103199294e-01
7.12781278127802e+07	-9.63544492925137e-01,2.66308343950700e-01
7.12841284128402e+07	-9.63467840321111e-01,2.66583562563946e-01
7.12901290129002e+07	-9.63391108760815e-01,2.66858759016424e-01
7.12961296129602e+07	-9.63314298250694e-01,2.67133933285565e-01
7.13021302130202e+07	-9.63237408797098e-01,2.67409085348749e-01
7.13081308130802e+07	-9.63160440406575e-01,2.67684215183408e-01
7.13141314131402e+07	-9.63083393085551e-01,2.67959322766942e-01
7.13201320132002e+07	-9.63006266840434e-01,2.68234408076769e-01
7.13261326132602e+07	-9.62929061677707e-01,2.68509471090304e-01
7.13321332133202e+07	-9.62851777603813e-01,2.68784511784953e-01
7.13381338133802e+07	-9.62774414625292e-01,2.69059530138156e-01
7.13441344134402e+07	-9.62696972748533e-01,2.69334526127306e-01
7.13501350135002e+07	-9.62619451980113e-01,2.69609499729852e-01
7.13561356135602e+07	-9.62541852326453e-01,2.69884450923203e-01
7.13621362136202e+07	-9.62464173794078e-01,2.70159379684783e-01
7.13681368136802e+07	-9.62386416389467e-01,2.70434285992031e-01
7.13741374137402e+07	-9.62308580119200e-01,2.70709169822371e-01
7.13801380138002e+07	-9.62230664989727e-01,2.70984031153231e-01
7.13861386138602e+07	-9.62152671007571e-01,2.71258869962052e-01
7.13921392139202e+07	-9.62074598179376e-01,2.71533686226277e-01
7.13981398139802e+07	-9.61996446511475e-01,2.71808479923326e-01
7.14041404140402e+07	-9.61918216010594e-01,2.72083251030650e-01
7.14101410141002e+07	-9.61839906683147e-01,2.72357999525673e-01
7.14161416141602e+07	-9.61761518535823e-01,2.72632725385867e-01
7.14221422142202e+07	-9.61683051575097e-01,2.72907428588655e-01
7.14281428142802e+07	-9.61604505807582e-01,2.73182109111485e-01
7.14341434143402e+07	-9.61525881239782e-01,2.73456766931832e-01
7.14401440144002e+07	-9.61447177878355e-01,2.73731402027103e-01
7.14461446144602e+07	-9.61368395729860e-01,2.74006014374785e-01
7.14521452145202e+07	-9.61289534800871e-01,2.74280603952328e-01
7.14581458145802e+07	-9.61210595098036e-01,2.74555170737169e-01
7.14641464146402e+07	-9.61131576627959e-01,2.74829714706793e-01
7.14701470147002e+07	-9.61052479397212e-01,2.75104235838642e-01
7.14761476147602e+07	-9.60973303412437e-01,2.75378734110184e-01
7.14821482148203e+07	-9.60894048680259e-01,2.75653209498884e-01
7.14881488148803e+07	-9.60814715207292e-01,2.75927661982202e-01
7.14941494149403e+07	-9.60735303000218e-01,2.76202091537620e-01
7.15001500150003e+07	-9.60655812065683e-01,2.76476498142604e-01
7.15061506150603e+07	-9.60576242410276e-01,2.76750881774606e-01
7.15121512151203e+07	-9.60496594040740e-01,2.77025242411126e-01
7.15181518151803e+07	-9.60416866963677e-01,2.77299580029626e-01
7.15241524152403e+07	-9.60337061185779e-01,2.77573894607593e-01
7.15301530153003e+07	-9.60257176713705e-01,2.77848186122495e-01
7.15361536153603e+07	-9.60177213554203e-01,2.78122454551821e-01
7.15421542154203e+07	-9.60097171713876e-01,2.78396699873051e-01
7.15481548154803e+07	-9.60017051199488e-01,2.78670922063671e-01
7.15541554155403e+07	-9.59936852017721e-01,2.78945121101176e-01
7.15601560156003e+07	-9.59856574175307e-01,2.79219296963055e-01
7.15661566156603e+07	-9.59776217678897e-01,2.79493449626780e-01
7.15721572157203e+07	-9.59695782535347e-01,2.79767579069864e-01
7.15781578157803e+07	-9.59615268751185e-01,2.80041685269793e-01
7.15841584158403e+07	-9.59534676333282e-01,2.80315768204061e-01
7.15901590159003e+07	-9.59454005288380e-01,2.80589827850182e-01
7.15961596159603e+07	-9.59373255623204e-01,2.80863864185653e-01
7.16021602160203e+07	-9.59292427344533e-01,2.81137877187972e-01
7.16081608160803e+07	-9.59211520459083e-01,2.81411866834641e-01
7.16141614161403e+07	-9.59130534973643e-01,2.81685833103176e-01
7.16201620162003e+07	-9.59049470895016e-01,2.81959775971063e-01
7.16261626162603e+07	-9.58968328229863e-01,2.82233695415836e-01
7.16321632163203e+07	-9.58887106985175e-01,2.82507591415019e-01
7.16381638163803e+07	-9.58805807167613e-01,2.82781463946100e-01
7.16441644164403e+07	-9.58724428783976e-01,2.83055312986600e-01
7.16501650165003e+07	-9.58642971841071e-01,2.83329138514045e-01
7.16561656165603e+07	-9.58561436345754e-01,2.83602940505963e-01
7.16621662166203e+07	-9.58479822304821e-01,2.83876718939867e-01
7.16681668166803e+07	-9.58398129725102e-01,2.84150473793270e-01
7.16741674167403e+07	-9.58316358613403e-01,2.84424205043715e-01
7.16801680168003e+07	-9.58234508976605e-01,2.84697912668737e-01
7.16861686168603e+07	-9.58152580821558e-01,2.84971596645850e-01
7.16921692169203e+07	-9.58070574155064e-01,2.85245256952605e-01
7.16981698169803e+07	-9.57988488984008e-01,2.85518893566510e-01
7.17041704170403e+07	-9.57906325315227e-01,2.85792506465110e-01
7.17101710171003e+07	-9.57824083155682e-01,2.86066095625976e-01
7.17161716171603e+07	-9.57741762512116e-01,2.86339661026599e-01
7.17221722172203e+07	-9.57659363391501e-01,2.86613202644559e-01
7.17281728172803e+07	-9.57576885800705e-01,2.86886720457385e-01
7.17341734173403e+07	-9.57494329746626e-01,2.87160214442608e-01
7.17401740174003e+07	-9.57411695236205e-01,2.87433684577817e-01
7.17461746174603e+07	-9.57328982276201e-01,2.87707130840519e-01
7.17521752175203e+07	-9.57246190873726e-01,2.87980553208302e-01
7.17581758175803e+07	-9.57163321035590e-01,2.88253951658706e-01
7.17641764176403e+07	-9.57080372768768e-01,2.88527326169283e-01
7.17701770177003e+07	-9.56997346080127e-01,2.88800676717582e-01
7.17761776177603e+07	-9.56914240976648e-01,2.89074003281198e-01
7.17821782178203e+07	-9.56831057465330e-01,2.89347305837657e-01
7.17881788178803e+07	-9.56747795553055e-01,2.89620584364535e-01
7.17941794179403e+07	-9.56664455246825e-01,2.89893838839428e-01
7.18001800180003e+07	-9.56581036553545e-01,2.90167069239861e-01
7.18061806180603e+07	-9.56497539480231e-01,2.90440275543415e-01
7.18121812181203e+07	-9.56413964033903e-01,2.90713457727694e-01
7.18181818181803e+07	-9.56330310221463e-01,2.90986615770226e-01
7.18241824182403e+07	-9.56246578050007e-01,2.91259749648636e-01
7.18301830183003e+07	-9.56162767526383e-01,2.91532859340465e-01
7.18361836183603e+07	-9.56078878657728e-01,2.91805944823299e-01
7.18421842184203e+07	-9.55994911451008e-01,2.92079006074733e-01
7.18481848184803e+07	-9.55910865913284e-01,2.92352043072356e-01
7.18541854185403e+07	-9.55826742051450e-01,2.92625055793728e-01
7.18601860186003e+07	-9.55742539872686e-01,2.92898044216462e-01
