# Hz S RI R 50
7.00000000000000e+07	4.45108843641943e-01 6.16982342431286e-01
7.06060606060606e+07	4.50395353577287e-01 6.11834699826554e-01
7.12121212121212e+07	4.55578807892018e-01 6.06698443583661e-01
7.18181818181818e+07	4.60661322761745e-01 6.01574406016215e-01
7.24242424242424e+07	4.65644969814110e-01 5.96463368681337e-01
7.30303030303030e+07	4.70531776737445e-01 5.91366064797796e-01
7.36363636363637e+07	4.75323727913799e-01 5.86283181557131e-01
7.42424242424243e+07	4.80022765072773e-01 5.81215362332075e-01
7.48484848484849e+07	4.84630787962882e-01 5.76163208786441e-01
7.54545454545455e+07	4.89149655037456e-01 5.71127282890567e-01
7.60606060606061e+07	4.93581184152335e-01 5.66108108846193e-01
7.66666666666667e+07	4.97927153272860e-01 5.61106174924585e-01
7.72727272727273e+07	5.02189301187858e-01 5.56121935221551e-01
7.78787878787879e+07	5.06369328228584e-01 5.51155811332891e-01
7.84848484848485e+07	5.10468896990677e-01 5.46208193953661e-01
7.90909090909091e+07	5.14489633057459e-01 5.41279444404540e-01
7.96969696969697e+07	5.18433125723010e-01 5.36369896088447e-01
8.03030303030304e+07	5.22300928713616e-01 5.31479855880440e-01
8.09090909090910e+07	5.26094560906321e-01 5.26609605453805e-01
8.15151515151516e+07	5.29815507043467e-01 5.21759402545146e-01
8.21212121212122e+07	5.33465218442180e-01 5.16929482161152e-01
8.27272727272728e+07	5.37045113697909e-01 5.12120057729620e-01
8.33333333333334e+07	5.40556579381210e-01 5.07331322197228e-01
8.39393939393940e+07	5.44000970727042e-01 5.02563449076386e-01
8.45454545454546e+07	5.47379612315961e-01 4.97816593443501e-01
8.51515151515152e+07	5.50693798746647e-01 4.93090892890778e-01
8.57575757575758e+07	5.53944795299292e-01 4.88386468433672e-01
8.63636363636364e+07	5.57133838589411e-01 4.83703425375990e-01
8.69696969696971e+07	5.60262137211745e-01 4.79041854134539e-01
8.75757575757577e+07	5.63330872373937e-01 4.74401831025169e-01
8.81818181818183e+07	5.66341198519730e-01 4.69783419011944e-01
8.87878787878789e+07	5.69294243941490e-01 4.65186668421131e-01
8.93939393939395e+07	5.72191111381887e-01 4.60611617621604e-01
9.00000000000001e+07	5.75032878624597e-01 4.56058293673179e-01
9.06060606060607e+07	5.77820599073944e-01 4.51526712944366e-01
9.12121212121213e+07	5.80555302323437e-01 4.47016881700929e-01
9.18181818181819e+07	5.83237994713127e-01 4.42528796666571e-01
9.24242424242425e+07	5.85869659875835e-01 4.38062445557061e-01
9.30303030303032e+07	5.88451259272217e-01 4.33617807588972e-01
9.36363636363638e+07	5.90983732714741e-01 4.29194853964244e-01
9.42424242424244e+07	5.93467998880619e-01 4.24793548331644e-01
9.48484848484850e+07	5.95904955813768e-01 4.20413847226214e-01
9.54545454545456e+07	5.98295481415893e-01 4.16055700487702e-01
9.60606060606062e+07	6.00640433926791e-01 4.11719051658956e-01
9.66666666666668e+07	6.02940652394001e-01 4.07403838365193e-01
9.72727272727274e+07	6.05196957131912e-01 4.03109992675047e-01
9.78787878787880e+07	6.07410150170474e-01 3.98837441444205e-01
9.84848484848486e+07	6.09581015693641e-01 3.94586106642463e-01
9.90909090909092e+07	6.11710320467722e-01 3.90355905664965e-01
9.96969696969699e+07	6.13798814259763e-01 3.86146751628330e-01
1.00303030303030e+08	6.15847230246135e-01 3.81958553652409e-01
1.00909090909091e+08	6.17856285411509e-01 3.77791217128296e-01
1.01515151515152e+08	6.19826680938346e-01 3.73644643973255e-01
1.02121212121212e+08	6.21759102587121e-01 3.69518732873169e-01
1.02727272727273e+08	6.23654221067406e-01 3.65413379513062e-01
1.03333333333334e+08	6.25512692400028e-01 3.61328476796289e-01
1.03939393939394e+08	6.27335158270449e-01 3.57263915052881e-01
1.04545454545455e+08	6.29122246373551e-01 3.53219582237575e-01
1.05151515151515e+08	6.30874570750015e-01 3.49195364117988e-01
1.05757575757576e+08	6.32592732114448e-01 3.45191144453416e-01
1.06363636363637e+08	6.34277318175455e-01 3.41206805164662e-01
1.06969696969697e+08	6.35928903947803e-01 3.37242226495336e-01
1.07575757575758e+08	6.37548052056888e-01 3.33297287165026e-01
1.08181818181818e+08	6.39135313035640e-01 3.29371864514682e-01
1.08787878787879e+08	6.40691225614053e-01 3.25465834644625e-01
1.09393939393940e+08	6.42216317001507e-01 3.21579072545480e-01
1.10000000000000e+08	6.43711103162058e-01 3.17711452222401e-01
1.10606060606061e+08	6.45176089082828e-01 3.13862846812867e-01
1.11212121212121e+08	6.46611769035697e-01 3.10033128698370e-01
1.11818181818182e+08	6.48018626832424e-01 3.06222169610271e-01
1.12424242424243e+08	6.49397136073381e-01 3.02429840730112e-01
1.13030303030303e+08	6.50747760390024e-01 2.98656012784605e-01
1.13636363636364e+08	6.52070953681281e-01 2.94900556135598e-01
1.14242424242424e+08	6.53367160343988e-01 2.91163340865213e-01
1.14848484848485e+08	6.54636815497527e-01 2.87444236856401e-01
1.15454545454546e+08	6.55880345202803e-01 2.83743113869119e-01
1.16060606060606e+08	6.57098166675713e-01 2.80059841612351e-01
1.16666666666667e+08	6.58290688495227e-01 2.76394289812144e-01
1.17272727272728e+08	6.59458310806232e-01 2.72746328275871e-01
1.17878787878788e+08	6.60601425517261e-01 2.69115826952875e-01
1.18484848484849e+08	6.61720416493240e-01 2.65502655991687e-01
1.19090909090909e+08	6.62815659743382e-01 2.61906685793967e-01
1.19696969696970e+08	6.63887523604346e-01 2.58327787065318e-01
1.20303030303031e+08	6.64936368918781e-01 2.54765830863137e-01
1.20909090909091e+08	6.65962549209394e-01 2.51220688641635e-01
1.21515151515152e+08	6.66966410848613e-01 2.47692232294149e-01
1.22121212121212e+08	6.67948293224010e-01 2.44180334192899e-01
1.22727272727273e+08	6.68908528899555e-01 2.40684867226288e-01
1.23333333333334e+08	6.69847443772830e-01 2.37205704833884e-01
1.23939393939394e+08	6.70765357228294e-01 2.33742721039172e-01
1.24545454545455e+08	6.71662582286713e-01 2.30295790480202e-01
1.25151515151515e+08	6.72539425750848e-01 2.26864788438226e-01
1.25757575757576e+08	6.73396188347498e-01 2.23449590864415e-01
1.26363636363637e+08	6.74233164866003e-01 2.20050074404771e-01
1.26969696969697e+08	6.75050644293275e-01 2.16666116423286e-01
1.27575757575758e+08	6.75848909945485e-01 2.13297595023467e-01
1.28181818181818e+08	6.76628239596451e-01 2.09944389068281e-01
1.28787878787879e+08	6.77388905602855e-01 2.06606378198625e-01
1.29393939393940e+08	6.78131175026336e-01 2.03283442850360e-01
1.30000000000000e+08	6.78855309752561e-01 1.99975464270004e-01
