# Hz S RI R 50
7.00000000000000e+07	2.08811966404211e-01 -7.54611167644369e-01
7.06060606060606e+07	1.91592364868480e-01 -7.49896297932969e-01
7.12121212121212e+07	1.74437459470824e-01 -7.44572755343276e-01
7.18181818181818e+07	1.57376912375760e-01 -7.38635875342560e-01
7.24242424242424e+07	1.40441191709592e-01 -7.32082819339831e-01
7.30303030303030e+07	1.23661439309147e-01 -7.24912676533208e-01
7.36363636363637e+07	1.07069325520967e-01 -7.17126555051483e-01
7.42424242424243e+07	9.06968919709805e-02 -7.08727660636641e-01
7.48484848484849e+07	7.45763834808584e-02 -6.99721361191142e-01
7.54545454545455e+07	5.87400705586981e-02 -6.90115235631350e-01
7.60606060606061e+07	4.32200641314665e-02 -6.79919105646920e-01
7.66666666666667e+07	2.80481244073817e-02 -6.69145049164098e-01
7.72727272727273e+07	1.32554659512948e-02 -6.57807394546551e-01
7.78787878787879e+07	-1.12743878195488e-03 -6.45922694836628e-01
7.84848484848485e+07	-1.50710550884193e-02 -6.33509681637909e-01
7.90909090909091e+07	-2.85469783840185e-02 -6.20589198560108e-01
7.96969696969697e+07	-4.15281208259893e-02 -6.07184114482364e-01
8.03030303030304e+07	-5.39888897331686e-02 -5.93319217232644e-01
8.09090909090910e+07	-6.59053554265589e-02 -5.79021088620259e-01
8.15151515151516e+07	-7.72554062391909e-02 -5.64317962086429e-01
8.21212121212122e+07	-8.80188886224529e-02 -5.49239564545289e-01
8.27272727272728e+07	-9.81777305008618e-02 -5.33816944266350e-01
8.33333333333334e+07	-1.07716046293566e-01 -5.18082286891013e-01
8.39393939393940e+07	-1.16620222321658e-01 -5.02068721874095e-01
8.45454545454546e+07	-1.24878981647992e-01 -4.85810121790751e-01
8.51515151515152e+07	-1.32483427741691e-01 -4.69340897046194e-01
8.57575757575758e+07	-1.39427066713712e-01 -4.52695788568085e-01
8.63636363636364e+07	-1.45705808223329e-01 -4.35909661049126e-01
8.69696969696971e+07	-1.51317945498895e-01 -4.19017299241983e-01
8.75757575757577e+07	-1.56264115241240e-01 -4.02053209692969e-01
8.81818181818183e+07	-1.60547238476739e-01 -3.85051430139935e-01
8.87878787878789e+07	-1.64172443692796e-01 -3.68045348599147e-01
8.93939393939395e+07	-1.67146973815951e-01 -3.51067533932574e-01
9.00000000000001e+07	-1.69480078778189e-01 -3.34149579428374e-01
9.06060606060607e+07	-1.71182895557883e-01 -3.17321960651312e-01
9.12121212121213e+07	-1.72268317677392e-01 -3.00613908534276e-01
9.18181818181819e+07	-1.72750856190068e-01 -2.84053298394656e-01
9.24242424242425e+07	-1.72646494197382e-01 -2.67666555277026e-01
9.30303030303032e+07	-1.71972536904750e-01 -2.51478575753179e-01
9.36363636363638e+07	-1.70747459156604e-01 -2.35512666057101e-01
9.42424242424244e+07	-1.68990752291674e-01 -2.19790496201011e-01
9.48484848484850e+07	-1.66722772033543e-01 -2.04332069512303e-01
9.54545454545456e+07	-1.63964588984508e-01 -1.89155706852733e-01
9.60606060606062e+07	-1.60737843128106e-01 -1.74278044631858e-01
9.66666666666668e+07	-1.57064603572421e-01 -1.59714045607103e-01
9.72727272727274e+07	-1.52967234587588e-01 -1.45477021372422e-01
9.78787878787880e+07	-1.48468268811079e-01 -1.31578665375339e-01
9.84848484848486e+07	-1.43590288317595e-01 -1.18029095266304e-01
9.90909090909092e+07	-1.38355814079990e-01 -1.04836903372731e-01
9.96969696969699e+07	-1.32787204186563e-01 -9.20092141000483e-02
1.00303030303030e+08	-1.26906561030499e-01 -7.95517470910442e-02
1.00909090909091e+08	-1.20735647550830e-01 -6.74688850195446e-02
1.01515151515152e+08	-1.14295812482244e-01 -5.57637449523261e-02
1.02121212121212e+08	-1.07607924463854e-01 -4.44382522813973e-02
1.02727272727273e+08	-1.00692314764999e-01 -3.34932163043387e-02
1.03333333333334e+08	-9.35687283088924e-02 -2.29284066113145e-02
1.03939393939394e+08	-8.62562826120685e-02 -1.27426295210179e-02
1.04545454545455e+08	-7.87734342082467e-02 -2.93380389244490e-03
1.05151515151515e+08	-7.11379520885328e-02 6.50096427672467e-03
1.05757575757576e+08	-6.33668976646247e-02 1.55653089727172e-02
1.06363636363637e+08	-5.54766107467955e-02 2.42635334383872e-02
1.06969696969697e+08	-4.74827010226040e-02 3.26005419511359e-02
1.07575757575758e+08	-3.94000445243589e-02 4.05817743918893e-02
1.08181818181818e+08	-3.12427845820901e-02 4.82131438270239e-02
1.08787878787879e+08	-2.30243367731298e-02 5.55009772669706e-02
1.09393939393940e+08	-1.47573973981508e-02 6.24519597126817e-02
1.10000000000000e+08	-6.45395503587349e-03 6.90730815544169e-02
1.10606060606061e+08	1.87469524644604e-03 7.53715893461179e-02
1.11212121212121e+08	1.02179354228389e-02 8.13549399429471e-02
1.11818181818182e+08	1.85658061469268e-02 8.70307579589117e-02
1.12424242424243e+08	2.69089868384154e-02 9.24067964757254e-02
1.13030303030303e+08	3.52387745289683e-02 9.74909009126234e-02
1.13636363636364e+08	4.35470617505265e-02 1.02290975949632e-01
1.14242424242424e+08	5.18263137217504e-02 1.06814955383088e-01
1.14848484848485e+08	6.00695450618416e-02 1.11070774781952e-01
1.15454545454546e+08	6.82702962358343e-02 1.15066346806037e-01
1.16060606060606e+08	7.64226099116050e-02 1.18809539042440e-01
1.16666666666667e+08	8.45210073865018e-02 1.22308154213896e-01
1.17272727272728e+08	9.25604652206682e-02 1.25569912612086e-01
1.17878787878788e+08	1.00536392194865e-01 1.28602436609843e-01
1.18484848484849e+08	1.08444606692915e-01 1.31413237108556e-01
1.19090909090909e+08	1.16281314592681e-01 1.34009701780386e-01
1.19696969696970e+08	1.24043087734859e-01 1.36399084969286e-01
1.20303030303031e+08	1.31726843025593e-01 1.38588499119760e-01
1.20909090909091e+08	1.39329822217047e-01 1.40584907607857e-01
1.21515151515152e+08	1.46849572399468e-01 1.42395118854761e-01
1.22121212121212e+08	1.54283927228927e-01 1.44025781609563e-01
1.22727272727273e+08	1.61630988906597e-01 1.45483381294048e-01
1.23333333333334e+08	1.68889110918270e-01 1.46774237308727e-01
1.23939393939394e+08	1.76056881536500e-01 1.47904501205660e-01
1.24545454545455e+08	1.83133108082379e-01 1.48880155639864e-01
1.25151515151515e+08	1.90116801939333e-01 1.49707014017198e-01
1.25757575757576e+08	1.97007164307446e-01 1.50390720762547e-01
1.26363636363637e+08	2.03803572683579e-01 1.50936752137826e-01
1.26969696969697e+08	2.10505568049833e-01 1.51350417544763e-01
1.27575757575758e+08	2.17112842750824e-01 1.51636861252690e-01
1.28181818181818e+08	2.23625229038468e-01 1.51801064496446e-01
1.28787878787879e+08	2.30042688261691e-01 1.51847847894230e-01
1.29393939393940e+08	2.36365300677564e-01 1.51781874139589e-01
1.30000000000000e+08	2.42593255859649e-01 1.51607650925859e-01
