# Hz S RI R 50
7.00000000000000e+07	3.38824290007264e-01 -7.25799855435860e-01
7.06060606060606e+07	3.23526966252058e-01 -7.23711184276580e-01
7.12121212121212e+07	3.08208399294336e-01 -7.21117956933391e-01
7.18181818181818e+07	2.92891193718917e-01 -7.18012169387733e-01
7.24242424242424e+07	2.77598874394574e-01 -7.14387063687379e-01
7.30303030303030e+07	2.62355809456751e-01 -7.10237227543861e-01
7.36363636363637e+07	2.47187121934577e-01 -7.05558689157205e-01
7.42424242424243e+07	2.32118590237301e-01 -7.00349005872773e-01
7.48484848484849e+07	2.17176537900286e-01 -6.94607345260890e-01
7.54545454545455e+07	2.02387713183674e-01 -6.88334557222228e-01
7.60606060606061e+07	1.87779159313674e-01 -6.81533235762871e-01
7.66666666666667e+07	1.73378076352341e-01 -6.74207769153766e-01
7.72727272727273e+07	1.59211675872213e-01 -6.66364377290990e-01
7.78787878787879e+07	1.45307029791492e-01 -6.58011135205311e-01
7.84848484848485e+07	1.31690914888826e-01 -6.49157981831121e-01
7.90909090909091e+07	1.18389654658557e-01 -6.39816713333639e-01
7.96969696969697e+07	1.05428960282803e-01 -6.30000960506091e-01
8.03030303030304e+07	9.28337725816264e-02 -6.19726149981702e-01
8.09090909090910e+07	8.06281068529119e-02 -6.09009449253253e-01
8.15151515151516e+07	6.88349025267404e-02 -5.97869695750540e-01
8.21212121212122e+07	5.74758795332051e-02 -5.86327310486656e-01
8.27272727272728e+07	4.65714032171661e-02 -5.74404197041396e-01
8.33333333333334e+07	3.61403595288312e-02 -5.62123626897209e-01
8.39393939393940e+07	2.62000420773793e-02 -5.49510112373751e-01
8.45454545454546e+07	1.67660524588590e-02 -5.36589268614874e-01
8.51515151515152e+07	7.85221506364564e-03 -5.23387666261314e-01
8.57575757575758e+07	-5.29492662118097e-04 -5.09932676588761e-01
8.63636363636364e+07	-8.36899377663971e-03 -4.96252311000596e-01
8.69696969696971e+07	-1.56581487620611e-02 -4.82375056835054e-01
8.75757575757577e+07	-2.23907756097023e-02 -4.68329711476293e-01
8.81818181818183e+07	-2.85626531442603e-02 -4.54145216748160e-01
8.87878787878789e+07	-3.41715079196634e-02 -4.39850495519234e-01
8.93939393939395e+07	-3.92169852646618e-02 -4.25474292360640e-01
9.00000000000001e+07	-4.37006052821022e-02 -4.11045019977350e-01
9.06060606060607e+07	-4.76257048072541e-02 -3.96590612983739e-01
9.12121212121213e+07	-5.09973665038522e-02 -3.82138390419775e-01
9.18181818181819e+07	-5.38223364187458e-02 -3.67714928211071e-01
9.24242424242425e+07	-5.61089314255869e-02 -3.53345942569499e-01
9.30303030303032e+07	-5.78669380640731e-02 -3.39056185117254e-01
9.36363636363638e+07	-5.91075043243384e-02 -3.24869350301215e-01
9.42424242424244e+07	-5.98430259372887e-02 -3.10807995451879e-01
9.48484848484850e+07	-6.00870287131989e-02 -2.96893473636360e-01
9.54545454545456e+07	-5.98540484253893e-02 -2.83145879262190e-01
9.60606060606062e+07	-5.91595096665104e-02 -2.69584006211361e-01
9.66666666666668e+07	-5.80196050155539e-02 -2.56225318124795e-01
9.72727272727274e+07	-5.64511757479040e-02 -2.43085930318153e-01
9.78787878787880e+07	-5.44715952024293e-02 -2.30180602691847e-01
9.84848484848486e+07	-5.20986557926158e-02 -2.17522742901669e-01
9.90909090909092e+07	-4.93504605165866e-02 -2.05124418981656e-01
9.96969696969699e+07	-4.62453196869485e-02 -1.92996380556782e-01
1.00303030303030e+08	-4.28016534686901e-02 -1.81148087748945e-01
1.00909090909091e+08	-3.90379006844613e-02 -1.69587746863780e-01
1.01515151515152e+08	-3.49724342236764e-02 -1.58322351946369e-01
1.02121212121212e+08	-3.06234832767454e-02 -1.47357731309236e-01
1.02727272727273e+08	-2.60090625097369e-02 -1.36698598163603e-01
1.03333333333334e+08	-2.11469081988260e-02 -1.26348604523145e-01
1.03939393939394e+08	-1.60544212586201e-02 -1.16310397596048e-01
1.04545454545455e+08	-1.07486170240702e-02 -1.06585677934254e-01
1.05151515151515e+08	-5.24608158222328e-03 -9.71752586664852e-02
1.05757575757576e+08	4.37065602748321e-04 -8.80791252022886e-02
1.06363636363637e+08	6.28520307051808e-03 -7.92964948565553e-02
1.06969696969697e+08	1.22832330839215e-02 -7.08258759062164e-02
1.07575757575758e+08	1.84166020433097e-02 -6.26651256521868e-02
1.08181818181818e+08	2.46713159688897e-02 -5.48115071191688e-02
1.08787878787879e+08	3.10339514331411e-02 -4.72617440827084e-02
1.09393939393940e+08	3.74916623282168e-02 -4.00120741665912e-02
1.10000000000000e+08	4.40321828506191e-02 -3.30582998036517e-02
1.10606060606061e+08	5.06438270782147e-02 -2.63958368992126e-02
1.11212121212121e+08	5.73154855036069e-02 -2.00197610783516e-02
1.11818181818182e+08	6.40366188737318e-02 -1.39248514361200e-02
1.12424242424243e+08	7.07972496690011e-02 -8.10563174356511e-03
1.13030303030303e+08	7.75879515369715e-02 -2.55640909225070e-03
1.13636363636364e+08	8.43998369758835e-02 2.72869001421020e-03
1.14242424242424e+08	9.12245435430596e-02 7.75568609073967e-03
1.14848484848485e+08	9.80542188423488e-02 1.25307155738633e-02
1.15454545454546e+08	1.04881504524081e-01 1.70600021319195e-02
1.16060606060606e+08	1.11699519510438e-01 2.13498303042834e-02
1.16666666666667e+08	1.18501842639222e-01 2.54065213813959e-02
1.17272727272728e+08	1.25282494899665e-01 2.92364114295702e-02
1.17878787878788e+08	1.32035921415545e-01 3.28458313589144e-02
1.18484848484849e+08	1.38756973313368e-01 3.62410889289144e-02
1.19090909090909e+08	1.45440889596986e-01 3.94284525839815e-02
1.19696969696970e+08	1.52083279134636e-01 4.24141370105340e-02
1.20303030303031e+08	1.58680102850182e-01 4.52042903075256e-02
1.20909090909091e+08	1.65227656197188e-01 4.78049826637725e-02
1.21515151515152e+08	1.71722551982422e-01 5.02221964375891e-02
1.22121212121212e+08	1.78161703594438e-01 5.24618175371999e-02
1.22727272727273e+08	1.84542308682896e-01 5.45296280037806e-02
1.23333333333334e+08	1.90861833325389e-01 5.64312997028362e-02
1.23939393939394e+08	1.97117996710440e-01 5.81723890337600e-02
1.24545454545455e+08	2.03308756358249e-01 5.97583325718076e-02
1.25151515151515e+08	2.09432293894370e-01 6.11944435611485e-02
1.25757575757576e+08	2.15487001385975e-01 6.24859091822989e-02
1.26363636363637e+08	2.21471468245439e-01 6.36377885217411e-02
1.26969696969697e+08	2.27384468701766e-01 6.46550111760433e-02
1.27575757575758e+08	2.33224949836718e-01 6.55423764273184e-02
1.28181818181818e+08	2.38992020179400e-01 6.63045529310726e-02
1.28787878787879e+08	2.44684938850407e-01 6.69460788617900e-02
1.29393939393940e+08	2.50303105244438e-01 6.74713624655597e-02
1.30000000000000e+08	2.55846049238493e-01 6.78846829729186e-02
