Freq.	-V(reflectedwaveover20)/V(minusincidentwaveover20)
7.00000000000000e+07	6.64333887561523e-01,-1.41155185892984e-01
7.00060006000600e+07	6.64331292575876e-01,-1.41167490849705e-01
7.00120012001200e+07	6.64328697370851e-01,-1.41179795726187e-01
7.00180018001800e+07	6.64326101946450e-01,-1.41192100522435e-01
7.00240024002400e+07	6.64323506302674e-01,-1.41204405238453e-01
7.00300030003000e+07	6.64320910439522e-01,-1.41216709874245e-01
7.00360036003600e+07	6.64318314356998e-01,-1.41229014429818e-01
7.00420042004200e+07	6.64315718055101e-01,-1.41241318905174e-01
7.00480048004800e+07	6.64313121533832e-01,-1.41253623300318e-01
7.00540054005400e+07	6.64310524793193e-01,-1.41265927615257e-01
7.00600060006000e+07	6.64307927833184e-01,-1.41278231849993e-01
7.00660066006600e+07	6.64305330653805e-01,-1.41290536004531e-01
7.00720072007200e+07	6.64302733255060e-01,-1.41302840078876e-01
7.00780078007800e+07	6.64300135636946e-01,-1.41315144073032e-01
7.00840084008400e+07	6.64297537799467e-01,-1.41327447987004e-01
7.00900090009000e+07	6.64294939742622e-01,-1.41339751820798e-01
7.00960096009600e+07	6.64292341466413e-01,-1.41352055574415e-01
7.01020102010200e+07	6.64289742970841e-01,-1.41364359247863e-01
7.01080108010800e+07	6.64287144255906e-01,-1.41376662841144e-01
7.01140114011400e+07	6.64284545321609e-01,-1.41388966354264e-01
7.01200120012000e+07	6.64281946167951e-01,-1.41401269787227e-01
7.01260126012600e+07	6.64279346794935e-01,-1.41413573140039e-01
7.01320132013200e+07	6.64276747202559e-01,-1.41425876412702e-01
7.01380138013800e+07	6.64274147390825e-01,-1.41438179605222e-01
7.01440144014400e+07	6.64271547359734e-01,-1.41450482717603e-01
7.01500150015000e+07	6.64268947109287e-01,-1.41462785749851e-01
7.01560156015600e+07	6.64266346639485e-01,-1.41475088701968e-01
7.01620162016200e+07	6.64263745950329e-01,-1.41487391573960e-01
7.01680168016800e+07	6.64261145041820e-01,-1.41499694365832e-01
7.01740174017400e+07	6.64258543913958e-01,-1.41511997077587e-01
7.01800180018000e+07	6.64255942566744e-01,-1.41524299709231e-01
7.01860186018600e+07	6.64253341000180e-01,-1.41536602260768e-01
7.01920192019200e+07	6.64250739214266e-01,-1.41548904732202e-01
7.01980198019800e+07	6.64248137209004e-01,-1.41561207123538e-01
7.02040204020400e+07	6.64245534984394e-01,-1.41573509434780e-01
7.02100210021000e+07	6.64242932540436e-01,-1.41585811665933e-01
7.02160216021600e+07	6.64240329877133e-01,-1.41598113817002e-01
7.02220222022200e+07	6.64237726994484e-01,-1.41610415887989e-01
7.02280228022800e+07	6.64235123892492e-01,-1.41622717878902e-01
7.02340234023400e+07	6.64232520571157e-01,-1.41635019789743e-01
7.02400240024000e+07	6.64229917030479e-01,-1.41647321620517e-01
7.02460246024600e+07	6.64227313270459e-01,-1.41659623371229e-01
7.02520252025200e+07	6.64224709291099e-01,-1.41671925041884e-01
7.02580258025800e+07	6.64222105092400e-01,-1.41684226632485e-01
7.02640264026400e+07	6.64219500674361e-01,-1.41696528143037e-01
7.02700270027000e+07	6.64216896036986e-01,-1.41708829573544e-01
7.02760276027600e+07	6.64214291180274e-01,-1.41721130924012e-01
7.02820282028200e+07	6.64211686104225e-01,-1.41733432194444e-01
7.02880288028800e+07	6.64209080808841e-01,-1.41745733384845e-01
7.02940294029400e+07	6.64206475294123e-01,-1.41758034495219e-01
7.03000300030001e+07	6.64203869560073e-01,-1.41770335525571e-01
7.03060306030601e+07	6.64201263606690e-01,-1.41782636475905e-01
7.03120312031201e+07	6.64198657433976e-01,-1.41794937346227e-01
7.03180318031801e+07	6.64196051041930e-01,-1.41807238136539e-01
7.03240324032401e+07	6.64193444430557e-01,-1.41819538846847e-01
7.03300330033001e+07	6.64190837599854e-01,-1.41831839477154e-01
7.03360336033601e+07	6.64188230549824e-01,-1.41844140027466e-01
7.03420342034201e+07	6.64185623280466e-01,-1.41856440497787e-01
7.03480348034801e+07	6.64183015791784e-01,-1.41868740888122e-01
7.03540354035401e+07	6.64180408083776e-01,-1.41881041198474e-01
7.03600360036001e+07	6.64177800156445e-01,-1.41893341428848e-01
7.03660366036601e+07	6.64175192009790e-01,-1.41905641579249e-01
7.03720372037201e+07	6.64172583643813e-01,-1.41917941649680e-01
7.03780378037801e+07	6.64169975058515e-01,-1.41930241640147e-01
7.03840384038401e+07	6.64167366253897e-01,-1.41942541550654e-01
7.03900390039001e+07	6.64164757229959e-01,-1.41954841381205e-01
7.03960396039601e+07	6.64162147986703e-01,-1.41967141131804e-01
7.04020402040201e+07	6.64159538524130e-01,-1.41979440802457e-01
7.04080408040801e+07	6.64156928842239e-01,-1.41991740393166e-01
7.04140414041401e+07	6.64154318941033e-01,-1.42004039903938e-01
7.04200420042001e+07	6.64151708820513e-01,-1.42016339334776e-01
7.04260426042601e+07	6.64149098480678e-01,-1.42028638685684e-01
7.04320432043201e+07	6.64146487921531e-01,-1.42040937956667e-01
7.04380438043801e+07	6.64143877143072e-01,-1.42053237147729e-01
7.04440444044401e+07	6.64141266145301e-01,-1.42065536258875e-01
7.04500450045001e+07	6.64138654928221e-01,-1.42077835290109e-01
7.04560456045601e+07	6.64136043491831e-01,-1.42090134241436e-01
7.04620462046201e+07	6.64133431836133e-01,-1.42102433112859e-01
7.04680468046801e+07	6.64130819961127e-01,-1.42114731904383e-01
7.04740474047401e+07	6.64128207866815e-01,-1.42127030616013e-01
7.04800480048001e+07	6.64125595553197e-01,-1.42139329247753e-01
7.04860486048601e+07	6.64122983020275e-01,-1.42151627799607e-01
7.04920492049201e+07	6.64120370268048e-01,-1.42163926271579e-01
7.04980498049801e+07	6.64117757296519e-01,-1.42176224663675e-01
7.05040504050401e+07	6.64115144105689e-01,-1.42188522975898e-01
7.05100510051001e+07	6.64112530695557e-01,-1.42200821208253e-01
7.05160516051601e+07	6.64109917066126e-01,-1.42213119360743e-01
7.05220522052201e+07	6.64107303217394e-01,-1.42225417433374e-01
7.05280528052801e+07	6.64104689149365e-01,-1.42237715426149e-01
7.05340534053401e+07	6.64102074862039e-01,-1.42250013339074e-01
7.05400540054001e+07	6.64099460355416e-01,-1.42262311172152e-01
7.05460546054601e+07	6.64096845629498e-01,-1.42274608925386e-01
7.05520552055201e+07	6.64094230684285e-01,-1.42286906598784e-01
7.05580558055801e+07	6.64091615519778e-01,-1.42299204192348e-01
7.05640564056401e+07	6.64089000135980e-01,-1.42311501706082e-01
7.05700570057001e+07	6.64086384532889e-01,-1.42323799139991e-01
7.05760576057601e+07	6.64083768710508e-01,-1.42336096494080e-01
7.05820582058201e+07	6.64081152668836e-01,-1.42348393768352e-01
7.05880588058801e+07	6.64078536407875e-01,-1.42360690962812e-01
7.05940594059401e+07	6.64075919927626e-01,-1.42372988077464e-01
7.06000600060001e+07	6.64073303228091e-01,-1.42385285112313e-01
7.06060606060601e+07	6.64070686309269e-01,-1.42397582067363e-01
7.06120612061201e+07	6.64068069171161e-01,-1.42409878942617e-01
7.06180618061801e+07	6.64065451813770e-01,-1.42422175738081e-01
7.06240624062401e+07	6.64062834237094e-01,-1.42434472453759e-01
7.06300630063001e+07	6.64060216441136e-01,-1.42446769089654e-01
7.06360636063601e+07	6.64057598425897e-01,-1.42459065645772e-01
7.06420642064201e+07	6.64054980191377e-01,-1.42471362122117e-01
7.06480648064801e+07	6.64052361737576e-01,-1.42483658518692e-01
7.06540654065401e+07	6.64049743064498e-01,-1.42495954835503e-01
7.06600660066001e+07	6.64047124172141e-01,-1.42508251072552e-01
7.06660666066601e+07	6.64044505060507e-01,-1.42520547229845e-01
7.06720672067201e+07	6.64041885729597e-01,-1.42532843307387e-01
7.06780678067801e+07	6.64039266179411e-01,-1.42545139305181e-01
7.06840684068401e+07	6.64036646409952e-01,-1.42557435223231e-01
7.06900690069001e+07	6.64034026421219e-01,-1.42569731061542e-01
7.06960696069601e+07	6.64031406213214e-01,-1.42582026820117e-01
7.07020702070201e+07	6.64028785785937e-01,-1.42594322498962e-01
7.07080708070801e+07	6.64026165139390e-01,-1.42606618098081e-01
7.07140714071401e+07	6.64023544273573e-01,-1.42618913617478e-01
7.07200720072001e+07	6.64020923188488e-01,-1.42631209057156e-01
7.07260726072601e+07	6.64018301884134e-01,-1.42643504417120e-01
7.07320732073201e+07	6.64015680360513e-01,-1.42655799697375e-01
7.07380738073801e+07	6.64013058617626e-01,-1.42668094897925e-01
7.07440744074401e+07	6.64010436655475e-01,-1.42680390018774e-01
7.07500750075001e+07	6.64007814474059e-01,-1.42692685059926e-01
7.07560756075601e+07	6.64005192073380e-01,-1.42704980021385e-01
7.07620762076201e+07	6.64002569453439e-01,-1.42717274903157e-01
7.07680768076801e+07	6.63999946614237e-01,-1.42729569705243e-01
7.07740774077401e+07	6.63997323555774e-01,-1.42741864427650e-01
7.07800780078001e+07	6.63994700278051e-01,-1.42754159070382e-01
7.07860786078601e+07	6.63992076781070e-01,-1.42766453633443e-01
7.07920792079201e+07	6.63989453064831e-01,-1.42778748116835e-01
7.07980798079801e+07	6.63986829129336e-01,-1.42791042520565e-01
7.08040804080401e+07	6.63984204974584e-01,-1.42803336844636e-01
7.08100810081001e+07	6.63981580600579e-01,-1.42815631089053e-01
7.08160816081601e+07	6.63978956007318e-01,-1.42827925253819e-01
7.08220822082201e+07	6.63976331194804e-01,-1.42840219338938e-01
7.08280828082801e+07	6.63973706163039e-01,-1.42852513344417e-01
7.08340834083401e+07	6.63971080912022e-01,-1.42864807270257e-01
7.08400840084001e+07	6.63968455441755e-01,-1.42877101116464e-01
7.08460846084601e+07	6.63965829752239e-01,-1.42889394883040e-01
7.08520852085201e+07	6.63963203843474e-01,-1.42901688569992e-01
7.08580858085801e+07	6.63960577715462e-01,-1.42913982177324e-01
7.08640864086401e+07	6.63957951368202e-01,-1.42926275705037e-01
7.08700870087001e+07	6.63955324801697e-01,-1.42938569153139e-01
7.08760876087601e+07	6.63952698015948e-01,-1.42950862521631e-01
7.08820882088201e+07	6.63950071010955e-01,-1.42963155810520e-01
7.08880888088802e+07	6.63947443786718e-01,-1.42975449019809e-01
7.08940894089402e+07	6.63944816343241e-01,-1.42987742149501e-01
7.09000900090002e+07	6.63942188680520e-01,-1.43000035199601e-01
7.09060906090602e+07	6.63939560798562e-01,-1.43012328170115e-01
7.09120912091202e+07	6.63936932697362e-01,-1.43024621061044e-01
7.09180918091802e+07	6.63934304376926e-01,-1.43036913872395e-01
7.09240924092402e+07	6.63931675837251e-01,-1.43049206604170e-01
7.09300930093002e+07	6.63929047078341e-01,-1.43061499256374e-01
7.09360936093602e+07	6.63926418100194e-01,-1.43073791829011e-01
7.09420942094202e+07	6.63923788902813e-01,-1.43086084322085e-01
7.09480948094802e+07	6.63921159486198e-01,-1.43098376735601e-01
7.09540954095402e+07	6.63918529850350e-01,-1.43110669069562e-01
7.09600960096002e+07	6.63915899995271e-01,-1.43122961323974e-01
7.09660966096602e+07	6.63913269920961e-01,-1.43135253498839e-01
7.09720972097202e+07	6.63910639627420e-01,-1.43147545594162e-01
7.09780978097802e+07	6.63908009114651e-01,-1.43159837609946e-01
7.09840984098402e+07	6.63905378382654e-01,-1.43172129546198e-01
7.09900990099002e+07	6.63902747431429e-01,-1.43184421402920e-01
7.09960996099602e+07	6.63900116260978e-01,-1.43196713180116e-01
7.10021002100202e+07	6.63897484871302e-01,-1.43209004877791e-01
7.10081008100802e+07	6.63894853262400e-01,-1.43221296495948e-01
7.10141014101402e+07	6.63892221434276e-01,-1.43233588034593e-01
7.10201020102002e+07	6.63889589386930e-01,-1.43245879493728e-01
7.10261026102602e+07	6.63886957120361e-01,-1.43258170873358e-01
7.10321032103202e+07	6.63884324634571e-01,-1.43270462173488e-01
7.10381038103802e+07	6.63881691929562e-01,-1.43282753394121e-01
7.10441044104402e+07	6.63879059005334e-01,-1.43295044535260e-01
7.10501050105002e+07	6.63876425861887e-01,-1.43307335596912e-01
7.10561056105602e+07	6.63873792499224e-01,-1.43319626579079e-01
7.10621062106202e+07	6.63871158917345e-01,-1.43331917481766e-01
7.10681068106802e+07	6.63868525116250e-01,-1.43344208304977e-01
7.10741074107402e+07	6.63865891095941e-01,-1.43356499048715e-01
7.10801080108002e+07	6.63863256856419e-01,-1.43368789712986e-01
7.10861086108602e+07	6.63860622397684e-01,-1.43381080297792e-01
7.10921092109202e+07	6.63857987719737e-01,-1.43393370803138e-01
7.10981098109802e+07	6.63855352822581e-01,-1.43405661229028e-01
7.11041104110402e+07	6.63852717706214e-01,-1.43417951575468e-01
7.11101110111002e+07	6.63850082370639e-01,-1.43430241842459e-01
7.11161116111602e+07	6.63847446815856e-01,-1.43442532030006e-01
7.11221122112202e+07	6.63844811041866e-01,-1.43454822138114e-01
7.11281128112802e+07	6.63842175048670e-01,-1.43467112166787e-01
7.11341134113402e+07	6.63839538836269e-01,-1.43479402116028e-01
7.11401140114002e+07	6.63836902404664e-01,-1.43491691985841e-01
7.11461146114602e+07	6.63834265753856e-01,-1.43503981776231e-01
7.11521152115202e+07	6.63831628883844e-01,-1.43516271487203e-01
7.11581158115802e+07	6.63828991794632e-01,-1.43528561118758e-01
7.11641164116402e+07	6.63826354486220e-01,-1.43540850670902e-01
7.11701170117002e+07	6.63823716958609e-01,-1.43553140143640e-01
7.11761176117602e+07	6.63821079211798e-01,-1.43565429536974e-01
7.11821182118202e+07	6.63818441245789e-01,-1.43577718850909e-01
7.11881188118802e+07	6.63815803060585e-01,-1.43590008085450e-01
7.11941194119402e+07	6.63813164656184e-01,-1.43602297240599e-01
7.12001200120002e+07	6.63810526032589e-01,-1.43614586316361e-01
7.12061206120602e+07	6.63807887189799e-01,-1.43626875312741e-01
7.12121212121202e+07	6.63805248127817e-01,-1.43639164229742e-01
7.12181218121802e+07	6.63802608846642e-01,-1.43651453067367e-01
7.12241224122402e+07	6.63799969346276e-01,-1.43663741825622e-01
7.12301230123002e+07	6.63797329626720e-01,-1.43676030504509e-01
7.12361236123602e+07	6.63794689687975e-01,-1.43688319104035e-01
7.12421242124202e+07	6.63792049530041e-01,-1.43700607624201e-01
7.12481248124802e+07	6.63789409152920e-01,-1.43712896065012e-01
7.12541254125402e+07	6.63786768556612e-01,-1.43725184426474e-01
7.12601260126002e+07	6.63784127741119e-01,-1.43737472708588e-01
7.12661266126602e+07	6.63781486706441e-01,-1.43749760911358e-01
7.12721272127202e+07	6.63778845452578e-01,-1.43762049034791e-01
7.12781278127802e+07	6.63776203979534e-01,-1.43774337078888e-01
7.12841284128402e+07	6.63773562287307e-01,-1.43786625043655e-01
7.12901290129002e+07	6.63770920375899e-01,-1.43798912929095e-01
7.12961296129602e+07	6.63768278245312e-01,-1.43811200735212e-01
7.13021302130202e+07	6.63765635895545e-01,-1.43823488462010e-01
7.13081308130802e+07	6.63762993326600e-01,-1.43835776109493e-01
7.13141314131402e+07	6.63760350538478e-01,-1.43848063677666e-01
7.13201320132002e+07	6.63757707531179e-01,-1.43860351166532e-01
7.13261326132602e+07	6.63755064304705e-01,-1.43872638576094e-01
7.13321332133202e+07	6.63752420859056e-01,-1.43884925906358e-01
7.13381338133802e+07	6.63749777194234e-01,-1.43897213157327e-01
7.13441344134402e+07	6.63747133310239e-01,-1.43909500329005e-01
7.13501350135002e+07	6.63744489207073e-01,-1.43921787421396e-01
7.13561356135602e+07	6.63741844884735e-01,-1.43934074434503e-01
7.13621362136202e+07	6.63739200343227e-01,-1.43946361368332e-01
7.13681368136802e+07	6.63736555582551e-01,-1.43958648222885e-01
7.13741374137402e+07	6.63733910602707e-01,-1.43970934998167e-01
7.13801380138002e+07	6.63731265403696e-01,-1.43983221694182e-01
7.13861386138602e+07	6.63728619985518e-01,-1.43995508310934e-01
7.13921392139202e+07	6.63725974348176e-01,-1.44007794848426e-01
7.13981398139802e+07	6.63723328491668e-01,-1.44020081306663e-01
7.14041404140402e+07	6.63720682415997e-01,-1.44032367685648e-01
7.14101410141002e+07	6.63718036121165e-01,-1.44044653985386e-01
7.14161416141602e+07	6.63715389607170e-01,-1.44056940205879e-01
7.14221422142202e+07	6.63712742874014e-01,-1.44069226347134e-01
7.14281428142802e+07	6.63710095921700e-01,-1.44081512409153e-01
7.14341434143402e+07	6.63707448750226e-01,-1.44093798391940e-01
7.14401440144002e+07	6.63704801359596e-01,-1.44106084295499e-01
7.14461446144602e+07	6.63702153749807e-01,-1.44118370119834e-01
7.14521452145202e+07	6.63699505920863e-01,-1.44130655864948e-01
7.14581458145802e+07	6.63696857872763e-01,-1.44142941530847e-01
7.14641464146402e+07	6.63694209605510e-01,-1.44155227117534e-01
7.14701470147002e+07	6.63691561119103e-01,-1.44167512625012e-01
7.14761476147602e+07	6.63688912413545e-01,-1.44179798053286e-01
7.14821482148203e+07	6.63686263488834e-01,-1.44192083402359e-01
7.14881488148803e+07	6.63683614344973e-01,-1.44204368672236e-01
7.14941494149403e+07	6.63680964981963e-01,-1.44216653862920e-01
7.15001500150003e+07	6.63678315399804e-01,-1.44228938974415e-01
7.15061506150603e+07	6.63675665598498e-01,-1.44241224006725e-01
7.15121512151203e+07	6.63673015578045e-01,-1.44253508959855e-01
7.15181518151803e+07	6.63670365338446e-01,-1.44265793833807e-01
7.15241524152403e+07	6.63667714879702e-01,-1.44278078628585e-01
7.15301530153003e+07	6.63665064201815e-01,-1.44290363344195e-01
7.15361536153603e+07	6.63662413304784e-01,-1.44302647980640e-01
7.15421542154203e+07	6.63659762188611e-01,-1.44314932537922e-01
7.15481548154803e+07	6.63657110853298e-01,-1.44327217016047e-01
7.15541554155403e+07	6.63654459298844e-01,-1.44339501415018e-01
7.15601560156003e+07	6.63651807525250e-01,-1.44351785734839e-01
7.15661566156603e+07	6.63649155532519e-01,-1.44364069975514e-01
7.15721572157203e+07	6.63646503320650e-01,-1.44376354137047e-01
7.15781578157803e+07	6.63643850889644e-01,-1.44388638219441e-01
7.15841584158403e+07	6.63641198239504e-01,-1.44400922222701e-01
7.15901590159003e+07	6.63638545370228e-01,-1.44413206146830e-01
7.15961596159603e+07	6.63635892281818e-01,-1.44425489991832e-01
7.16021602160203e+07	6.63633238974276e-01,-1.44437773757712e-01
7.16081608160803e+07	6.63630585447602e-01,-1.44450057444473e-01
7.16141614161403e+07	6.63627931701796e-01,-1.44462341052117e-01
7.16201620162003e+07	6.63625277736862e-01,-1.44474624580652e-01
7.16261626162603e+07	6.63622623552797e-01,-1.44486908030078e-01
7.16321632163203e+07	6.63619969149605e-01,-1.44499191400400e-01
7.16381638163803e+07	6.63617314527286e-01,-1.44511474691623e-01
7.16441644164403e+07	6.63614659685840e-01,-1.44523757903750e-01
7.16501650165003e+07	6.63612004625269e-01,-1.44536041036785e-01
7.16561656165603e+07	6.63609349345573e-01,-1.44548324090730e-01
7.16621662166203e+07	6.63606693846754e-01,-1.44560607065592e-01
7.16681668166803e+07	6.63604038128813e-01,-1.44572889961373e-01
7.16741674167403e+07	6.63601382191750e-01,-1.44585172778077e-01
7.16801680168003e+07	6.63598726035566e-01,-1.44597455515709e-01
7.16861686168603e+07	6.63596069660263e-01,-1.44609738174271e-01
7.16921692169203e+07	6.63593413065840e-01,-1.44622020753767e-01
7.16981698169803e+07	6.63590756252299e-01,-1.44634303254201e-01
7.17041704170403e+07	6.63588099219641e-01,-1.44646585675578e-01
7.17101710171003e+07	6.63585441967868e-01,-1.44658868017901e-01
7.17161716171603e+07	6.63582784496980e-01,-1.44671150281174e-01
7.17221722172203e+07	6.63580126806977e-01,-1.44683432465400e-01
7.17281728172803e+07	6.63577468897860e-01,-1.44695714570583e-01
7.17341734173403e+07	6.63574810769632e-01,-1.44707996596729e-01
7.17401740174003e+07	6.63572152422292e-01,-1.44720278543839e-01
7.17461746174603e+07	6.63569493855842e-01,-1.44732560411917e-01
7.17521752175203e+07	6.63566835070281e-01,-1.44744842200968e-01
7.17581758175803e+07	6.63564176065613e-01,-1.44757123910996e-01
7.17641764176403e+07	6.63561516841836e-01,-1.44769405542004e-01
7.17701770177003e+07	6.63558857398954e-01,-1.44781687093996e-01
7.17761776177603e+07	6.63556197736964e-01,-1.44793968566975e-01
7.17821782178203e+07	6.63553537855871e-01,-1.44806249960946e-01
7.17881788178803e+07	6.63550877755673e-01,-1.44818531275912e-01
7.17941794179403e+07	6.63548217436372e-01,-1.44830812511877e-01
7.18001800180003e+07	6.63545556897969e-01,-1.44843093668845e-01
7.18061806180603e+07	6.63542896140465e-01,-1.44855374746820e-01
7.18121812181203e+07	6.63540235163860e-01,-1.44867655745804e-01
7.18181818181803e+07	6.63537573968156e-01,-1.44879936665803e-01
7.18241824182403e+07	6.63534912553355e-01,-1.44892217506821e-01
7.18301830183003e+07	6.63532250919455e-01,-1.44904498268859e-01
7.18361836183603e+07	6.63529589066458e-01,-1.44916778951922e-01
7.18421842184203e+07	6.63526926994367e-01,-1.44929059556015e-01
7.18481848184803e+07	6.63524264703180e-01,-1.44941340081141e-01
7.18541854185403e+07	6.63521602192900e-01,-1.44953620527303e-01
7.18601860186003e+07	6.63518939463527e-01,-1.44965900894506e-01
