!
! C:\Users\rflab\Downloads\Lab5_KD_ZW\0.S2P
!
! Touchstone 1.1 file saved by VNA.EXE V1.65 (www.ke5fx.com/gpib/readme.htm)
! 11/11/2024 11:30:15 PM
!
!    Source: HEWLETT PACKARD,8753D,0,6.14
!  Min freq: 1.900000E+009 Hz
!  Max freq: 2.900000E+009 Hz
!    Points: 801
!    Params: S11 S21 S12 S22
!
!!!!!
# GHZ S RI R 50
1.8999999999999999 0.958374 0.286194 -0.031605 0.016495 -0.018363 0.006012 0.026863 -0.057341 
1.9012500000000001 0.955139 0.152954 -0.027605 0.019793 -0.017362 0.006800 0.024406 -0.058134 
1.9025000000000001 0.928406 0.027039 -0.024456 0.022665 -0.017105 0.008493 0.022360 -0.058294 
1.9037500000000001 0.893372 -0.081604 -0.020729 0.025152 -0.016396 0.009753 0.020096 -0.059240 
1.9050000000000000 0.848816 -0.171845 -0.016457 0.026301 -0.016011 0.011148 0.017677 -0.058672 
1.9062500000000000 0.789703 -0.248505 -0.012717 0.026740 -0.015318 0.012785 0.015163 -0.058771 
1.9075000000000000 0.729340 -0.313385 -0.008855 0.027000 -0.014164 0.014351 0.012930 -0.058399 
1.9087499999999999 0.668976 -0.365112 -0.005739 0.026773 -0.013171 0.015733 0.010269 -0.057570 
1.9099999999999999 0.605865 -0.406006 -0.003016 0.026134 -0.011497 0.017294 0.007500 -0.056726 
1.9112499999999999 0.552948 -0.438416 -0.000446 0.024858 -0.010025 0.018037 0.003815 -0.056185 
1.9125000000000001 0.495239 -0.463928 0.001926 0.023963 -0.008479 0.019240 0.000965 -0.054996 
1.9137500000000001 0.442856 -0.483048 0.003936 0.022691 -0.006695 0.019836 -0.002230 -0.054697 
1.9150000000000000 0.393112 -0.496658 0.005321 0.021557 -0.004880 0.020444 -0.005262 -0.053696 
1.9162500000000000 0.346191 -0.506592 0.006993 0.020426 -0.003433 0.020971 -0.008276 -0.053173 
1.9175000000000000 0.303986 -0.512207 0.008289 0.019025 -0.001270 0.021591 -0.010685 -0.052134 
1.9187500000000000 0.262726 -0.516907 0.009467 0.018098 0.000722 0.021802 -0.012957 -0.051016 
1.9199999999999999 0.223755 -0.515594 0.010663 0.016810 0.003266 0.021787 -0.015409 -0.049513 
1.9212499999999999 0.188355 -0.513672 0.011878 0.015674 0.005565 0.021698 -0.017506 -0.048500 
1.9225000000000001 0.154236 -0.511475 0.012602 0.014301 0.007512 0.020724 -0.019352 -0.046070 
1.9237500000000001 0.121521 -0.508698 0.013542 0.012938 0.009441 0.019881 -0.020851 -0.044121 
1.9250000000000000 0.091248 -0.504028 0.014160 0.011457 0.011215 0.018837 -0.023129 -0.041683 
1.9262500000000000 0.061706 -0.498200 0.014614 0.009981 0.012306 0.017941 -0.025204 -0.039368 
1.9275000000000000 0.035553 -0.491394 0.015226 0.008814 0.014000 0.016150 -0.027477 -0.036469 
1.9287500000000000 0.007996 -0.484314 0.015396 0.007368 0.015472 0.015360 -0.029442 -0.034302 
1.9299999999999999 -0.013611 -0.475189 0.015596 0.006105 0.016928 0.013910 -0.031418 -0.031834 
1.9312499999999999 -0.037750 -0.467773 0.015480 0.005095 0.018150 0.012575 -0.033508 -0.029713 
1.9325000000000001 -0.061005 -0.457733 0.015894 0.003929 0.019081 0.010515 -0.035358 -0.027821 
1.9337500000000001 -0.081909 -0.446609 0.015608 0.003138 0.020007 0.008924 -0.036627 -0.026077 
1.9350000000000001 -0.103210 -0.436798 0.015676 0.002042 0.020878 0.007006 -0.037548 -0.023726 
1.9362500000000000 -0.122498 -0.426331 0.015706 0.000901 0.020774 0.005086 -0.037788 -0.022299 
1.9375000000000000 -0.141159 -0.416443 0.015659 -0.000089 0.021222 0.003203 -0.038486 -0.019981 
1.9387500000000000 -0.159317 -0.404846 0.015336 -0.001196 0.021433 0.001185 -0.039284 -0.018400 
1.9399999999999999 -0.176987 -0.392578 0.015486 -0.002126 0.021308 -0.000453 -0.039574 -0.015535 
1.9412499999999999 -0.193893 -0.380096 0.015291 -0.003166 0.021642 -0.002331 -0.039923 -0.013435 
1.9424999999999999 -0.210388 -0.368988 0.014813 -0.004439 0.021062 -0.004508 -0.040255 -0.010818 
1.9437500000000001 -0.227615 -0.354645 0.014596 -0.005264 0.020929 -0.005763 -0.040993 -0.008682 
1.9450000000000001 -0.243164 -0.341217 0.014052 -0.006341 0.020101 -0.007434 -0.041744 -0.007000 
1.9462500000000000 -0.258392 -0.327637 0.013566 -0.007227 0.019517 -0.009400 -0.042414 -0.005075 
1.9475000000000000 -0.273300 -0.313583 0.013367 -0.008143 0.018821 -0.011180 -0.043282 -0.003521 
1.9487500000000000 -0.288086 -0.299118 0.012788 -0.009107 0.017686 -0.012642 -0.043873 -0.002216 
1.9500000000000000 -0.300766 -0.283829 0.012149 -0.009763 0.016645 -0.014309 -0.044445 -0.001123 
1.9512499999999999 -0.315826 -0.269226 0.011765 -0.010682 0.015947 -0.016018 -0.044825 -0.000900 
1.9524999999999999 -0.329315 -0.251740 0.011130 -0.011500 0.013851 -0.017296 -0.044851 0.000032 
1.9537500000000001 -0.342972 -0.235260 0.010248 -0.012629 0.012473 -0.018612 -0.044701 0.001385 
1.9550000000000001 -0.354828 -0.217712 0.009429 -0.013465 0.010892 -0.019653 -0.044975 0.002632 
1.9562500000000000 -0.365738 -0.199265 0.008594 -0.014242 0.009064 -0.020744 -0.045120 0.003702 
1.9575000000000000 -0.379654 -0.180130 0.007615 -0.015087 0.007384 -0.021674 -0.045553 0.004692 
1.9587500000000000 -0.391907 -0.159363 0.006523 -0.015787 0.005399 -0.022307 -0.046476 0.006468 
1.9600000000000000 -0.402924 -0.137909 0.005610 -0.016382 0.003256 -0.022919 -0.047333 0.007509 
1.9612499999999999 -0.414612 -0.115662 0.004571 -0.016755 0.001381 -0.023157 -0.048676 0.008211 
1.9624999999999999 -0.424957 -0.093872 0.003239 -0.017338 -0.000881 -0.023190 -0.050360 0.009705 
1.9637500000000001 -0.436401 -0.068604 0.002466 -0.017943 -0.002853 -0.023302 -0.051775 0.010338 
1.9650000000000001 -0.445587 -0.041656 0.000974 -0.018274 -0.005209 -0.022915 -0.052946 0.011374 
1.9662500000000001 -0.454193 -0.013306 -0.000103 -0.018900 -0.007469 -0.022539 -0.054338 0.012064 
1.9675000000000000 -0.460602 0.014831 -0.001524 -0.019562 -0.009274 -0.021582 -0.055902 0.012728 
1.9687500000000000 -0.468597 0.047516 -0.002874 -0.019794 -0.011297 -0.020683 -0.057365 0.013611 
1.9700000000000000 -0.474365 0.080948 -0.004431 -0.020552 -0.013157 -0.019955 -0.058250 0.014378 
1.9712499999999999 -0.479416 0.116470 -0.006729 -0.020515 -0.014956 -0.018648 -0.059408 0.016031 
1.9724999999999999 -0.484207 0.154602 -0.008394 -0.020769 -0.016598 -0.017172 -0.060480 0.017633 
1.9737499999999999 -0.483917 0.197784 -0.010870 -0.020584 -0.018443 -0.015649 -0.061632 0.019758 
1.9750000000000001 -0.481995 0.241058 -0.012825 -0.020264 -0.019758 -0.014036 -0.062920 0.021946 
1.9762500000000001 -0.477356 0.289490 -0.015362 -0.019703 -0.021128 -0.012466 -0.065090 0.024387 
1.9775000000000000 -0.469788 0.339539 -0.017468 -0.019012 -0.022209 -0.010105 -0.066978 0.026951 
1.9787500000000000 -0.456238 0.389893 -0.020271 -0.018129 -0.023121 -0.007929 -0.068832 0.029507 
1.9800000000000000 -0.435425 0.449890 -0.022215 -0.016905 -0.023628 -0.005577 -0.070610 0.031971 
1.9812500000000000 -0.405945 0.511658 -0.025188 -0.015049 -0.024221 -0.003529 -0.072052 0.034428 
1.9824999999999999 -0.369690 0.574829 -0.027626 -0.013262 -0.024403 -0.001013 -0.073441 0.036758 
1.9837499999999999 -0.322693 0.639526 -0.030315 -0.011221 -0.024080 0.001166 -0.074631 0.038708 
1.9850000000000001 -0.262451 0.701569 -0.032879 -0.007858 -0.023914 0.003129 -0.075714 0.041866 
1.9862500000000001 -0.187317 0.761108 -0.035248 -0.004093 -0.023455 0.005723 -0.076225 0.044746 
1.9875000000000000 -0.097534 0.817627 -0.037567 0.000782 -0.022730 0.007461 -0.076439 0.047573 
1.9887500000000000 0.013306 0.857666 -0.038973 0.005951 -0.021802 0.009656 -0.076702 0.050766 
1.9900000000000000 0.136475 0.883545 -0.039186 0.011862 -0.020922 0.011401 -0.076694 0.054771 
1.9912500000000000 0.268921 0.888611 -0.037838 0.017942 -0.019835 0.013623 -0.075813 0.058460 
1.9924999999999999 0.407654 0.853943 -0.034866 0.024742 -0.018475 0.015010 -0.075790 0.062630 
1.9937499999999999 0.542358 0.795349 -0.031101 0.029699 -0.016779 0.016392 -0.075619 0.066231 
1.9950000000000001 0.666199 0.708801 -0.026226 0.034973 -0.015512 0.017593 -0.075859 0.070126 
1.9962500000000001 0.773865 0.591980 -0.020020 0.038086 -0.013830 0.018671 -0.075260 0.073769 
1.9975000000000001 0.849548 0.467407 -0.013783 0.039871 -0.012877 0.019686 -0.074787 0.077564 
1.9987500000000000 0.887268 0.331970 -0.007584 0.040565 -0.011089 0.021000 -0.074188 0.080761 
2.0000000000000000 0.900452 0.200806 -0.001394 0.039841 -0.009635 0.021708 -0.072174 0.083771 
2.0012500000000002 0.888550 0.070007 0.003628 0.038332 -0.007931 0.023031 -0.071049 0.086571 
2.0024999999999999 0.861877 -0.041504 0.008541 0.036276 -0.005669 0.023654 -0.069145 0.089050 
2.0037500000000001 0.813904 -0.138489 0.012241 0.033041 -0.003820 0.024502 -0.066582 0.092415 
2.0049999999999999 0.762207 -0.218628 0.015516 0.030304 -0.001236 0.024786 -0.064362 0.095299 
2.0062500000000001 0.702850 -0.286011 0.018051 0.027375 0.000985 0.025051 -0.061657 0.098644 
2.0074999999999998 0.644562 -0.341522 0.019689 0.023545 0.003253 0.025320 -0.058865 0.101650 
2.0087500000000000 0.585236 -0.386658 0.021516 0.020599 0.005432 0.025070 -0.056152 0.104450 
2.0099999999999998 0.528442 -0.417358 0.021994 0.017439 0.008121 0.024928 -0.053837 0.107403 
2.0112500000000000 0.472199 -0.441956 0.022829 0.014458 0.010757 0.024309 -0.051620 0.109715 
2.0125000000000002 0.421417 -0.462463 0.022772 0.011684 0.013101 0.023092 -0.048985 0.111759 
2.0137499999999999 0.371246 -0.473404 0.022491 0.009850 0.015443 0.021712 -0.046570 0.113827 
2.0150000000000001 0.326279 -0.484741 0.022783 0.007177 0.017082 0.020342 -0.043648 0.115498 
2.0162499999999999 0.282623 -0.489044 0.022194 0.005440 0.019405 0.017963 -0.041729 0.116238 
2.0175000000000001 0.242279 -0.492706 0.021949 0.003695 0.020962 0.015996 -0.038300 0.116570 
2.0187499999999998 0.204208 -0.494415 0.021481 0.001947 0.022023 0.013994 -0.035385 0.117676 
2.0200000000000000 0.169266 -0.491013 0.021003 0.000476 0.023059 0.011209 -0.031998 0.118504 
2.0212500000000002 0.135330 -0.487152 0.020465 -0.001334 0.023932 0.009861 -0.029247 0.118927 
2.0225000000000000 0.105286 -0.482254 0.020082 -0.002503 0.024845 0.007547 -0.025951 0.119740 
2.0237500000000002 0.076096 -0.477097 0.019651 -0.004328 0.026060 0.005362 -0.023018 0.120148 
2.0249999999999999 0.048035 -0.471680 0.018717 -0.005148 0.026264 0.002771 -0.020645 0.120689 
2.0262500000000001 0.022461 -0.462891 0.017794 -0.006485 0.026154 0.000151 -0.018188 0.121513 
2.0274999999999999 -0.001404 -0.454285 0.016960 -0.007724 0.026060 -0.001991 -0.015915 0.122024 
2.0287500000000001 -0.025879 -0.446869 0.015922 -0.008646 0.025610 -0.005014 -0.014359 0.122749 
2.0299999999999998 -0.047852 -0.436768 0.015078 -0.009537 0.025110 -0.007256 -0.012794 0.122810 
2.0312500000000000 -0.070221 -0.427643 0.014296 -0.010276 0.023885 -0.009228 -0.011498 0.122299 
2.0325000000000002 -0.088806 -0.417542 0.013355 -0.011027 0.022882 -0.010886 -0.009651 0.122299 
2.0337499999999999 -0.108551 -0.406555 0.012431 -0.011786 0.021951 -0.013070 -0.008743 0.122734 
2.0350000000000001 -0.128662 -0.396057 0.011738 -0.012527 0.020525 -0.014875 -0.007225 0.121826 
2.0362499999999999 -0.144958 -0.384735 0.010748 -0.013047 0.019256 -0.016758 -0.006439 0.122231 
2.0375000000000001 -0.162201 -0.373993 0.009817 -0.013752 0.017632 -0.018348 -0.003853 0.122024 
2.0387499999999998 -0.177795 -0.362610 0.008861 -0.014488 0.016002 -0.019825 -0.002617 0.122978 
2.0400000000000000 -0.193695 -0.351654 0.007780 -0.015030 0.014242 -0.020934 -0.001236 0.124405 
2.0412499999999998 -0.208588 -0.338471 0.006714 -0.015646 0.012383 -0.022105 0.000031 0.124413 
2.0425000000000000 -0.223206 -0.326599 0.005403 -0.015877 0.010336 -0.023056 0.000855 0.125877 
2.0437500000000002 -0.237762 -0.314056 0.004373 -0.016331 0.008255 -0.024048 0.001679 0.127152 
2.0449999999999999 -0.251984 -0.299744 0.003300 -0.016308 0.006689 -0.025208 0.002434 0.128021 
2.0462500000000001 -0.263946 -0.285675 0.002125 -0.016416 0.004173 -0.025372 0.003365 0.129448 
2.0474999999999999 -0.277710 -0.272919 0.001174 -0.016339 0.002228 -0.025713 0.004349 0.130279 
2.0487500000000001 -0.289825 -0.257263 -0.000011 -0.016353 -0.000021 -0.025959 0.005341 0.132080 
2.0499999999999998 -0.301208 -0.242279 -0.000934 -0.016544 -0.002625 -0.025749 0.007034 0.132805 
2.0512500000000000 -0.313324 -0.226563 -0.001955 -0.016737 -0.004580 -0.025560 0.008507 0.133591 
2.0525000000000002 -0.325775 -0.211517 -0.003157 -0.016836 -0.006868 -0.025148 0.009956 0.134850 
2.0537500000000000 -0.336151 -0.193634 -0.004216 -0.016801 -0.009453 -0.024582 0.012711 0.136444 
2.0550000000000002 -0.347839 -0.178101 -0.005405 -0.016891 -0.011530 -0.023632 0.015373 0.138001 
2.0562499999999999 -0.359558 -0.159760 -0.006496 -0.016890 -0.013752 -0.022736 0.017815 0.140083 
2.0575000000000001 -0.367493 -0.140564 -0.007792 -0.016333 -0.016218 -0.021839 0.020760 0.142097 
2.0587499999999999 -0.378082 -0.120575 -0.009018 -0.015932 -0.017752 -0.019911 0.023163 0.144257 
2.0600000000000001 -0.388214 -0.099792 -0.010433 -0.015680 -0.019241 -0.018532 0.025879 0.146316 
2.0612499999999998 -0.397186 -0.078567 -0.011845 -0.014986 -0.021118 -0.016878 0.029007 0.148438 
2.0625000000000000 -0.404770 -0.054535 -0.013004 -0.014507 -0.022507 -0.014771 0.031601 0.149704 
2.0637500000000002 -0.412445 -0.031921 -0.014430 -0.013556 -0.023846 -0.012697 0.035339 0.150864 
2.0649999999999999 -0.420502 -0.006012 -0.015651 -0.013037 -0.024884 -0.010598 0.038650 0.151947 
2.0662500000000001 -0.426743 0.022141 -0.016742 -0.012125 -0.026015 -0.008486 0.041901 0.152481 
2.0674999999999999 -0.433563 0.049911 -0.018185 -0.010975 -0.026896 -0.006398 0.046028 0.152870 
2.0687500000000001 -0.437286 0.079956 -0.019353 -0.009821 -0.027269 -0.003734 0.050758 0.153626 
2.0699999999999998 -0.440308 0.112656 -0.020701 -0.008674 -0.027797 -0.001245 0.055183 0.153770 
2.0712500000000000 -0.440613 0.145935 -0.022293 -0.007315 -0.028309 0.001463 0.060547 0.152847 
2.0724999999999998 -0.441803 0.182373 -0.023558 -0.005793 -0.027912 0.003761 0.065201 0.152573 
2.0737500000000000 -0.438782 0.222839 -0.024908 -0.003780 -0.027327 0.006884 0.069901 0.152588 
2.0750000000000002 -0.432251 0.263214 -0.025682 -0.001867 -0.026875 0.009478 0.075073 0.152115 
2.0762499999999999 -0.423554 0.308105 -0.026775 0.000656 -0.025892 0.012102 0.079392 0.151245 
2.0775000000000001 -0.411804 0.356689 -0.027426 0.002823 -0.024725 0.014174 0.084091 0.150269 
2.0787499999999999 -0.392395 0.405243 -0.028126 0.005314 -0.023125 0.016397 0.088333 0.148514 
2.0800000000000001 -0.367371 0.460587 -0.028515 0.008624 -0.022040 0.018515 0.092789 0.146614 
2.0812499999999998 -0.335907 0.512665 -0.028564 0.011671 -0.019793 0.020565 0.097778 0.143433 
2.0825000000000000 -0.292023 0.564880 -0.029005 0.014751 -0.017578 0.022579 0.101868 0.140915 
2.0837500000000002 -0.240479 0.623016 -0.028767 0.018717 -0.015396 0.024042 0.105408 0.137222 
2.0850000000000000 -0.170959 0.675110 -0.027864 0.022776 -0.013149 0.025473 0.109940 0.134003 
2.0862500000000002 -0.093445 0.721191 -0.026228 0.027456 -0.010374 0.026680 0.114349 0.130356 
2.0874999999999999 -0.000671 0.760681 -0.023651 0.032099 -0.007631 0.027069 0.118912 0.125946 
2.0887500000000001 0.108215 0.783569 -0.019653 0.036572 -0.005305 0.027203 0.122688 0.122452 
2.0899999999999999 0.226135 0.785217 -0.014679 0.040260 -0.002887 0.027047 0.126457 0.118225 
2.0912500000000001 0.348389 0.767578 -0.008778 0.043255 -0.000921 0.026922 0.129333 0.114517 
2.0924999999999998 0.468567 0.726868 -0.001606 0.045815 0.001122 0.026857 0.132225 0.110977 
2.0937500000000000 0.583862 0.644348 0.005272 0.044878 0.002960 0.026927 0.134209 0.106529 
2.0950000000000002 0.683044 0.555481 0.012106 0.042593 0.004560 0.027005 0.137062 0.101616 
2.0962499999999999 0.752899 0.447388 0.018328 0.040613 0.006471 0.027110 0.137695 0.097237 
2.0975000000000001 0.796204 0.319458 0.023424 0.036140 0.009052 0.026903 0.138641 0.093147 
2.0987499999999999 0.816773 0.200501 0.027498 0.031866 0.011602 0.026655 0.139847 0.087814 
2.1000000000000001 0.813599 0.078369 0.030577 0.027395 0.014362 0.025938 0.140472 0.083420 
2.1012499999999998 0.786560 -0.025940 0.032780 0.022663 0.016855 0.024681 0.141815 0.078415 
2.1025000000000000 0.751099 -0.120972 0.034069 0.017818 0.019781 0.023502 0.142075 0.074219 
2.1037499999999998 0.706055 -0.195007 0.034866 0.013309 0.021711 0.022221 0.142838 0.069107 
2.1050000000000000 0.652161 -0.262939 0.035332 0.008797 0.024294 0.020077 0.143387 0.065689 
2.1062500000000002 0.597504 -0.313629 0.034630 0.004601 0.027205 0.017828 0.143303 0.061241 
2.1074999999999999 0.542328 -0.354828 0.033415 0.000496 0.029697 0.015272 0.144005 0.057785 
2.1087500000000001 0.488358 -0.385834 0.031851 -0.002752 0.031187 0.012058 0.143539 0.054047 
2.1099999999999999 0.435349 -0.410339 0.029682 -0.005869 0.033129 0.007795 0.143074 0.051254 
2.1112500000000001 0.387085 -0.427673 0.028049 -0.008129 0.033142 0.004045 0.142967 0.048141 
2.1124999999999998 0.338684 -0.440033 0.025794 -0.010051 0.033558 0.000450 0.141548 0.044502 
2.1137500000000000 0.294373 -0.450851 0.023908 -0.011196 0.032362 -0.003527 0.140930 0.041664 
2.1150000000000002 0.253983 -0.454285 0.022258 -0.012704 0.031692 -0.006443 0.139839 0.038391 
2.1162500000000000 0.215347 -0.457047 0.020658 -0.013968 0.030519 -0.009527 0.139046 0.035774 
2.1175000000000002 0.179337 -0.456238 0.019186 -0.014776 0.028882 -0.012077 0.138130 0.033043 
2.1187499999999999 0.145752 -0.453461 0.018020 -0.015783 0.027511 -0.014608 0.137367 0.030037 
2.1200000000000001 0.114090 -0.450760 0.016498 -0.016704 0.026097 -0.016623 0.137894 0.028046 
2.1212499999999999 0.084778 -0.444656 0.014886 -0.017944 0.023987 -0.019433 0.137245 0.025421 
2.1225000000000001 0.056427 -0.438568 0.013223 -0.018489 0.021961 -0.021090 0.137154 0.023132 
2.1237499999999998 0.030273 -0.431870 0.011349 -0.019181 0.020003 -0.022986 0.136551 0.020874 
2.1250000000000000 0.005768 -0.423065 0.009787 -0.019691 0.017873 -0.024577 0.136032 0.019096 
2.1262500000000002 -0.018417 -0.415832 0.008156 -0.020031 0.015100 -0.025476 0.135338 0.017624 
2.1274999999999999 -0.039017 -0.406845 0.006594 -0.020264 0.012564 -0.026154 0.135445 0.015747 
2.1287500000000001 -0.059418 -0.396606 0.004984 -0.020126 0.010514 -0.027097 0.134399 0.013718 
2.1299999999999999 -0.078171 -0.388687 0.003489 -0.020105 0.008536 -0.027967 0.134224 0.011993 
2.1312500000000001 -0.096863 -0.376541 0.002656 -0.019853 0.005920 -0.028431 0.133308 0.009338 
2.1324999999999998 -0.115860 -0.367371 0.001436 -0.019879 0.003914 -0.028912 0.132561 0.007599 
2.1337500000000000 -0.131928 -0.356110 0.000045 -0.019930 0.001322 -0.029438 0.132141 0.004898 
2.1349999999999998 -0.147553 -0.345947 -0.001023 -0.020146 -0.001408 -0.029022 0.131966 0.002464 
2.1362500000000000 -0.163178 -0.334381 -0.002596 -0.020026 -0.004068 -0.029549 0.132523 -0.000023 
2.1375000000000002 -0.178497 -0.322235 -0.003675 -0.019963 -0.006935 -0.028652 0.132355 -0.002022 
2.1387499999999999 -0.192810 -0.309845 -0.005403 -0.019711 -0.009459 -0.028015 0.131989 -0.004303 
2.1400000000000001 -0.206177 -0.296875 -0.007029 -0.019453 -0.011604 -0.027052 0.131950 -0.006775 
2.1412499999999999 -0.219116 -0.284332 -0.008301 -0.018852 -0.014181 -0.025984 0.131783 -0.008522 
2.1425000000000001 -0.233124 -0.271240 -0.009823 -0.017948 -0.016378 -0.025005 0.131210 -0.011116 
2.1437499999999998 -0.244232 -0.258972 -0.011124 -0.017357 -0.018320 -0.023338 0.131027 -0.013336 
2.1450000000000000 -0.255890 -0.244202 -0.012398 -0.016306 -0.020775 -0.021450 0.129425 -0.015434 
2.1462500000000002 -0.267853 -0.229919 -0.013289 -0.015408 -0.022665 -0.019575 0.128372 -0.018028 
2.1475000000000000 -0.279175 -0.215851 -0.014107 -0.014601 -0.024414 -0.017740 0.127266 -0.020386 
2.1487500000000002 -0.288879 -0.200134 -0.015097 -0.013996 -0.026073 -0.015217 0.126625 -0.023315 
2.1499999999999999 -0.299988 -0.183929 -0.016354 -0.013268 -0.027039 -0.013212 0.124939 -0.026299 
2.1512500000000001 -0.309814 -0.168091 -0.017302 -0.012274 -0.028261 -0.010330 0.123810 -0.029305 
