!
! C:\Users\rflab\Downloads\Lab5_KD_ZW\10.S2P
!
! Touchstone 1.1 file saved by VNA.EXE V1.65 (www.ke5fx.com/gpib/readme.htm)
! 11/11/2024 11:35:29 PM
!
!    Source: HEWLETT PACKARD,8753D,0,6.14
!  Min freq: 1.900000E+009 Hz
!  Max freq: 2.900000E+009 Hz
!    Points: 801
!    Params: S11 S21 S12 S22
!
!!!!!
# GHZ S RI R 50
1.8999999999999999 0.953674 0.283264 -0.029957 0.017029 -0.017052 0.006258 0.026657 -0.056686 
1.9012500000000001 0.956848 0.147522 -0.026617 0.020237 -0.016818 0.007539 0.024115 -0.057535 
1.9025000000000001 0.931091 0.020508 -0.022734 0.022911 -0.016347 0.008767 0.022238 -0.058027 
1.9037500000000001 0.891602 -0.082703 -0.018610 0.024940 -0.015656 0.009958 0.019541 -0.058184 
1.9050000000000000 0.845764 -0.175812 -0.014814 0.025960 -0.015115 0.011310 0.017380 -0.058117 
1.9062500000000000 0.787781 -0.250366 -0.011132 0.026535 -0.014357 0.012908 0.015057 -0.057899 
1.9075000000000000 0.726898 -0.313446 -0.008195 0.026252 -0.013495 0.014425 0.012764 -0.057274 
1.9087499999999999 0.667328 -0.367218 -0.004660 0.025982 -0.012222 0.015571 0.010046 -0.056536 
1.9099999999999999 0.605469 -0.408325 -0.002001 0.024990 -0.010801 0.017057 0.007519 -0.055393 
1.9112499999999999 0.548523 -0.437439 0.000581 0.023927 -0.009309 0.018165 0.003914 -0.054672 
1.9125000000000001 0.495605 -0.464783 0.002385 0.022951 -0.007269 0.018386 0.001074 -0.053518 
1.9137500000000001 0.441086 -0.482712 0.004307 0.021619 -0.005821 0.019455 -0.002262 -0.052580 
1.9150000000000000 0.392212 -0.496368 0.005995 0.020708 -0.004164 0.019960 -0.005314 -0.052191 
1.9162500000000000 0.345154 -0.506348 0.007464 0.019279 -0.002621 0.020597 -0.008488 -0.051149 
1.9175000000000000 0.303040 -0.512421 0.008434 0.018351 -0.000866 0.020837 -0.010874 -0.050262 
1.9187500000000000 0.260712 -0.515839 0.009899 0.017215 0.001505 0.021362 -0.012770 -0.049091 
1.9199999999999999 0.223114 -0.515015 0.011201 0.015934 0.003546 0.021212 -0.015326 -0.047653 
1.9212499999999999 0.186188 -0.513672 0.011880 0.014893 0.005979 0.020705 -0.017338 -0.046654 
1.9225000000000001 0.153290 -0.512665 0.012888 0.013105 0.007982 0.019752 -0.019283 -0.044313 
1.9237500000000001 0.119843 -0.508209 0.013720 0.012083 0.009654 0.019032 -0.021088 -0.042408 
1.9250000000000000 0.090698 -0.503784 0.014084 0.010723 0.011501 0.017870 -0.023014 -0.039989 
1.9262500000000000 0.061035 -0.497589 0.014570 0.009315 0.013000 0.016769 -0.025322 -0.037415 
1.9275000000000000 0.035461 -0.491638 0.014688 0.007912 0.014009 0.015383 -0.027302 -0.034916 
1.9287500000000000 0.007965 -0.483551 0.014967 0.006655 0.015400 0.014261 -0.029209 -0.032425 
1.9299999999999999 -0.013367 -0.474945 0.015101 0.005408 0.016815 0.012493 -0.031841 -0.030277 
1.9312499999999999 -0.037537 -0.467377 0.015195 0.004416 0.017967 0.011002 -0.033344 -0.028320 
1.9325000000000001 -0.061279 -0.456177 0.015108 0.003233 0.018833 0.009481 -0.035233 -0.026672 
1.9337500000000001 -0.081863 -0.446396 0.015451 0.002289 0.019175 0.007407 -0.036329 -0.024960 
1.9350000000000001 -0.103439 -0.436737 0.015200 0.001492 0.020270 0.006021 -0.037252 -0.022787 
1.9362500000000000 -0.122787 -0.425995 0.015181 0.000480 0.020688 0.003866 -0.037798 -0.021364 
1.9375000000000000 -0.142029 -0.415359 0.015261 -0.000644 0.020503 0.002385 -0.038391 -0.019117 
1.9387500000000000 -0.159683 -0.404053 0.014990 -0.001673 0.020897 0.000504 -0.038666 -0.017109 
1.9399999999999999 -0.178299 -0.391952 0.014818 -0.002594 0.020927 -0.001289 -0.039104 -0.014912 
1.9412499999999999 -0.194641 -0.380234 0.014578 -0.003548 0.020327 -0.003106 -0.039427 -0.012383 
1.9424999999999999 -0.210098 -0.368851 0.014359 -0.004696 0.020521 -0.004771 -0.039997 -0.009783 
1.9437500000000001 -0.227829 -0.354675 0.013787 -0.005607 0.019966 -0.006389 -0.040960 -0.007809 
1.9450000000000001 -0.243866 -0.340836 0.013581 -0.006582 0.019399 -0.008384 -0.041466 -0.005596 
1.9462500000000000 -0.257919 -0.327072 0.012899 -0.007286 0.018484 -0.010001 -0.042639 -0.003946 
1.9475000000000000 -0.273544 -0.313690 0.012565 -0.008280 0.017555 -0.011674 -0.043312 -0.002232 
1.9487500000000000 -0.288696 -0.298675 0.011963 -0.008892 0.016676 -0.012711 -0.044493 -0.001427 
1.9500000000000000 -0.301773 -0.283081 0.011483 -0.009795 0.015741 -0.014212 -0.044725 -0.000685 
1.9512499999999999 -0.315796 -0.268982 0.010818 -0.010966 0.014648 -0.015925 -0.045155 0.000244 
1.9524999999999999 -0.328827 -0.251816 0.010390 -0.011728 0.012848 -0.017199 -0.045658 0.000252 
1.9537500000000001 -0.342834 -0.235031 0.009699 -0.012414 0.011339 -0.018444 -0.045464 0.001587 
1.9550000000000001 -0.354721 -0.218002 0.008758 -0.013175 0.009907 -0.019540 -0.045214 0.002615 
1.9562500000000000 -0.364975 -0.198486 0.007856 -0.014131 0.008386 -0.020645 -0.045578 0.003555 
1.9575000000000000 -0.380264 -0.179779 0.006907 -0.014785 0.006162 -0.021120 -0.046452 0.004789 
1.9587500000000000 -0.391495 -0.158661 0.005870 -0.015481 0.004523 -0.021650 -0.046581 0.005972 
1.9600000000000000 -0.403015 -0.138123 0.004858 -0.016010 0.002522 -0.022055 -0.047627 0.007395 
1.9612499999999999 -0.414459 -0.114685 0.003717 -0.016417 0.000423 -0.022192 -0.048506 0.008112 
1.9624999999999999 -0.424194 -0.093964 0.002538 -0.016924 -0.001547 -0.022594 -0.050135 0.009726 
1.9637500000000001 -0.434967 -0.068848 0.001390 -0.017323 -0.003704 -0.022161 -0.051392 0.010733 
1.9650000000000001 -0.445190 -0.041595 0.000414 -0.017788 -0.005957 -0.022249 -0.052794 0.011435 
1.9662500000000001 -0.453278 -0.013763 -0.000766 -0.018174 -0.007927 -0.021696 -0.054138 0.012056 
1.9675000000000000 -0.460663 0.014374 -0.002132 -0.018635 -0.009911 -0.020678 -0.055683 0.013029 
1.9687500000000000 -0.468292 0.047821 -0.003553 -0.019299 -0.011747 -0.019796 -0.057068 0.013721 
1.9700000000000000 -0.475021 0.081268 -0.005136 -0.019571 -0.013733 -0.018705 -0.058231 0.014900 
1.9712499999999999 -0.478439 0.117783 -0.007099 -0.019802 -0.015173 -0.017288 -0.059357 0.016512 
1.9724999999999999 -0.482575 0.155106 -0.009007 -0.019905 -0.016554 -0.015903 -0.060520 0.017853 
1.9737499999999999 -0.482925 0.196579 -0.011358 -0.019541 -0.018347 -0.014416 -0.061832 0.020327 
1.9750000000000001 -0.482620 0.241699 -0.013018 -0.019375 -0.019543 -0.012962 -0.063122 0.022442 
1.9762500000000001 -0.477966 0.289825 -0.015558 -0.018490 -0.020887 -0.011086 -0.064713 0.025253 
1.9775000000000000 -0.467743 0.339264 -0.017632 -0.018166 -0.022011 -0.009121 -0.066856 0.027599 
1.9787500000000000 -0.457153 0.391479 -0.019976 -0.016474 -0.022627 -0.006824 -0.068401 0.030468 
1.9800000000000000 -0.432800 0.448914 -0.022367 -0.015486 -0.022957 -0.004425 -0.070007 0.032707 
1.9812500000000000 -0.404785 0.511597 -0.024502 -0.013733 -0.023678 -0.002268 -0.071861 0.035240 
1.9824999999999999 -0.368103 0.572876 -0.027170 -0.011946 -0.023491 -0.000055 -0.073132 0.037434 
1.9837499999999999 -0.322632 0.635742 -0.029522 -0.009499 -0.023276 0.001612 -0.073784 0.039490 
1.9850000000000001 -0.257965 0.701355 -0.032198 -0.006310 -0.022931 0.004106 -0.074707 0.042744 
1.9862500000000001 -0.187195 0.759521 -0.034388 -0.002619 -0.022765 0.006331 -0.075489 0.045879 
1.9875000000000000 -0.096375 0.817322 -0.035896 0.002060 -0.021965 0.008110 -0.075294 0.048515 
1.9887500000000000 0.008240 0.851746 -0.037001 0.007084 -0.021012 0.010020 -0.075283 0.052238 
1.9900000000000000 0.141419 0.878906 -0.037319 0.013105 -0.019726 0.011980 -0.075054 0.055977 
1.9912500000000000 0.265320 0.887085 -0.035934 0.019125 -0.018711 0.013511 -0.074581 0.059776 
1.9924999999999999 0.402771 0.856750 -0.033409 0.024454 -0.017323 0.015340 -0.074329 0.064053 
1.9937499999999999 0.543213 0.799744 -0.028698 0.029943 -0.015723 0.016492 -0.074219 0.068226 
1.9950000000000001 0.666504 0.708130 -0.023970 0.034546 -0.014354 0.017609 -0.074219 0.071827 
1.9962500000000001 0.768616 0.593994 -0.017675 0.037027 -0.013042 0.018364 -0.073353 0.075802 
1.9975000000000001 0.844360 0.464355 -0.012239 0.039032 -0.011580 0.019556 -0.073559 0.079468 
1.9987500000000000 0.885071 0.332642 -0.005861 0.039627 -0.010333 0.020370 -0.072540 0.082253 
2.0000000000000000 0.901184 0.200684 -0.000223 0.038710 -0.008454 0.021511 -0.070614 0.085480 
2.0012500000000002 0.884888 0.071655 0.005032 0.036968 -0.006885 0.022341 -0.069038 0.088345 
2.0024999999999999 0.859985 -0.038147 0.008652 0.034912 -0.004683 0.023062 -0.066711 0.090992 
2.0037500000000001 0.813965 -0.133240 0.012867 0.032118 -0.002541 0.023723 -0.064552 0.094357 
2.0049999999999999 0.762451 -0.218079 0.016151 0.028337 -0.000628 0.024191 -0.061760 0.097382 
2.0062500000000001 0.704712 -0.284424 0.018314 0.025648 0.001602 0.024236 -0.059307 0.100605 
2.0074999999999998 0.646637 -0.341278 0.020272 0.022237 0.003737 0.024247 -0.056362 0.103558 
2.0087500000000000 0.584473 -0.384338 0.021585 0.019182 0.006263 0.024252 -0.053555 0.106594 
2.0099999999999998 0.528900 -0.416596 0.022261 0.016171 0.008863 0.023709 -0.050705 0.109692 
2.0112500000000000 0.472626 -0.438416 0.022381 0.013245 0.011192 0.022785 -0.048969 0.112042 
2.0125000000000002 0.420746 -0.460083 0.022545 0.010859 0.013516 0.021664 -0.046066 0.114033 
2.0137499999999999 0.374359 -0.473602 0.022388 0.008514 0.015734 0.020508 -0.043423 0.116093 
2.0150000000000001 0.324844 -0.484695 0.021931 0.006416 0.017889 0.018768 -0.041519 0.117661 
2.0162499999999999 0.283600 -0.489441 0.021358 0.004500 0.019510 0.016859 -0.038715 0.118473 
2.0175000000000001 0.242767 -0.491806 0.021410 0.003184 0.020828 0.014938 -0.035580 0.119083 
2.0187499999999998 0.205246 -0.492142 0.020753 0.001232 0.021917 0.012800 -0.032932 0.120136 
2.0200000000000000 0.170502 -0.488831 0.020238 -0.000340 0.023044 0.010374 -0.029095 0.120277 
2.0212500000000002 0.136734 -0.486313 0.019650 -0.001551 0.023726 0.008518 -0.026379 0.120903 
2.0225000000000000 0.105713 -0.481796 0.019433 -0.002954 0.024830 0.006714 -0.022766 0.121655 
2.0237500000000002 0.076858 -0.476898 0.018804 -0.004671 0.025135 0.004164 -0.020363 0.121841 
2.0249999999999999 0.048859 -0.470276 0.017960 -0.005856 0.025234 0.001463 -0.017776 0.122681 
2.0262500000000001 0.022949 -0.462372 0.016900 -0.006973 0.025450 -0.000832 -0.015556 0.124008 
2.0274999999999999 -0.000916 -0.453979 0.016045 -0.008020 0.025190 -0.003176 -0.013397 0.123939 
2.0287500000000001 -0.024963 -0.446045 0.015126 -0.009124 0.024666 -0.005496 -0.011536 0.124573 
2.0299999999999998 -0.046783 -0.437073 0.014418 -0.009626 0.023853 -0.007800 -0.010422 0.124924 
2.0312500000000000 -0.068970 -0.427429 0.013454 -0.010743 0.022758 -0.009761 -0.009247 0.124428 
2.0325000000000002 -0.088318 -0.416931 0.012733 -0.011133 0.022259 -0.011698 -0.007622 0.123978 
2.0337499999999999 -0.108673 -0.407074 0.011629 -0.011803 0.020874 -0.013483 -0.006660 0.124062 
2.0350000000000001 -0.127564 -0.395904 0.010644 -0.012373 0.019315 -0.015017 -0.005417 0.123650 
2.0362499999999999 -0.144196 -0.384857 0.010063 -0.013204 0.018084 -0.016937 -0.004524 0.122864 
2.0375000000000001 -0.160645 -0.373932 0.008904 -0.013826 0.016643 -0.018480 -0.002182 0.123856 
2.0387499999999998 -0.177093 -0.362946 0.008030 -0.014209 0.014874 -0.019815 -0.001060 0.123833 
2.0400000000000000 -0.192505 -0.350891 0.007046 -0.014965 0.012932 -0.020812 -0.000092 0.125114 
2.0412499999999998 -0.208008 -0.339355 0.005789 -0.015483 0.011133 -0.021755 0.001839 0.125183 
2.0425000000000000 -0.222992 -0.326263 0.004728 -0.015602 0.009425 -0.022485 0.002899 0.126190 
2.0437500000000002 -0.237427 -0.314240 0.003625 -0.015894 0.007305 -0.023825 0.002998 0.127403 
2.0449999999999999 -0.251221 -0.300507 0.002532 -0.015963 0.005207 -0.024311 0.003838 0.128525 
2.0462500000000001 -0.263489 -0.286346 0.001705 -0.015871 0.003359 -0.024464 0.004822 0.129952 
2.0474999999999999 -0.275909 -0.273743 0.000281 -0.016050 0.001011 -0.024792 0.005211 0.130760 
2.0487500000000001 -0.289002 -0.257599 -0.000446 -0.015967 -0.001162 -0.025255 0.007019 0.131989 
2.0499999999999998 -0.300629 -0.242493 -0.001462 -0.015971 -0.003239 -0.024975 0.007721 0.133255 
2.0512500000000000 -0.312744 -0.227570 -0.002533 -0.015965 -0.005680 -0.024912 0.009804 0.134087 
2.0525000000000002 -0.324768 -0.212006 -0.003419 -0.016148 -0.007566 -0.024292 0.010864 0.135353 
2.0537500000000000 -0.334839 -0.194000 -0.004620 -0.016079 -0.010063 -0.023344 0.013878 0.136902 
2.0550000000000002 -0.347076 -0.177979 -0.005753 -0.015944 -0.011717 -0.022833 0.016274 0.138924 
2.0562499999999999 -0.357605 -0.159302 -0.007057 -0.015772 -0.014317 -0.021767 0.018395 0.140694 
2.0575000000000001 -0.367371 -0.140961 -0.008251 -0.015614 -0.016312 -0.020449 0.021324 0.143272 
2.0587499999999999 -0.377533 -0.121674 -0.009508 -0.015362 -0.018106 -0.018629 0.023880 0.144943 
2.0600000000000001 -0.387238 -0.100464 -0.010651 -0.015005 -0.019238 -0.017321 0.026306 0.146683 
2.0612499999999998 -0.395996 -0.078690 -0.012180 -0.014280 -0.021078 -0.015572 0.028732 0.148758 
2.0625000000000000 -0.403839 -0.055023 -0.013232 -0.013457 -0.022625 -0.013403 0.031830 0.150116 
2.0637500000000002 -0.411713 -0.032562 -0.014595 -0.012954 -0.023506 -0.011110 0.035004 0.150971 
2.0649999999999999 -0.419083 -0.006424 -0.015721 -0.011863 -0.024455 -0.009471 0.038078 0.152153 
2.0662500000000001 -0.425949 0.020508 -0.016872 -0.010888 -0.025448 -0.007289 0.041565 0.152412 
2.0674999999999999 -0.432373 0.048431 -0.018118 -0.009840 -0.025886 -0.005033 0.045853 0.152557 
2.0687500000000001 -0.435761 0.077637 -0.018962 -0.008897 -0.026442 -0.002523 0.050590 0.152817 
2.0699999999999998 -0.439651 0.111252 -0.020518 -0.007779 -0.026710 -0.000189 0.055832 0.152565 
2.0712500000000000 -0.440613 0.145630 -0.021667 -0.006382 -0.026945 0.002443 0.060608 0.152008 
2.0724999999999998 -0.440491 0.180511 -0.022625 -0.004244 -0.026749 0.005188 0.065140 0.152100 
2.0737500000000000 -0.438141 0.220673 -0.023771 -0.002663 -0.026314 0.007898 0.070480 0.152374 
2.0750000000000002 -0.431457 0.260773 -0.025030 -0.000586 -0.025663 0.010080 0.076630 0.151291 
2.0762499999999999 -0.422974 0.305756 -0.025869 0.001516 -0.024374 0.012447 0.080521 0.150589 
2.0775000000000001 -0.410950 0.353577 -0.025923 0.003710 -0.023169 0.014570 0.085846 0.149521 
2.0787499999999999 -0.390991 0.401031 -0.026960 0.006523 -0.021765 0.016985 0.090591 0.147583 
2.0800000000000001 -0.366013 0.454559 -0.027154 0.009071 -0.020229 0.018970 0.094215 0.145798 
2.0812499999999998 -0.336914 0.508881 -0.027458 0.012432 -0.018480 0.020346 0.099442 0.143646 
2.0825000000000000 -0.291840 0.562836 -0.027187 0.015379 -0.016148 0.022541 0.102966 0.139938 
2.0837500000000002 -0.238648 0.618744 -0.026834 0.018820 -0.014229 0.023918 0.107422 0.136658 
2.0850000000000000 -0.173645 0.671326 -0.025482 0.022808 -0.011436 0.025553 0.112320 0.133240 
2.0862500000000002 -0.098236 0.717224 -0.024256 0.027012 -0.009237 0.025835 0.116608 0.129242 
2.0874999999999999 -0.006042 0.756897 -0.021631 0.031656 -0.006554 0.026384 0.121399 0.125000 
2.0887500000000001 0.101990 0.778320 -0.017780 0.036268 -0.004049 0.026627 0.125259 0.121414 
2.0899999999999999 0.222351 0.782104 -0.012928 0.039223 -0.001872 0.026407 0.129623 0.117241 
2.0912500000000001 0.345093 0.765747 -0.006973 0.042366 0.000286 0.026222 0.132431 0.113617 
2.0924999999999998 0.465149 0.724731 -0.000086 0.043594 0.001884 0.025709 0.135475 0.109749 
2.0937500000000000 0.578674 0.647583 0.006538 0.043118 0.003805 0.025610 0.137703 0.105286 
2.0950000000000002 0.675049 0.560059 0.013708 0.041527 0.005288 0.025621 0.140190 0.100533 
2.0962499999999999 0.750519 0.448456 0.019299 0.038233 0.007456 0.025579 0.141388 0.095932 
2.0975000000000001 0.791870 0.328125 0.023659 0.034369 0.009677 0.025596 0.142570 0.092056 
2.0987499999999999 0.814514 0.202576 0.027431 0.029865 0.012243 0.025000 0.143707 0.087158 
2.1000000000000001 0.809998 0.083069 0.030340 0.025515 0.015030 0.024576 0.143768 0.081726 
2.1012499999999998 0.789551 -0.019959 0.032389 0.020920 0.017487 0.023224 0.144898 0.076996 
2.1025000000000000 0.752991 -0.111816 0.033619 0.015694 0.019545 0.021870 0.146103 0.071869 
2.1037499999999998 0.705750 -0.191833 0.034111 0.011574 0.021631 0.020479 0.146515 0.067841 
2.1050000000000000 0.653442 -0.257202 0.034084 0.007301 0.024382 0.018702 0.147217 0.063583 
2.1062500000000002 0.600159 -0.310120 0.033482 0.003157 0.026786 0.016533 0.147240 0.059853 
2.1074999999999999 0.544739 -0.350311 0.032713 -0.000671 0.028898 0.013554 0.147446 0.056114 
2.1087500000000001 0.491959 -0.384430 0.030722 -0.003756 0.030588 0.010321 0.147209 0.052315 
2.1099999999999999 0.437363 -0.407608 0.028684 -0.006497 0.032230 0.006584 0.147018 0.049362 
2.1112500000000001 0.389709 -0.425995 0.026998 -0.008494 0.032341 0.002842 0.146568 0.046814 
2.1124999999999998 0.341171 -0.438538 0.024524 -0.010805 0.032114 -0.000864 0.145119 0.043289 
2.1137500000000000 0.297119 -0.448639 0.022542 -0.011997 0.031755 -0.004179 0.144226 0.039886 
2.1150000000000002 0.256195 -0.453155 0.020863 -0.012975 0.030455 -0.007437 0.143120 0.036819 
2.1162500000000000 0.217987 -0.455963 0.019339 -0.014073 0.029280 -0.009863 0.141945 0.034058 
2.1175000000000002 0.181702 -0.455612 0.018322 -0.014881 0.027949 -0.012719 0.140900 0.031029 
2.1187499999999999 0.147781 -0.453155 0.016665 -0.015845 0.026148 -0.014857 0.140396 0.028084 
2.1200000000000001 0.115707 -0.450241 0.015153 -0.016575 0.024601 -0.017342 0.139961 0.025581 
2.1212499999999999 0.086411 -0.444534 0.013764 -0.017736 0.022740 -0.019382 0.139221 0.022903 
2.1225000000000001 0.057724 -0.438507 0.012278 -0.018359 0.020254 -0.021433 0.139191 0.021149 
2.1237499999999998 0.032150 -0.431824 0.010424 -0.018936 0.018085 -0.022697 0.139053 0.019043 
2.1250000000000000 0.007553 -0.422577 0.009105 -0.019362 0.015937 -0.023903 0.138054 0.017365 
2.1262500000000002 -0.016373 -0.416077 0.006958 -0.019561 0.013639 -0.024965 0.137962 0.015915 
2.1274999999999999 -0.037476 -0.406479 0.005562 -0.019743 0.011360 -0.026057 0.137207 0.014359 
2.1287500000000001 -0.057983 -0.398346 0.004075 -0.019407 0.009565 -0.026351 0.136490 0.012749 
2.1299999999999999 -0.077423 -0.388840 0.002812 -0.019220 0.007010 -0.027213 0.135407 0.010902 
2.1312500000000001 -0.096970 -0.376785 0.001726 -0.019172 0.005016 -0.027442 0.133957 0.008339 
2.1324999999999998 -0.114975 -0.367554 0.000764 -0.019066 0.002481 -0.027973 0.133278 0.006576 
2.1337500000000000 -0.130707 -0.356354 -0.000616 -0.019343 -0.000195 -0.028345 0.132103 0.003807 
2.1349999999999998 -0.146668 -0.346314 -0.001615 -0.019247 -0.002605 -0.027834 0.132240 0.001869 
2.1362500000000000 -0.162537 -0.334839 -0.003040 -0.019204 -0.005165 -0.028498 0.132507 -0.001228 
2.1375000000000002 -0.177277 -0.322998 -0.004420 -0.018879 -0.007574 -0.027678 0.132538 -0.002815 
2.1387499999999999 -0.191345 -0.310455 -0.006057 -0.019024 -0.009590 -0.026770 0.131752 -0.005219 
2.1400000000000001 -0.205109 -0.297729 -0.007343 -0.018311 -0.012087 -0.025747 0.131279 -0.007248 
2.1412499999999999 -0.218170 -0.285126 -0.008768 -0.017797 -0.014406 -0.024149 0.131203 -0.008896 
2.1425000000000001 -0.232178 -0.271790 -0.010298 -0.016880 -0.016249 -0.023249 0.130653 -0.011040 
2.1437499999999998 -0.242981 -0.259674 -0.011427 -0.016253 -0.018415 -0.021669 0.129646 -0.013123 
2.1450000000000000 -0.254852 -0.245026 -0.012300 -0.015411 -0.020531 -0.020147 0.128464 -0.015175 
2.1462500000000002 -0.266602 -0.230835 -0.013216 -0.014481 -0.022329 -0.018515 0.127510 -0.017670 
2.1475000000000000 -0.277924 -0.216644 -0.013994 -0.013779 -0.024059 -0.016104 0.125526 -0.020134 
2.1487500000000002 -0.287537 -0.200592 -0.014875 -0.012827 -0.025259 -0.013786 0.124809 -0.023384 
2.1499999999999999 -0.299347 -0.184967 -0.016129 -0.012098 -0.026489 -0.011772 0.123024 -0.026321 
2.1512500000000001 -0.308655 -0.169037 -0.017061 -0.011385 -0.027123 -0.008972 0.121582 -0.028976 
