!
! C:\Users\rflab\Downloads\Lab5_KD_ZW\100.S2P
!
! Touchstone 1.1 file saved by VNA.EXE V1.65 (www.ke5fx.com/gpib/readme.htm)
! 11/11/2024 11:44:56 PM
!
!    Source: HEWLETT PACKARD,8753D,0,6.14
!  Min freq: 1.900000E+009 Hz
!  Max freq: 2.900000E+009 Hz
!    Points: 801
!    Params: S11 S21 S12 S22
!
!!!!!
# GHZ S RI R 50
1.8999999999999999 0.963501 0.272949 0.009307 0.004340 0.004450 0.003160 0.024040 -0.058876 
1.9012500000000001 0.960022 0.136658 0.008838 0.002747 0.004641 0.002576 0.021343 -0.059248 
1.9025000000000001 0.931641 0.015625 0.009087 0.001762 0.004568 0.002149 0.018942 -0.059656 
1.9037500000000001 0.889404 -0.093933 0.008718 0.000087 0.005043 0.001819 0.016609 -0.059727 
1.9050000000000000 0.846619 -0.178833 0.008207 -0.001117 0.005172 0.001489 0.014154 -0.059355 
1.9062500000000000 0.785309 -0.255920 0.007727 -0.001906 0.005337 0.001059 0.011887 -0.058649 
1.9075000000000000 0.726349 -0.318481 0.007113 -0.002338 0.005564 0.000548 0.009254 -0.057840 
1.9087499999999999 0.664398 -0.369232 0.006759 -0.003167 0.005516 0.000124 0.006306 -0.056448 
1.9099999999999999 0.603790 -0.411682 0.005691 -0.003881 0.005715 -0.000501 0.003695 -0.055193 
1.9112499999999999 0.546356 -0.441833 0.005502 -0.004074 0.005471 -0.001103 0.000637 -0.054146 
1.9125000000000001 0.491547 -0.466248 0.004792 -0.004252 0.005464 -0.001438 -0.002241 -0.052908 
1.9137500000000001 0.440399 -0.485825 0.004205 -0.004701 0.005050 -0.001669 -0.005257 -0.052090 
1.9150000000000000 0.389694 -0.499878 0.003545 -0.004374 0.005151 -0.002192 -0.008005 -0.050602 
1.9162500000000000 0.342285 -0.508423 0.003187 -0.004417 0.004993 -0.002353 -0.010981 -0.049290 
1.9175000000000000 0.299805 -0.514679 0.002657 -0.004950 0.004896 -0.003240 -0.013083 -0.048403 
1.9187500000000000 0.259674 -0.518005 0.002388 -0.004729 0.004474 -0.003496 -0.014870 -0.047365 
1.9199999999999999 0.221527 -0.516815 0.001623 -0.004954 0.004099 -0.004053 -0.016771 -0.045084 
1.9212499999999999 0.186615 -0.515320 0.001441 -0.004731 0.003646 -0.004354 -0.018564 -0.043976 
1.9225000000000001 0.151184 -0.513519 0.000770 -0.004833 0.003461 -0.004748 -0.020281 -0.041443 
1.9237500000000001 0.119019 -0.509094 0.000587 -0.004685 0.003117 -0.005003 -0.021687 -0.039165 
1.9250000000000000 0.089508 -0.504639 0.000293 -0.004690 0.002311 -0.005489 -0.023373 -0.037083 
1.9262500000000000 0.060455 -0.498810 -0.000067 -0.004641 0.001902 -0.005268 -0.025055 -0.034248 
1.9275000000000000 0.034607 -0.492706 -0.000591 -0.004484 0.001447 -0.005338 -0.026596 -0.031689 
1.9287500000000000 0.006897 -0.484711 -0.000741 -0.004410 0.000982 -0.005252 -0.028469 -0.029575 
1.9299999999999999 -0.015106 -0.476715 -0.001103 -0.004113 0.000418 -0.005596 -0.030098 -0.027298 
1.9312499999999999 -0.037842 -0.467407 -0.001142 -0.003729 -0.000176 -0.005588 -0.031487 -0.025623 
1.9325000000000001 -0.061707 -0.456635 -0.001575 -0.003940 -0.000570 -0.005315 -0.032948 -0.023693 
1.9337500000000001 -0.082306 -0.446976 -0.001719 -0.003706 -0.001157 -0.005139 -0.033880 -0.022131 
1.9350000000000001 -0.104263 -0.437241 -0.001925 -0.003491 -0.001643 -0.005123 -0.034548 -0.020613 
1.9362500000000000 -0.122681 -0.427246 -0.002162 -0.003254 -0.002211 -0.005119 -0.034712 -0.019108 
1.9375000000000000 -0.142090 -0.416321 -0.002398 -0.003282 -0.002475 -0.004853 -0.035099 -0.017378 
1.9387500000000000 -0.159531 -0.404388 -0.002506 -0.003077 -0.002933 -0.004549 -0.035297 -0.015352 
1.9399999999999999 -0.177536 -0.392288 -0.002773 -0.002984 -0.003301 -0.004610 -0.035612 -0.013418 
1.9412499999999999 -0.194351 -0.380112 -0.002896 -0.002593 -0.003587 -0.004082 -0.035643 -0.011694 
1.9424999999999999 -0.210495 -0.368988 -0.002990 -0.002424 -0.003861 -0.003530 -0.036039 -0.009396 
1.9437500000000001 -0.227493 -0.355042 -0.003068 -0.002280 -0.004064 -0.003562 -0.036602 -0.007931 
1.9450000000000001 -0.243484 -0.340698 -0.003453 -0.001947 -0.004689 -0.003104 -0.037359 -0.006346 
1.9462500000000000 -0.258957 -0.327362 -0.003546 -0.001886 -0.004795 -0.002697 -0.038361 -0.005238 
1.9475000000000000 -0.273438 -0.313492 -0.003555 -0.001456 -0.004872 -0.002156 -0.039024 -0.004189 
1.9487500000000000 -0.289002 -0.299301 -0.003672 -0.001452 -0.005152 -0.001820 -0.040169 -0.003508 
1.9500000000000000 -0.301636 -0.284134 -0.003819 -0.001155 -0.005622 -0.001615 -0.040485 -0.002823 
1.9512499999999999 -0.315842 -0.268768 -0.003749 -0.000922 -0.005426 -0.001193 -0.041483 -0.002689 
1.9524999999999999 -0.329437 -0.252640 -0.003951 -0.000749 -0.005800 -0.000834 -0.041744 -0.002258 
1.9537500000000001 -0.343185 -0.235916 -0.004075 -0.000226 -0.005659 0.000082 -0.042156 -0.001736 
1.9550000000000001 -0.355393 -0.218185 -0.004078 -0.000093 -0.005576 0.000730 -0.042360 -0.000872 
1.9562500000000000 -0.365662 -0.199448 -0.004081 0.000281 -0.005552 0.001016 -0.043142 0.000214 
1.9575000000000000 -0.380203 -0.180176 -0.004212 0.000257 -0.005471 0.001610 -0.044077 0.000648 
1.9587500000000000 -0.392304 -0.158814 -0.004213 0.000715 -0.005424 0.001769 -0.045250 0.001955 
1.9600000000000000 -0.402206 -0.138931 -0.004220 0.001246 -0.005344 0.002583 -0.046200 0.003239 
1.9612499999999999 -0.414276 -0.116669 -0.004137 0.001485 -0.004908 0.002898 -0.048021 0.003777 
1.9624999999999999 -0.425049 -0.093933 -0.003972 0.001906 -0.004525 0.003401 -0.050083 0.005135 
1.9637500000000001 -0.436218 -0.068756 -0.003999 0.001997 -0.004323 0.003581 -0.051960 0.006149 
1.9650000000000001 -0.445831 -0.042755 -0.003820 0.002400 -0.004301 0.004354 -0.053658 0.006523 
1.9662500000000001 -0.454651 -0.014435 -0.003884 0.002502 -0.003889 0.004527 -0.055985 0.007477 
1.9675000000000000 -0.461853 0.013794 -0.003873 0.002928 -0.003068 0.004816 -0.057499 0.008492 
1.9687500000000000 -0.468384 0.047089 -0.003592 0.003264 -0.002871 0.005079 -0.059305 0.009428 
1.9700000000000000 -0.476059 0.080200 -0.003853 0.003699 -0.002285 0.005231 -0.060452 0.010658 
1.9712499999999999 -0.480728 0.117554 -0.003393 0.004024 -0.001853 0.005700 -0.062531 0.012604 
1.9724999999999999 -0.482529 0.153626 -0.003303 0.004613 -0.001250 0.005908 -0.063557 0.014431 
1.9737499999999999 -0.486054 0.196609 -0.002841 0.005014 -0.001025 0.005877 -0.065094 0.017040 
1.9750000000000001 -0.483994 0.240402 -0.002547 0.005341 -0.000471 0.005852 -0.067139 0.019608 
1.9762500000000001 -0.480530 0.288025 -0.002079 0.005553 0.000265 0.005811 -0.068893 0.022812 
1.9775000000000000 -0.470154 0.337341 -0.001507 0.006246 0.000812 0.006074 -0.071087 0.025623 
1.9787500000000000 -0.458313 0.391113 -0.001110 0.006513 0.001468 0.006025 -0.072918 0.028404 
1.9800000000000000 -0.435974 0.445801 -0.000325 0.006751 0.002073 0.005803 -0.074703 0.031647 
1.9812500000000000 -0.409790 0.510864 0.000353 0.006993 0.002282 0.005176 -0.076355 0.034172 
1.9824999999999999 -0.370911 0.572632 0.000935 0.007359 0.002909 0.004954 -0.078094 0.036991 
1.9837499999999999 -0.327576 0.638611 0.001507 0.007574 0.003744 0.004877 -0.078659 0.040157 
1.9850000000000001 -0.264130 0.701660 0.002685 0.007596 0.003742 0.004641 -0.079391 0.043159 
1.9862500000000001 -0.193237 0.762939 0.003493 0.007751 0.004288 0.004233 -0.079918 0.046474 
1.9875000000000000 -0.101501 0.817078 0.004897 0.007539 0.004529 0.003612 -0.079895 0.049873 
1.9887500000000000 0.007751 0.856201 0.006077 0.007010 0.004684 0.003180 -0.079823 0.053688 
1.9900000000000000 0.129700 0.883057 0.008056 0.006560 0.005364 0.002634 -0.079380 0.057690 
1.9912500000000000 0.262634 0.886597 0.008921 0.005612 0.005052 0.002238 -0.078270 0.062183 
1.9924999999999999 0.408936 0.864319 0.009717 0.003764 0.005384 0.001854 -0.078072 0.066433 
1.9937499999999999 0.538086 0.801941 0.010523 0.002784 0.005476 0.001264 -0.077644 0.070580 
1.9950000000000001 0.662842 0.713745 0.010548 0.000917 0.005882 0.000653 -0.077145 0.074669 
1.9962500000000001 0.771240 0.601623 0.010591 -0.001171 0.005555 0.000493 -0.076080 0.078327 
1.9975000000000001 0.848267 0.474365 0.010461 -0.002198 0.005659 -0.000074 -0.075661 0.082321 
1.9987500000000000 0.889710 0.327332 0.009346 -0.003624 0.005782 -0.000257 -0.074188 0.085243 
2.0000000000000000 0.905151 0.199890 0.008124 -0.004796 0.005771 -0.000676 -0.072231 0.088123 
2.0012500000000002 0.896790 0.071167 0.007461 -0.005805 0.005870 -0.001649 -0.069775 0.091351 
2.0024999999999999 0.862000 -0.042114 0.006145 -0.006228 0.005615 -0.001778 -0.067348 0.094223 
2.0037500000000001 0.818176 -0.137329 0.005231 -0.006887 0.005638 -0.002556 -0.064629 0.097446 
2.0049999999999999 0.765442 -0.219177 0.003999 -0.007332 0.005442 -0.002967 -0.061012 0.100098 
2.0062500000000001 0.704468 -0.288086 0.002830 -0.007163 0.005220 -0.003399 -0.058514 0.103256 
2.0074999999999998 0.648773 -0.345612 0.002131 -0.007396 0.004977 -0.004169 -0.055023 0.105808 
2.0087500000000000 0.585724 -0.385071 0.001469 -0.007088 0.004478 -0.004707 -0.052025 0.108524 
2.0099999999999998 0.528595 -0.417542 0.000819 -0.006952 0.003757 -0.005044 -0.049297 0.111240 
2.0112500000000000 0.474029 -0.441071 0.000073 -0.006426 0.003675 -0.005263 -0.046703 0.113254 
2.0125000000000002 0.421265 -0.461731 -0.000938 -0.006067 0.002932 -0.005813 -0.043724 0.115421 
2.0137499999999999 0.371704 -0.473602 -0.001296 -0.005803 0.002258 -0.005953 -0.041256 0.116535 
2.0150000000000001 0.326187 -0.486526 -0.001301 -0.005752 0.001666 -0.006293 -0.037968 0.117363 
2.0162499999999999 0.282700 -0.491959 -0.001792 -0.005427 0.001137 -0.006226 -0.035557 0.118137 
2.0175000000000001 0.242294 -0.493393 -0.002050 -0.005036 0.000265 -0.006266 -0.033024 0.117874 
2.0187499999999998 0.205460 -0.493439 -0.002278 -0.004517 -0.000108 -0.006228 -0.029766 0.118397 
2.0200000000000000 0.170487 -0.490112 -0.002562 -0.004584 -0.000864 -0.006224 -0.026451 0.118286 
2.0212500000000002 0.136215 -0.487381 -0.002973 -0.004082 -0.001137 -0.006033 -0.023724 0.118408 
2.0225000000000000 0.106216 -0.482895 -0.003430 -0.003703 -0.001992 -0.005988 -0.020538 0.119007 
2.0237500000000002 0.076447 -0.477783 -0.003311 -0.003372 -0.002281 -0.005746 -0.017700 0.118546 
2.0249999999999999 0.049500 -0.470917 -0.003550 -0.002958 -0.002891 -0.005388 -0.015945 0.119362 
2.0262500000000001 0.023498 -0.463471 -0.003743 -0.002898 -0.003429 -0.005229 -0.013481 0.120277 
2.0274999999999999 0.000122 -0.454651 -0.003590 -0.002254 -0.004313 -0.004774 -0.011536 0.119858 
2.0287500000000001 -0.025574 -0.447022 -0.003920 -0.002399 -0.004507 -0.004708 -0.010284 0.120117 
2.0299999999999998 -0.046906 -0.437347 -0.003829 -0.001711 -0.004835 -0.003914 -0.009354 0.119858 
2.0312500000000000 -0.068817 -0.427551 -0.003891 -0.001363 -0.004819 -0.003400 -0.008202 0.119446 
2.0325000000000002 -0.087799 -0.416870 -0.004143 -0.001134 -0.004958 -0.003027 -0.007774 0.119255 
2.0337499999999999 -0.108246 -0.407654 -0.004173 -0.000762 -0.005887 -0.002515 -0.007019 0.119202 
2.0350000000000001 -0.127533 -0.397186 -0.004066 -0.000664 -0.005544 -0.002309 -0.005951 0.118942 
2.0362499999999999 -0.144531 -0.385651 -0.003889 -0.000283 -0.005947 -0.001407 -0.005112 0.118507 
2.0375000000000001 -0.160583 -0.374542 -0.003957 -0.000062 -0.005962 -0.000960 -0.003616 0.118942 
2.0387499999999998 -0.176483 -0.363129 -0.004071 0.000077 -0.005955 -0.000343 -0.003227 0.119194 
2.0400000000000000 -0.193207 -0.351746 -0.003963 0.000436 -0.005786 0.000184 -0.002350 0.120400 
2.0412499999999998 -0.207886 -0.339417 -0.003911 0.000866 -0.005809 0.000626 -0.001114 0.121384 
2.0425000000000000 -0.222382 -0.325806 -0.003895 0.001039 -0.006055 0.000932 -0.000687 0.122612 
2.0437500000000002 -0.236786 -0.315430 -0.003773 0.001283 -0.005875 0.001833 -0.000313 0.123924 
2.0449999999999999 -0.250641 -0.301117 -0.003643 0.001614 -0.005654 0.002316 0.000229 0.125359 
2.0462500000000001 -0.262604 -0.286713 -0.003489 0.002039 -0.005267 0.002630 0.000702 0.126877 
2.0474999999999999 -0.276276 -0.273987 -0.003371 0.002048 -0.005171 0.003099 0.001267 0.128532 
2.0487500000000001 -0.288574 -0.258728 -0.003117 0.002207 -0.004630 0.003602 0.002296 0.130547 
2.0499999999999998 -0.300903 -0.243500 -0.003176 0.002175 -0.004615 0.003905 0.003449 0.131836 
2.0512500000000000 -0.312103 -0.227325 -0.002837 0.002472 -0.003898 0.004421 0.005127 0.132805 
2.0525000000000002 -0.324524 -0.212280 -0.002675 0.002688 -0.003840 0.004446 0.006805 0.134560 
2.0537500000000000 -0.334686 -0.195404 -0.002580 0.002975 -0.003486 0.005007 0.008949 0.137360 
2.0550000000000002 -0.346191 -0.178925 -0.002366 0.003335 -0.003218 0.005783 0.011498 0.139023 
2.0562499999999999 -0.357056 -0.161255 -0.001938 0.003618 -0.002383 0.005797 0.014084 0.140961 
2.0575000000000001 -0.367004 -0.141907 -0.002030 0.003639 -0.002155 0.005905 0.016876 0.143425 
2.0587499999999999 -0.377014 -0.122833 -0.001807 0.003830 -0.001454 0.006002 0.019852 0.145615 
2.0600000000000001 -0.387573 -0.101654 -0.001546 0.004201 -0.000942 0.006080 0.022339 0.148224 
2.0612499999999998 -0.396332 -0.080765 -0.001236 0.004459 -0.000230 0.006262 0.025711 0.150619 
2.0625000000000000 -0.403702 -0.056290 -0.001110 0.004635 0.000175 0.006206 0.028885 0.152206 
2.0637500000000002 -0.411575 -0.033661 -0.000471 0.004372 0.000627 0.006080 0.032105 0.153305 
2.0649999999999999 -0.419266 -0.007980 -0.000168 0.004597 0.001291 0.005947 0.036301 0.154846 
2.0662500000000001 -0.425186 0.020111 0.000061 0.004497 0.001832 0.005998 0.040062 0.155342 
2.0674999999999999 -0.432373 0.047226 0.000519 0.004539 0.002388 0.005780 0.044113 0.155251 
2.0687500000000001 -0.436081 0.077331 0.000835 0.004727 0.003040 0.005555 0.048973 0.156662 
2.0699999999999998 -0.440308 0.109558 0.001322 0.004919 0.003587 0.005263 0.054031 0.156227 
2.0712500000000000 -0.441956 0.142975 0.001747 0.004704 0.003882 0.004683 0.059936 0.155838 
2.0724999999999998 -0.442291 0.178711 0.002360 0.004941 0.004376 0.004241 0.065063 0.155594 
2.0737500000000000 -0.439331 0.218689 0.002411 0.004854 0.004593 0.003950 0.070099 0.155991 
2.0750000000000002 -0.432953 0.259399 0.003171 0.004562 0.005059 0.003511 0.075928 0.154922 
2.0762499999999999 -0.425629 0.303436 0.003520 0.004629 0.005699 0.002754 0.080704 0.154022 
2.0775000000000001 -0.413849 0.351959 0.004220 0.004537 0.005877 0.002534 0.085617 0.152466 
2.0787499999999999 -0.394165 0.400330 0.004617 0.004018 0.006276 0.001855 0.090256 0.150772 
2.0800000000000001 -0.371704 0.453018 0.004950 0.003559 0.005937 0.001511 0.095459 0.147881 
2.0812499999999998 -0.340271 0.506958 0.005835 0.003368 0.005985 0.000504 0.099548 0.145309 
2.0825000000000000 -0.297028 0.562134 0.006391 0.002829 0.006328 -0.000082 0.104340 0.142334 
2.0837500000000002 -0.248505 0.618073 0.006917 0.002571 0.006023 -0.000686 0.108780 0.138519 
2.0850000000000000 -0.179962 0.670349 0.007661 0.001640 0.005952 -0.001198 0.113220 0.134506 
2.0862500000000002 -0.103516 0.718109 0.007718 0.000947 0.005754 -0.001583 0.117630 0.130508 
2.0874999999999999 -0.011963 0.757141 0.008151 -0.000071 0.005494 -0.002137 0.122208 0.126511 
2.0887500000000001 0.095215 0.783691 0.008537 -0.001235 0.005228 -0.002361 0.126373 0.122482 
2.0899999999999999 0.215698 0.789490 0.008476 -0.002837 0.004889 -0.003258 0.130272 0.118118 
2.0912500000000001 0.332642 0.771973 0.008537 -0.004182 0.004745 -0.003538 0.133301 0.114182 
2.0924999999999998 0.459290 0.726990 0.007554 -0.005522 0.004257 -0.003510 0.135963 0.109421 
2.0937500000000000 0.576660 0.656433 0.006775 -0.006228 0.003887 -0.003752 0.138214 0.105492 
2.0950000000000002 0.671448 0.569336 0.005780 -0.007375 0.003555 -0.004114 0.139694 0.100327 
2.0962499999999999 0.749725 0.454681 0.004496 -0.007846 0.003340 -0.004447 0.141678 0.095894 
2.0975000000000001 0.795410 0.329620 0.002866 -0.008281 0.003154 -0.004764 0.142044 0.091331 
2.0987499999999999 0.810547 0.205078 0.002088 -0.008386 0.002718 -0.005300 0.143341 0.086533 
2.1000000000000001 0.811951 0.086426 0.000836 -0.008420 0.002344 -0.005487 0.143738 0.081207 
2.1012499999999998 0.790588 -0.018860 -0.000412 -0.008011 0.001899 -0.005731 0.144272 0.076096 
2.1025000000000000 0.755249 -0.112305 -0.001400 -0.007691 0.001042 -0.005929 0.144958 0.071320 
2.1037499999999998 0.710754 -0.190430 -0.001968 -0.007090 0.000451 -0.006222 0.145340 0.066803 
2.1050000000000000 0.656738 -0.258057 -0.002922 -0.006644 0.000074 -0.005984 0.145874 0.062866 
2.1062500000000002 0.601318 -0.309692 -0.003179 -0.006131 -0.000767 -0.006070 0.145676 0.058777 
2.1074999999999999 0.546387 -0.351227 -0.003844 -0.005248 -0.001065 -0.006291 0.145607 0.054939 
2.1087500000000001 0.492798 -0.384094 -0.004339 -0.004666 -0.001966 -0.006572 0.145264 0.051476 
2.1099999999999999 0.439728 -0.408386 -0.004517 -0.004071 -0.002761 -0.005838 0.145096 0.048805 
2.1112500000000001 0.390701 -0.426148 -0.004518 -0.003554 -0.002927 -0.005837 0.143799 0.045555 
2.1124999999999998 0.342560 -0.438995 -0.004695 -0.002873 -0.003964 -0.005138 0.142586 0.042267 
2.1137500000000000 0.299194 -0.449203 -0.004490 -0.002492 -0.004205 -0.004623 0.141792 0.039169 
2.1150000000000002 0.258133 -0.453659 -0.004458 -0.001757 -0.004448 -0.003892 0.140633 0.036369 
2.1162500000000000 0.219666 -0.456818 -0.004418 -0.001407 -0.005021 -0.003701 0.139427 0.033745 
2.1175000000000002 0.182983 -0.456284 -0.004296 -0.001478 -0.005492 -0.002955 0.138496 0.030571 
2.1187499999999999 0.150192 -0.453613 -0.004466 -0.000871 -0.005684 -0.002451 0.137810 0.027954 
2.1200000000000001 0.118210 -0.450867 -0.004583 -0.000813 -0.005347 -0.002013 0.137520 0.025940 
2.1212499999999999 0.088394 -0.444992 -0.004387 -0.000516 -0.005274 -0.001823 0.136780 0.023056 
2.1225000000000001 0.059860 -0.438873 -0.004297 0.000035 -0.005845 -0.001355 0.136673 0.021812 
2.1237499999999998 0.034378 -0.432251 -0.004422 0.000260 -0.005663 -0.000350 0.136169 0.019653 
2.1250000000000000 0.009170 -0.422791 -0.004073 0.000659 -0.005818 0.000125 0.135513 0.017845 
2.1262500000000002 -0.014389 -0.416596 -0.004025 0.001075 -0.005419 0.000414 0.135140 0.016472 
2.1274999999999999 -0.035263 -0.407944 -0.003940 0.001271 -0.005514 0.000957 0.134293 0.015053 
2.1287500000000001 -0.056732 -0.398224 -0.003495 0.001449 -0.005002 0.001584 0.133881 0.013840 
2.1299999999999999 -0.075714 -0.388916 -0.003715 0.001508 -0.005246 0.001607 0.132652 0.011818 
2.1312500000000001 -0.094055 -0.378037 -0.003438 0.001583 -0.005242 0.002093 0.131828 0.009186 
2.1324999999999998 -0.113052 -0.369019 -0.003403 0.001744 -0.004674 0.002551 0.131386 0.007538 
2.1337500000000000 -0.128815 -0.356598 -0.003027 0.002087 -0.004456 0.002776 0.130966 0.005051 
2.1349999999999998 -0.144501 -0.347046 -0.002847 0.002406 -0.004572 0.003471 0.130631 0.003227 
2.1362500000000000 -0.161224 -0.334930 -0.002750 0.002512 -0.003995 0.003740 0.131386 0.000519 
2.1375000000000002 -0.175568 -0.324036 -0.002651 0.002506 -0.003809 0.004018 0.131332 -0.001755 
2.1387499999999999 -0.190460 -0.310608 -0.002414 0.002708 -0.003592 0.004332 0.130943 -0.003860 
2.1400000000000001 -0.203583 -0.298767 -0.002231 0.003089 -0.002842 0.004433 0.130928 -0.005592 
2.1412499999999999 -0.217163 -0.285767 -0.001870 0.003161 -0.002640 0.004687 0.130318 -0.007401 
2.1425000000000001 -0.230591 -0.272644 -0.001527 0.003440 -0.002068 0.004688 0.129883 -0.009964 
2.1437499999999998 -0.241730 -0.260925 -0.001611 0.003423 -0.001648 0.005016 0.129730 -0.011887 
2.1450000000000000 -0.253510 -0.245941 -0.001232 0.003383 -0.001303 0.005174 0.128670 -0.013779 
2.1462500000000002 -0.265778 -0.231903 -0.001092 0.003750 -0.001047 0.005183 0.127655 -0.016563 
2.1475000000000000 -0.276886 -0.217590 -0.000671 0.003630 -0.000262 0.005215 0.126205 -0.018997 
2.1487500000000002 -0.286652 -0.201782 -0.000602 0.003537 0.000390 0.005355 0.125298 -0.021721 
2.1499999999999999 -0.297882 -0.186432 -0.000438 0.003653 0.000416 0.005583 0.123795 -0.024796 
2.1512500000000001 -0.307495 -0.170471 -0.000300 0.003999 0.000878 0.005360 0.122643 -0.027756 
