!
! C:\Users\rflab\Downloads\Lab5_KD_ZW\110.S2P
!
! Touchstone 1.1 file saved by VNA.EXE V1.65 (www.ke5fx.com/gpib/readme.htm)
! 11/11/2024 11:46:11 PM
!
!    Source: HEWLETT PACKARD,8753D,0,6.14
!  Min freq: 1.900000E+009 Hz
!  Max freq: 2.900000E+009 Hz
!    Points: 801
!    Params: S11 S21 S12 S22
!
!!!!!
# GHZ S RI R 50
1.8999999999999999 0.960205 0.270142 0.008727 0.001538 0.004645 0.001972 0.023546 -0.059402 
1.9012500000000001 0.958252 0.138245 0.008893 0.000650 0.004608 0.001711 0.021063 -0.059597 
1.9025000000000001 0.931580 0.011169 0.008645 -0.000495 0.004576 0.001235 0.018509 -0.059757 
1.9037500000000001 0.892822 -0.093018 0.008061 -0.001929 0.004803 0.000885 0.016224 -0.060268 
1.9050000000000000 0.845520 -0.181976 0.007218 -0.002440 0.004844 0.000629 0.013615 -0.059023 
1.9062500000000000 0.785187 -0.257752 0.007001 -0.002872 0.004905 0.000018 0.011063 -0.058184 
1.9075000000000000 0.724304 -0.320313 0.006366 -0.003675 0.005350 -0.000431 0.009005 -0.057346 
1.9087499999999999 0.664002 -0.370972 0.005537 -0.004478 0.005166 -0.000902 0.005955 -0.056244 
1.9099999999999999 0.603607 -0.411224 0.004628 -0.004400 0.005107 -0.001403 0.003286 -0.054632 
1.9112499999999999 0.547058 -0.444000 0.004120 -0.004925 0.005001 -0.001920 -0.000078 -0.053202 
1.9125000000000001 0.490387 -0.469208 0.003492 -0.004906 0.004415 -0.002211 -0.003113 -0.051855 
1.9137500000000001 0.439316 -0.486069 0.002652 -0.004777 0.004523 -0.002854 -0.005896 -0.050676 
1.9150000000000000 0.388443 -0.498932 0.002314 -0.004854 0.004211 -0.003056 -0.008772 -0.049664 
1.9162500000000000 0.340668 -0.510223 0.001621 -0.004765 0.003911 -0.003343 -0.011404 -0.048422 
1.9175000000000000 0.300079 -0.513489 0.001663 -0.004984 0.003535 -0.003927 -0.013573 -0.046984 
1.9187500000000000 0.257629 -0.517761 0.001164 -0.004842 0.003450 -0.004145 -0.015497 -0.045589 
1.9199999999999999 0.220764 -0.517395 0.000724 -0.004834 0.002927 -0.004297 -0.017475 -0.043694 
1.9212499999999999 0.185364 -0.516052 0.000385 -0.004661 0.002529 -0.004610 -0.019321 -0.042095 
1.9225000000000001 0.151184 -0.513733 0.000097 -0.004724 0.001829 -0.004817 -0.020794 -0.039675 
1.9237500000000001 0.117737 -0.509949 -0.000589 -0.004535 0.001344 -0.005204 -0.022030 -0.037628 
1.9250000000000000 0.088470 -0.504089 -0.000532 -0.004203 0.000975 -0.005053 -0.024044 -0.035183 
1.9262500000000000 0.058960 -0.499207 -0.001129 -0.004237 0.000426 -0.005089 -0.025543 -0.032829 
1.9275000000000000 0.034271 -0.492676 -0.001421 -0.004075 0.000088 -0.005234 -0.026924 -0.030289 
1.9287500000000000 0.006561 -0.484497 -0.001560 -0.003651 -0.000206 -0.004909 -0.028732 -0.027901 
1.9299999999999999 -0.015594 -0.476196 -0.001667 -0.003438 -0.000810 -0.004926 -0.030529 -0.025612 
1.9312499999999999 -0.039520 -0.467896 -0.001628 -0.003462 -0.001115 -0.004816 -0.031860 -0.023937 
1.9325000000000001 -0.061646 -0.456940 -0.001939 -0.003227 -0.001587 -0.004701 -0.033253 -0.022652 
1.9337500000000001 -0.082794 -0.446335 -0.002228 -0.003252 -0.001726 -0.004658 -0.033520 -0.020681 
1.9350000000000001 -0.104202 -0.437042 -0.002271 -0.002778 -0.002300 -0.004338 -0.034334 -0.019278 
1.9362500000000000 -0.122940 -0.426971 -0.002472 -0.002724 -0.002679 -0.004049 -0.034363 -0.017660 
1.9375000000000000 -0.143341 -0.415756 -0.002555 -0.002435 -0.003169 -0.003879 -0.034607 -0.016256 
1.9387500000000000 -0.160492 -0.404495 -0.002760 -0.002375 -0.003433 -0.003492 -0.034969 -0.014463 
1.9399999999999999 -0.178650 -0.392548 -0.003033 -0.001986 -0.003716 -0.002941 -0.034960 -0.012644 
1.9412499999999999 -0.195358 -0.379822 -0.003075 -0.001861 -0.004150 -0.002984 -0.035309 -0.010693 
1.9424999999999999 -0.210617 -0.369446 -0.003122 -0.001562 -0.004120 -0.002770 -0.035425 -0.008579 
1.9437500000000001 -0.228577 -0.354645 -0.003302 -0.001343 -0.004271 -0.002315 -0.036022 -0.006878 
1.9450000000000001 -0.244034 -0.341187 -0.003285 -0.001109 -0.004537 -0.001899 -0.036579 -0.005701 
1.9462500000000000 -0.259979 -0.327667 -0.003253 -0.000977 -0.004553 -0.001664 -0.037573 -0.004230 
1.9475000000000000 -0.274033 -0.313934 -0.003374 -0.000858 -0.004919 -0.001074 -0.038757 -0.003590 
1.9487500000000000 -0.288803 -0.298904 -0.003558 -0.000560 -0.004683 -0.000525 -0.039404 -0.003084 
1.9500000000000000 -0.301758 -0.284119 -0.003432 -0.000344 -0.004890 -0.000385 -0.040277 -0.002325 
1.9512499999999999 -0.316254 -0.268860 -0.003600 -0.000046 -0.005153 0.000229 -0.040791 -0.002583 
1.9524999999999999 -0.330032 -0.252136 -0.003659 0.000199 -0.005151 0.000391 -0.041368 -0.002333 
1.9537500000000001 -0.343628 -0.234680 -0.003609 0.000365 -0.005054 0.001034 -0.041576 -0.002251 
1.9550000000000001 -0.354813 -0.217819 -0.003701 0.000718 -0.004948 0.001635 -0.042274 -0.000998 
1.9562500000000000 -0.366409 -0.199127 -0.003634 0.000899 -0.004654 0.001918 -0.042622 -0.000750 
1.9575000000000000 -0.380508 -0.179871 -0.003471 0.001215 -0.004701 0.002364 -0.043777 0.000092 
1.9587500000000000 -0.391510 -0.158661 -0.003480 0.001664 -0.004472 0.002608 -0.044907 0.001532 
1.9600000000000000 -0.403717 -0.137573 -0.003549 0.001856 -0.003931 0.003035 -0.046427 0.002373 
1.9612499999999999 -0.415588 -0.115997 -0.003434 0.002099 -0.003646 0.003417 -0.047623 0.003191 
1.9624999999999999 -0.425262 -0.092773 -0.003269 0.002177 -0.003338 0.003664 -0.050121 0.004768 
1.9637500000000001 -0.436890 -0.069031 -0.003124 0.002448 -0.003237 0.004113 -0.051632 0.005585 
1.9650000000000001 -0.446259 -0.040833 -0.003114 0.002530 -0.002926 0.004291 -0.053535 0.005867 
1.9662500000000001 -0.454559 -0.012726 -0.003047 0.002972 -0.002407 0.004914 -0.055504 0.006863 
1.9675000000000000 -0.462006 0.014313 -0.002640 0.003408 -0.002194 0.004744 -0.057411 0.008026 
1.9687500000000000 -0.468628 0.047699 -0.002500 0.003695 -0.001563 0.005152 -0.059567 0.009018 
1.9700000000000000 -0.476425 0.081146 -0.002599 0.003874 -0.000953 0.005058 -0.060467 0.010412 
1.9712499999999999 -0.481094 0.118164 -0.002437 0.004166 -0.000061 0.005133 -0.062212 0.012533 
1.9724999999999999 -0.482712 0.154968 -0.001951 0.004522 -0.000131 0.005066 -0.063560 0.013931 
1.9737499999999999 -0.484711 0.197098 -0.001535 0.004805 0.000535 0.004966 -0.065166 0.016857 
1.9750000000000001 -0.483856 0.240891 -0.001179 0.005080 0.000863 0.005305 -0.067028 0.019306 
1.9762500000000001 -0.478973 0.288483 -0.000556 0.005372 0.001279 0.005198 -0.068993 0.022518 
1.9775000000000000 -0.470398 0.339844 -0.000193 0.005587 0.001838 0.004897 -0.071213 0.025459 
1.9787500000000000 -0.455200 0.392029 0.000505 0.006118 0.002413 0.004578 -0.073128 0.028503 
1.9800000000000000 -0.434937 0.449524 0.000959 0.006131 0.002462 0.004661 -0.075069 0.031708 
1.9812500000000000 -0.407898 0.512085 0.001439 0.006112 0.003164 0.004419 -0.076679 0.034344 
1.9824999999999999 -0.372498 0.573059 0.002077 0.006228 0.003537 0.003720 -0.077961 0.037403 
1.9837499999999999 -0.322693 0.636597 0.003017 0.006308 0.004171 0.003612 -0.078785 0.040161 
1.9850000000000001 -0.262268 0.702911 0.004090 0.006313 0.004375 0.003122 -0.079830 0.043449 
1.9862500000000001 -0.189941 0.760681 0.004634 0.006369 0.004251 0.002601 -0.080025 0.046909 
1.9875000000000000 -0.099548 0.819641 0.006163 0.005733 0.004624 0.002347 -0.079628 0.050407 
1.9887500000000000 0.007690 0.858154 0.006528 0.004804 0.004947 0.001900 -0.079300 0.054279 
1.9900000000000000 0.138794 0.884827 0.008153 0.003911 0.004835 0.001428 -0.078724 0.058975 
1.9912500000000000 0.268066 0.886597 0.008604 0.003005 0.005295 0.000880 -0.077995 0.063164 
1.9924999999999999 0.410461 0.856995 0.008972 0.001568 0.005160 0.000547 -0.077244 0.067539 
1.9937499999999999 0.544434 0.804871 0.009359 0.000273 0.005375 0.000128 -0.077209 0.071903 
1.9950000000000001 0.669006 0.710449 0.009418 -0.001406 0.005299 -0.000257 -0.076241 0.075836 
1.9962500000000001 0.769470 0.599487 0.009149 -0.002832 0.004981 -0.000725 -0.075172 0.079636 
1.9975000000000001 0.848755 0.469299 0.007627 -0.004347 0.004843 -0.001107 -0.074314 0.083771 
1.9987500000000000 0.892029 0.328674 0.007041 -0.004979 0.004835 -0.001440 -0.073326 0.086617 
2.0000000000000000 0.904907 0.196899 0.006021 -0.006026 0.004845 -0.001711 -0.071224 0.089790 
2.0012500000000002 0.891357 0.071106 0.005019 -0.006322 0.004694 -0.002366 -0.068485 0.093079 
2.0024999999999999 0.864197 -0.047791 0.003736 -0.006805 0.004423 -0.002532 -0.066105 0.095886 
2.0037500000000001 0.817139 -0.137939 0.003541 -0.006982 0.004380 -0.003306 -0.063236 0.098892 
2.0049999999999999 0.762756 -0.220459 0.002451 -0.007329 0.003831 -0.003550 -0.059792 0.101761 
2.0062500000000001 0.704040 -0.288513 0.001634 -0.007036 0.003598 -0.004016 -0.057011 0.104965 
2.0074999999999998 0.647125 -0.347107 0.000338 -0.006769 0.003254 -0.004402 -0.053532 0.107685 
2.0087500000000000 0.584442 -0.385223 -0.000414 -0.006469 0.002892 -0.004765 -0.050552 0.110508 
2.0099999999999998 0.526856 -0.418213 -0.000831 -0.005982 0.002511 -0.005084 -0.047333 0.113247 
2.0112500000000000 0.472290 -0.443909 -0.000940 -0.005542 0.001626 -0.005478 -0.044777 0.115406 
2.0125000000000002 0.419678 -0.461548 -0.001852 -0.005565 0.001290 -0.005692 -0.041679 0.116715 
2.0137499999999999 0.371338 -0.475586 -0.002168 -0.004849 0.000678 -0.005559 -0.039017 0.118568 
2.0150000000000001 0.327042 -0.486939 -0.002492 -0.004530 0.000278 -0.005675 -0.036324 0.119247 
2.0162499999999999 0.281311 -0.491715 -0.002625 -0.004206 -0.000282 -0.005823 -0.033634 0.119907 
2.0175000000000001 0.241531 -0.493118 -0.002770 -0.003883 -0.000847 -0.005749 -0.030315 0.119637 
2.0187499999999998 0.206223 -0.491943 -0.003070 -0.003464 -0.001534 -0.005367 -0.027584 0.120438 
2.0200000000000000 0.168228 -0.490891 -0.002975 -0.003093 -0.001520 -0.005352 -0.024349 0.120056 
2.0212500000000002 0.136078 -0.487686 -0.003424 -0.002890 -0.001910 -0.005038 -0.021477 0.120300 
2.0225000000000000 0.105331 -0.483505 -0.003338 -0.002497 -0.002418 -0.004873 -0.018318 0.120400 
2.0237500000000002 0.076569 -0.478867 -0.003631 -0.002208 -0.002826 -0.004647 -0.015793 0.120117 
2.0249999999999999 0.048340 -0.471130 -0.003712 -0.001951 -0.003659 -0.004335 -0.013603 0.120178 
2.0262500000000001 0.021881 -0.464111 -0.003850 -0.001414 -0.003835 -0.003850 -0.011566 0.121155 
2.0274999999999999 -0.002014 -0.455017 -0.003743 -0.001275 -0.004404 -0.003568 -0.009933 0.121002 
2.0287500000000001 -0.025940 -0.447388 -0.003751 -0.000842 -0.004872 -0.003119 -0.008728 0.121040 
2.0299999999999998 -0.048157 -0.436737 -0.003637 -0.000865 -0.004866 -0.002495 -0.007591 0.120949 
2.0312500000000000 -0.070221 -0.427856 -0.003681 -0.000387 -0.004928 -0.001976 -0.006958 0.119698 
2.0325000000000002 -0.089355 -0.417419 -0.003685 -0.000436 -0.005267 -0.001708 -0.005692 0.120033 
2.0337499999999999 -0.108948 -0.406555 -0.003501 0.000049 -0.004930 -0.001254 -0.005600 0.119972 
2.0350000000000001 -0.127960 -0.396362 -0.003498 0.000275 -0.005344 -0.000511 -0.004234 0.119194 
2.0362499999999999 -0.145386 -0.385254 -0.003493 0.000461 -0.005044 -0.000323 -0.004097 0.119019 
2.0375000000000001 -0.160950 -0.374390 -0.003430 0.000611 -0.005440 0.000580 -0.002983 0.118752 
2.0387499999999998 -0.177887 -0.363434 -0.003390 0.001056 -0.005376 0.000763 -0.002014 0.119515 
2.0400000000000000 -0.193176 -0.351044 -0.003162 0.001269 -0.004956 0.001202 -0.001694 0.120964 
2.0412499999999998 -0.208588 -0.339325 -0.003194 0.001357 -0.004921 0.001622 -0.000351 0.121269 
2.0425000000000000 -0.223511 -0.326416 -0.003070 0.001636 -0.004828 0.001977 0.000252 0.122925 
2.0437500000000002 -0.238098 -0.314484 -0.002872 0.001973 -0.004808 0.002464 0.000229 0.124344 
2.0449999999999999 -0.251312 -0.300140 -0.002656 0.002059 -0.004382 0.002818 0.000885 0.125404 
2.0462500000000001 -0.262787 -0.286591 -0.002554 0.002286 -0.004165 0.003347 0.001190 0.127159 
2.0474999999999999 -0.276977 -0.274078 -0.002371 0.002305 -0.003781 0.003436 0.001717 0.128517 
2.0487500000000001 -0.289002 -0.258301 -0.002140 0.002503 -0.003520 0.004225 0.002449 0.130493 
2.0499999999999998 -0.300903 -0.242828 -0.001976 0.002596 -0.002732 0.004311 0.003990 0.131668 
2.0512500000000000 -0.312805 -0.227600 -0.001940 0.002642 -0.002490 0.004508 0.005714 0.132958 
2.0525000000000002 -0.324799 -0.212707 -0.001713 0.002930 -0.002469 0.004843 0.007240 0.134888 
2.0537500000000000 -0.336151 -0.194916 -0.001748 0.003034 -0.001712 0.005113 0.009316 0.136993 
2.0550000000000002 -0.346924 -0.178131 -0.001431 0.003339 -0.001440 0.005029 0.011528 0.139374 
2.0562499999999999 -0.357941 -0.159882 -0.001458 0.003295 -0.000986 0.005272 0.014069 0.141144 
2.0575000000000001 -0.366058 -0.141052 -0.000957 0.003563 -0.000333 0.005408 0.017105 0.143906 
2.0587499999999999 -0.377319 -0.122131 -0.000680 0.003418 0.000064 0.004979 0.019348 0.146240 
2.0600000000000001 -0.387665 -0.100617 -0.000453 0.003578 0.000337 0.005317 0.022156 0.148544 
2.0612499999999998 -0.396744 -0.079483 0.000008 0.003751 0.000974 0.005024 0.025467 0.150864 
2.0625000000000000 -0.404144 -0.056152 0.000213 0.003727 0.001973 0.004868 0.028336 0.152405 
2.0637500000000002 -0.412537 -0.033356 0.000530 0.003888 0.001947 0.004629 0.031891 0.153290 
2.0649999999999999 -0.418640 -0.007324 0.000745 0.003755 0.002512 0.004584 0.035675 0.154587 
2.0662500000000001 -0.426514 0.020081 0.000944 0.003971 0.002739 0.004516 0.039429 0.155785 
2.0674999999999999 -0.433380 0.048416 0.001298 0.004028 0.003233 0.004137 0.044136 0.155823 
2.0687500000000001 -0.436661 0.076935 0.001618 0.003924 0.003747 0.003938 0.048675 0.156242 
2.0699999999999998 -0.440399 0.110275 0.002071 0.003841 0.004030 0.003338 0.054352 0.156464 
2.0712500000000000 -0.443878 0.143890 0.002057 0.003341 0.004463 0.003147 0.060181 0.155365 
2.0724999999999998 -0.442505 0.180023 0.002640 0.003481 0.004824 0.002481 0.065231 0.155624 
2.0737500000000000 -0.439484 0.219940 0.002994 0.003445 0.004552 0.002328 0.070450 0.155426 
2.0750000000000002 -0.433136 0.260529 0.003385 0.003197 0.004902 0.001774 0.076233 0.154846 
2.0762499999999999 -0.425568 0.304260 0.003737 0.002829 0.005124 0.001189 0.081665 0.153519 
2.0775000000000001 -0.412872 0.353210 0.004358 0.002817 0.005025 0.000654 0.086762 0.152496 
2.0787499999999999 -0.394226 0.401733 0.004469 0.002556 0.005424 -0.000100 0.091324 0.150421 
2.0800000000000001 -0.367737 0.454056 0.005038 0.001978 0.005645 -0.000269 0.096581 0.148270 
2.0812499999999998 -0.337585 0.510315 0.005344 0.001710 0.005286 -0.000727 0.100876 0.145630 
2.0825000000000000 -0.295288 0.563660 0.005949 0.001085 0.004808 -0.001156 0.105713 0.141922 
2.0837500000000002 -0.241242 0.620300 0.005964 0.000624 0.004932 -0.001698 0.110901 0.138321 
2.0850000000000000 -0.178711 0.671875 0.006399 -0.000143 0.004576 -0.002385 0.115143 0.134277 
2.0862500000000002 -0.101807 0.720093 0.006543 -0.000636 0.004018 -0.002526 0.119675 0.130310 
2.0874999999999999 -0.008728 0.759644 0.006876 -0.002002 0.003760 -0.002896 0.124222 0.125763 
2.0887500000000001 0.101990 0.786438 0.006761 -0.002800 0.003438 -0.003244 0.128494 0.121521 
2.0899999999999999 0.219299 0.786560 0.006292 -0.003771 0.003377 -0.003275 0.132240 0.117340 
2.0912500000000001 0.336426 0.776001 0.005445 -0.005303 0.002921 -0.003424 0.135269 0.112915 
2.0924999999999998 0.463562 0.731384 0.005046 -0.005506 0.002633 -0.003586 0.137970 0.109566 
2.0937500000000000 0.576050 0.654358 0.004118 -0.006212 0.002511 -0.003663 0.140053 0.104332 
2.0950000000000002 0.680176 0.561768 0.002634 -0.007186 0.002147 -0.003728 0.142570 0.099007 
2.0962499999999999 0.753052 0.450287 0.001837 -0.007095 0.001915 -0.003995 0.144035 0.094841 
2.0975000000000001 0.796906 0.327911 0.001112 -0.006753 0.001368 -0.004466 0.144669 0.090675 
2.0987499999999999 0.817627 0.202576 -0.000309 -0.007320 0.001302 -0.004401 0.145828 0.085312 
2.1000000000000001 0.817078 0.083435 -0.001096 -0.006932 0.001197 -0.005039 0.145904 0.079987 
2.1012499999999998 0.792358 -0.020752 -0.002156 -0.006585 0.000149 -0.004885 0.146729 0.074249 
2.1025000000000000 0.755981 -0.115845 -0.002688 -0.005822 0.000159 -0.005130 0.147385 0.070068 
2.1037499999999998 0.710022 -0.191833 -0.003217 -0.005272 -0.000613 -0.004984 0.148117 0.065262 
2.1050000000000000 0.652954 -0.260986 -0.003626 -0.004910 -0.001194 -0.004976 0.148209 0.061325 
2.1062500000000002 0.600952 -0.311493 -0.003878 -0.003978 -0.001409 -0.004843 0.148392 0.056946 
2.1074999999999999 0.545776 -0.352325 -0.004049 -0.003628 -0.002315 -0.004933 0.147972 0.053711 
2.1087500000000001 0.492416 -0.385727 -0.004157 -0.002939 -0.002841 -0.004596 0.147232 0.050056 
2.1099999999999999 0.438599 -0.409012 -0.004152 -0.002498 -0.003059 -0.004215 0.146843 0.047157 
2.1112500000000001 0.390030 -0.426819 -0.004239 -0.001947 -0.003680 -0.003890 0.145889 0.044060 
2.1124999999999998 0.342102 -0.439255 -0.004011 -0.001354 -0.004046 -0.003258 0.144196 0.040787 
2.1137500000000000 0.298264 -0.449631 -0.003952 -0.000987 -0.004551 -0.002473 0.142883 0.038048 
2.1150000000000002 0.256775 -0.453888 -0.004080 -0.000709 -0.004686 -0.002483 0.142403 0.034576 
2.1162500000000000 0.218506 -0.456757 -0.003939 -0.000497 -0.004948 -0.001781 0.141235 0.031815 
2.1175000000000002 0.182037 -0.456528 -0.003792 0.000061 -0.004791 -0.001718 0.140137 0.029724 
2.1187499999999999 0.149323 -0.453919 -0.003563 0.000346 -0.004637 -0.001193 0.139336 0.026421 
2.1200000000000001 0.116806 -0.451263 -0.003509 0.000447 -0.004308 -0.000897 0.138870 0.024658 
2.1212499999999999 0.087479 -0.445007 -0.003444 0.000729 -0.004539 -0.000441 0.138458 0.022072 
2.1225000000000001 0.059326 -0.439117 -0.003314 0.000935 -0.004739 0.000532 0.138123 0.020218 
2.1237499999999998 0.032944 -0.432388 -0.003176 0.000901 -0.004677 0.000264 0.137344 0.018517 
2.1250000000000000 0.008820 -0.422897 -0.002992 0.001305 -0.004364 0.001097 0.136368 0.017113 
2.1262500000000002 -0.015030 -0.416946 -0.002868 0.001787 -0.003838 0.001569 0.135765 0.015694 
2.1274999999999999 -0.036102 -0.407135 -0.002733 0.001410 -0.004032 0.001388 0.135063 0.014290 
2.1287500000000001 -0.056870 -0.398071 -0.002412 0.001885 -0.003778 0.002244 0.134338 0.012566 
2.1299999999999999 -0.075775 -0.389908 -0.002304 0.001771 -0.003681 0.002305 0.133324 0.011017 
2.1312500000000001 -0.095093 -0.377670 -0.002344 0.001950 -0.003406 0.002604 0.132301 0.008629 
2.1324999999999998 -0.113510 -0.368256 -0.002095 0.002168 -0.003334 0.002964 0.131958 0.007332 
2.1337500000000000 -0.129639 -0.356964 -0.002120 0.002153 -0.002864 0.002980 0.131119 0.004326 
2.1349999999999998 -0.145264 -0.346741 -0.001769 0.002035 -0.002712 0.003489 0.130585 0.002373 
2.1362500000000000 -0.161255 -0.335449 -0.001607 0.002422 -0.002149 0.003807 0.130936 0.000275 
2.1375000000000002 -0.176025 -0.323547 -0.001467 0.002524 -0.002339 0.003782 0.131271 -0.001709 
2.1387499999999999 -0.190521 -0.311340 -0.001194 0.002668 -0.001800 0.003891 0.130348 -0.003647 
2.1400000000000001 -0.204163 -0.298279 -0.001061 0.002727 -0.001416 0.003935 0.130608 -0.005798 
2.1412499999999999 -0.217194 -0.285919 -0.000963 0.002689 -0.001098 0.004009 0.130020 -0.007217 
2.1425000000000001 -0.231171 -0.272522 -0.000526 0.002748 -0.000918 0.003883 0.129532 -0.009590 
2.1437499999999998 -0.242065 -0.260773 -0.000371 0.002815 -0.000027 0.004194 0.128891 -0.011650 
2.1450000000000000 -0.254089 -0.245636 -0.000304 0.002696 0.000082 0.003817 0.127914 -0.013306 
2.1462500000000002 -0.265595 -0.231567 0.000091 0.002828 0.000688 0.004069 0.126709 -0.015968 
2.1475000000000000 -0.277435 -0.217590 0.000195 0.002958 0.000833 0.004231 0.125153 -0.018250 
2.1487500000000002 -0.286591 -0.201538 0.000356 0.002994 0.001451 0.004041 0.124123 -0.021355 
2.1499999999999999 -0.298157 -0.185883 0.000423 0.002845 0.001497 0.004105 0.122360 -0.024338 
2.1512500000000001 -0.307617 -0.170441 0.000643 0.002837 0.001836 0.003791 0.121460 -0.027260 
