!
! C:\Users\rflab\Downloads\Lab5_KD_ZW\120.S2P
!
! Touchstone 1.1 file saved by VNA.EXE V1.65 (www.ke5fx.com/gpib/readme.htm)
! 11/12/2024 12:11:10 AM
!
!    Source: HEWLETT PACKARD,8753D,0,6.14
!  Min freq: 1.900000E+009 Hz
!  Max freq: 2.900000E+009 Hz
!    Points: 801
!    Params: S11 S21 S12 S22
!
!!!!!
# GHZ S RI R 50
1.8999999999999999 0.965698 0.231628 0.008341 0.000624 0.004488 0.001211 0.023216 -0.059286 
1.9012500000000001 0.954224 0.103638 0.008087 -0.000726 0.004411 0.000941 0.020460 -0.059690 
1.9025000000000001 0.922913 -0.017822 0.007742 -0.001431 0.004566 0.000656 0.018147 -0.059418 
1.9037500000000001 0.879211 -0.118835 0.007193 -0.002145 0.004561 0.000425 0.015591 -0.059658 
1.9050000000000000 0.829804 -0.204163 0.006427 -0.002988 0.004489 -0.000153 0.013172 -0.058737 
1.9062500000000000 0.768097 -0.277069 0.006034 -0.003665 0.004612 -0.000616 0.010479 -0.057442 
1.9075000000000000 0.708466 -0.337341 0.005029 -0.003924 0.004730 -0.000801 0.008179 -0.056623 
1.9087499999999999 0.647369 -0.381165 0.004439 -0.004102 0.004507 -0.001553 0.005337 -0.055050 
1.9099999999999999 0.591400 -0.422394 0.003781 -0.004484 0.004921 -0.001738 0.002874 -0.053442 
1.9112499999999999 0.533966 -0.452179 0.003274 -0.004768 0.004237 -0.002361 -0.000629 -0.051991 
1.9125000000000001 0.478821 -0.475494 0.002742 -0.004592 0.003973 -0.002409 -0.003733 -0.050289 
1.9137500000000001 0.427338 -0.490646 0.002354 -0.004609 0.003647 -0.002927 -0.006636 -0.049103 
1.9150000000000000 0.377747 -0.502350 0.001488 -0.005047 0.003442 -0.003125 -0.009302 -0.047693 
1.9162500000000000 0.332153 -0.511261 0.001223 -0.004624 0.003299 -0.003525 -0.011953 -0.046438 
1.9175000000000000 0.289276 -0.515289 0.001192 -0.004616 0.002980 -0.003717 -0.014294 -0.045168 
1.9187500000000000 0.250794 -0.519165 0.001017 -0.004641 0.002958 -0.004218 -0.016396 -0.043577 
1.9199999999999999 0.213318 -0.516663 0.000223 -0.004250 0.002140 -0.004479 -0.017805 -0.041681 
1.9212499999999999 0.177368 -0.514740 -0.000029 -0.004240 0.001803 -0.004680 -0.019468 -0.040161 
1.9225000000000001 0.144318 -0.511993 -0.000333 -0.004167 0.001294 -0.004552 -0.020676 -0.038061 
1.9237500000000001 0.111054 -0.508820 -0.000793 -0.003980 0.000824 -0.004632 -0.022064 -0.035820 
1.9250000000000000 0.082031 -0.502289 -0.001207 -0.003863 0.000626 -0.004773 -0.023926 -0.033188 
1.9262500000000000 0.052734 -0.497223 -0.001148 -0.003676 0.000032 -0.004495 -0.025494 -0.030613 
1.9275000000000000 0.026520 -0.489319 -0.001322 -0.003519 -0.000500 -0.004753 -0.027107 -0.028172 
1.9287500000000000 0.000000 -0.482605 -0.001771 -0.003148 -0.000681 -0.004682 -0.028576 -0.026138 
1.9299999999999999 -0.022827 -0.473053 -0.001948 -0.003076 -0.001433 -0.004816 -0.030109 -0.024090 
1.9312499999999999 -0.045349 -0.465088 -0.001850 -0.002845 -0.001633 -0.004501 -0.031647 -0.022308 
1.9325000000000001 -0.068237 -0.454804 -0.002177 -0.002653 -0.002128 -0.004422 -0.033043 -0.020840 
1.9337500000000001 -0.088730 -0.443680 -0.002358 -0.002604 -0.002486 -0.004068 -0.033606 -0.019432 
1.9350000000000001 -0.110169 -0.433029 -0.002554 -0.002299 -0.002665 -0.003725 -0.033968 -0.018082 
1.9362500000000000 -0.128494 -0.423355 -0.002510 -0.002266 -0.002985 -0.003362 -0.033819 -0.016790 
1.9375000000000000 -0.147858 -0.412979 -0.002799 -0.001942 -0.003366 -0.003168 -0.034353 -0.015450 
1.9387500000000000 -0.166244 -0.401398 -0.002742 -0.001842 -0.003451 -0.002993 -0.033752 -0.013382 
1.9399999999999999 -0.183533 -0.389267 -0.002969 -0.001397 -0.003754 -0.002560 -0.033998 -0.011906 
1.9412499999999999 -0.200653 -0.376495 -0.002820 -0.001373 -0.003808 -0.002286 -0.034410 -0.009747 
1.9424999999999999 -0.217194 -0.365692 -0.003072 -0.001201 -0.004173 -0.001642 -0.034542 -0.007639 
1.9437500000000001 -0.233582 -0.350617 -0.003036 -0.000901 -0.004323 -0.001473 -0.035212 -0.006105 
1.9450000000000001 -0.248871 -0.337616 -0.003242 -0.000708 -0.004234 -0.001319 -0.035975 -0.004711 
1.9462500000000000 -0.264435 -0.324478 -0.003138 -0.000578 -0.004511 -0.000701 -0.037291 -0.003450 
1.9475000000000000 -0.278412 -0.309982 -0.003143 -0.000295 -0.004493 -0.000303 -0.038107 -0.003136 
1.9487500000000000 -0.293976 -0.295090 -0.003336 -0.000244 -0.004809 -0.000064 -0.039316 -0.002781 
1.9500000000000000 -0.306427 -0.279816 -0.003155 0.000254 -0.004630 0.000390 -0.040268 -0.002413 
1.9512499999999999 -0.320419 -0.264694 -0.003236 0.000256 -0.004524 0.000563 -0.040642 -0.002407 
1.9524999999999999 -0.334259 -0.247253 -0.003402 0.000511 -0.004489 0.000899 -0.041273 -0.002485 
1.9537500000000001 -0.347092 -0.231415 -0.003253 0.000648 -0.004227 0.001359 -0.041357 -0.002312 
1.9550000000000001 -0.358688 -0.213318 -0.003136 0.001131 -0.004328 0.001882 -0.042095 -0.001808 
1.9562500000000000 -0.370483 -0.194611 -0.003287 0.001209 -0.004105 0.002125 -0.042807 -0.000887 
1.9575000000000000 -0.383957 -0.175629 -0.003124 0.001489 -0.003888 0.002552 -0.043884 -0.000385 
1.9587500000000000 -0.395096 -0.153595 -0.003063 0.001742 -0.003671 0.003251 -0.044773 0.001036 
1.9600000000000000 -0.405823 -0.132629 -0.002756 0.001667 -0.003372 0.003359 -0.045988 0.001877 
1.9612499999999999 -0.416840 -0.109619 -0.002936 0.002037 -0.003147 0.003793 -0.047838 0.002573 
1.9624999999999999 -0.427978 -0.086945 -0.002811 0.002496 -0.002937 0.003775 -0.049812 0.003916 
1.9637500000000001 -0.438751 -0.061462 -0.002473 0.002655 -0.002527 0.004228 -0.051922 0.004745 
1.9650000000000001 -0.448730 -0.034760 -0.002515 0.002849 -0.001868 0.004344 -0.053959 0.005440 
1.9662500000000001 -0.456970 -0.005829 -0.002275 0.003303 -0.001608 0.004803 -0.055878 0.006378 
1.9675000000000000 -0.464386 0.022400 -0.002227 0.003320 -0.000973 0.004524 -0.058025 0.007614 
1.9687500000000000 -0.471161 0.055603 -0.002048 0.003730 -0.000864 0.004714 -0.059772 0.008709 
1.9700000000000000 -0.477432 0.089142 -0.001656 0.004280 -0.000124 0.004731 -0.060850 0.009762 
1.9712499999999999 -0.481537 0.127258 -0.001490 0.004246 0.000363 0.004691 -0.062466 0.012012 
1.9724999999999999 -0.486145 0.166458 -0.001155 0.004437 0.000645 0.004914 -0.064312 0.013992 
1.9737499999999999 -0.484955 0.208816 -0.000686 0.004397 0.001112 0.004743 -0.065708 0.016777 
1.9750000000000001 -0.482834 0.253922 -0.000467 0.004825 0.001620 0.004944 -0.067665 0.019745 
1.9762500000000001 -0.479950 0.302368 -0.000173 0.005081 0.002069 0.004480 -0.069622 0.022968 
1.9775000000000000 -0.467529 0.352722 0.000593 0.005457 0.002711 0.004582 -0.071674 0.026005 
1.9787500000000000 -0.454590 0.406372 0.001142 0.005492 0.002773 0.004075 -0.073555 0.028893 
1.9800000000000000 -0.431152 0.462036 0.001654 0.005626 0.002892 0.003571 -0.075108 0.032330 
1.9812500000000000 -0.400879 0.528686 0.002006 0.005481 0.003771 0.003301 -0.076771 0.035122 
1.9824999999999999 -0.360229 0.589783 0.002709 0.005651 0.003592 0.002954 -0.078045 0.037876 
1.9837499999999999 -0.310120 0.654785 0.003469 0.005051 0.004070 0.002608 -0.078720 0.040886 
1.9850000000000001 -0.242310 0.719604 0.004241 0.005038 0.004248 0.002415 -0.079399 0.044708 
1.9862500000000001 -0.163818 0.780029 0.005102 0.004639 0.004356 0.001911 -0.079468 0.048012 
1.9875000000000000 -0.067627 0.833191 0.006013 0.004579 0.004529 0.001307 -0.079193 0.051678 
1.9887500000000000 0.046265 0.868774 0.006915 0.003641 0.004772 0.001246 -0.078781 0.055801 
1.9900000000000000 0.171265 0.892212 0.007566 0.002081 0.004601 0.000457 -0.078243 0.060493 
1.9912500000000000 0.308716 0.888916 0.008092 0.001441 0.004517 0.000260 -0.077267 0.064789 
1.9924999999999999 0.449951 0.848816 0.008095 0.000387 0.004683 -0.000088 -0.076702 0.069603 
1.9937499999999999 0.585144 0.785034 0.008261 -0.001339 0.004569 -0.000615 -0.076092 0.073772 
1.9950000000000001 0.706421 0.687256 0.008538 -0.002631 0.004444 -0.000854 -0.075245 0.077934 
1.9962500000000001 0.798096 0.565430 0.007007 -0.003631 0.004328 -0.001221 -0.074223 0.082069 
1.9975000000000001 0.867676 0.431152 0.006705 -0.004451 0.004624 -0.001619 -0.073566 0.086124 
1.9987500000000000 0.899963 0.294861 0.006027 -0.005344 0.004354 -0.002021 -0.071766 0.089069 
2.0000000000000000 0.909058 0.159973 0.004951 -0.006146 0.004039 -0.002232 -0.069733 0.092327 
2.0012500000000002 0.889221 0.032654 0.004280 -0.006395 0.003874 -0.002505 -0.066895 0.095154 
2.0024999999999999 0.856506 -0.072937 0.003067 -0.006258 0.003745 -0.003056 -0.064365 0.098125 
2.0037500000000001 0.807800 -0.162537 0.002568 -0.006821 0.003546 -0.003540 -0.060856 0.100964 
2.0049999999999999 0.751282 -0.239685 0.000929 -0.006225 0.003108 -0.003688 -0.057480 0.103890 
2.0062500000000001 0.689697 -0.304047 0.000389 -0.006092 0.002824 -0.004247 -0.054554 0.107174 
2.0074999999999998 0.633392 -0.356537 -0.000407 -0.005888 0.002012 -0.004358 -0.051041 0.110069 
2.0087500000000000 0.570282 -0.395844 -0.001106 -0.005584 0.002203 -0.004733 -0.047997 0.112625 
2.0099999999999998 0.515106 -0.427216 -0.001449 -0.005174 0.001727 -0.004897 -0.044544 0.115151 
2.0112500000000000 0.457611 -0.448669 -0.001806 -0.004745 0.000886 -0.005034 -0.041527 0.117275 
2.0125000000000002 0.407898 -0.465576 -0.002196 -0.003981 0.000746 -0.005298 -0.039143 0.119160 
2.0137499999999999 0.358536 -0.478256 -0.002562 -0.003987 -0.000420 -0.005341 -0.036030 0.120113 
2.0150000000000001 0.313324 -0.487839 -0.002430 -0.003763 -0.000571 -0.005261 -0.033459 0.120678 
2.0162499999999999 0.270813 -0.492004 -0.002768 -0.003258 -0.001329 -0.004902 -0.031002 0.121414 
2.0175000000000001 0.230545 -0.494354 -0.003173 -0.002947 -0.001572 -0.004303 -0.027584 0.121044 
2.0187499999999998 0.195511 -0.493988 -0.003083 -0.002609 -0.002048 -0.004694 -0.024704 0.121532 
2.0200000000000000 0.158554 -0.489822 -0.003092 -0.002424 -0.002412 -0.004555 -0.021397 0.121040 
2.0212500000000002 0.125839 -0.486435 -0.003580 -0.002022 -0.002867 -0.004077 -0.018925 0.121468 
2.0225000000000000 0.095810 -0.482208 -0.003449 -0.001772 -0.003182 -0.003954 -0.015530 0.121395 
2.0237500000000002 0.067108 -0.476257 -0.003354 -0.001295 -0.003439 -0.003499 -0.013184 0.121109 
2.0249999999999999 0.039978 -0.469604 -0.003359 -0.001204 -0.003762 -0.003215 -0.010712 0.121758 
2.0262500000000001 0.014740 -0.460327 -0.003605 -0.001055 -0.003876 -0.002888 -0.009315 0.122070 
2.0274999999999999 -0.008942 -0.452820 -0.003618 -0.000540 -0.004007 -0.002353 -0.007637 0.121712 
2.0287500000000001 -0.032959 -0.444794 -0.003381 -0.000486 -0.004417 -0.001940 -0.006630 0.121826 
2.0299999999999998 -0.055145 -0.434784 -0.003269 -0.000253 -0.004552 -0.001389 -0.005653 0.121468 
2.0312500000000000 -0.076080 -0.424133 -0.003164 0.000101 -0.004614 -0.000955 -0.005501 0.120819 
2.0325000000000002 -0.095520 -0.413940 -0.003196 0.000268 -0.004610 -0.000688 -0.004578 0.120354 
2.0337499999999999 -0.115082 -0.403412 -0.003169 0.000408 -0.004273 -0.000234 -0.004372 0.119934 
2.0350000000000001 -0.134674 -0.392609 -0.003286 0.000732 -0.004980 0.000125 -0.003571 0.119782 
2.0362499999999999 -0.150940 -0.381500 -0.002948 0.000957 -0.004597 0.000715 -0.002769 0.119591 
2.0375000000000001 -0.168121 -0.371246 -0.002921 0.001062 -0.004587 0.001015 -0.002144 0.119888 
2.0387499999999998 -0.183136 -0.359528 -0.002753 0.001267 -0.004403 0.001410 -0.001129 0.119820 
2.0400000000000000 -0.199188 -0.347412 -0.002653 0.001480 -0.003948 0.001879 -0.001259 0.120987 
2.0412499999999998 -0.213837 -0.335632 -0.002600 0.001671 -0.003890 0.002211 0.000076 0.121803 
2.0425000000000000 -0.228760 -0.322693 -0.002333 0.001883 -0.003517 0.002702 0.000053 0.123261 
2.0437500000000002 -0.242188 -0.311218 -0.002124 0.002054 -0.003882 0.002854 0.000305 0.124580 
2.0449999999999999 -0.256989 -0.296204 -0.001976 0.002193 -0.003288 0.003400 0.000664 0.126244 
2.0462500000000001 -0.267456 -0.282471 -0.001811 0.002246 -0.003052 0.003524 0.000725 0.127602 
2.0474999999999999 -0.281403 -0.269104 -0.001590 0.002148 -0.002698 0.003518 0.001793 0.129196 
2.0487500000000001 -0.293762 -0.253693 -0.001581 0.002333 -0.002453 0.003727 0.002129 0.130486 
2.0499999999999998 -0.305084 -0.238434 -0.001254 0.002435 -0.002111 0.004313 0.003273 0.131737 
2.0512500000000000 -0.317017 -0.223419 -0.001174 0.002829 -0.001513 0.004542 0.005341 0.134087 
2.0525000000000002 -0.328888 -0.208130 -0.000973 0.002865 -0.001270 0.004423 0.006927 0.135941 
2.0537500000000000 -0.339050 -0.190643 -0.001024 0.002905 -0.000799 0.004523 0.009064 0.138161 
2.0550000000000002 -0.350281 -0.173645 -0.000789 0.002966 -0.000646 0.004717 0.011238 0.140457 
2.0562499999999999 -0.360992 -0.153992 -0.000464 0.003179 -0.000267 0.004350 0.013886 0.142967 
2.0575000000000001 -0.370544 -0.135773 -0.000203 0.003078 0.000336 0.004629 0.016884 0.145119 
2.0587499999999999 -0.381805 -0.116425 0.000033 0.003051 0.000791 0.004243 0.019043 0.147705 
2.0600000000000001 -0.390747 -0.094696 0.000218 0.003005 0.001296 0.004572 0.022171 0.149872 
2.0612499999999998 -0.400253 -0.073456 0.000436 0.003310 0.001679 0.004148 0.025116 0.152191 
2.0625000000000000 -0.407364 -0.049011 0.000739 0.002984 0.002143 0.003988 0.028137 0.153900 
2.0637500000000002 -0.415634 -0.025543 0.001160 0.003058 0.002332 0.003781 0.031830 0.154694 
2.0649999999999999 -0.423050 0.000778 0.001114 0.003392 0.002679 0.003640 0.035507 0.155655 
2.0662500000000001 -0.429779 0.029083 0.001384 0.003201 0.003077 0.003276 0.039589 0.156303 
2.0674999999999999 -0.435516 0.057602 0.001785 0.003081 0.003138 0.002903 0.044464 0.156471 
2.0687500000000001 -0.439362 0.086960 0.001967 0.003163 0.003618 0.002943 0.049805 0.156738 
2.0699999999999998 -0.441956 0.120972 0.002296 0.002617 0.003749 0.002490 0.055771 0.156876 
2.0712500000000000 -0.444000 0.154572 0.002537 0.002906 0.004020 0.001619 0.061172 0.155777 
2.0724999999999998 -0.443146 0.191650 0.002945 0.002491 0.004186 0.001436 0.066574 0.155853 
2.0737500000000000 -0.440613 0.231812 0.003079 0.002362 0.004290 0.001319 0.072250 0.155395 
2.0750000000000002 -0.432800 0.272797 0.003170 0.002122 0.004555 0.000760 0.078323 0.154709 
2.0762499999999999 -0.422913 0.318939 0.003480 0.002049 0.003998 -0.000183 0.083664 0.153687 
2.0775000000000001 -0.409576 0.367645 0.004068 0.001651 0.004244 -0.000004 0.088745 0.152390 
2.0787499999999999 -0.388977 0.416473 0.004319 0.001222 0.004361 -0.000575 0.093323 0.150299 
2.0800000000000001 -0.361069 0.473038 0.004532 0.001137 0.004500 -0.000863 0.098549 0.147842 
2.0812499999999998 -0.327972 0.527161 0.004666 0.000564 0.004201 -0.001312 0.103394 0.144150 
2.0825000000000000 -0.281250 0.582092 0.004747 -0.000287 0.004026 -0.001444 0.108139 0.140610 
2.0837500000000002 -0.229034 0.636871 0.005191 -0.000335 0.003624 -0.001957 0.113052 0.137329 
2.0850000000000000 -0.155182 0.692047 0.005259 -0.001173 0.003396 -0.002445 0.118179 0.133347 
2.0862500000000002 -0.072021 0.735962 0.004954 -0.001545 0.003351 -0.002713 0.122528 0.128662 
2.0874999999999999 0.025208 0.773193 0.005255 -0.002296 0.002952 -0.002845 0.127441 0.124237 
2.0887500000000001 0.138550 0.796448 0.004932 -0.003654 0.002611 -0.002950 0.131210 0.120163 
2.0899999999999999 0.258667 0.792969 0.004441 -0.004293 0.002108 -0.003364 0.135361 0.115524 
2.0912500000000001 0.385498 0.764160 0.003767 -0.004800 0.001821 -0.003178 0.138077 0.111221 
2.0924999999999998 0.508118 0.716919 0.003106 -0.005662 0.001482 -0.003224 0.141739 0.107109 
2.0937500000000000 0.622803 0.638123 0.002102 -0.006095 0.001377 -0.003538 0.143333 0.102043 
2.0950000000000002 0.713928 0.535339 0.000747 -0.005987 0.001067 -0.003578 0.145279 0.096710 
2.0962499999999999 0.777222 0.422638 -0.000037 -0.006149 0.000645 -0.003823 0.146568 0.092156 
2.0975000000000001 0.816956 0.292633 -0.000671 -0.005816 0.000663 -0.004137 0.147530 0.087875 
2.0987499999999999 0.830872 0.170776 -0.001324 -0.005384 0.000016 -0.003907 0.148163 0.082001 
2.1000000000000001 0.819153 0.053040 -0.001843 -0.005311 0.000194 -0.004203 0.148224 0.077164 
2.1012499999999998 0.791382 -0.049377 -0.002123 -0.004508 -0.000707 -0.003788 0.149078 0.071594 
2.1025000000000000 0.749756 -0.135559 -0.002758 -0.004247 -0.000873 -0.003840 0.149399 0.067505 
2.1037499999999998 0.700684 -0.214600 -0.003550 -0.003407 -0.001174 -0.004042 0.149811 0.062988 
2.1050000000000000 0.646362 -0.275635 -0.003137 -0.003474 -0.001486 -0.004026 0.150070 0.058502 
2.1062500000000002 0.590851 -0.324493 -0.003505 -0.002516 -0.002229 -0.003920 0.149918 0.054703 
2.1074999999999999 0.535156 -0.361115 -0.003757 -0.002131 -0.002241 -0.003544 0.149468 0.051346 
2.1087500000000001 0.481445 -0.392365 -0.003742 -0.001813 -0.002840 -0.003465 0.148422 0.047859 
2.1099999999999999 0.426636 -0.413513 -0.003589 -0.001268 -0.003097 -0.002439 0.148033 0.045448 
2.1112500000000001 0.378525 -0.430115 -0.003714 -0.000880 -0.003553 -0.002748 0.146362 0.042396 
2.1124999999999998 0.330490 -0.441467 -0.003355 -0.000490 -0.003687 -0.002331 0.145371 0.039467 
2.1137500000000000 0.286652 -0.450256 -0.003361 -0.000149 -0.003736 -0.001234 0.144318 0.036247 
2.1150000000000002 0.245316 -0.454178 -0.003155 -0.000207 -0.003727 -0.001370 0.142349 0.033485 
2.1162500000000000 0.206940 -0.456299 -0.003107 0.000132 -0.003854 -0.000347 0.141853 0.030457 
2.1175000000000002 0.170685 -0.454804 -0.002916 0.000491 -0.003744 -0.000627 0.140457 0.027901 
2.1187499999999999 0.137909 -0.452774 -0.002633 0.000648 -0.003834 -0.000102 0.139793 0.025757 
2.1200000000000001 0.106186 -0.449921 -0.002831 0.000759 -0.003443 0.000360 0.139305 0.023636 
2.1212499999999999 0.077225 -0.443451 -0.002584 0.000855 -0.003471 0.000564 0.138626 0.021362 
2.1225000000000001 0.049408 -0.437271 -0.002647 0.001111 -0.003717 0.000671 0.137978 0.020164 
2.1237499999999998 0.025192 -0.430023 -0.002355 0.001275 -0.003582 0.001167 0.137444 0.018021 
2.1250000000000000 -0.001038 -0.421845 -0.002071 0.001434 -0.003519 0.001314 0.136604 0.016785 
2.1262500000000002 -0.022034 -0.414810 -0.002117 0.001441 -0.003030 0.001700 0.135941 0.015984 
2.1274999999999999 -0.043900 -0.405167 -0.001909 0.001458 -0.002934 0.002023 0.135201 0.014465 
2.1287500000000001 -0.064240 -0.396927 -0.001591 0.001771 -0.002595 0.002154 0.134636 0.013191 
2.1299999999999999 -0.082794 -0.386429 -0.001668 0.001883 -0.002505 0.002220 0.133156 0.011742 
2.1312500000000001 -0.101379 -0.375320 -0.001540 0.001839 -0.002406 0.002600 0.132301 0.009300 
2.1324999999999998 -0.120209 -0.365845 -0.001253 0.001711 -0.001981 0.002551 0.131889 0.007553 
2.1337500000000000 -0.135651 -0.354706 -0.001084 0.001930 -0.001861 0.002814 0.131325 0.005249 
2.1349999999999998 -0.151032 -0.344238 -0.001201 0.002124 -0.001427 0.002896 0.131088 0.003700 
2.1362500000000000 -0.166443 -0.332672 -0.000955 0.002048 -0.001255 0.002718 0.131401 0.001427 
2.1375000000000002 -0.180817 -0.320526 -0.000830 0.002147 -0.000912 0.003164 0.131470 0.000069 
2.1387499999999999 -0.195404 -0.307861 -0.000536 0.002383 -0.000807 0.002970 0.130341 -0.002243 
2.1400000000000001 -0.208801 -0.294708 -0.000390 0.002102 -0.000579 0.003270 0.130691 -0.004120 
2.1412499999999999 -0.221619 -0.282349 -0.000318 0.002101 -0.000234 0.003147 0.129982 -0.005669 
2.1425000000000001 -0.235443 -0.268677 -0.000049 0.002005 -0.000210 0.003394 0.129654 -0.008087 
2.1437499999999998 -0.246552 -0.256867 0.000083 0.002159 0.000364 0.003045 0.128883 -0.009682 
2.1450000000000000 -0.258148 -0.241669 0.000405 0.002119 0.000431 0.003100 0.127533 -0.012199 
2.1462500000000002 -0.269775 -0.227203 0.000158 0.002186 0.000790 0.003323 0.126129 -0.014847 
2.1475000000000000 -0.281250 -0.212769 0.000439 0.002191 0.001007 0.002797 0.125053 -0.016876 
2.1487500000000002 -0.290863 -0.196930 0.000537 0.002085 0.001278 0.002629 0.124245 -0.020058 
2.1499999999999999 -0.302094 -0.180817 0.000727 0.001789 0.001606 0.002871 0.122551 -0.023552 
2.1512500000000001 -0.311798 -0.164490 0.000799 0.002045 0.001709 0.002686 0.121483 -0.026016 
