!
! C:\Users\rflab\Downloads\Lab5_KD_ZW\130.S2P
!
! Touchstone 1.1 file saved by VNA.EXE V1.65 (www.ke5fx.com/gpib/readme.htm)
! 11/12/2024 12:12:04 AM
!
!    Source: HEWLETT PACKARD,8753D,0,6.14
!  Min freq: 1.900000E+009 Hz
!  Max freq: 2.900000E+009 Hz
!    Points: 801
!    Params: S11 S21 S12 S22
!
!!!!!
# GHZ S RI R 50
1.8999999999999999 0.962036 0.239746 0.008073 0.000560 0.004281 0.001018 0.021906 -0.059267 
1.9012500000000001 0.953369 0.102173 0.007727 -0.000479 0.004382 0.000661 0.019014 -0.059584 
1.9025000000000001 0.925354 -0.016968 0.007161 -0.001672 0.004334 0.000305 0.016876 -0.059448 
1.9037500000000001 0.883301 -0.117737 0.006742 -0.002583 0.004450 0.000035 0.014389 -0.059376 
1.9050000000000000 0.829254 -0.203278 0.005894 -0.003047 0.004217 0.000010 0.012295 -0.058470 
1.9062500000000000 0.773315 -0.272827 0.005463 -0.003753 0.004352 -0.000454 0.009623 -0.057348 
1.9075000000000000 0.708283 -0.335602 0.004658 -0.004138 0.004222 -0.000975 0.007164 -0.056217 
1.9087499999999999 0.649292 -0.382752 0.003974 -0.004116 0.004350 -0.001410 0.004759 -0.054634 
1.9099999999999999 0.590179 -0.419373 0.003312 -0.004449 0.004267 -0.001590 0.002304 -0.053200 
1.9112499999999999 0.533722 -0.450134 0.003048 -0.004442 0.003969 -0.002136 -0.001074 -0.051598 
1.9125000000000001 0.479828 -0.474029 0.002277 -0.004153 0.003465 -0.002358 -0.003834 -0.049948 
1.9137500000000001 0.428467 -0.489395 0.001652 -0.004562 0.003357 -0.002747 -0.006794 -0.048807 
1.9150000000000000 0.379181 -0.502747 0.001578 -0.004330 0.003421 -0.002966 -0.009533 -0.047915 
1.9162500000000000 0.332672 -0.511475 0.001093 -0.004307 0.002759 -0.003247 -0.011776 -0.046299 
1.9175000000000000 0.290741 -0.515869 0.000671 -0.004026 0.002707 -0.003704 -0.014080 -0.044825 
1.9187500000000000 0.250030 -0.518738 0.000488 -0.004239 0.002585 -0.003920 -0.015583 -0.043785 
1.9199999999999999 0.212921 -0.517456 0.000001 -0.004108 0.001883 -0.004172 -0.017252 -0.042118 
1.9212499999999999 0.177856 -0.515320 -0.000156 -0.003967 0.001472 -0.004085 -0.018881 -0.040462 
1.9225000000000001 0.145050 -0.512451 -0.000563 -0.003631 0.000894 -0.004138 -0.020391 -0.037758 
1.9237500000000001 0.111755 -0.507843 -0.000755 -0.003782 0.000779 -0.004552 -0.021141 -0.036215 
1.9250000000000000 0.081909 -0.502625 -0.001120 -0.003340 0.000216 -0.004241 -0.022739 -0.033432 
1.9262500000000000 0.053162 -0.497742 -0.001019 -0.003418 -0.000167 -0.004497 -0.024426 -0.030914 
1.9275000000000000 0.026978 -0.489685 -0.001535 -0.003300 -0.000652 -0.004482 -0.025848 -0.028511 
1.9287500000000000 0.000275 -0.482575 -0.001700 -0.002947 -0.001062 -0.004366 -0.027573 -0.026306 
1.9299999999999999 -0.021729 -0.474365 -0.001820 -0.002808 -0.001442 -0.004217 -0.029072 -0.024326 
1.9312499999999999 -0.044159 -0.464935 -0.001987 -0.002788 -0.001438 -0.004310 -0.030384 -0.022877 
1.9325000000000001 -0.067383 -0.454407 -0.002186 -0.002556 -0.001909 -0.003958 -0.031597 -0.021484 
1.9337500000000001 -0.088150 -0.443970 -0.002174 -0.002096 -0.002234 -0.003685 -0.032330 -0.020105 
1.9350000000000001 -0.109329 -0.434433 -0.002422 -0.002082 -0.002552 -0.003425 -0.032841 -0.018686 
1.9362500000000000 -0.128525 -0.423279 -0.002447 -0.002190 -0.002933 -0.003423 -0.032505 -0.017330 
1.9375000000000000 -0.147553 -0.412933 -0.002485 -0.001946 -0.003235 -0.003010 -0.032688 -0.015842 
1.9387500000000000 -0.165451 -0.401108 -0.002686 -0.001655 -0.003505 -0.002870 -0.033155 -0.014404 
1.9399999999999999 -0.183227 -0.389465 -0.002793 -0.001409 -0.003750 -0.002319 -0.033083 -0.012835 
1.9412499999999999 -0.200058 -0.376953 -0.002797 -0.001258 -0.003784 -0.001967 -0.033381 -0.010931 
1.9424999999999999 -0.216690 -0.365097 -0.003047 -0.001320 -0.003784 -0.001833 -0.033674 -0.008995 
1.9437500000000001 -0.232681 -0.351059 -0.002922 -0.000865 -0.003989 -0.001287 -0.034151 -0.007729 
1.9450000000000001 -0.248154 -0.337112 -0.003057 -0.000535 -0.003998 -0.000881 -0.035181 -0.006416 
1.9462500000000000 -0.263489 -0.324539 -0.003031 -0.000518 -0.004091 -0.000649 -0.036406 -0.005096 
1.9475000000000000 -0.278320 -0.310059 -0.003039 -0.000124 -0.004217 -0.000182 -0.037275 -0.004665 
1.9487500000000000 -0.293518 -0.294769 -0.003063 -0.000001 -0.004281 0.000201 -0.038643 -0.004272 
1.9500000000000000 -0.305817 -0.280197 -0.003055 0.000228 -0.004368 0.000314 -0.039362 -0.004042 
1.9512499999999999 -0.320358 -0.264862 -0.003082 0.000398 -0.004274 0.001059 -0.040386 -0.004101 
1.9524999999999999 -0.332947 -0.247787 -0.003156 0.000504 -0.004314 0.001216 -0.041080 -0.003925 
1.9537500000000001 -0.347000 -0.231323 -0.003059 0.000817 -0.004142 0.001481 -0.041370 -0.003578 
1.9550000000000001 -0.357864 -0.214188 -0.003094 0.001179 -0.004269 0.001909 -0.041994 -0.002611 
1.9562500000000000 -0.370117 -0.195251 -0.002998 0.001285 -0.003767 0.002134 -0.042503 -0.002314 
1.9575000000000000 -0.383728 -0.175796 -0.003040 0.001418 -0.003439 0.002590 -0.043949 -0.001524 
1.9587500000000000 -0.394547 -0.154175 -0.002600 0.002018 -0.003306 0.002901 -0.045006 -0.000282 
1.9600000000000000 -0.406128 -0.132385 -0.002729 0.001933 -0.002924 0.003191 -0.046741 0.000938 
1.9612499999999999 -0.417236 -0.110596 -0.002766 0.002219 -0.002579 0.003537 -0.048527 0.001614 
1.9624999999999999 -0.427521 -0.087769 -0.002522 0.002115 -0.002498 0.003827 -0.050823 0.003239 
1.9637500000000001 -0.438049 -0.062836 -0.002159 0.002685 -0.002174 0.004163 -0.053093 0.003960 
1.9650000000000001 -0.447906 -0.034668 -0.002257 0.002972 -0.001879 0.004265 -0.054703 0.004696 
1.9662500000000001 -0.457245 -0.006439 -0.001958 0.003205 -0.001518 0.004605 -0.056736 0.005421 
1.9675000000000000 -0.463654 0.022064 -0.001730 0.003326 -0.000701 0.004277 -0.059101 0.006573 
1.9687500000000000 -0.470703 0.055695 -0.001799 0.003561 -0.000600 0.004474 -0.060799 0.007904 
1.9700000000000000 -0.477859 0.090347 -0.001384 0.003775 -0.000018 0.004740 -0.062334 0.009596 
1.9712499999999999 -0.480728 0.127228 -0.001279 0.004099 0.000745 0.004320 -0.064354 0.011677 
1.9724999999999999 -0.483963 0.164780 -0.000971 0.004253 0.001095 0.004457 -0.065502 0.014061 
1.9737499999999999 -0.484268 0.206558 -0.000584 0.004349 0.000968 0.004293 -0.066738 0.016804 
1.9750000000000001 -0.483475 0.253220 -0.000272 0.004678 0.001657 0.004408 -0.069077 0.019318 
1.9762500000000001 -0.477600 0.299652 0.000295 0.004857 0.001951 0.004017 -0.070892 0.022858 
1.9775000000000000 -0.468079 0.350220 0.000755 0.004927 0.002264 0.004069 -0.073032 0.025665 
1.9787500000000000 -0.453796 0.404053 0.001248 0.004861 0.002689 0.003584 -0.074799 0.029205 
1.9800000000000000 -0.430115 0.462647 0.002104 0.004851 0.003149 0.003693 -0.076729 0.032387 
1.9812500000000000 -0.400818 0.524841 0.002364 0.004904 0.003439 0.003119 -0.078419 0.035450 
1.9824999999999999 -0.359009 0.590759 0.003163 0.005065 0.003364 0.002716 -0.079395 0.038383 
1.9837499999999999 -0.310791 0.653686 0.003670 0.004744 0.003942 0.002393 -0.080475 0.041153 
1.9850000000000001 -0.246033 0.717896 0.004347 0.004498 0.004071 0.001755 -0.080494 0.045006 
1.9862500000000001 -0.167908 0.778809 0.005355 0.004584 0.003992 0.001771 -0.080986 0.048618 
1.9875000000000000 -0.070435 0.829163 0.005672 0.003722 0.004099 0.001177 -0.080135 0.052132 
1.9887500000000000 0.039917 0.866577 0.006135 0.002752 0.004464 0.000845 -0.079735 0.056396 
1.9900000000000000 0.173828 0.888977 0.007522 0.002247 0.004353 0.000532 -0.079159 0.060745 
1.9912500000000000 0.304321 0.886475 0.008092 0.001004 0.004418 -0.000038 -0.078514 0.065010 
1.9924999999999999 0.449219 0.851379 0.007927 -0.000300 0.004259 -0.000402 -0.077644 0.069744 
1.9937499999999999 0.580383 0.783630 0.008010 -0.001595 0.004358 -0.000599 -0.076878 0.074265 
1.9950000000000001 0.699402 0.682190 0.007054 -0.002980 0.004175 -0.001187 -0.076298 0.078129 
1.9962500000000001 0.795960 0.564087 0.006503 -0.004079 0.004151 -0.001506 -0.074818 0.081764 
1.9975000000000001 0.870300 0.433167 0.005873 -0.004727 0.003803 -0.001594 -0.073757 0.086063 
1.9987500000000000 0.902100 0.293640 0.004774 -0.005524 0.003522 -0.002116 -0.072338 0.088734 
2.0000000000000000 0.912903 0.163269 0.004196 -0.005906 0.003693 -0.002288 -0.070286 0.092510 
2.0012500000000002 0.888794 0.040772 0.003311 -0.006055 0.003454 -0.002934 -0.067524 0.095005 
2.0024999999999999 0.858093 -0.066650 0.001905 -0.006110 0.003178 -0.002745 -0.064518 0.097931 
2.0037500000000001 0.808716 -0.161194 0.001457 -0.006118 0.002957 -0.003477 -0.061546 0.100742 
2.0049999999999999 0.750244 -0.239014 0.000876 -0.005952 0.002587 -0.003841 -0.058151 0.103325 
2.0062500000000001 0.689148 -0.302795 -0.000036 -0.005827 0.002304 -0.003952 -0.054920 0.106567 
2.0074999999999998 0.633026 -0.356415 -0.000614 -0.005591 0.001950 -0.004442 -0.051395 0.109005 
2.0087500000000000 0.572632 -0.394470 -0.001071 -0.005153 0.001594 -0.004457 -0.048363 0.111435 
2.0099999999999998 0.515198 -0.425568 -0.001727 -0.004524 0.001250 -0.004735 -0.044971 0.113720 
2.0112500000000000 0.460083 -0.447022 -0.001931 -0.004430 0.001015 -0.004725 -0.042461 0.115654 
2.0125000000000002 0.407715 -0.466095 -0.002380 -0.004004 0.000352 -0.004925 -0.039864 0.117439 
2.0137499999999999 0.360229 -0.476715 -0.002659 -0.003609 -0.000089 -0.004951 -0.036655 0.118744 
2.0150000000000001 0.313660 -0.488525 -0.002792 -0.003318 -0.000775 -0.004529 -0.033756 0.119125 
2.0162499999999999 0.271866 -0.490860 -0.003103 -0.002932 -0.001216 -0.004458 -0.031048 0.119694 
2.0175000000000001 0.232529 -0.492966 -0.002957 -0.002484 -0.001730 -0.004591 -0.028526 0.119011 
2.0187499999999998 0.194809 -0.493607 -0.003038 -0.002334 -0.002314 -0.004137 -0.025089 0.119362 
2.0200000000000000 0.159531 -0.489105 -0.002976 -0.001907 -0.002315 -0.003806 -0.021835 0.119206 
2.0212500000000002 0.127243 -0.486832 -0.003176 -0.001646 -0.003062 -0.003702 -0.019432 0.119015 
2.0225000000000000 0.095825 -0.482117 -0.003376 -0.001487 -0.003005 -0.003354 -0.016109 0.119270 
2.0237500000000002 0.068543 -0.476593 -0.003170 -0.001292 -0.003165 -0.003084 -0.014091 0.118637 
2.0249999999999999 0.040649 -0.470062 -0.003370 -0.000698 -0.003482 -0.002654 -0.011787 0.119354 
2.0262500000000001 0.015350 -0.461334 -0.003281 -0.000460 -0.003656 -0.002397 -0.010200 0.119621 
2.0274999999999999 -0.007782 -0.452057 -0.003197 -0.000460 -0.003959 -0.002102 -0.008797 0.119171 
2.0287500000000001 -0.032410 -0.444183 -0.003304 -0.000147 -0.004194 -0.001345 -0.008179 0.119148 
2.0299999999999998 -0.053436 -0.433777 -0.003204 -0.000123 -0.004184 -0.001045 -0.007256 0.119049 
2.0312500000000000 -0.075500 -0.424103 -0.002953 0.000393 -0.004448 -0.000851 -0.006508 0.118179 
2.0325000000000002 -0.095062 -0.414398 -0.002858 0.000429 -0.004663 -0.000078 -0.006042 0.117561 
2.0337499999999999 -0.114777 -0.403931 -0.002884 0.000719 -0.004261 0.000206 -0.006157 0.117790 
2.0350000000000001 -0.133362 -0.393097 -0.002823 0.000754 -0.004132 0.000736 -0.004898 0.117645 
2.0362499999999999 -0.151032 -0.381653 -0.002627 0.001035 -0.004029 0.000995 -0.004745 0.116943 
2.0375000000000001 -0.167328 -0.371429 -0.002449 0.001110 -0.004213 0.001202 -0.003647 0.117683 
2.0387499999999998 -0.182831 -0.359894 -0.002548 0.001323 -0.003821 0.001479 -0.003136 0.118034 
2.0400000000000000 -0.198151 -0.348083 -0.002350 0.001572 -0.003600 0.001694 -0.003006 0.119255 
2.0412499999999998 -0.213654 -0.335785 -0.002124 0.001699 -0.003716 0.002357 -0.001884 0.119927 
2.0425000000000000 -0.227417 -0.322662 -0.002061 0.001909 -0.003670 0.002570 -0.001694 0.121826 
2.0437500000000002 -0.241943 -0.311127 -0.001998 0.002110 -0.003125 0.003066 -0.001404 0.123154 
2.0449999999999999 -0.256103 -0.297180 -0.001532 0.002095 -0.002908 0.003030 -0.001060 0.124847 
2.0462500000000001 -0.267395 -0.282562 -0.001548 0.002120 -0.002299 0.003428 -0.000999 0.126755 
2.0474999999999999 -0.280548 -0.269592 -0.001334 0.002171 -0.001952 0.003307 -0.000366 0.128258 
2.0487500000000001 -0.293274 -0.254517 -0.001082 0.002299 -0.001868 0.003392 0.000313 0.130089 
2.0499999999999998 -0.305054 -0.238770 -0.000978 0.002563 -0.001680 0.003955 0.001556 0.132217 
2.0512500000000000 -0.316437 -0.223206 -0.001217 0.002554 -0.001313 0.003997 0.003105 0.133537 
2.0525000000000002 -0.328003 -0.208221 -0.000654 0.002745 -0.000731 0.003958 0.004944 0.135506 
2.0537500000000000 -0.338348 -0.190674 -0.000484 0.002711 -0.000531 0.004308 0.007546 0.137825 
2.0550000000000002 -0.350189 -0.174255 -0.000303 0.002690 -0.000216 0.004119 0.009636 0.140465 
2.0562499999999999 -0.360626 -0.155273 -0.000158 0.002742 0.000310 0.004322 0.012489 0.142876 
2.0575000000000001 -0.369721 -0.135956 -0.000141 0.002641 0.000798 0.004095 0.015442 0.145416 
2.0587499999999999 -0.380646 -0.117340 0.000217 0.002670 0.001353 0.003611 0.017746 0.147980 
2.0600000000000001 -0.390381 -0.094788 0.000578 0.002831 0.001723 0.003733 0.020935 0.150330 
2.0612499999999998 -0.399216 -0.073883 0.000593 0.002750 0.001549 0.003516 0.023865 0.152573 
2.0625000000000000 -0.407211 -0.049515 0.001082 0.002754 0.002204 0.003665 0.026932 0.154343 
2.0637500000000002 -0.415115 -0.026505 0.001147 0.002687 0.002376 0.003452 0.030395 0.155884 
2.0649999999999999 -0.422104 0.000626 0.001448 0.002670 0.002787 0.003057 0.034607 0.156937 
2.0662500000000001 -0.428497 0.027954 0.001593 0.002528 0.002900 0.002605 0.038643 0.157646 
2.0674999999999999 -0.434326 0.057083 0.001584 0.002506 0.003096 0.002432 0.043495 0.158073 
2.0687500000000001 -0.439117 0.085693 0.001897 0.002544 0.003264 0.001986 0.048729 0.158455 
2.0699999999999998 -0.442032 0.120621 0.002400 0.002331 0.003424 0.001620 0.055031 0.158188 
2.0712500000000000 -0.443329 0.153198 0.002448 0.002117 0.003413 0.001162 0.060730 0.157501 
2.0724999999999998 -0.443176 0.190491 0.002700 0.002141 0.003918 0.001142 0.065735 0.157776 
2.0737500000000000 -0.440033 0.230743 0.003158 0.001739 0.003982 0.000234 0.071579 0.157806 
2.0750000000000002 -0.433167 0.272797 0.003345 0.001528 0.003655 0.000041 0.077713 0.156753 
2.0762499999999999 -0.423218 0.316681 0.003334 0.001434 0.003993 -0.000239 0.082687 0.155533 
2.0775000000000001 -0.410309 0.365906 0.003514 0.000589 0.003544 -0.001069 0.088593 0.153992 
2.0787499999999999 -0.390076 0.413940 0.003610 0.000514 0.003870 -0.000867 0.093475 0.151856 
2.0800000000000001 -0.362656 0.470505 0.003759 0.000412 0.003688 -0.001150 0.098190 0.149086 
2.0812499999999998 -0.328033 0.526184 0.003915 0.000089 0.003230 -0.001543 0.103455 0.146042 
2.0825000000000000 -0.282471 0.580139 0.004018 -0.000480 0.003410 -0.001687 0.108292 0.142380 
2.0837500000000002 -0.226501 0.635346 0.004093 -0.000673 0.002905 -0.002044 0.112823 0.138840 
2.0850000000000000 -0.156830 0.687256 0.004313 -0.001123 0.002707 -0.002788 0.117600 0.134277 
2.0862500000000002 -0.075256 0.735107 0.004417 -0.001839 0.002427 -0.002643 0.122070 0.130218 
2.0874999999999999 0.021484 0.770447 0.004709 -0.002697 0.002418 -0.002660 0.126892 0.125443 
2.0887500000000001 0.134827 0.791077 0.003859 -0.003402 0.001870 -0.002791 0.130875 0.121353 
2.0899999999999999 0.260620 0.787109 0.002918 -0.004223 0.001406 -0.002798 0.134476 0.116409 
2.0912500000000001 0.375732 0.769287 0.003095 -0.004450 0.001314 -0.002666 0.137939 0.112167 
2.0924999999999998 0.502380 0.720459 0.001936 -0.005265 0.001037 -0.002995 0.140297 0.107521 
2.0937500000000000 0.618103 0.632019 0.001540 -0.005292 0.000928 -0.003034 0.141937 0.103066 
2.0950000000000002 0.705750 0.534546 0.000712 -0.005395 0.000879 -0.003114 0.144669 0.097366 
2.0962499999999999 0.779755 0.422638 -0.000087 -0.005409 0.000528 -0.003336 0.145416 0.092705 
2.0975000000000001 0.815521 0.298187 -0.000751 -0.004775 0.000064 -0.003276 0.145988 0.087814 
2.0987499999999999 0.827576 0.174439 -0.001495 -0.004669 -0.000159 -0.003344 0.147003 0.082260 
2.1000000000000001 0.820007 0.061585 -0.002129 -0.003964 -0.000687 -0.003346 0.146927 0.077499 
2.1012499999999998 0.791870 -0.044495 -0.002937 -0.003584 -0.000885 -0.003267 0.148178 0.072418 
2.1025000000000000 0.749146 -0.135925 -0.003088 -0.003162 -0.000716 -0.003089 0.147629 0.068222 
2.1037499999999998 0.702026 -0.208801 -0.003323 -0.002948 -0.001616 -0.003368 0.148224 0.063110 
2.1050000000000000 0.647400 -0.274353 -0.003313 -0.002499 -0.001872 -0.002678 0.148575 0.058975 
2.1062500000000002 0.592011 -0.322449 -0.003468 -0.001842 -0.002118 -0.002728 0.148163 0.054703 
2.1074999999999999 0.535706 -0.360504 -0.003532 -0.001766 -0.002086 -0.002755 0.147842 0.051651 
2.1087500000000001 0.481888 -0.391495 -0.003257 -0.000898 -0.002863 -0.002648 0.146584 0.048378 
2.1099999999999999 0.427841 -0.413528 -0.003089 -0.000533 -0.003278 -0.002315 0.146195 0.045250 
2.1112500000000001 0.379150 -0.429352 -0.002908 -0.000598 -0.003000 -0.001641 0.144836 0.042503 
2.1124999999999998 0.331009 -0.439957 -0.002805 -0.000185 -0.003396 -0.001321 0.143288 0.039368 
2.1137500000000000 0.287888 -0.450195 -0.002809 -0.000003 -0.003522 -0.001234 0.141998 0.036545 
2.1150000000000002 0.246552 -0.454193 -0.002685 0.000314 -0.002963 -0.000432 0.140182 0.033714 
2.1162500000000000 0.208252 -0.456970 -0.002577 0.000465 -0.003063 -0.000456 0.139709 0.030640 
2.1175000000000002 0.171829 -0.455307 -0.002056 0.000671 -0.003297 -0.000160 0.138046 0.029022 
2.1187499999999999 0.139130 -0.452484 -0.002425 0.000756 -0.003029 0.000038 0.137177 0.025719 
2.1200000000000001 0.107575 -0.449463 -0.001994 0.000795 -0.002664 0.000723 0.137268 0.024345 
2.1212499999999999 0.078522 -0.443527 -0.002068 0.000939 -0.002784 0.000942 0.136566 0.021866 
2.1225000000000001 0.050522 -0.437164 -0.001992 0.001254 -0.002603 0.000936 0.135628 0.020683 
2.1237499999999998 0.025330 -0.429932 -0.001829 0.001119 -0.002621 0.000983 0.135475 0.018944 
2.1250000000000000 0.000610 -0.421936 -0.001526 0.001339 -0.002570 0.001418 0.134468 0.017525 
2.1262500000000002 -0.023560 -0.414566 -0.001394 0.001245 -0.002184 0.001670 0.134224 0.016632 
2.1274999999999999 -0.043076 -0.405350 -0.001282 0.001396 -0.002497 0.001737 0.133659 0.015289 
2.1287500000000001 -0.064087 -0.395798 -0.001156 0.001313 -0.001937 0.001638 0.132515 0.013901 
2.1299999999999999 -0.082657 -0.387604 -0.001121 0.001440 -0.001559 0.001806 0.131889 0.012482 
2.1312500000000001 -0.101578 -0.375275 -0.001004 0.001711 -0.001752 0.001894 0.130898 0.010025 
2.1324999999999998 -0.118957 -0.365601 -0.000861 0.001589 -0.001259 0.002110 0.130318 0.008652 
2.1337500000000000 -0.134888 -0.353699 -0.000741 0.001625 -0.001005 0.002322 0.130264 0.006615 
2.1349999999999998 -0.150269 -0.344818 -0.000543 0.001720 -0.001000 0.002392 0.129784 0.004066 
2.1362500000000000 -0.166107 -0.333649 -0.000526 0.001635 -0.000836 0.002494 0.130470 0.002213 
2.1375000000000002 -0.179810 -0.320679 -0.000497 0.001699 -0.000706 0.002574 0.130753 0.000320 
2.1387499999999999 -0.194183 -0.308258 -0.000410 0.001727 -0.000520 0.002331 0.130455 -0.001762 
2.1400000000000001 -0.208649 -0.295227 -0.000096 0.001722 -0.000200 0.002553 0.130493 -0.003647 
2.1412499999999999 -0.221222 -0.282318 -0.000136 0.001611 -0.000092 0.002549 0.130135 -0.005455 
2.1425000000000001 -0.234833 -0.269318 0.000132 0.001498 0.000299 0.002313 0.129669 -0.007401 
2.1437499999999998 -0.245941 -0.257080 0.000269 0.001685 0.000356 0.002143 0.129227 -0.009377 
2.1450000000000000 -0.257416 -0.242065 -0.000014 0.001514 0.000377 0.002382 0.127869 -0.011536 
2.1462500000000002 -0.269257 -0.227814 0.000525 0.001628 0.001040 0.001993 0.126823 -0.013977 
2.1475000000000000 -0.280579 -0.213196 0.000362 0.001515 0.000866 0.001982 0.125969 -0.016754 
2.1487500000000002 -0.290222 -0.197601 0.000476 0.001496 0.001015 0.001949 0.125107 -0.019905 
2.1499999999999999 -0.301148 -0.181091 0.000740 0.001377 0.001611 0.001890 0.123802 -0.022850 
2.1512500000000001 -0.311279 -0.165161 0.000725 0.001619 0.001659 0.001884 0.122765 -0.025963 
