!
! C:\Users\rflab\Downloads\Lab5_KD_ZW\140.S2P
!
! Touchstone 1.1 file saved by VNA.EXE V1.65 (www.ke5fx.com/gpib/readme.htm)
! 11/12/2024 12:12:58 AM
!
!    Source: HEWLETT PACKARD,8753D,0,6.14
!  Min freq: 1.900000E+009 Hz
!  Max freq: 2.900000E+009 Hz
!    Points: 801
!    Params: S11 S21 S12 S22
!
!!!!!
# GHZ S RI R 50
1.8999999999999999 0.960693 0.243469 0.007655 0.001166 0.003838 0.001478 0.021204 -0.058397 
1.9012500000000001 0.957031 0.113037 0.007546 -0.000109 0.003931 0.000974 0.019108 -0.058773 
1.9025000000000001 0.926392 -0.006775 0.007166 -0.000965 0.004195 0.000628 0.016787 -0.058466 
1.9037500000000001 0.883972 -0.111023 0.006715 -0.001630 0.004214 0.000253 0.014378 -0.058567 
1.9050000000000000 0.830933 -0.199432 0.006061 -0.002269 0.004192 0.000158 0.012333 -0.057541 
1.9062500000000000 0.774597 -0.270660 0.005449 -0.003449 0.004185 -0.000150 0.009743 -0.056726 
1.9075000000000000 0.714722 -0.331421 0.004712 -0.003392 0.004271 -0.000711 0.007809 -0.055603 
1.9087499999999999 0.654053 -0.378052 0.004409 -0.003684 0.004276 -0.001311 0.005026 -0.054035 
1.9099999999999999 0.592133 -0.418549 0.003612 -0.004069 0.003934 -0.001101 0.002691 -0.052649 
1.9112499999999999 0.537354 -0.448914 0.003050 -0.004178 0.004074 -0.001965 -0.000591 -0.051067 
1.9125000000000001 0.482117 -0.470795 0.002733 -0.004385 0.003549 -0.002124 -0.003126 -0.049927 
1.9137500000000001 0.428940 -0.488007 0.002122 -0.004117 0.003557 -0.002323 -0.005985 -0.048750 
1.9150000000000000 0.381287 -0.501800 0.001798 -0.004384 0.003251 -0.002739 -0.008728 -0.047586 
1.9162500000000000 0.334168 -0.510193 0.001321 -0.004385 0.002977 -0.003005 -0.011204 -0.046455 
1.9175000000000000 0.293243 -0.515106 0.000926 -0.004117 0.002877 -0.003314 -0.012960 -0.045033 
1.9187500000000000 0.251740 -0.518616 0.000620 -0.003967 0.002338 -0.003689 -0.014561 -0.043787 
1.9199999999999999 0.215454 -0.516968 0.000192 -0.003917 0.002304 -0.003897 -0.016069 -0.042509 
1.9212499999999999 0.180206 -0.514679 0.000022 -0.004069 0.001653 -0.004106 -0.017740 -0.040890 
1.9225000000000001 0.145691 -0.511841 -0.000317 -0.003848 0.001440 -0.004194 -0.018909 -0.038591 
1.9237500000000001 0.112640 -0.508087 -0.000674 -0.003784 0.001070 -0.004525 -0.020294 -0.036659 
1.9250000000000000 0.083466 -0.503174 -0.000888 -0.003547 0.000534 -0.004319 -0.021664 -0.034386 
1.9262500000000000 0.054596 -0.497528 -0.001060 -0.003410 0.000506 -0.004676 -0.023285 -0.032066 
1.9275000000000000 0.028778 -0.490418 -0.001487 -0.003399 -0.000481 -0.004320 -0.024963 -0.029247 
1.9287500000000000 0.002594 -0.483063 -0.001519 -0.002988 -0.000542 -0.004076 -0.026443 -0.027393 
1.9299999999999999 -0.020416 -0.474029 -0.001630 -0.002967 -0.001111 -0.004370 -0.028019 -0.025501 
1.9312499999999999 -0.042389 -0.465576 -0.001879 -0.002797 -0.001385 -0.004186 -0.029598 -0.023956 
1.9325000000000001 -0.066406 -0.455353 -0.002015 -0.002611 -0.001932 -0.003979 -0.030785 -0.022602 
1.9337500000000001 -0.086655 -0.445572 -0.002110 -0.002410 -0.002320 -0.003839 -0.031519 -0.021410 
1.9350000000000001 -0.108139 -0.434280 -0.002206 -0.002303 -0.002395 -0.003515 -0.032196 -0.020079 
1.9362500000000000 -0.126816 -0.424332 -0.002392 -0.002045 -0.002775 -0.003454 -0.032272 -0.018845 
1.9375000000000000 -0.146683 -0.413269 -0.002523 -0.001959 -0.002960 -0.003029 -0.032595 -0.017849 
1.9387500000000000 -0.163284 -0.400925 -0.002497 -0.001846 -0.003430 -0.002733 -0.032490 -0.015827 
1.9399999999999999 -0.182022 -0.389771 -0.002675 -0.001578 -0.003217 -0.002452 -0.032896 -0.014135 
1.9412499999999999 -0.198135 -0.376907 -0.002863 -0.001218 -0.003436 -0.002329 -0.033331 -0.012396 
1.9424999999999999 -0.215134 -0.365967 -0.003009 -0.001122 -0.003698 -0.002030 -0.033775 -0.010326 
1.9437500000000001 -0.230896 -0.351410 -0.003140 -0.000963 -0.003947 -0.001478 -0.034801 -0.008932 
1.9450000000000001 -0.246948 -0.338760 -0.003045 -0.000628 -0.003979 -0.001051 -0.035475 -0.007919 
1.9462500000000000 -0.262695 -0.324600 -0.003020 -0.000422 -0.004272 -0.000670 -0.036779 -0.006807 
1.9475000000000000 -0.276703 -0.310837 -0.003055 -0.000553 -0.004313 -0.000600 -0.037889 -0.006287 
1.9487500000000000 -0.292038 -0.295868 -0.003220 -0.000125 -0.004349 -0.000109 -0.039055 -0.005854 
1.9500000000000000 -0.303864 -0.281357 -0.003074 -0.000098 -0.004009 0.000425 -0.039890 -0.005127 
1.9512499999999999 -0.319626 -0.265869 -0.003197 0.000354 -0.004431 0.000537 -0.040728 -0.005102 
1.9524999999999999 -0.332504 -0.248169 -0.003262 0.000505 -0.004317 0.000890 -0.041554 -0.004824 
1.9537500000000001 -0.345077 -0.232513 -0.003096 0.000878 -0.004116 0.001259 -0.041691 -0.004240 
1.9550000000000001 -0.357269 -0.213821 -0.003162 0.000843 -0.003942 0.002135 -0.042793 -0.003765 
1.9562500000000000 -0.369125 -0.196304 -0.003191 0.001197 -0.003665 0.002318 -0.043467 -0.002504 
1.9575000000000000 -0.382248 -0.175995 -0.002973 0.001329 -0.003615 0.002123 -0.044724 -0.001814 
1.9587500000000000 -0.393616 -0.155212 -0.002969 0.001689 -0.003459 0.002963 -0.045876 -0.000505 
1.9600000000000000 -0.405212 -0.133484 -0.002738 0.001822 -0.003085 0.003241 -0.047676 0.000744 
1.9612499999999999 -0.416321 -0.110687 -0.002841 0.002112 -0.002976 0.003577 -0.049709 0.001747 
1.9624999999999999 -0.425903 -0.089264 -0.002656 0.002254 -0.002681 0.003701 -0.051609 0.003315 
1.9637500000000001 -0.437470 -0.063934 -0.002530 0.002477 -0.002338 0.003881 -0.053982 0.004292 
1.9650000000000001 -0.446960 -0.037170 -0.002495 0.002725 -0.001896 0.003933 -0.055969 0.005329 
1.9662500000000001 -0.455749 -0.007904 -0.002212 0.002810 -0.001466 0.004173 -0.057819 0.006195 
1.9675000000000000 -0.462952 0.019562 -0.002217 0.003042 -0.001119 0.004620 -0.059978 0.007225 
1.9687500000000000 -0.469940 0.053345 -0.001871 0.003569 -0.000929 0.004425 -0.061684 0.008705 
1.9700000000000000 -0.476746 0.087112 -0.001750 0.003721 -0.000152 0.004491 -0.063175 0.010326 
1.9712499999999999 -0.481247 0.124298 -0.001402 0.003984 -0.000081 0.004653 -0.064884 0.012352 
1.9724999999999999 -0.484207 0.161911 -0.001062 0.004181 0.000712 0.004460 -0.066582 0.014423 
1.9737499999999999 -0.483795 0.204147 -0.000754 0.004343 0.000959 0.004536 -0.067501 0.017147 
1.9750000000000001 -0.482788 0.251800 -0.000263 0.004882 0.001484 0.004291 -0.069450 0.020084 
1.9762500000000001 -0.478973 0.297302 -0.000130 0.004457 0.001723 0.004287 -0.071247 0.023460 
1.9775000000000000 -0.469116 0.348267 0.000358 0.005133 0.002235 0.004214 -0.073364 0.026810 
1.9787500000000000 -0.454590 0.401306 0.000811 0.005174 0.002337 0.004097 -0.075298 0.029919 
1.9800000000000000 -0.431152 0.458557 0.001571 0.005336 0.002912 0.003672 -0.076855 0.032978 
1.9812500000000000 -0.400696 0.521606 0.002219 0.004948 0.003224 0.003418 -0.078735 0.035999 
1.9824999999999999 -0.362610 0.586182 0.002713 0.005434 0.003618 0.002879 -0.079147 0.039162 
1.9837499999999999 -0.316162 0.648498 0.003529 0.004951 0.003937 0.002338 -0.080029 0.042229 
1.9850000000000001 -0.251068 0.712341 0.004173 0.004685 0.004222 0.002180 -0.080730 0.045521 
1.9862500000000001 -0.174927 0.772339 0.005023 0.004245 0.004554 0.001559 -0.080925 0.048855 
1.9875000000000000 -0.080688 0.829529 0.005701 0.003980 0.004373 0.001321 -0.080818 0.052422 
1.9887500000000000 0.031494 0.863403 0.006750 0.003411 0.004120 0.001098 -0.079765 0.056934 
1.9900000000000000 0.157471 0.886536 0.007167 0.002449 0.004531 0.000603 -0.079140 0.061039 
1.9912500000000000 0.294067 0.887695 0.007293 0.001411 0.004625 0.000172 -0.078377 0.064964 
1.9924999999999999 0.435242 0.854431 0.008374 0.000145 0.004203 -0.000144 -0.077587 0.069706 
1.9937499999999999 0.570313 0.791748 0.007723 -0.001496 0.004133 -0.000558 -0.077122 0.073902 
1.9950000000000001 0.691711 0.692322 0.007624 -0.002471 0.004189 -0.000848 -0.076145 0.077641 
1.9962500000000001 0.791931 0.575012 0.007071 -0.003647 0.004353 -0.001310 -0.075062 0.081795 
1.9975000000000001 0.860474 0.445618 0.005650 -0.004386 0.003762 -0.001526 -0.073662 0.085121 
1.9987500000000000 0.897888 0.303223 0.005037 -0.005451 0.004067 -0.001806 -0.072372 0.088173 
2.0000000000000000 0.912659 0.173523 0.004403 -0.005791 0.004010 -0.002233 -0.069782 0.091423 
2.0012500000000002 0.889954 0.044128 0.003378 -0.006224 0.003479 -0.002593 -0.067730 0.093922 
2.0024999999999999 0.855164 -0.060425 0.002669 -0.006404 0.003712 -0.002791 -0.064697 0.096802 
2.0037500000000001 0.811096 -0.153931 0.001584 -0.006186 0.003121 -0.002878 -0.061684 0.099873 
2.0049999999999999 0.755981 -0.234131 0.000957 -0.006069 0.002817 -0.003413 -0.058693 0.102196 
2.0062500000000001 0.697876 -0.298035 -0.000232 -0.005928 0.002361 -0.003893 -0.055096 0.105068 
2.0074999999999998 0.636902 -0.350952 -0.000930 -0.005310 0.002207 -0.004211 -0.051731 0.107674 
2.0087500000000000 0.574371 -0.391541 -0.001199 -0.005116 0.001428 -0.004130 -0.048908 0.110287 
2.0099999999999998 0.519501 -0.425385 -0.001763 -0.004560 0.001127 -0.004441 -0.045776 0.112274 
2.0112500000000000 0.465088 -0.446106 -0.001799 -0.004375 0.000801 -0.004794 -0.043037 0.114540 
2.0125000000000002 0.412079 -0.464355 -0.002101 -0.003853 0.000376 -0.004450 -0.040295 0.115704 
2.0137499999999999 0.364487 -0.475815 -0.002575 -0.003563 -0.000429 -0.004537 -0.037571 0.117008 
2.0150000000000001 0.318451 -0.486542 -0.002338 -0.003470 -0.000601 -0.004455 -0.035103 0.117504 
2.0162499999999999 0.275650 -0.489899 -0.002537 -0.002964 -0.000953 -0.004975 -0.032642 0.118141 
2.0175000000000001 0.235184 -0.493195 -0.002836 -0.002799 -0.001431 -0.004177 -0.029434 0.117893 
2.0187499999999998 0.197540 -0.493073 -0.003019 -0.002320 -0.001821 -0.004226 -0.026363 0.117943 
2.0200000000000000 0.162109 -0.489685 -0.002923 -0.002311 -0.002517 -0.003896 -0.023289 0.117138 
2.0212500000000002 0.128830 -0.486618 -0.003075 -0.001666 -0.002604 -0.003537 -0.020626 0.117725 
2.0225000000000000 0.100189 -0.481918 -0.003321 -0.001317 -0.003221 -0.003565 -0.017414 0.117577 
2.0237500000000002 0.070679 -0.476364 -0.003393 -0.001199 -0.003498 -0.003122 -0.015232 0.117184 
2.0249999999999999 0.044495 -0.469666 -0.003233 -0.000812 -0.003428 -0.002842 -0.013733 0.117676 
2.0262500000000001 0.017303 -0.462097 -0.003339 -0.000662 -0.003797 -0.002646 -0.011688 0.118080 
2.0274999999999999 -0.005920 -0.452972 -0.003202 -0.000220 -0.003895 -0.001963 -0.010406 0.118080 
2.0287500000000001 -0.029999 -0.445160 -0.003124 -0.000260 -0.004329 -0.001522 -0.009552 0.118141 
2.0299999999999998 -0.051331 -0.435242 -0.002975 -0.000024 -0.004131 -0.001349 -0.008751 0.117752 
2.0312500000000000 -0.073578 -0.425903 -0.002976 0.000285 -0.004302 -0.000386 -0.008377 0.117134 
2.0325000000000002 -0.092560 -0.415985 -0.002809 0.000304 -0.004467 -0.000397 -0.007561 0.116943 
2.0337499999999999 -0.112701 -0.404388 -0.002893 0.000784 -0.004525 0.000124 -0.007454 0.117073 
2.0350000000000001 -0.131317 -0.393921 -0.002735 0.000631 -0.004128 0.000303 -0.006393 0.116783 
2.0362499999999999 -0.148743 -0.382752 -0.002699 0.001151 -0.004333 0.000758 -0.006416 0.116180 
2.0375000000000001 -0.165863 -0.371918 -0.002597 0.001388 -0.003825 0.001404 -0.005249 0.116982 
2.0387499999999998 -0.181702 -0.360992 -0.002338 0.001324 -0.003768 0.001779 -0.004662 0.117783 
2.0400000000000000 -0.197327 -0.349060 -0.002313 0.001548 -0.003946 0.002336 -0.003937 0.119034 
2.0412499999999998 -0.211517 -0.337097 -0.002194 0.001709 -0.003729 0.002126 -0.003250 0.119896 
2.0425000000000000 -0.225983 -0.323944 -0.002141 0.001891 -0.003239 0.002524 -0.002869 0.121635 
2.0437500000000002 -0.240479 -0.312103 -0.001748 0.001935 -0.002936 0.002778 -0.002670 0.123406 
2.0449999999999999 -0.254852 -0.298309 -0.001662 0.002218 -0.002709 0.002982 -0.002357 0.124947 
2.0462500000000001 -0.265717 -0.283386 -0.001612 0.002063 -0.002422 0.003081 -0.001938 0.126793 
2.0474999999999999 -0.279541 -0.271149 -0.001202 0.002223 -0.002256 0.003642 -0.001457 0.128517 
2.0487500000000001 -0.292328 -0.255585 -0.001161 0.002335 -0.001772 0.003547 -0.000397 0.130577 
2.0499999999999998 -0.303680 -0.240051 -0.000932 0.002462 -0.001462 0.003819 0.000694 0.131928 
2.0512500000000000 -0.315796 -0.224579 -0.000854 0.002380 -0.001112 0.003816 0.002342 0.133659 
2.0525000000000002 -0.327545 -0.209351 -0.000921 0.002431 -0.000651 0.003987 0.004196 0.135620 
2.0537500000000000 -0.338043 -0.191925 -0.000702 0.002640 -0.000473 0.003800 0.006325 0.138382 
2.0550000000000002 -0.348907 -0.175323 -0.000251 0.002712 0.000099 0.003857 0.008842 0.140541 
2.0562499999999999 -0.359772 -0.156342 -0.000070 0.002815 0.000310 0.003983 0.011429 0.143005 
2.0575000000000001 -0.369507 -0.136871 -0.000076 0.002870 0.000820 0.003598 0.014801 0.145996 
2.0587499999999999 -0.379944 -0.118835 0.000193 0.002723 0.001358 0.004045 0.017319 0.148285 
2.0600000000000001 -0.389587 -0.097321 0.000456 0.002635 0.001470 0.003451 0.020508 0.150696 
2.0612499999999998 -0.398682 -0.075485 0.000699 0.002684 0.001745 0.003603 0.023956 0.152786 
2.0625000000000000 -0.406113 -0.051361 0.000855 0.002604 0.002126 0.003006 0.027054 0.155136 
2.0637500000000002 -0.413879 -0.028641 0.001246 0.002525 0.002310 0.003183 0.030838 0.156082 
2.0649999999999999 -0.421799 -0.002060 0.001134 0.002357 0.002570 0.002748 0.034866 0.157227 
2.0662500000000001 -0.428253 0.026611 0.001496 0.002426 0.002887 0.002486 0.038818 0.158142 
2.0674999999999999 -0.434387 0.053360 0.001665 0.002323 0.002844 0.002552 0.043625 0.158516 
2.0687500000000001 -0.437897 0.083618 0.001786 0.002290 0.003236 0.001924 0.049103 0.158920 
2.0699999999999998 -0.440918 0.118332 0.002093 0.002118 0.003454 0.001531 0.055397 0.159096 
2.0712500000000000 -0.442535 0.151245 0.002215 0.002121 0.003450 0.001411 0.060455 0.158829 
2.0724999999999998 -0.443085 0.186707 0.002261 0.001858 0.003876 0.000949 0.066009 0.158386 
2.0737500000000000 -0.439819 0.227356 0.002857 0.001550 0.003759 0.000563 0.071426 0.158249 
2.0750000000000002 -0.433044 0.268311 0.003031 0.001645 0.003705 0.000466 0.077438 0.157440 
2.0762499999999999 -0.424713 0.313690 0.003007 0.001153 0.003559 -0.000131 0.082504 0.156097 
2.0775000000000001 -0.411163 0.361542 0.003105 0.000962 0.003484 -0.000957 0.088577 0.154724 
2.0787499999999999 -0.390503 0.410461 0.003504 0.000531 0.003539 -0.000966 0.092835 0.152527 
2.0800000000000001 -0.366730 0.465179 0.003934 0.000411 0.003182 -0.001160 0.097938 0.149513 
2.0812499999999998 -0.332367 0.519836 0.003851 0.000018 0.003415 -0.001659 0.102890 0.146500 
2.0825000000000000 -0.289673 0.574127 0.003883 -0.000458 0.002894 -0.001640 0.107819 0.142960 
2.0837500000000002 -0.233551 0.631134 0.004283 -0.001099 0.002640 -0.002188 0.112320 0.139099 
2.0850000000000000 -0.165588 0.683533 0.003782 -0.001622 0.002475 -0.002218 0.117081 0.135025 
2.0862500000000002 -0.084229 0.729492 0.003854 -0.002014 0.002367 -0.002588 0.121185 0.130493 
2.0874999999999999 0.010864 0.770019 0.003963 -0.002160 0.001916 -0.002482 0.126572 0.126144 
2.0887500000000001 0.122131 0.785583 0.003616 -0.002970 0.002063 -0.002761 0.129730 0.121201 
2.0899999999999999 0.243164 0.787170 0.003302 -0.003522 0.001615 -0.002939 0.133698 0.116936 
2.0912500000000001 0.365478 0.766846 0.002683 -0.004039 0.001088 -0.002611 0.136841 0.112457 
2.0924999999999998 0.494385 0.724121 0.002009 -0.004514 0.000962 -0.002930 0.139046 0.108643 
2.0937500000000000 0.607544 0.644348 0.001311 -0.004920 0.000890 -0.002806 0.141495 0.102966 
2.0950000000000002 0.700134 0.546387 0.000796 -0.004688 0.000649 -0.002812 0.143181 0.098496 
2.0962499999999999 0.769836 0.429352 -0.000479 -0.004757 0.000340 -0.002651 0.144432 0.092873 
2.0975000000000001 0.808319 0.306610 -0.000896 -0.004706 0.000203 -0.002814 0.144722 0.088524 
2.0987499999999999 0.827087 0.185242 -0.001513 -0.004152 0.000113 -0.003033 0.145355 0.083084 
2.1000000000000001 0.816894 0.066834 -0.001953 -0.003768 -0.000480 -0.002762 0.145767 0.078140 
2.1012499999999998 0.793823 -0.043274 -0.001991 -0.003103 -0.000347 -0.003071 0.146759 0.072708 
2.1025000000000000 0.750610 -0.128662 -0.002349 -0.002955 -0.001210 -0.002748 0.146698 0.068558 
2.1037499999999998 0.707031 -0.204712 -0.003067 -0.002514 -0.001035 -0.002777 0.146790 0.063507 
2.1050000000000000 0.648987 -0.270630 -0.002792 -0.001804 -0.001584 -0.002611 0.147293 0.059509 
2.1062500000000002 0.595215 -0.319611 -0.002792 -0.001599 -0.001701 -0.002557 0.146324 0.055641 
2.1074999999999999 0.539581 -0.358948 -0.002715 -0.001246 -0.002133 -0.002637 0.146271 0.051994 
2.1087500000000001 0.485535 -0.389160 -0.002746 -0.000844 -0.002080 -0.002256 0.145195 0.048798 
2.1099999999999999 0.431656 -0.413834 -0.003090 -0.000655 -0.002316 -0.001550 0.144524 0.046059 
2.1112500000000001 0.382752 -0.429642 -0.002871 -0.000364 -0.003303 -0.001727 0.143677 0.042969 
2.1124999999999998 0.335556 -0.440460 -0.002594 -0.000005 -0.002968 -0.001113 0.141724 0.039520 
2.1137500000000000 0.290970 -0.451630 -0.002379 0.000142 -0.003123 -0.000962 0.140770 0.037353 
2.1150000000000002 0.249725 -0.454361 -0.002199 0.000381 -0.002876 -0.000912 0.139351 0.033798 
2.1162500000000000 0.211670 -0.457138 -0.002178 0.000457 -0.002617 -0.000108 0.138275 0.031639 
2.1175000000000002 0.175476 -0.456101 -0.002086 0.000666 -0.002932 0.000082 0.137268 0.029518 
2.1187499999999999 0.141876 -0.453934 -0.002075 0.000606 -0.002501 0.000345 0.136398 0.026650 
2.1200000000000001 0.110138 -0.450714 -0.001758 0.000662 -0.002941 0.000117 0.136375 0.024986 
2.1212499999999999 0.081467 -0.444626 -0.001707 0.000838 -0.002338 0.000679 0.135567 0.022591 
2.1225000000000001 0.053558 -0.438522 -0.001696 0.000714 -0.002533 0.000909 0.134903 0.021362 
2.1237499999999998 0.027451 -0.430405 -0.001513 0.001313 -0.002062 0.000943 0.134872 0.019463 
2.1250000000000000 0.002411 -0.422394 -0.001331 0.001003 -0.002238 0.001434 0.133980 0.017899 
2.1262500000000002 -0.020493 -0.415558 -0.001395 0.001216 -0.001958 0.001666 0.133102 0.017365 
2.1274999999999999 -0.040985 -0.406998 -0.000969 0.001201 -0.001645 0.001477 0.132553 0.015854 
2.1287500000000001 -0.061615 -0.397110 -0.000898 0.001500 -0.001824 0.001683 0.132202 0.014168 
2.1299999999999999 -0.080170 -0.388214 -0.001133 0.001239 -0.001247 0.001653 0.131653 0.012802 
2.1312500000000001 -0.099686 -0.376480 -0.000780 0.001475 -0.001448 0.001718 0.130493 0.010651 
2.1324999999999998 -0.118256 -0.366638 -0.000765 0.001358 -0.001470 0.001879 0.130135 0.008865 
2.1337500000000000 -0.133636 -0.355377 -0.000907 0.001243 -0.001169 0.001793 0.130211 0.006592 
2.1349999999999998 -0.148804 -0.345520 -0.000709 0.001333 -0.000902 0.002034 0.130013 0.004410 
2.1362500000000000 -0.163818 -0.333923 -0.000568 0.001227 -0.000561 0.002085 0.130539 0.002670 
2.1375000000000002 -0.178955 -0.321350 -0.000447 0.001548 -0.000706 0.001915 0.130745 0.000229 
2.1387499999999999 -0.193573 -0.309051 -0.000481 0.001445 -0.000288 0.002154 0.130524 -0.001183 
2.1400000000000001 -0.207336 -0.295898 -0.000268 0.001308 -0.000162 0.002249 0.130760 -0.003525 
2.1412499999999999 -0.220001 -0.283814 -0.000061 0.001269 -0.000219 0.001951 0.130455 -0.005318 
2.1425000000000001 -0.233917 -0.270233 0.000086 0.001417 -0.000179 0.002135 0.130043 -0.007507 
2.1437499999999998 -0.245056 -0.258453 0.000129 0.001524 0.000237 0.001867 0.129799 -0.009224 
2.1450000000000000 -0.256653 -0.243774 0.000217 0.001283 0.000432 0.002116 0.128754 -0.011810 
2.1462500000000002 -0.268433 -0.229340 0.000076 0.001112 0.000658 0.002164 0.127564 -0.014153 
2.1475000000000000 -0.279907 -0.214844 0.000171 0.001136 0.000593 0.001926 0.126465 -0.016579 
2.1487500000000002 -0.289581 -0.198792 0.000332 0.001176 0.001027 0.001972 0.126045 -0.020035 
2.1499999999999999 -0.300568 -0.182892 0.000378 0.001132 0.000845 0.001819 0.124344 -0.023323 
2.1512500000000001 -0.310486 -0.166962 0.000462 0.001179 0.001233 0.001634 0.123360 -0.026100 
