!
! C:\Users\rflab\Downloads\Lab5_KD_ZW\150.S2P
!
! Touchstone 1.1 file saved by VNA.EXE V1.65 (www.ke5fx.com/gpib/readme.htm)
! 11/12/2024 12:14:11 AM
!
!    Source: HEWLETT PACKARD,8753D,0,6.14
!  Min freq: 1.900000E+009 Hz
!  Max freq: 2.900000E+009 Hz
!    Points: 801
!    Params: S11 S21 S12 S22
!
!!!!!
# GHZ S RI R 50
1.8999999999999999 0.962891 0.242004 0.007664 0.001847 0.003993 0.001570 0.022465 -0.057024 
1.9012500000000001 0.957214 0.109070 0.007806 0.000514 0.003927 0.001709 0.019695 -0.057306 
1.9025000000000001 0.924622 -0.011780 0.007373 -0.000416 0.004070 0.001036 0.018288 -0.057053 
1.9037500000000001 0.881714 -0.112060 0.006990 -0.001119 0.004120 0.000772 0.015541 -0.057297 
1.9050000000000000 0.833862 -0.197998 0.006515 -0.001818 0.004497 0.000333 0.013832 -0.056213 
1.9062500000000000 0.774323 -0.269836 0.006529 -0.002542 0.004379 0.000074 0.011177 -0.055538 
1.9075000000000000 0.713531 -0.330170 0.005608 -0.003261 0.004704 -0.000465 0.009123 -0.054392 
1.9087499999999999 0.652985 -0.383057 0.004772 -0.003509 0.004328 -0.000669 0.006603 -0.053070 
1.9099999999999999 0.593384 -0.418823 0.004065 -0.003964 0.004683 -0.000974 0.004251 -0.051838 
1.9112499999999999 0.536529 -0.449524 0.003622 -0.003870 0.004260 -0.001435 0.001020 -0.050520 
1.9125000000000001 0.481262 -0.471436 0.003244 -0.004413 0.004175 -0.001913 -0.001774 -0.049128 
1.9137500000000001 0.428589 -0.488602 0.002653 -0.004256 0.003817 -0.002122 -0.004559 -0.048323 
1.9150000000000000 0.380646 -0.500671 0.002334 -0.004330 0.003698 -0.002792 -0.007332 -0.047205 
1.9162500000000000 0.333221 -0.510132 0.001735 -0.004046 0.003580 -0.003197 -0.009840 -0.046188 
1.9175000000000000 0.291748 -0.514130 0.001495 -0.004222 0.003191 -0.003427 -0.011690 -0.045324 
1.9187500000000000 0.252258 -0.517639 0.001083 -0.004224 0.002972 -0.003530 -0.013338 -0.043468 
1.9199999999999999 0.214905 -0.517029 0.000861 -0.004249 0.002905 -0.003834 -0.015324 -0.042398 
1.9212499999999999 0.179626 -0.514038 0.000393 -0.004150 0.002147 -0.004144 -0.016872 -0.040934 
1.9225000000000001 0.145660 -0.512604 -0.000024 -0.004182 0.001858 -0.004254 -0.018398 -0.038721 
1.9237500000000001 0.113159 -0.508301 -0.000232 -0.004111 0.000920 -0.004469 -0.019114 -0.036760 
1.9250000000000000 0.083038 -0.502716 -0.000335 -0.003912 0.000517 -0.004584 -0.021187 -0.034718 
1.9262500000000000 0.054352 -0.496521 -0.000789 -0.003716 0.000500 -0.004375 -0.023476 -0.032078 
1.9275000000000000 0.028717 -0.489471 -0.001080 -0.003680 0.000253 -0.004588 -0.024586 -0.030201 
1.9287500000000000 0.002777 -0.483124 -0.001279 -0.003347 -0.000324 -0.004774 -0.026333 -0.028213 
1.9299999999999999 -0.020569 -0.473572 -0.001457 -0.003097 -0.000684 -0.004531 -0.028305 -0.026176 
1.9312499999999999 -0.043365 -0.465576 -0.001528 -0.003101 -0.001315 -0.004406 -0.029518 -0.024704 
1.9325000000000001 -0.066101 -0.455566 -0.001994 -0.002979 -0.001581 -0.004506 -0.031200 -0.023552 
1.9337500000000001 -0.086609 -0.444504 -0.002103 -0.002630 -0.001990 -0.004142 -0.031906 -0.022202 
1.9350000000000001 -0.108322 -0.434677 -0.002159 -0.002647 -0.002422 -0.004020 -0.032785 -0.021099 
1.9362500000000000 -0.127914 -0.423935 -0.002269 -0.002232 -0.002742 -0.003910 -0.032951 -0.019344 
1.9375000000000000 -0.146210 -0.412003 -0.002472 -0.002114 -0.002846 -0.003535 -0.033695 -0.017944 
1.9387500000000000 -0.165207 -0.401840 -0.002656 -0.002003 -0.003300 -0.003513 -0.033854 -0.016470 
1.9399999999999999 -0.181671 -0.389572 -0.002799 -0.001972 -0.003567 -0.003134 -0.033831 -0.014618 
1.9412499999999999 -0.198990 -0.376984 -0.002787 -0.001568 -0.003545 -0.002961 -0.034813 -0.012794 
1.9424999999999999 -0.215149 -0.366272 -0.003031 -0.001524 -0.003740 -0.002518 -0.035025 -0.010271 
1.9437500000000001 -0.231537 -0.352341 -0.003057 -0.001211 -0.003947 -0.002037 -0.036146 -0.009161 
1.9450000000000001 -0.246918 -0.338150 -0.003006 -0.000966 -0.004006 -0.002102 -0.037012 -0.007694 
1.9462500000000000 -0.262497 -0.324997 -0.003164 -0.000771 -0.004633 -0.001242 -0.038330 -0.006392 
1.9475000000000000 -0.277542 -0.311081 -0.003228 -0.000716 -0.004499 -0.000718 -0.039534 -0.005659 
1.9487500000000000 -0.291763 -0.296082 -0.003178 -0.000581 -0.004621 -0.000219 -0.040470 -0.005098 
1.9500000000000000 -0.304550 -0.280731 -0.003335 -0.000285 -0.004632 0.000003 -0.041653 -0.004555 
1.9512499999999999 -0.319183 -0.265564 -0.003253 0.000014 -0.004613 0.000137 -0.042624 -0.004534 
1.9524999999999999 -0.332565 -0.249207 -0.003402 0.000325 -0.004722 0.000416 -0.043394 -0.004131 
1.9537500000000001 -0.345673 -0.232010 -0.003553 0.000580 -0.004500 0.000964 -0.043390 -0.003494 
1.9550000000000001 -0.357986 -0.214432 -0.003466 0.000606 -0.004643 0.001526 -0.044497 -0.002554 
1.9562500000000000 -0.369278 -0.195435 -0.003207 0.000977 -0.004502 0.002011 -0.044853 -0.001854 
1.9575000000000000 -0.383041 -0.176056 -0.003329 0.001145 -0.003820 0.002231 -0.046461 -0.000586 
1.9587500000000000 -0.393478 -0.154526 -0.003159 0.001398 -0.003968 0.002840 -0.047428 0.000723 
1.9600000000000000 -0.406036 -0.134155 -0.003244 0.001752 -0.003557 0.003139 -0.048752 0.002056 
1.9612499999999999 -0.416229 -0.110992 -0.003250 0.002046 -0.003431 0.003565 -0.050243 0.002857 
1.9624999999999999 -0.426422 -0.088623 -0.002920 0.002423 -0.003399 0.003652 -0.052326 0.004795 
1.9637500000000001 -0.438416 -0.063812 -0.002597 0.002327 -0.002925 0.004258 -0.054279 0.005573 
1.9650000000000001 -0.446930 -0.035583 -0.002823 0.002594 -0.002360 0.004401 -0.056141 0.006683 
1.9662500000000001 -0.455414 -0.008301 -0.002557 0.003099 -0.001937 0.004333 -0.058018 0.007816 
1.9675000000000000 -0.462647 0.021515 -0.002488 0.003289 -0.001260 0.004623 -0.059925 0.008953 
1.9687500000000000 -0.470306 0.052795 -0.002013 0.003467 -0.000980 0.004633 -0.061440 0.010342 
1.9700000000000000 -0.476150 0.087540 -0.002161 0.003613 -0.000738 0.005004 -0.062490 0.011967 
1.9712499999999999 -0.480743 0.125580 -0.001963 0.003885 -0.000296 0.004972 -0.064240 0.014118 
1.9724999999999999 -0.484146 0.162781 -0.001441 0.004572 0.000340 0.004726 -0.065338 0.016129 
1.9737499999999999 -0.483627 0.204468 -0.001021 0.004781 0.000603 0.005053 -0.066971 0.018944 
1.9750000000000001 -0.483887 0.248932 -0.000779 0.005114 0.001251 0.004761 -0.068375 0.021778 
1.9762500000000001 -0.477936 0.297852 -0.000419 0.005154 0.001558 0.004821 -0.070145 0.025043 
1.9775000000000000 -0.468079 0.348938 0.000201 0.005483 0.002009 0.004444 -0.072151 0.028000 
1.9787500000000000 -0.453919 0.401611 0.000593 0.005679 0.002653 0.004245 -0.073574 0.031048 
1.9800000000000000 -0.431213 0.457825 0.001025 0.005340 0.003130 0.003944 -0.075237 0.034122 
1.9812500000000000 -0.403381 0.521973 0.001940 0.005819 0.003282 0.003815 -0.076557 0.037144 
1.9824999999999999 -0.362976 0.585022 0.002861 0.005711 0.003572 0.003223 -0.077393 0.039982 
1.9837499999999999 -0.314575 0.647095 0.003743 0.005773 0.003831 0.003031 -0.078316 0.042728 
1.9850000000000001 -0.248779 0.713379 0.004234 0.005172 0.003922 0.002756 -0.078690 0.046036 
1.9862500000000001 -0.172913 0.773926 0.005060 0.005098 0.004434 0.002277 -0.078667 0.049568 
1.9875000000000000 -0.078796 0.828979 0.006010 0.004701 0.004661 0.001849 -0.077950 0.053089 
1.9887500000000000 0.031616 0.865662 0.006159 0.004384 0.004415 0.001386 -0.077698 0.057034 
1.9900000000000000 0.158508 0.886963 0.007547 0.003030 0.004441 0.000981 -0.077087 0.061546 
1.9912500000000000 0.292725 0.889221 0.008223 0.001571 0.004719 0.000493 -0.075859 0.065308 
1.9924999999999999 0.437561 0.855530 0.008271 0.000680 0.004825 0.000005 -0.075207 0.069691 
1.9937499999999999 0.573608 0.790100 0.008845 -0.000927 0.004703 -0.000493 -0.074482 0.073719 
1.9950000000000001 0.689026 0.691956 0.008364 -0.002046 0.004592 -0.001000 -0.073647 0.077705 
1.9962500000000001 0.786804 0.573792 0.008496 -0.003499 0.004780 -0.001142 -0.072472 0.081596 
1.9975000000000001 0.863708 0.441833 0.006356 -0.004713 0.004278 -0.001740 -0.071430 0.085484 
1.9987500000000000 0.896790 0.301392 0.005945 -0.005049 0.004181 -0.001954 -0.070171 0.088032 
2.0000000000000000 0.906433 0.171753 0.004727 -0.005902 0.004150 -0.002331 -0.068226 0.091408 
2.0012500000000002 0.890381 0.049805 0.003653 -0.006486 0.003935 -0.002391 -0.065712 0.093616 
2.0024999999999999 0.857422 -0.061462 0.003123 -0.006785 0.003732 -0.003369 -0.062893 0.096561 
2.0037500000000001 0.808167 -0.153626 0.001662 -0.006604 0.003666 -0.003750 -0.059727 0.099499 
2.0049999999999999 0.755920 -0.234131 0.001125 -0.006524 0.003387 -0.003772 -0.056400 0.102058 
2.0062500000000001 0.695526 -0.298248 0.000377 -0.006390 0.002773 -0.004121 -0.053703 0.105072 
2.0074999999999998 0.635529 -0.352386 -0.000323 -0.006019 0.002330 -0.004359 -0.050617 0.107506 
2.0087500000000000 0.575714 -0.390747 -0.000866 -0.005389 0.002203 -0.004672 -0.047127 0.109879 
2.0099999999999998 0.520569 -0.423248 -0.001467 -0.005396 0.001716 -0.004969 -0.044888 0.112228 
2.0112500000000000 0.463623 -0.446381 -0.001788 -0.004920 0.001124 -0.005058 -0.042507 0.114265 
2.0125000000000002 0.412537 -0.465912 -0.002070 -0.004215 0.000408 -0.005052 -0.039406 0.115589 
2.0137499999999999 0.364426 -0.477066 -0.002562 -0.004348 -0.000163 -0.004954 -0.037086 0.116837 
2.0150000000000001 0.317200 -0.486954 -0.002744 -0.003695 -0.000508 -0.005164 -0.033863 0.117622 
2.0162499999999999 0.275192 -0.491486 -0.002897 -0.003426 -0.001135 -0.004780 -0.031494 0.118286 
2.0175000000000001 0.234878 -0.494293 -0.002914 -0.003046 -0.001586 -0.004801 -0.028854 0.117695 
2.0187499999999998 0.198807 -0.492081 -0.003009 -0.002696 -0.002187 -0.004746 -0.026386 0.118393 
2.0200000000000000 0.162750 -0.490524 -0.003425 -0.002279 -0.002707 -0.004384 -0.023369 0.118546 
2.0212500000000002 0.129044 -0.486954 -0.003477 -0.002105 -0.002597 -0.004150 -0.020664 0.118519 
2.0225000000000000 0.099228 -0.481812 -0.003626 -0.002046 -0.002820 -0.003784 -0.018032 0.118385 
2.0237500000000002 0.070938 -0.476837 -0.003469 -0.001208 -0.003492 -0.003525 -0.015724 0.118393 
2.0249999999999999 0.043579 -0.469818 -0.003447 -0.001054 -0.003850 -0.003110 -0.013771 0.118446 
2.0262500000000001 0.018097 -0.462158 -0.003538 -0.000982 -0.004317 -0.002193 -0.012299 0.119515 
2.0274999999999999 -0.005981 -0.454224 -0.003288 -0.000586 -0.004334 -0.002141 -0.010651 0.119225 
2.0287500000000001 -0.030609 -0.445373 -0.003223 -0.000044 -0.004277 -0.001671 -0.009743 0.119690 
2.0299999999999998 -0.051300 -0.435028 -0.003460 -0.000106 -0.004434 -0.001489 -0.008545 0.119896 
2.0312500000000000 -0.073120 -0.425812 -0.003331 0.000160 -0.004848 -0.000872 -0.008224 0.119347 
2.0325000000000002 -0.093353 -0.415375 -0.003139 0.000581 -0.004453 -0.000496 -0.007683 0.118973 
2.0337499999999999 -0.112396 -0.404968 -0.002985 0.000572 -0.004544 0.000219 -0.007339 0.119530 
2.0350000000000001 -0.132599 -0.394074 -0.002979 0.000823 -0.004419 0.000349 -0.007141 0.119141 
2.0362499999999999 -0.149017 -0.383179 -0.002867 0.001113 -0.004526 0.000576 -0.006149 0.118713 
2.0375000000000001 -0.165344 -0.371887 -0.002846 0.001010 -0.004369 0.001299 -0.005028 0.119103 
2.0387499999999998 -0.180908 -0.360870 -0.002574 0.001362 -0.004040 0.002034 -0.004349 0.120056 
2.0400000000000000 -0.197144 -0.348694 -0.002611 0.001683 -0.003898 0.001938 -0.003632 0.121231 
2.0412499999999998 -0.212585 -0.336792 -0.002336 0.001790 -0.003715 0.002382 -0.002609 0.122315 
2.0425000000000000 -0.225891 -0.324371 -0.002202 0.001893 -0.003494 0.002714 -0.002655 0.124031 
2.0437500000000002 -0.240173 -0.311951 -0.001871 0.002143 -0.003381 0.002960 -0.001846 0.125778 
2.0449999999999999 -0.254303 -0.298615 -0.001801 0.002299 -0.003263 0.003083 -0.001694 0.127251 
2.0462500000000001 -0.266235 -0.283691 -0.001606 0.002186 -0.002996 0.003431 -0.000977 0.129067 
2.0474999999999999 -0.279266 -0.270508 -0.001402 0.002415 -0.002397 0.003799 -0.000465 0.130379 
2.0487500000000001 -0.291534 -0.255707 -0.001252 0.002489 -0.001869 0.004065 0.001335 0.132263 
2.0499999999999998 -0.304108 -0.240814 -0.001079 0.002343 -0.001743 0.003898 0.002022 0.133812 
2.0512500000000000 -0.315247 -0.225250 -0.001005 0.002675 -0.001230 0.004179 0.004128 0.135613 
2.0525000000000002 -0.326660 -0.209747 -0.000723 0.002687 -0.000906 0.004005 0.005798 0.137482 
2.0537500000000000 -0.337311 -0.192169 -0.000737 0.002730 -0.000352 0.004409 0.008652 0.139969 
2.0550000000000002 -0.349426 -0.175751 -0.000437 0.002852 0.000090 0.004570 0.011589 0.142410 
2.0562499999999999 -0.360046 -0.156372 -0.000359 0.002891 0.000364 0.004205 0.013725 0.144630 
2.0575000000000001 -0.368225 -0.138184 0.000049 0.002803 0.000834 0.003974 0.016655 0.147171 
2.0587499999999999 -0.379974 -0.118713 0.000409 0.002643 0.001251 0.003661 0.019348 0.149323 
2.0600000000000001 -0.389618 -0.097015 0.000371 0.002808 0.001403 0.003987 0.022507 0.151657 
2.0612499999999998 -0.398529 -0.075546 0.000536 0.002830 0.002132 0.003745 0.025665 0.153610 
2.0625000000000000 -0.406280 -0.051788 0.000899 0.002988 0.001977 0.003553 0.029083 0.155243 
2.0637500000000002 -0.414398 -0.028793 0.001080 0.002734 0.002005 0.003410 0.032669 0.156021 
2.0649999999999999 -0.421890 -0.002838 0.001181 0.002685 0.002587 0.003133 0.036713 0.157501 
2.0662500000000001 -0.429108 0.024933 0.001506 0.002626 0.002928 0.002802 0.041069 0.157707 
2.0674999999999999 -0.434143 0.053177 0.001637 0.002627 0.003076 0.002589 0.045433 0.158226 
2.0687500000000001 -0.438675 0.082413 0.002057 0.002713 0.003472 0.002184 0.051102 0.158150 
2.0699999999999998 -0.442062 0.116837 0.002101 0.002376 0.003711 0.001685 0.056778 0.157860 
2.0712500000000000 -0.443573 0.150024 0.002621 0.001894 0.003906 0.001242 0.062668 0.156830 
2.0724999999999998 -0.443665 0.185791 0.002635 0.001853 0.003900 0.000720 0.067749 0.156586 
2.0737500000000000 -0.440613 0.226715 0.002962 0.001496 0.003700 0.000608 0.073334 0.156357 
2.0750000000000002 -0.433289 0.267395 0.002923 0.001492 0.003909 0.000167 0.080124 0.154907 
2.0762499999999999 -0.425140 0.313049 0.003425 0.001341 0.003793 -0.000199 0.084198 0.153824 
2.0775000000000001 -0.411316 0.361389 0.003405 0.001064 0.004016 -0.000643 0.090561 0.152084 
2.0787499999999999 -0.391876 0.409882 0.003712 0.000712 0.003536 -0.000741 0.094681 0.150207 
2.0800000000000001 -0.366272 0.465500 0.003727 0.000280 0.003458 -0.001317 0.099388 0.147781 
2.0812499999999998 -0.334106 0.521179 0.004261 -0.000022 0.003206 -0.001300 0.103821 0.144058 
2.0825000000000000 -0.288940 0.576569 0.003925 -0.000101 0.002913 -0.002002 0.109283 0.140320 
2.0837500000000002 -0.234161 0.628601 0.004125 -0.000631 0.003078 -0.002254 0.113709 0.137100 
2.0850000000000000 -0.166565 0.684784 0.004336 -0.001363 0.002783 -0.002015 0.118424 0.131973 
2.0862500000000002 -0.086609 0.730164 0.004277 -0.002031 0.002400 -0.002722 0.122177 0.127869 
2.0874999999999999 0.012085 0.768555 0.003921 -0.002603 0.002187 -0.002856 0.126999 0.123642 
2.0887500000000001 0.122620 0.791321 0.003822 -0.002899 0.001963 -0.002533 0.131058 0.119133 
2.0899999999999999 0.241577 0.794311 0.003351 -0.003570 0.001492 -0.002689 0.134399 0.114380 
2.0912500000000001 0.364380 0.770630 0.002614 -0.004159 0.001128 -0.002695 0.137299 0.109970 
2.0924999999999998 0.488892 0.721069 0.002097 -0.004487 0.000923 -0.002766 0.139770 0.106117 
2.0937500000000000 0.607239 0.644714 0.000975 -0.004346 0.000781 -0.002751 0.141708 0.101318 
2.0950000000000002 0.704040 0.548767 0.001182 -0.004778 0.000435 -0.003159 0.143555 0.095688 
2.0962499999999999 0.768066 0.434876 0.000069 -0.004530 0.000476 -0.002926 0.144485 0.091240 
2.0975000000000001 0.814148 0.306915 -0.000884 -0.004454 -0.000072 -0.002954 0.145721 0.087143 
2.0987499999999999 0.825928 0.185669 -0.001289 -0.004524 -0.000250 -0.003043 0.146668 0.081161 
2.1000000000000001 0.816284 0.070313 -0.002017 -0.004099 -0.000214 -0.003173 0.145889 0.077026 
2.1012499999999998 0.790161 -0.038818 -0.002173 -0.003487 -0.000491 -0.003049 0.146820 0.071579 
2.1025000000000000 0.752075 -0.128479 -0.002523 -0.002773 -0.001013 -0.003046 0.146957 0.067139 
2.1037499999999998 0.706055 -0.207825 -0.002554 -0.002554 -0.001334 -0.003070 0.147446 0.062378 
2.1050000000000000 0.648071 -0.270508 -0.002693 -0.002172 -0.001270 -0.003161 0.147263 0.059204 
2.1062500000000002 0.595490 -0.319977 -0.002926 -0.001810 -0.001553 -0.002548 0.147194 0.054863 
2.1074999999999999 0.538971 -0.359802 -0.002595 -0.001217 -0.002096 -0.002222 0.146263 0.052109 
2.1087500000000001 0.485626 -0.390869 -0.002805 -0.001062 -0.002278 -0.002341 0.145790 0.048553 
2.1099999999999999 0.431885 -0.412720 -0.002560 -0.000696 -0.002078 -0.002019 0.145073 0.045601 
2.1112500000000001 0.383087 -0.429977 -0.002803 -0.000112 -0.002561 -0.001547 0.143768 0.043327 
2.1124999999999998 0.334793 -0.441299 -0.002327 -0.000090 -0.003050 -0.001472 0.142708 0.040390 
2.1137500000000000 0.291153 -0.450897 -0.002252 -0.000099 -0.002846 -0.000316 0.141594 0.037338 
2.1150000000000002 0.249359 -0.454971 -0.002422 0.000154 -0.003209 -0.000422 0.140007 0.034660 
2.1162500000000000 0.211487 -0.457138 -0.002091 0.000105 -0.002843 -0.000517 0.139198 0.032410 
2.1175000000000002 0.175400 -0.455689 -0.002035 0.000190 -0.002608 -0.000213 0.138237 0.030128 
2.1187499999999999 0.141937 -0.453613 -0.001885 0.000636 -0.002829 0.000119 0.137634 0.027535 
2.1200000000000001 0.110870 -0.450638 -0.001842 0.000675 -0.002669 0.000622 0.137260 0.025673 
2.1212499999999999 0.081314 -0.445129 -0.001767 0.000604 -0.002615 0.000919 0.136643 0.023399 
2.1225000000000001 0.052765 -0.438156 -0.001568 0.000865 -0.002489 0.000691 0.136269 0.022049 
2.1237499999999998 0.027862 -0.431641 -0.001627 0.000801 -0.002524 0.000858 0.135841 0.020340 
2.1250000000000000 0.003067 -0.423187 -0.001573 0.001030 -0.002414 0.001119 0.135422 0.018883 
2.1262500000000002 -0.020233 -0.414749 -0.001249 0.000946 -0.002062 0.001198 0.135201 0.018089 
2.1274999999999999 -0.040298 -0.406891 -0.001224 0.001048 -0.001873 0.001194 0.134392 0.016594 
2.1287500000000001 -0.061676 -0.397034 -0.000847 0.001199 -0.001871 0.001523 0.133835 0.015373 
2.1299999999999999 -0.081390 -0.388138 -0.001077 0.001236 -0.001274 0.001523 0.132889 0.013268 
2.1312500000000001 -0.100159 -0.376846 -0.000928 0.001124 -0.001276 0.001622 0.132378 0.010933 
2.1324999999999998 -0.117493 -0.367127 -0.000674 0.001161 -0.001393 0.001723 0.132248 0.010002 
2.1337500000000000 -0.132935 -0.356049 -0.000870 0.001446 -0.001258 0.001644 0.132248 0.007004 
2.1349999999999998 -0.149414 -0.345764 -0.000832 0.001121 -0.001167 0.001756 0.131584 0.005272 
2.1362500000000000 -0.164825 -0.334137 -0.000447 0.001381 -0.000877 0.001840 0.131752 0.002602 
2.1375000000000002 -0.179321 -0.321625 -0.000491 0.001169 -0.000707 0.001843 0.132118 0.001152 
2.1387499999999999 -0.194061 -0.309479 -0.000396 0.001459 -0.000812 0.001982 0.131867 -0.000862 
2.1400000000000001 -0.206726 -0.296753 -0.000122 0.001218 -0.000184 0.001983 0.131958 -0.003380 
2.1412499999999999 -0.220062 -0.283752 -0.000144 0.001309 -0.000138 0.001838 0.131882 -0.004913 
2.1425000000000001 -0.234222 -0.270355 -0.000161 0.001106 0.000177 0.001820 0.131218 -0.007286 
2.1437499999999998 -0.244873 -0.258331 0.000105 0.001273 0.000268 0.002022 0.131050 -0.009575 
2.1450000000000000 -0.256805 -0.243256 -0.000099 0.001339 0.000402 0.001724 0.129402 -0.011909 
2.1462500000000002 -0.268616 -0.229157 0.000147 0.001027 0.000369 0.001940 0.128349 -0.014427 
2.1475000000000000 -0.280212 -0.214966 0.000186 0.001072 0.000597 0.001818 0.127045 -0.017281 
2.1487500000000002 -0.289368 -0.199127 0.000197 0.001208 0.000610 0.001500 0.126625 -0.020775 
2.1499999999999999 -0.301239 -0.182831 0.000390 0.001338 0.000547 0.001773 0.124535 -0.023842 
2.1512500000000001 -0.311035 -0.166596 0.000502 0.001093 0.000976 0.001406 0.123619 -0.026901 
