!
! C:\Users\rflab\Downloads\Lab5_KD_ZW\160.S2P
!
! Touchstone 1.1 file saved by VNA.EXE V1.65 (www.ke5fx.com/gpib/readme.htm)
! 11/12/2024 12:15:21 AM
!
!    Source: HEWLETT PACKARD,8753D,0,6.14
!  Min freq: 1.900000E+009 Hz
!  Max freq: 2.900000E+009 Hz
!    Points: 801
!    Params: S11 S21 S12 S22
!
!!!!!
# GHZ S RI R 50
1.8999999999999999 0.963623 0.240051 0.007920 0.002585 0.003848 0.002075 0.023582 -0.056051 
1.9012500000000001 0.954163 0.109009 0.007956 0.001101 0.003800 0.001998 0.021273 -0.056324 
1.9025000000000001 0.926086 -0.010742 0.007725 0.000447 0.004420 0.001658 0.019369 -0.056471 
1.9037500000000001 0.879700 -0.111023 0.007418 -0.000769 0.004498 0.001335 0.017017 -0.056625 
1.9050000000000000 0.832062 -0.198151 0.007191 -0.001830 0.004548 0.000972 0.015123 -0.055923 
1.9062500000000000 0.770294 -0.272522 0.006572 -0.002163 0.004690 0.000706 0.012766 -0.055323 
1.9075000000000000 0.712036 -0.330841 0.005927 -0.002808 0.004862 0.000213 0.010790 -0.054466 
1.9087499999999999 0.651977 -0.381561 0.005306 -0.003146 0.004848 -0.000118 0.008371 -0.052977 
1.9099999999999999 0.593201 -0.418671 0.005006 -0.003723 0.004908 -0.000807 0.005760 -0.051865 
1.9112499999999999 0.536713 -0.450775 0.004358 -0.003805 0.004775 -0.001232 0.002813 -0.050516 
1.9125000000000001 0.481140 -0.471039 0.003854 -0.004185 0.004662 -0.001502 -0.000032 -0.049931 
1.9137500000000001 0.427978 -0.488846 0.003269 -0.004254 0.004548 -0.001854 -0.002930 -0.048903 
1.9150000000000000 0.380157 -0.502045 0.002658 -0.004226 0.004278 -0.002072 -0.005814 -0.047840 
1.9162500000000000 0.334900 -0.510162 0.002386 -0.004333 0.004310 -0.002898 -0.008566 -0.046944 
1.9175000000000000 0.292145 -0.514526 0.001947 -0.004553 0.003899 -0.003271 -0.010345 -0.045763 
1.9187500000000000 0.251129 -0.518066 0.001391 -0.004434 0.003621 -0.003555 -0.012009 -0.045044 
1.9199999999999999 0.213654 -0.516663 0.001257 -0.004466 0.003269 -0.003941 -0.014273 -0.043354 
1.9212499999999999 0.178497 -0.515167 0.000839 -0.004343 0.002882 -0.004348 -0.016199 -0.042006 
1.9225000000000001 0.145477 -0.513031 0.000455 -0.004437 0.002460 -0.004958 -0.017557 -0.040075 
1.9237500000000001 0.112610 -0.508698 0.000122 -0.004299 0.001837 -0.004751 -0.019012 -0.038464 
1.9250000000000000 0.083313 -0.502075 -0.000270 -0.004324 0.001656 -0.004829 -0.020870 -0.036205 
1.9262500000000000 0.053375 -0.496918 -0.000743 -0.004129 0.000957 -0.004856 -0.022747 -0.033653 
1.9275000000000000 0.028565 -0.490204 -0.000714 -0.003899 0.000606 -0.004888 -0.024586 -0.031746 
1.9287500000000000 0.001953 -0.483612 -0.001199 -0.003722 -0.000077 -0.004889 -0.026588 -0.029591 
1.9299999999999999 -0.020355 -0.473907 -0.001383 -0.003632 -0.000334 -0.005075 -0.028614 -0.027725 
1.9312499999999999 -0.042847 -0.464966 -0.001672 -0.003300 -0.000941 -0.004860 -0.030098 -0.026066 
1.9325000000000001 -0.066620 -0.454773 -0.001669 -0.003363 -0.001093 -0.004884 -0.031570 -0.024715 
1.9337500000000001 -0.087814 -0.444916 -0.001866 -0.003091 -0.001828 -0.004655 -0.032871 -0.023380 
1.9350000000000001 -0.108002 -0.434677 -0.002124 -0.002904 -0.001966 -0.004329 -0.033649 -0.021952 
1.9362500000000000 -0.126831 -0.423996 -0.002254 -0.002782 -0.002402 -0.004553 -0.033936 -0.020811 
1.9375000000000000 -0.146179 -0.412247 -0.002392 -0.002423 -0.002967 -0.004267 -0.034725 -0.019026 
1.9387500000000000 -0.164276 -0.401611 -0.002614 -0.002102 -0.003076 -0.003905 -0.034937 -0.017403 
1.9399999999999999 -0.181625 -0.389587 -0.002700 -0.002040 -0.003614 -0.003448 -0.035568 -0.015476 
1.9412499999999999 -0.199127 -0.377792 -0.003039 -0.002132 -0.003834 -0.003137 -0.036207 -0.013405 
1.9424999999999999 -0.215439 -0.365204 -0.002949 -0.001746 -0.004031 -0.002582 -0.037003 -0.011127 
1.9437500000000001 -0.231400 -0.352509 -0.003190 -0.001560 -0.004356 -0.002736 -0.037678 -0.009460 
1.9450000000000001 -0.247620 -0.337631 -0.003420 -0.001371 -0.004607 -0.002189 -0.038794 -0.008118 
1.9462500000000000 -0.262924 -0.324402 -0.003342 -0.001172 -0.004785 -0.001806 -0.039915 -0.006170 
1.9475000000000000 -0.276703 -0.310318 -0.003552 -0.000850 -0.004933 -0.001267 -0.040974 -0.005552 
1.9487500000000000 -0.291809 -0.294983 -0.003542 -0.000766 -0.005051 -0.001083 -0.042435 -0.004711 
1.9500000000000000 -0.305298 -0.280106 -0.003578 -0.000498 -0.005199 -0.000492 -0.042980 -0.003801 
1.9512499999999999 -0.319000 -0.265717 -0.003697 -0.000150 -0.005163 -0.000057 -0.044044 -0.003763 
1.9524999999999999 -0.332489 -0.248398 -0.003794 -0.000045 -0.004901 0.000268 -0.044758 -0.003336 
1.9537500000000001 -0.345993 -0.232300 -0.003545 0.000194 -0.005147 0.000992 -0.044996 -0.002405 
1.9550000000000001 -0.357742 -0.214386 -0.003820 0.000644 -0.005219 0.001220 -0.045532 -0.001593 
1.9562500000000000 -0.369568 -0.196930 -0.003780 0.000691 -0.004966 0.002017 -0.046247 -0.000408 
1.9575000000000000 -0.382248 -0.176514 -0.003609 0.001120 -0.004791 0.002249 -0.046993 0.000305 
1.9587500000000000 -0.393860 -0.155090 -0.003676 0.001470 -0.004550 0.002664 -0.048075 0.002558 
1.9600000000000000 -0.405334 -0.133453 -0.003737 0.001820 -0.004332 0.002846 -0.049526 0.003529 
1.9612499999999999 -0.416168 -0.111603 -0.003413 0.002070 -0.003983 0.003462 -0.050819 0.004307 
1.9624999999999999 -0.426239 -0.088318 -0.003331 0.002240 -0.003719 0.003766 -0.052929 0.006039 
1.9637500000000001 -0.437561 -0.063934 -0.003323 0.002470 -0.003322 0.004258 -0.054440 0.007278 
1.9650000000000001 -0.447876 -0.036255 -0.003078 0.002630 -0.002907 0.004651 -0.056324 0.008324 
1.9662500000000001 -0.455414 -0.008179 -0.003255 0.003075 -0.002085 0.004821 -0.057800 0.009174 
1.9675000000000000 -0.462769 0.020538 -0.002834 0.003309 -0.002085 0.005054 -0.059872 0.010326 
1.9687500000000000 -0.470673 0.054108 -0.002815 0.003729 -0.001500 0.005196 -0.061226 0.011799 
1.9700000000000000 -0.477737 0.087326 -0.002340 0.004184 -0.001067 0.005232 -0.062174 0.013409 
1.9712499999999999 -0.481003 0.124970 -0.002159 0.004286 -0.000574 0.005126 -0.063442 0.015499 
1.9724999999999999 -0.483810 0.162018 -0.001666 0.004927 -0.000054 0.005414 -0.064262 0.017403 
1.9737499999999999 -0.482971 0.204529 -0.001760 0.005029 0.000652 0.005556 -0.065510 0.020447 
1.9750000000000001 -0.482300 0.250137 -0.001033 0.005444 0.001084 0.005201 -0.066982 0.022995 
1.9762500000000001 -0.476685 0.298340 -0.000401 0.005756 0.001416 0.005159 -0.068951 0.026356 
1.9775000000000000 -0.468628 0.349365 -0.000304 0.005940 0.002294 0.005043 -0.070213 0.029083 
1.9787500000000000 -0.453674 0.401794 0.000333 0.006180 0.002557 0.004693 -0.072239 0.031914 
1.9800000000000000 -0.429504 0.459228 0.001167 0.005754 0.003081 0.004575 -0.073452 0.034817 
1.9812500000000000 -0.402527 0.520874 0.002150 0.006083 0.003499 0.004517 -0.074963 0.037441 
1.9824999999999999 -0.363281 0.582825 0.002895 0.006409 0.003835 0.003727 -0.075729 0.040306 
1.9837499999999999 -0.312988 0.646423 0.003574 0.006373 0.003994 0.003275 -0.076401 0.042980 
1.9850000000000001 -0.249390 0.711548 0.004439 0.006026 0.004454 0.003000 -0.076900 0.046097 
1.9862500000000001 -0.170837 0.775513 0.005217 0.005977 0.004591 0.002673 -0.077339 0.049046 
1.9875000000000000 -0.076599 0.824402 0.006392 0.005201 0.004612 0.002463 -0.076523 0.052357 
1.9887500000000000 0.034363 0.866821 0.007298 0.005096 0.005000 0.001781 -0.075897 0.056400 
1.9900000000000000 0.161438 0.887390 0.008105 0.003328 0.004927 0.001218 -0.075500 0.060455 
1.9912500000000000 0.291077 0.890320 0.009116 0.002219 0.005031 0.000776 -0.074383 0.064411 
1.9924999999999999 0.432678 0.848694 0.009479 0.000989 0.005244 -0.000006 -0.074036 0.068653 
1.9937499999999999 0.569214 0.790649 0.009013 -0.000570 0.005210 -0.000361 -0.073177 0.072712 
1.9950000000000001 0.686462 0.693115 0.009645 -0.002100 0.005175 -0.000658 -0.072746 0.076626 
1.9962500000000001 0.790710 0.575073 0.008758 -0.003874 0.005208 -0.001120 -0.071507 0.080490 
1.9975000000000001 0.858337 0.440613 0.007651 -0.004438 0.004948 -0.001724 -0.070633 0.083527 
1.9987500000000000 0.894775 0.306946 0.006919 -0.005425 0.004689 -0.002077 -0.070084 0.086533 
2.0000000000000000 0.904724 0.173584 0.005721 -0.006208 0.004735 -0.002514 -0.067429 0.089493 
2.0012500000000002 0.887939 0.048706 0.004682 -0.007147 0.004483 -0.002709 -0.065205 0.092358 
2.0024999999999999 0.858398 -0.060181 0.004008 -0.007067 0.004439 -0.003277 -0.062572 0.094444 
2.0037500000000001 0.812256 -0.153992 0.002506 -0.007401 0.003935 -0.003805 -0.059727 0.097900 
2.0049999999999999 0.757141 -0.232239 0.001349 -0.006886 0.003735 -0.004137 -0.056866 0.100327 
2.0062500000000001 0.695892 -0.295349 0.000458 -0.007021 0.003567 -0.004532 -0.054176 0.103092 
2.0074999999999998 0.637665 -0.350647 -0.000127 -0.006693 0.002906 -0.004462 -0.051216 0.106171 
2.0087500000000000 0.576660 -0.390411 -0.001040 -0.006387 0.002391 -0.005134 -0.048256 0.108551 
2.0099999999999998 0.520172 -0.422913 -0.001395 -0.006108 0.002230 -0.005579 -0.045235 0.110878 
2.0112500000000000 0.462647 -0.445526 -0.001661 -0.005392 0.001184 -0.005305 -0.043148 0.112782 
2.0125000000000002 0.411804 -0.465241 -0.002162 -0.004821 0.000587 -0.005757 -0.040604 0.114414 
2.0137499999999999 0.364929 -0.475967 -0.002763 -0.004508 -0.000113 -0.005523 -0.038601 0.116154 
2.0150000000000001 0.319199 -0.485962 -0.002826 -0.004196 -0.000541 -0.005827 -0.035648 0.116760 
2.0162499999999999 0.277100 -0.491760 -0.003103 -0.003775 -0.001020 -0.005824 -0.033554 0.117436 
2.0175000000000001 0.235840 -0.492722 -0.003164 -0.003546 -0.001554 -0.005180 -0.030766 0.117329 
2.0187499999999998 0.196960 -0.492523 -0.003227 -0.003122 -0.002185 -0.005265 -0.027737 0.117516 
2.0200000000000000 0.162552 -0.489792 -0.003447 -0.002530 -0.002795 -0.004843 -0.025024 0.117935 
2.0212500000000002 0.129608 -0.486801 -0.003632 -0.002179 -0.002894 -0.004442 -0.022457 0.118393 
2.0225000000000000 0.099762 -0.481583 -0.003763 -0.001732 -0.003475 -0.004510 -0.019627 0.119099 
2.0237500000000002 0.071014 -0.476730 -0.003897 -0.001678 -0.003942 -0.004115 -0.017330 0.118999 
2.0249999999999999 0.043549 -0.470490 -0.003707 -0.001187 -0.003956 -0.003300 -0.015251 0.119659 
2.0262500000000001 0.017700 -0.462341 -0.003623 -0.000806 -0.004899 -0.003277 -0.013741 0.120476 
2.0274999999999999 -0.005402 -0.453308 -0.003782 -0.000685 -0.004386 -0.002561 -0.012047 0.120476 
2.0287500000000001 -0.029266 -0.444672 -0.003562 -0.000192 -0.004836 -0.002282 -0.011261 0.121147 
2.0299999999999998 -0.051117 -0.435303 -0.003525 0.000040 -0.005052 -0.001483 -0.010269 0.121025 
2.0312500000000000 -0.073090 -0.426208 -0.003541 0.000249 -0.005198 -0.001042 -0.009850 0.120689 
2.0325000000000002 -0.092529 -0.415588 -0.003490 0.000401 -0.005030 -0.000704 -0.008629 0.120750 
2.0337499999999999 -0.113281 -0.405060 -0.003371 0.000843 -0.004884 -0.000041 -0.008408 0.120934 
2.0350000000000001 -0.131775 -0.394653 -0.003300 0.000677 -0.004666 0.000396 -0.007317 0.120606 
2.0362499999999999 -0.148346 -0.383087 -0.003143 0.000899 -0.004990 0.000764 -0.005859 0.121063 
2.0375000000000001 -0.165558 -0.372009 -0.002952 0.001272 -0.005165 0.001376 -0.005333 0.121124 
2.0387499999999998 -0.180786 -0.361206 -0.003113 0.001480 -0.004669 0.001920 -0.004204 0.121712 
2.0400000000000000 -0.196381 -0.348969 -0.002846 0.001524 -0.004397 0.001994 -0.003151 0.123291 
2.0412499999999998 -0.211609 -0.337067 -0.002681 0.001969 -0.004079 0.002500 -0.002251 0.123955 
2.0425000000000000 -0.226135 -0.324493 -0.002551 0.002056 -0.003906 0.002889 -0.001801 0.125503 
2.0437500000000002 -0.240814 -0.312592 -0.002178 0.002208 -0.003634 0.002963 -0.001175 0.127281 
2.0449999999999999 -0.253937 -0.298187 -0.001856 0.002453 -0.003239 0.003473 -0.000458 0.128258 
2.0462500000000001 -0.265595 -0.284637 -0.001846 0.002424 -0.003024 0.003980 -0.000053 0.130112 
2.0474999999999999 -0.278412 -0.270660 -0.001744 0.002477 -0.002654 0.003941 0.000946 0.131836 
2.0487500000000001 -0.291473 -0.254883 -0.001449 0.002705 -0.002339 0.004182 0.002663 0.133545 
2.0499999999999998 -0.304169 -0.241333 -0.001251 0.002682 -0.001822 0.004374 0.003319 0.135033 
2.0512500000000000 -0.315338 -0.224548 -0.001257 0.002683 -0.001637 0.004570 0.005432 0.136520 
2.0525000000000002 -0.327271 -0.210266 -0.000843 0.002710 -0.000901 0.004588 0.007385 0.137962 
2.0537500000000000 -0.337463 -0.192841 -0.000776 0.002885 -0.000782 0.004608 0.009705 0.140297 
2.0550000000000002 -0.348724 -0.176117 -0.000533 0.002969 -0.000174 0.004515 0.012680 0.142387 
2.0562499999999999 -0.359131 -0.158173 -0.000233 0.003161 0.000205 0.004431 0.015320 0.144600 
2.0575000000000001 -0.369019 -0.137909 0.000039 0.003189 0.000834 0.004475 0.018646 0.147186 
2.0587499999999999 -0.379181 -0.119476 0.000238 0.003150 0.001085 0.004354 0.021011 0.149170 
2.0600000000000001 -0.389587 -0.097656 0.000611 0.003111 0.001608 0.004561 0.024155 0.151520 
2.0612499999999998 -0.398178 -0.076035 0.000568 0.002991 0.001972 0.004116 0.027405 0.153595 
2.0625000000000000 -0.406174 -0.052094 0.001073 0.003212 0.002458 0.003562 0.030258 0.154785 
2.0637500000000002 -0.414246 -0.029266 0.001349 0.003082 0.002744 0.003543 0.034180 0.155502 
2.0649999999999999 -0.420548 -0.004181 0.001452 0.002874 0.002920 0.003253 0.037766 0.156372 
2.0662500000000001 -0.428787 0.025192 0.001693 0.002922 0.003230 0.002699 0.042419 0.156746 
2.0674999999999999 -0.435104 0.052444 0.001876 0.002882 0.003143 0.002841 0.046433 0.156509 
2.0687500000000001 -0.438202 0.083496 0.002041 0.002645 0.003592 0.002527 0.051933 0.156639 
2.0699999999999998 -0.442612 0.116821 0.002368 0.002640 0.003881 0.002191 0.057564 0.156494 
2.0712500000000000 -0.443695 0.150391 0.002737 0.002680 0.003817 0.001533 0.063400 0.155457 
2.0724999999999998 -0.443665 0.186188 0.002944 0.002281 0.004286 0.000881 0.068680 0.155258 
2.0737500000000000 -0.440308 0.226471 0.003082 0.002194 0.003807 0.000646 0.073746 0.154724 
2.0750000000000002 -0.433594 0.267548 0.003215 0.001668 0.004314 0.000345 0.079925 0.153824 
2.0762499999999999 -0.424988 0.311676 0.003504 0.001553 0.004276 -0.000033 0.084930 0.152176 
2.0775000000000001 -0.411896 0.360687 0.003824 0.000757 0.004096 -0.000247 0.089889 0.150818 
2.0787499999999999 -0.390808 0.409332 0.003762 0.001091 0.003868 -0.000996 0.094315 0.148331 
2.0800000000000001 -0.368195 0.465332 0.003891 0.000729 0.003746 -0.001149 0.099709 0.145599 
2.0812499999999998 -0.332764 0.521790 0.004184 0.000193 0.003800 -0.001323 0.103684 0.142365 
2.0825000000000000 -0.288818 0.574341 0.004395 -0.000321 0.003432 -0.001837 0.108215 0.138886 
2.0837500000000002 -0.235687 0.629791 0.004457 -0.000760 0.003358 -0.002827 0.113083 0.134750 
2.0850000000000000 -0.167694 0.684479 0.004430 -0.001255 0.002784 -0.002327 0.117203 0.131088 
2.0862500000000002 -0.087280 0.730774 0.004640 -0.002391 0.002729 -0.002606 0.121185 0.126770 
2.0874999999999999 0.007996 0.768555 0.004718 -0.002691 0.002165 -0.002972 0.125732 0.122559 
2.0887500000000001 0.120056 0.792542 0.003805 -0.003300 0.002240 -0.002968 0.129692 0.118233 
2.0899999999999999 0.239075 0.794006 0.004104 -0.004064 0.001630 -0.002953 0.132965 0.113747 
2.0912500000000001 0.361939 0.776123 0.003254 -0.004390 0.001230 -0.003386 0.135834 0.109634 
2.0924999999999998 0.490601 0.722717 0.002759 -0.005430 0.001010 -0.003137 0.138374 0.105858 
2.0937500000000000 0.602295 0.644470 0.001310 -0.005176 0.001039 -0.003161 0.140724 0.100738 
2.0950000000000002 0.704285 0.545349 0.000377 -0.005054 0.000749 -0.003150 0.141533 0.096237 
2.0962499999999999 0.775879 0.432861 0.000083 -0.005130 0.000690 -0.003192 0.142906 0.091492 
2.0975000000000001 0.810272 0.312836 -0.000768 -0.005072 0.000433 -0.003316 0.143990 0.086639 
2.0987499999999999 0.825317 0.183411 -0.001256 -0.004197 -0.000128 -0.003215 0.144791 0.081604 
2.1000000000000001 0.818176 0.069092 -0.002280 -0.004297 -0.000564 -0.003462 0.144608 0.077042 
2.1012499999999998 0.795837 -0.034607 -0.002337 -0.003556 -0.000493 -0.003080 0.145584 0.072449 
2.1025000000000000 0.753052 -0.126770 -0.002564 -0.003495 -0.000907 -0.003339 0.146118 0.068359 
2.1037499999999998 0.706116 -0.203857 -0.002649 -0.002985 -0.001117 -0.002950 0.145950 0.063446 
2.1050000000000000 0.649658 -0.272522 -0.002735 -0.002614 -0.001532 -0.002821 0.146545 0.060074 
2.1062500000000002 0.596497 -0.320679 -0.003113 -0.001602 -0.001826 -0.003035 0.146294 0.056015 
2.1074999999999999 0.540588 -0.359131 -0.003179 -0.001608 -0.002200 -0.002600 0.145783 0.053101 
2.1087500000000001 0.486282 -0.390808 -0.003459 -0.000900 -0.002617 -0.002248 0.145660 0.049828 
2.1099999999999999 0.432434 -0.413712 -0.003126 -0.000656 -0.002539 -0.002114 0.144669 0.047279 
2.1112500000000001 0.383728 -0.430023 -0.002933 -0.000379 -0.002866 -0.001644 0.143761 0.044510 
2.1124999999999998 0.334473 -0.441742 -0.002663 -0.000177 -0.002840 -0.001273 0.142510 0.041512 
2.1137500000000000 0.290741 -0.452271 -0.002554 -0.000103 -0.002634 -0.000938 0.141655 0.039024 
2.1150000000000002 0.250244 -0.455216 -0.002374 0.000347 -0.002899 -0.000691 0.140823 0.036041 
2.1162500000000000 0.211319 -0.457687 -0.002251 0.000319 -0.003032 -0.000482 0.140114 0.034027 
2.1175000000000002 0.175369 -0.456741 -0.002489 0.000606 -0.002771 -0.000073 0.138863 0.031204 
2.1187499999999999 0.142120 -0.454392 -0.002157 0.000726 -0.002933 -0.000048 0.138351 0.028709 
2.1200000000000001 0.111130 -0.451035 -0.002069 0.000762 -0.003029 0.000347 0.138336 0.026848 
2.1212499999999999 0.081207 -0.445267 -0.001890 0.000918 -0.002331 0.000509 0.137840 0.024254 
2.1225000000000001 0.053131 -0.438782 -0.001884 0.001139 -0.002477 0.001025 0.137177 0.022751 
2.1237499999999998 0.028961 -0.431671 -0.001636 0.000945 -0.002530 0.001158 0.137314 0.021591 
2.1250000000000000 0.002090 -0.423264 -0.001502 0.001125 -0.002010 0.001460 0.136551 0.019821 
2.1262500000000002 -0.019562 -0.415772 -0.001444 0.001092 -0.001895 0.001500 0.136513 0.018723 
2.1274999999999999 -0.041245 -0.407028 -0.001076 0.001153 -0.002143 0.001603 0.135971 0.016952 
2.1287500000000001 -0.062469 -0.397293 -0.001124 0.001382 -0.001678 0.001410 0.135094 0.015152 
2.1299999999999999 -0.080750 -0.388458 -0.000704 0.001208 -0.001742 0.001702 0.134422 0.013756 
2.1312500000000001 -0.099808 -0.377518 -0.000906 0.001270 -0.001629 0.001998 0.133682 0.011536 
2.1324999999999998 -0.117645 -0.367157 -0.000817 0.001363 -0.001161 0.001934 0.133575 0.009773 
2.1337500000000000 -0.133728 -0.356628 -0.000648 0.001565 -0.001266 0.001663 0.132980 0.007172 
2.1349999999999998 -0.149292 -0.346283 -0.000575 0.001304 -0.000739 0.001721 0.132729 0.004799 
2.1362500000000000 -0.165161 -0.334869 -0.000561 0.001416 -0.000731 0.002220 0.133308 0.002403 
2.1375000000000002 -0.179413 -0.322144 -0.000719 0.001307 -0.000655 0.002127 0.133392 0.000130 
2.1387499999999999 -0.193146 -0.309357 -0.000494 0.001360 -0.000551 0.002177 0.133064 -0.001472 
2.1400000000000001 -0.207184 -0.296051 -0.000288 0.001395 -0.000313 0.001813 0.132927 -0.003960 
2.1412499999999999 -0.220642 -0.284180 -0.000234 0.001561 -0.000218 0.001945 0.132515 -0.005890 
2.1425000000000001 -0.234619 -0.270813 0.000088 0.001210 0.000290 0.001988 0.132141 -0.008484 
2.1437499999999998 -0.245575 -0.258789 -0.000036 0.001372 0.000174 0.001892 0.131615 -0.010422 
2.1450000000000000 -0.257233 -0.243805 0.000163 0.001270 0.000259 0.001891 0.129936 -0.013092 
2.1462500000000002 -0.268951 -0.229553 0.000230 0.001269 0.000233 0.001842 0.128937 -0.015587 
2.1475000000000000 -0.280090 -0.215210 0.000268 0.001204 0.000652 0.002053 0.127342 -0.018333 
2.1487500000000002 -0.290070 -0.199310 0.000273 0.001080 0.000498 0.001596 0.126282 -0.021530 
2.1499999999999999 -0.301148 -0.183380 0.000106 0.001249 0.000643 0.001766 0.124367 -0.025314 
2.1512500000000001 -0.311279 -0.166962 0.000498 0.001188 0.000694 0.001850 0.123657 -0.027832 
