!
! C:\Users\rflab\Downloads\Lab5_KD_ZW\170.S2P
!
! Touchstone 1.1 file saved by VNA.EXE V1.65 (www.ke5fx.com/gpib/readme.htm)
! 11/12/2024 12:16:32 AM
!
!    Source: HEWLETT PACKARD,8753D,0,6.14
!  Min freq: 1.900000E+009 Hz
!  Max freq: 2.900000E+009 Hz
!    Points: 801
!    Params: S11 S21 S12 S22
!
!!!!!
# GHZ S RI R 50
1.8999999999999999 0.963928 0.233520 0.007836 0.003447 0.003965 0.002619 0.024700 -0.055328 
1.9012500000000001 0.953308 0.107300 0.008632 0.002573 0.004277 0.002362 0.022089 -0.055794 
1.9025000000000001 0.923096 -0.013062 0.008252 0.001292 0.004346 0.002036 0.020344 -0.055954 
1.9037500000000001 0.879333 -0.116638 0.007966 -0.000127 0.004519 0.001703 0.018284 -0.056152 
1.9050000000000000 0.831757 -0.202545 0.007583 -0.000983 0.004765 0.001455 0.016645 -0.055649 
1.9062500000000000 0.769775 -0.272095 0.007216 -0.001914 0.004810 0.001082 0.013855 -0.055176 
1.9075000000000000 0.711395 -0.333374 0.006604 -0.002547 0.005209 0.000621 0.012083 -0.054142 
1.9087499999999999 0.650238 -0.383148 0.006188 -0.002908 0.005210 0.000173 0.009169 -0.052961 
1.9099999999999999 0.589661 -0.422028 0.005245 -0.003392 0.005182 -0.000406 0.006990 -0.051792 
1.9112499999999999 0.534607 -0.448883 0.004887 -0.003658 0.005085 -0.001011 0.003914 -0.051291 
1.9125000000000001 0.478210 -0.472473 0.004374 -0.004257 0.005050 -0.001471 0.001097 -0.049984 
1.9137500000000001 0.428635 -0.490051 0.003673 -0.004339 0.005077 -0.001741 -0.001785 -0.049129 
1.9150000000000000 0.379547 -0.502014 0.003239 -0.004513 0.004701 -0.002090 -0.004814 -0.048487 
1.9162500000000000 0.333588 -0.509460 0.002776 -0.004646 0.004623 -0.002634 -0.007530 -0.047653 
1.9175000000000000 0.290832 -0.514374 0.002581 -0.004599 0.004398 -0.003028 -0.009592 -0.046801 
1.9187500000000000 0.251221 -0.518372 0.002033 -0.004770 0.004222 -0.003494 -0.011824 -0.046106 
1.9199999999999999 0.212830 -0.516907 0.001536 -0.004713 0.003782 -0.004024 -0.013889 -0.044664 
1.9212499999999999 0.177521 -0.514771 0.001149 -0.004491 0.003310 -0.004600 -0.015394 -0.043345 
1.9225000000000001 0.144989 -0.511261 0.000852 -0.004589 0.002687 -0.004720 -0.017565 -0.040976 
1.9237500000000001 0.111389 -0.508423 0.000417 -0.004776 0.002271 -0.004980 -0.018923 -0.039289 
1.9250000000000000 0.082153 -0.501953 -0.000108 -0.004393 0.002043 -0.005152 -0.020870 -0.037178 
1.9262500000000000 0.053284 -0.496643 -0.000162 -0.004532 0.001354 -0.005102 -0.022949 -0.035091 
1.9275000000000000 0.028076 -0.489716 -0.000644 -0.004169 0.000947 -0.005209 -0.024841 -0.032257 
1.9287500000000000 0.000061 -0.482483 -0.001077 -0.004040 0.000485 -0.005526 -0.026905 -0.030590 
1.9299999999999999 -0.021545 -0.473083 -0.001225 -0.003890 -0.000089 -0.005514 -0.028969 -0.028580 
1.9312499999999999 -0.044678 -0.464539 -0.001573 -0.003848 -0.000396 -0.005604 -0.030949 -0.026958 
1.9325000000000001 -0.067169 -0.454559 -0.001736 -0.003700 -0.001153 -0.005221 -0.032547 -0.025822 
1.9337500000000001 -0.088211 -0.443878 -0.001818 -0.003338 -0.001476 -0.004993 -0.033770 -0.023962 
1.9350000000000001 -0.109329 -0.433929 -0.001906 -0.003311 -0.001925 -0.005238 -0.034525 -0.023106 
1.9362500000000000 -0.127838 -0.423920 -0.002172 -0.003162 -0.002650 -0.004713 -0.034874 -0.021402 
1.9375000000000000 -0.147156 -0.412079 -0.002455 -0.003104 -0.003094 -0.004718 -0.035872 -0.019789 
1.9387500000000000 -0.164673 -0.401047 -0.002615 -0.002793 -0.003372 -0.004432 -0.035973 -0.017490 
1.9399999999999999 -0.182648 -0.388946 -0.002731 -0.002556 -0.003642 -0.003855 -0.036545 -0.015636 
1.9412499999999999 -0.199127 -0.377121 -0.003345 -0.002409 -0.003736 -0.003755 -0.037321 -0.013590 
1.9424999999999999 -0.216049 -0.364654 -0.003210 -0.002160 -0.004137 -0.003422 -0.038120 -0.011106 
1.9437500000000001 -0.232269 -0.350998 -0.003367 -0.001767 -0.004597 -0.003035 -0.038895 -0.009354 
1.9450000000000001 -0.248398 -0.337860 -0.003592 -0.001569 -0.004551 -0.002664 -0.040186 -0.007719 
1.9462500000000000 -0.263184 -0.324432 -0.003664 -0.001444 -0.005301 -0.002028 -0.041237 -0.006002 
1.9475000000000000 -0.277801 -0.310043 -0.003637 -0.001155 -0.005241 -0.001568 -0.042494 -0.005125 
1.9487500000000000 -0.292709 -0.295731 -0.003781 -0.000997 -0.005147 -0.000991 -0.043526 -0.003918 
1.9500000000000000 -0.304962 -0.279678 -0.003816 -0.000682 -0.005208 -0.000715 -0.044230 -0.003057 
1.9512499999999999 -0.319336 -0.265762 -0.003918 -0.000339 -0.005547 -0.000321 -0.045242 -0.002947 
1.9524999999999999 -0.333038 -0.247406 -0.003862 -0.000208 -0.005724 0.000240 -0.045721 -0.002325 
1.9537500000000001 -0.346130 -0.231644 -0.004125 -0.000021 -0.005198 0.000775 -0.045816 -0.001471 
1.9550000000000001 -0.357269 -0.213608 -0.004145 0.000448 -0.005382 0.001145 -0.046463 -0.000174 
1.9562500000000000 -0.369171 -0.195007 -0.004086 0.000737 -0.005302 0.002033 -0.046927 0.000942 
1.9575000000000000 -0.382965 -0.175552 -0.004122 0.001104 -0.005333 0.002306 -0.047802 0.002028 
1.9587500000000000 -0.394440 -0.153976 -0.003883 0.001386 -0.004951 0.002301 -0.048807 0.003696 
1.9600000000000000 -0.405640 -0.133057 -0.003857 0.001513 -0.004789 0.003094 -0.049953 0.004681 
1.9612499999999999 -0.416840 -0.110535 -0.003843 0.001580 -0.004488 0.003606 -0.051033 0.005833 
1.9624999999999999 -0.426971 -0.087860 -0.003790 0.002222 -0.004150 0.003932 -0.052792 0.007545 
1.9637500000000001 -0.437012 -0.062683 -0.003712 0.002658 -0.003939 0.004525 -0.054161 0.008846 
1.9650000000000001 -0.447876 -0.036469 -0.003398 0.002872 -0.003407 0.004728 -0.056198 0.009808 
1.9662500000000001 -0.456177 -0.006805 -0.003476 0.003238 -0.003034 0.004945 -0.057392 0.010517 
1.9675000000000000 -0.464142 0.021027 -0.003129 0.003685 -0.002464 0.005222 -0.058956 0.012035 
1.9687500000000000 -0.470581 0.054138 -0.003272 0.004058 -0.001865 0.005639 -0.060205 0.013102 
1.9700000000000000 -0.476883 0.088486 -0.003095 0.004350 -0.001333 0.005999 -0.061243 0.014622 
1.9712499999999999 -0.479782 0.126846 -0.002730 0.004504 -0.000652 0.005652 -0.062275 0.016884 
1.9724999999999999 -0.482925 0.162460 -0.002276 0.004923 -0.000244 0.005867 -0.063156 0.018875 
1.9737499999999999 -0.484680 0.205521 -0.001901 0.005364 0.000331 0.005750 -0.064491 0.021297 
1.9750000000000001 -0.481369 0.250061 -0.001406 0.005836 0.000926 0.005863 -0.065926 0.023739 
1.9762500000000001 -0.478607 0.299194 -0.001252 0.006285 0.001386 0.005621 -0.067558 0.026859 
1.9775000000000000 -0.465698 0.350037 -0.000363 0.006122 0.002160 0.005684 -0.069077 0.029545 
1.9787500000000000 -0.453430 0.401977 0.000302 0.006786 0.002506 0.005045 -0.070618 0.032246 
1.9800000000000000 -0.431946 0.459534 0.001054 0.006755 0.003035 0.004990 -0.071953 0.035107 
1.9812500000000000 -0.400452 0.521667 0.001776 0.006969 0.003417 0.004847 -0.073677 0.037807 
1.9824999999999999 -0.360169 0.583496 0.002439 0.006542 0.003830 0.004617 -0.074310 0.040710 
1.9837499999999999 -0.315002 0.647888 0.003858 0.006827 0.004372 0.004054 -0.074993 0.042568 
1.9850000000000001 -0.245850 0.714050 0.004107 0.006888 0.004944 0.003459 -0.075359 0.045765 
1.9862500000000001 -0.170410 0.774048 0.005454 0.006809 0.004894 0.003306 -0.075592 0.048821 
1.9875000000000000 -0.074951 0.827393 0.006458 0.005776 0.005324 0.002512 -0.074883 0.052177 
1.9887500000000000 0.035828 0.865784 0.007706 0.005223 0.005412 0.002126 -0.074680 0.055847 
1.9900000000000000 0.162293 0.884216 0.008759 0.004770 0.005632 0.001489 -0.073994 0.060017 
1.9912500000000000 0.296448 0.886536 0.009704 0.002526 0.005540 0.001052 -0.073368 0.063583 
1.9924999999999999 0.436829 0.850830 0.010073 0.001107 0.005534 0.000103 -0.072609 0.068192 
1.9937499999999999 0.569031 0.789673 0.009783 0.000309 0.005630 0.000020 -0.072315 0.071991 
1.9950000000000001 0.689758 0.688782 0.010311 -0.001946 0.005361 -0.000513 -0.071819 0.075336 
1.9962500000000001 0.789368 0.577087 0.009573 -0.003924 0.005511 -0.001099 -0.070721 0.078835 
1.9975000000000001 0.858826 0.444763 0.008413 -0.004506 0.005389 -0.001578 -0.070293 0.082306 
1.9987500000000000 0.896240 0.303345 0.007541 -0.006089 0.005419 -0.001821 -0.069168 0.085445 
2.0000000000000000 0.904541 0.174072 0.006679 -0.006721 0.004884 -0.002516 -0.067245 0.087914 
2.0012500000000002 0.889343 0.050720 0.004914 -0.007207 0.004968 -0.002808 -0.065197 0.091194 
2.0024999999999999 0.858276 -0.062012 0.003863 -0.007947 0.004857 -0.003358 -0.062256 0.093658 
2.0037500000000001 0.808533 -0.149292 0.002905 -0.007578 0.004522 -0.003842 -0.059753 0.096592 
2.0049999999999999 0.752625 -0.232483 0.002037 -0.007834 0.003971 -0.004253 -0.056759 0.099228 
2.0062500000000001 0.693207 -0.295959 0.000911 -0.007657 0.003441 -0.004651 -0.054245 0.102230 
2.0074999999999998 0.634521 -0.350220 -0.000196 -0.007212 0.003235 -0.004988 -0.051380 0.105095 
2.0087500000000000 0.575195 -0.389923 -0.000815 -0.007022 0.002498 -0.005534 -0.048710 0.107754 
2.0099999999999998 0.520111 -0.422302 -0.001257 -0.006187 0.002451 -0.005643 -0.046123 0.110561 
2.0112500000000000 0.463196 -0.445313 -0.001795 -0.005842 0.001732 -0.005817 -0.043903 0.112587 
2.0125000000000002 0.411316 -0.464111 -0.002651 -0.005475 0.000989 -0.005918 -0.041542 0.114288 
2.0137499999999999 0.362656 -0.478821 -0.002705 -0.005013 0.000365 -0.006169 -0.039291 0.115978 
2.0150000000000001 0.317871 -0.484695 -0.002966 -0.004470 -0.000333 -0.006106 -0.036621 0.117046 
2.0162499999999999 0.275696 -0.490814 -0.003341 -0.003926 -0.000604 -0.006078 -0.034405 0.117645 
2.0175000000000001 0.235794 -0.492645 -0.003137 -0.003539 -0.001490 -0.005514 -0.031601 0.118248 
2.0187499999999998 0.197983 -0.491135 -0.003542 -0.003282 -0.001847 -0.005239 -0.028725 0.118362 
2.0200000000000000 0.162170 -0.489883 -0.003732 -0.002936 -0.002671 -0.005351 -0.025700 0.118473 
2.0212500000000002 0.129547 -0.487518 -0.003691 -0.002393 -0.003191 -0.005093 -0.023109 0.119148 
2.0225000000000000 0.100281 -0.482681 -0.003841 -0.002242 -0.003400 -0.004801 -0.020153 0.119782 
2.0237500000000002 0.070557 -0.477234 -0.004057 -0.001850 -0.003823 -0.004206 -0.017815 0.120026 
2.0249999999999999 0.044769 -0.469788 -0.004232 -0.001501 -0.004591 -0.003707 -0.016067 0.120850 
2.0262500000000001 0.017365 -0.461639 -0.004050 -0.001096 -0.004863 -0.003555 -0.013985 0.121803 
2.0274999999999999 -0.005219 -0.453217 -0.004044 -0.000702 -0.005100 -0.002798 -0.012627 0.122002 
2.0287500000000001 -0.028778 -0.445496 -0.003952 -0.000387 -0.005170 -0.002314 -0.011475 0.122421 
2.0299999999999998 -0.051239 -0.434662 -0.003781 -0.000207 -0.005317 -0.001899 -0.010437 0.122803 
2.0312500000000000 -0.072784 -0.425934 -0.003953 0.000033 -0.005331 -0.001081 -0.009354 0.122337 
2.0325000000000002 -0.092773 -0.415009 -0.003791 0.000354 -0.005608 -0.000856 -0.008179 0.122383 
2.0337499999999999 -0.111908 -0.404511 -0.003691 0.000684 -0.005311 -0.000223 -0.008026 0.122315 
2.0350000000000001 -0.131348 -0.393707 -0.003432 0.000909 -0.005298 0.000226 -0.006752 0.122269 
2.0362499999999999 -0.148560 -0.382721 -0.003296 0.000987 -0.005406 0.000676 -0.006172 0.122208 
2.0375000000000001 -0.165009 -0.372314 -0.003495 0.001176 -0.005396 0.001030 -0.004349 0.122543 
2.0387499999999998 -0.180145 -0.360321 -0.003049 0.001704 -0.005143 0.001579 -0.003128 0.122810 
2.0400000000000000 -0.196716 -0.349457 -0.003088 0.001724 -0.004808 0.002454 -0.002724 0.124825 
2.0412499999999998 -0.211456 -0.337097 -0.002891 0.001840 -0.004497 0.002362 -0.001266 0.125053 
2.0425000000000000 -0.225586 -0.324005 -0.002659 0.002176 -0.004313 0.003008 -0.000832 0.126846 
2.0437500000000002 -0.239960 -0.312530 -0.002465 0.002233 -0.003983 0.003591 -0.000092 0.128273 
2.0449999999999999 -0.253937 -0.298035 -0.002290 0.002338 -0.003675 0.003527 0.000709 0.129578 
2.0462500000000001 -0.266144 -0.284271 -0.001909 0.002654 -0.003588 0.004083 0.001595 0.131340 
2.0474999999999999 -0.278381 -0.270660 -0.001753 0.002499 -0.003211 0.004230 0.002617 0.132530 
2.0487500000000001 -0.291840 -0.256073 -0.001688 0.002647 -0.002580 0.004344 0.003532 0.134834 
2.0499999999999998 -0.303436 -0.241119 -0.001508 0.002995 -0.001937 0.004218 0.005272 0.135246 
2.0512500000000000 -0.314484 -0.224945 -0.001395 0.002937 -0.001490 0.004624 0.007118 0.136551 
2.0525000000000002 -0.327026 -0.209381 -0.001054 0.002897 -0.001355 0.004989 0.009140 0.137993 
2.0537500000000000 -0.337494 -0.192230 -0.000913 0.002983 -0.000614 0.005122 0.011696 0.140541 
2.0550000000000002 -0.348785 -0.176086 -0.000743 0.003282 -0.000260 0.005198 0.014229 0.142532 
2.0562499999999999 -0.360016 -0.156769 -0.000386 0.003326 0.000220 0.004947 0.016968 0.144501 
2.0575000000000001 -0.368530 -0.138275 0.000001 0.003379 0.000726 0.005013 0.020096 0.146561 
2.0587499999999999 -0.379822 -0.118256 0.000170 0.003455 0.001397 0.004742 0.022675 0.148834 
2.0600000000000001 -0.389404 -0.097229 0.000327 0.003164 0.001657 0.004590 0.025375 0.150894 
2.0612499999999998 -0.398270 -0.075455 0.000749 0.003355 0.002265 0.004557 0.028565 0.152603 
2.0625000000000000 -0.405411 -0.051849 0.000785 0.003584 0.002592 0.004172 0.031632 0.153809 
2.0637500000000002 -0.413788 -0.028931 0.001193 0.003337 0.002674 0.003832 0.035217 0.154114 
2.0649999999999999 -0.421845 -0.003220 0.001406 0.003189 0.003116 0.003625 0.039032 0.154800 
2.0662500000000001 -0.427353 0.025635 0.001765 0.003173 0.003392 0.003133 0.043343 0.155365 
2.0674999999999999 -0.433792 0.053375 0.001792 0.003137 0.003348 0.003172 0.047630 0.155151 
2.0687500000000001 -0.438583 0.083206 0.002299 0.002921 0.004020 0.002434 0.052643 0.155403 
2.0699999999999998 -0.440994 0.116165 0.002499 0.002740 0.004065 0.001983 0.058235 0.155296 
2.0712500000000000 -0.443146 0.151154 0.002695 0.002570 0.004252 0.001876 0.063782 0.153748 
2.0724999999999998 -0.443390 0.186249 0.002938 0.002642 0.004557 0.000870 0.068893 0.153671 
2.0737500000000000 -0.440552 0.226715 0.003268 0.002280 0.004322 0.000704 0.073883 0.153091 
2.0750000000000002 -0.433136 0.267059 0.003683 0.002028 0.004453 0.000356 0.079773 0.152084 
2.0762499999999999 -0.424347 0.312317 0.003675 0.001962 0.004604 0.000463 0.084244 0.150574 
2.0775000000000001 -0.411865 0.360870 0.003985 0.001285 0.004387 -0.000604 0.089829 0.149139 
2.0787499999999999 -0.391205 0.409149 0.004467 0.001110 0.004097 -0.000980 0.093796 0.147018 
2.0800000000000001 -0.366821 0.465286 0.004848 0.000505 0.003994 -0.001623 0.099136 0.144203 
2.0812499999999998 -0.334290 0.521545 0.004667 0.000433 0.003937 -0.001879 0.103043 0.141235 
2.0825000000000000 -0.288025 0.574860 0.004808 -0.000470 0.003708 -0.002047 0.107773 0.137711 
2.0837500000000002 -0.233582 0.629547 0.004640 -0.000781 0.003703 -0.002419 0.112106 0.133636 
2.0850000000000000 -0.166809 0.682922 0.005487 -0.001453 0.003072 -0.002505 0.116272 0.130127 
2.0862500000000002 -0.087097 0.730530 0.005016 -0.001807 0.002980 -0.002801 0.120667 0.126022 
2.0874999999999999 0.008484 0.769836 0.004978 -0.002975 0.002238 -0.002784 0.125092 0.121903 
2.0887500000000001 0.125183 0.791992 0.004642 -0.003851 0.002209 -0.003155 0.128746 0.117439 
2.0899999999999999 0.245422 0.790894 0.003840 -0.004146 0.001750 -0.003366 0.132233 0.113281 
2.0912500000000001 0.367188 0.766479 0.003562 -0.004730 0.001595 -0.003232 0.135132 0.109695 
2.0924999999999998 0.492310 0.724182 0.002648 -0.005322 0.001615 -0.003343 0.137825 0.105713 
2.0937500000000000 0.603088 0.647888 0.001823 -0.005929 0.000848 -0.003643 0.139679 0.101051 
2.0950000000000002 0.698731 0.548035 0.000682 -0.005695 0.001013 -0.003954 0.141731 0.096397 
2.0962499999999999 0.770416 0.433899 -0.000199 -0.005744 0.000471 -0.003383 0.142517 0.091515 
2.0975000000000001 0.809021 0.311493 -0.000785 -0.005665 0.000273 -0.003523 0.142937 0.087974 
2.0987499999999999 0.825012 0.186951 -0.001332 -0.005095 0.000126 -0.003453 0.144104 0.083221 
2.1000000000000001 0.822144 0.068726 -0.002340 -0.004892 -0.000234 -0.003239 0.144882 0.077240 
2.1012499999999998 0.791138 -0.039246 -0.002492 -0.004135 -0.000779 -0.003807 0.145447 0.073227 
2.1025000000000000 0.751526 -0.129028 -0.003007 -0.003439 -0.000847 -0.003595 0.145813 0.068985 
2.1037499999999998 0.706543 -0.206116 -0.003128 -0.002883 -0.001166 -0.003405 0.146545 0.064346 
2.1050000000000000 0.653809 -0.269531 -0.003476 -0.002651 -0.001844 -0.003470 0.146988 0.060409 
2.1062500000000002 0.596252 -0.321259 -0.003230 -0.001764 -0.001966 -0.003029 0.146538 0.057137 
2.1074999999999999 0.540710 -0.359589 -0.003482 -0.001498 -0.002681 -0.003022 0.146515 0.053772 
2.1087500000000001 0.486054 -0.391220 -0.003098 -0.001044 -0.002823 -0.002799 0.146103 0.050995 
2.1099999999999999 0.432083 -0.413849 -0.003413 -0.000736 -0.002989 -0.002521 0.145500 0.047996 
2.1112500000000001 0.383362 -0.430100 -0.002959 -0.000212 -0.002953 -0.001737 0.144951 0.045563 
2.1124999999999998 0.334793 -0.441773 -0.002944 -0.000369 -0.003323 -0.001323 0.143837 0.042084 
2.1137500000000000 0.290878 -0.450562 -0.002850 -0.000035 -0.002955 -0.001269 0.142906 0.039741 
2.1150000000000002 0.249542 -0.455719 -0.002438 0.000275 -0.003010 -0.000847 0.142067 0.036774 
2.1162500000000000 0.211487 -0.457382 -0.002459 0.000412 -0.003361 -0.000421 0.140923 0.033730 
2.1175000000000002 0.175247 -0.456970 -0.002211 0.000748 -0.003197 -0.000540 0.140495 0.031395 
2.1187499999999999 0.142532 -0.454224 -0.002224 0.000739 -0.002943 0.000422 0.139969 0.028969 
2.1200000000000001 0.110519 -0.450958 -0.002007 0.000653 -0.002868 0.000609 0.139702 0.027107 
2.1212499999999999 0.081329 -0.445068 -0.001981 0.000902 -0.002861 0.000665 0.139450 0.024170 
2.1225000000000001 0.052933 -0.438644 -0.002025 0.001217 -0.003183 0.000591 0.138878 0.023003 
2.1237499999999998 0.027191 -0.432007 -0.001906 0.001092 -0.002387 0.001175 0.138817 0.021286 
2.1250000000000000 0.003342 -0.423569 -0.001582 0.001215 -0.002352 0.001170 0.138290 0.019608 
2.1262500000000002 -0.020233 -0.415451 -0.001403 0.001431 -0.002120 0.001455 0.137833 0.018585 
2.1274999999999999 -0.041473 -0.406555 -0.001413 0.001245 -0.002144 0.001508 0.137146 0.017098 
2.1287500000000001 -0.061951 -0.396942 -0.001290 0.001349 -0.001959 0.001643 0.136833 0.015289 
2.1299999999999999 -0.080231 -0.387543 -0.001233 0.001392 -0.001825 0.001751 0.135788 0.013504 
2.1312500000000001 -0.099976 -0.377213 -0.000722 0.001293 -0.001293 0.001802 0.134918 0.011025 
2.1324999999999998 -0.117920 -0.367279 -0.000959 0.001440 -0.001593 0.002092 0.134346 0.008904 
2.1337500000000000 -0.133514 -0.355774 -0.000908 0.001573 -0.001051 0.001664 0.134094 0.006561 
2.1349999999999998 -0.148712 -0.345673 -0.000805 0.001370 -0.001112 0.001960 0.133865 0.003876 
2.1362500000000000 -0.164764 -0.334076 -0.000745 0.001466 -0.000692 0.002121 0.134048 0.001595 
2.1375000000000002 -0.179382 -0.322388 -0.000586 0.001551 -0.000899 0.002150 0.134377 -0.000580 
2.1387499999999999 -0.193695 -0.309937 -0.000378 0.001562 -0.000755 0.001827 0.133713 -0.002876 
2.1400000000000001 -0.207733 -0.296753 -0.000308 0.001284 -0.000126 0.001926 0.133461 -0.004631 
2.1412499999999999 -0.220276 -0.284119 -0.000536 0.001555 -0.000354 0.002269 0.132889 -0.006920 
2.1425000000000001 -0.234558 -0.270599 -0.000266 0.001349 -0.000088 0.002510 0.132530 -0.008904 
2.1437499999999998 -0.245483 -0.258636 -0.000147 0.001325 0.000215 0.002035 0.131470 -0.011696 
2.1450000000000000 -0.257324 -0.243652 0.000050 0.001186 0.000708 0.001917 0.130180 -0.014061 
2.1462500000000002 -0.268951 -0.229645 0.000064 0.001348 0.000313 0.001806 0.128716 -0.016762 
2.1475000000000000 -0.280426 -0.215057 0.000234 0.001212 0.000644 0.001907 0.126900 -0.019386 
2.1487500000000002 -0.290222 -0.198792 0.000178 0.001240 0.000690 0.001826 0.126106 -0.022942 
2.1499999999999999 -0.301117 -0.182678 0.000088 0.001439 0.000933 0.001818 0.124085 -0.025993 
2.1512500000000001 -0.311371 -0.167084 0.000218 0.001195 0.000820 0.001521 0.122780 -0.028893 
