!
! C:\Users\rflab\Downloads\Lab5_KD_ZW\180.S2P
!
! Touchstone 1.1 file saved by VNA.EXE V1.65 (www.ke5fx.com/gpib/readme.htm)
! 11/12/2024 12:17:38 AM
!
!    Source: HEWLETT PACKARD,8753D,0,6.14
!  Min freq: 1.900000E+009 Hz
!  Max freq: 2.900000E+009 Hz
!    Points: 801
!    Params: S11 S21 S12 S22
!
!!!!!
# GHZ S RI R 50
1.8999999999999999 0.962708 0.235657 0.008403 0.003776 0.004131 0.002743 0.025023 -0.055080 
1.9012500000000001 0.950439 0.110046 0.008560 0.002526 0.004062 0.002519 0.022423 -0.055698 
1.9025000000000001 0.923706 -0.014160 0.007990 0.001620 0.004466 0.002153 0.020512 -0.055765 
1.9037500000000001 0.879333 -0.116028 0.008113 0.000087 0.004382 0.001577 0.018517 -0.055962 
1.9050000000000000 0.830994 -0.203522 0.007643 -0.000858 0.004873 0.001396 0.016500 -0.055611 
1.9062500000000000 0.769165 -0.274200 0.007232 -0.001923 0.005206 0.001081 0.014000 -0.054895 
1.9075000000000000 0.709900 -0.335327 0.007192 -0.002531 0.005392 0.000771 0.012037 -0.054255 
1.9087499999999999 0.649567 -0.381958 0.006050 -0.003081 0.005167 -0.000072 0.009560 -0.053001 
1.9099999999999999 0.589996 -0.418335 0.005980 -0.003396 0.005219 -0.000224 0.007219 -0.052164 
1.9112499999999999 0.533081 -0.450714 0.005093 -0.003578 0.005182 -0.000849 0.003853 -0.051176 
1.9125000000000001 0.479004 -0.472595 0.004301 -0.003923 0.005006 -0.001230 0.001398 -0.049877 
1.9137500000000001 0.427109 -0.489243 0.003799 -0.004451 0.005140 -0.001538 -0.001602 -0.049381 
1.9150000000000000 0.378510 -0.501800 0.003585 -0.004255 0.005011 -0.002103 -0.004438 -0.048458 
1.9162500000000000 0.332855 -0.509888 0.002975 -0.004380 0.004612 -0.002390 -0.007479 -0.047699 
1.9175000000000000 0.289856 -0.514343 0.002491 -0.004633 0.004446 -0.003189 -0.009586 -0.046881 
1.9187500000000000 0.250092 -0.518005 0.001936 -0.004677 0.004150 -0.003413 -0.011784 -0.045778 
1.9199999999999999 0.213165 -0.517548 0.001480 -0.004791 0.003699 -0.003900 -0.013781 -0.044674 
1.9212499999999999 0.177582 -0.514435 0.001116 -0.004531 0.003517 -0.004421 -0.015091 -0.043379 
1.9225000000000001 0.143707 -0.512634 0.000849 -0.004686 0.002792 -0.004690 -0.017002 -0.041359 
1.9237500000000001 0.111054 -0.508209 0.000573 -0.004655 0.002735 -0.005183 -0.018719 -0.039818 
1.9250000000000000 0.082764 -0.501831 -0.000074 -0.004473 0.002158 -0.005230 -0.020824 -0.037659 
1.9262500000000000 0.053162 -0.497070 -0.000036 -0.004242 0.001573 -0.005105 -0.022919 -0.035309 
1.9275000000000000 0.027496 -0.490295 -0.000576 -0.004407 0.001173 -0.005300 -0.024578 -0.033157 
1.9287500000000000 0.000915 -0.481812 -0.000741 -0.004052 0.000597 -0.005359 -0.026787 -0.030949 
1.9299999999999999 -0.021454 -0.473633 -0.001080 -0.004134 0.000248 -0.005449 -0.029156 -0.029121 
1.9312499999999999 -0.043793 -0.465515 -0.001421 -0.003845 -0.000534 -0.005517 -0.030979 -0.027489 
1.9325000000000001 -0.067383 -0.454193 -0.001616 -0.003588 -0.000969 -0.005388 -0.032589 -0.026131 
1.9337500000000001 -0.087265 -0.443878 -0.001826 -0.003606 -0.001733 -0.005364 -0.033619 -0.024572 
1.9350000000000001 -0.109741 -0.433762 -0.002122 -0.003214 -0.001767 -0.005141 -0.034485 -0.023071 
1.9362500000000000 -0.127335 -0.423218 -0.002431 -0.003142 -0.002363 -0.005037 -0.035194 -0.021627 
1.9375000000000000 -0.147278 -0.412262 -0.002616 -0.003103 -0.002900 -0.004572 -0.035795 -0.020338 
1.9387500000000000 -0.164780 -0.401062 -0.002569 -0.002869 -0.003069 -0.004386 -0.036390 -0.018263 
1.9399999999999999 -0.182251 -0.388886 -0.002900 -0.002672 -0.003680 -0.004014 -0.036737 -0.015802 
1.9412499999999999 -0.198746 -0.376373 -0.003061 -0.002335 -0.003917 -0.003812 -0.037722 -0.013689 
1.9424999999999999 -0.215347 -0.364929 -0.003092 -0.002325 -0.004272 -0.003495 -0.038090 -0.011433 
1.9437500000000001 -0.232300 -0.351395 -0.003271 -0.001825 -0.004451 -0.002780 -0.039148 -0.009792 
1.9450000000000001 -0.247940 -0.337509 -0.003611 -0.001726 -0.004684 -0.002803 -0.040583 -0.007885 
1.9462500000000000 -0.263687 -0.323578 -0.003420 -0.001490 -0.004761 -0.002026 -0.041874 -0.006470 
1.9475000000000000 -0.277756 -0.310425 -0.003766 -0.001184 -0.004995 -0.001615 -0.043106 -0.004951 
1.9487500000000000 -0.291748 -0.295563 -0.003740 -0.001121 -0.005489 -0.001265 -0.043955 -0.004122 
1.9500000000000000 -0.304688 -0.280304 -0.003838 -0.000752 -0.005448 -0.000596 -0.044937 -0.003212 
1.9512499999999999 -0.319458 -0.265015 -0.003864 -0.000497 -0.005662 -0.000473 -0.045530 -0.002937 
1.9524999999999999 -0.332398 -0.247955 -0.004214 -0.000252 -0.005381 0.000148 -0.046005 -0.002321 
1.9537500000000001 -0.346558 -0.231476 -0.004023 0.000193 -0.005508 0.000752 -0.046055 -0.001373 
1.9550000000000001 -0.358276 -0.213516 -0.004205 0.000619 -0.005489 0.001360 -0.046898 -0.000076 
1.9562500000000000 -0.368546 -0.194550 -0.004089 0.000650 -0.005378 0.001749 -0.047459 0.000982 
1.9575000000000000 -0.383072 -0.175659 -0.004029 0.001030 -0.005098 0.002251 -0.048067 0.002230 
1.9587500000000000 -0.394547 -0.154465 -0.003906 0.001245 -0.004972 0.002834 -0.048693 0.004179 
1.9600000000000000 -0.403717 -0.133148 -0.004222 0.001698 -0.004977 0.003097 -0.050022 0.005199 
1.9612499999999999 -0.417023 -0.110382 -0.004010 0.001951 -0.004490 0.003505 -0.051174 0.006584 
1.9624999999999999 -0.425629 -0.088501 -0.003848 0.002341 -0.004025 0.004045 -0.052605 0.007980 
1.9637500000000001 -0.437714 -0.063080 -0.003561 0.002570 -0.003691 0.004215 -0.054245 0.009529 
1.9650000000000001 -0.447906 -0.035858 -0.003620 0.002820 -0.003301 0.004952 -0.055618 0.009884 
1.9662500000000001 -0.455566 -0.008331 -0.003741 0.003179 -0.002810 0.004978 -0.057228 0.010811 
1.9675000000000000 -0.462433 0.020447 -0.003506 0.003600 -0.002285 0.005446 -0.058767 0.012606 
1.9687500000000000 -0.470001 0.054810 -0.002874 0.003742 -0.001623 0.005366 -0.059864 0.013601 
1.9700000000000000 -0.476608 0.090195 -0.002956 0.004326 -0.001397 0.005797 -0.060886 0.015129 
1.9712499999999999 -0.480804 0.126740 -0.002615 0.004638 -0.000830 0.005560 -0.062059 0.016953 
1.9724999999999999 -0.482849 0.162750 -0.002207 0.005125 -0.000282 0.005815 -0.063396 0.018860 
1.9737499999999999 -0.483872 0.206039 -0.001822 0.005534 0.000406 0.005916 -0.064098 0.021469 
1.9750000000000001 -0.482376 0.250061 -0.001373 0.005991 0.001057 0.005785 -0.065395 0.023857 
1.9762500000000001 -0.477509 0.299469 -0.001019 0.006250 0.001487 0.005908 -0.066975 0.026829 
1.9775000000000000 -0.467529 0.349426 -0.000526 0.006379 0.001865 0.005590 -0.068619 0.029713 
1.9787500000000000 -0.453796 0.402344 0.000603 0.006416 0.002651 0.005395 -0.070324 0.032349 
1.9800000000000000 -0.428406 0.458862 0.001025 0.006762 0.002968 0.005249 -0.071377 0.034920 
1.9812500000000000 -0.401855 0.523132 0.001925 0.007110 0.003559 0.004487 -0.072899 0.037739 
1.9824999999999999 -0.361877 0.586548 0.002685 0.007095 0.004153 0.004409 -0.073837 0.039970 
1.9837499999999999 -0.311890 0.646301 0.003281 0.007308 0.004374 0.003872 -0.074402 0.042347 
1.9850000000000001 -0.247864 0.712952 0.004499 0.007376 0.004580 0.003395 -0.074814 0.045910 
1.9862500000000001 -0.171997 0.771423 0.005232 0.006969 0.004930 0.003067 -0.075184 0.048817 
1.9875000000000000 -0.078918 0.829040 0.006809 0.005611 0.005212 0.002406 -0.074631 0.051819 
1.9887500000000000 0.034546 0.863220 0.007355 0.005354 0.005186 0.001943 -0.074062 0.055565 
1.9900000000000000 0.161865 0.883484 0.008913 0.004216 0.005559 0.001614 -0.073967 0.059151 
1.9912500000000000 0.294678 0.888855 0.009942 0.002934 0.005508 0.000958 -0.072987 0.063091 
1.9924999999999999 0.434692 0.849548 0.010045 0.001064 0.005669 0.000312 -0.072823 0.067284 
1.9937499999999999 0.568176 0.786621 0.010008 -0.000249 0.005569 -0.000121 -0.072086 0.071014 
1.9950000000000001 0.688477 0.690064 0.009855 -0.001678 0.005772 -0.000594 -0.071682 0.074814 
1.9962500000000001 0.783630 0.568787 0.009312 -0.003795 0.005523 -0.001228 -0.070953 0.078087 
1.9975000000000001 0.853516 0.442993 0.008371 -0.004780 0.005515 -0.001674 -0.070534 0.081581 
1.9987500000000000 0.892517 0.304871 0.007346 -0.005752 0.005341 -0.001884 -0.069252 0.084583 
2.0000000000000000 0.905151 0.172485 0.006522 -0.006735 0.005163 -0.002453 -0.067394 0.087517 
2.0012500000000002 0.885559 0.048218 0.005493 -0.007352 0.005077 -0.002764 -0.065140 0.090366 
2.0024999999999999 0.855530 -0.057190 0.004122 -0.007494 0.004891 -0.003296 -0.063477 0.093094 
2.0037500000000001 0.808044 -0.151367 0.002882 -0.007394 0.004327 -0.003799 -0.060341 0.095764 
2.0049999999999999 0.752808 -0.232727 0.001865 -0.007756 0.003947 -0.004149 -0.057713 0.098431 
2.0062500000000001 0.694214 -0.298065 0.001113 -0.007413 0.003792 -0.004479 -0.055153 0.102024 
2.0074999999999998 0.637421 -0.352386 0.000168 -0.006863 0.003211 -0.004750 -0.052074 0.104435 
2.0087500000000000 0.574371 -0.391846 -0.001136 -0.006585 0.002869 -0.005367 -0.049732 0.107506 
2.0099999999999998 0.519379 -0.421356 -0.001465 -0.006386 0.001708 -0.005562 -0.047142 0.109707 
2.0112500000000000 0.463196 -0.445557 -0.001754 -0.005669 0.001678 -0.005767 -0.044662 0.112202 
2.0125000000000002 0.412109 -0.463989 -0.002354 -0.005387 0.001054 -0.005723 -0.042255 0.113686 
2.0137499999999999 0.363098 -0.475891 -0.002828 -0.004863 0.000367 -0.006205 -0.039848 0.115315 
2.0150000000000001 0.318222 -0.485229 -0.002721 -0.004562 -0.000358 -0.006477 -0.037712 0.116737 
2.0162499999999999 0.275680 -0.489960 -0.003081 -0.004182 -0.000906 -0.005898 -0.035786 0.117523 
2.0175000000000001 0.234940 -0.492340 -0.003237 -0.003664 -0.001647 -0.005803 -0.032059 0.117661 
2.0187499999999998 0.199982 -0.492874 -0.003540 -0.003070 -0.002061 -0.005552 -0.029716 0.118198 
2.0200000000000000 0.162994 -0.489273 -0.003516 -0.002915 -0.002477 -0.005068 -0.026546 0.118717 
2.0212500000000002 0.129150 -0.486084 -0.003837 -0.002644 -0.002970 -0.004875 -0.024220 0.119282 
2.0225000000000000 0.100311 -0.481399 -0.003852 -0.002228 -0.003663 -0.004719 -0.021198 0.120220 
2.0237500000000002 0.071213 -0.476440 -0.003744 -0.001975 -0.003911 -0.004253 -0.018723 0.120232 
2.0249999999999999 0.043579 -0.469879 -0.003779 -0.001701 -0.004287 -0.003783 -0.016731 0.121315 
2.0262500000000001 0.018097 -0.461578 -0.003909 -0.001270 -0.004610 -0.003600 -0.014732 0.122070 
2.0274999999999999 -0.004913 -0.453064 -0.003982 -0.000940 -0.005100 -0.002739 -0.012993 0.121964 
2.0287500000000001 -0.028625 -0.445770 -0.004008 -0.000699 -0.005186 -0.002127 -0.011818 0.123131 
2.0299999999999998 -0.051453 -0.435577 -0.003958 -0.000062 -0.005522 -0.001793 -0.010460 0.123062 
2.0312500000000000 -0.072540 -0.424469 -0.003751 -0.000015 -0.005185 -0.001422 -0.009544 0.123055 
2.0325000000000002 -0.091492 -0.415039 -0.003693 0.000392 -0.005170 -0.000844 -0.009140 0.122787 
2.0337499999999999 -0.111603 -0.404816 -0.003585 0.000410 -0.005276 -0.000292 -0.007988 0.123116 
2.0350000000000001 -0.130646 -0.393402 -0.003531 0.000769 -0.005048 0.000042 -0.006393 0.122711 
2.0362499999999999 -0.148315 -0.382813 -0.003291 0.000982 -0.005298 0.000767 -0.006111 0.122688 
2.0375000000000001 -0.165192 -0.372101 -0.003103 0.001135 -0.005051 0.001234 -0.004234 0.123207 
2.0387499999999998 -0.179779 -0.360718 -0.003076 0.001495 -0.005205 0.001609 -0.003151 0.123833 
2.0400000000000000 -0.196014 -0.348633 -0.003014 0.001693 -0.004872 0.002091 -0.002579 0.124939 
2.0412499999999998 -0.211487 -0.337524 -0.002866 0.002103 -0.004580 0.002609 -0.001183 0.125847 
2.0425000000000000 -0.225891 -0.324249 -0.002452 0.002149 -0.004440 0.002683 -0.000343 0.127243 
2.0437500000000002 -0.239746 -0.312378 -0.002448 0.002143 -0.003746 0.003393 0.000382 0.128426 
2.0449999999999999 -0.253174 -0.298309 -0.002381 0.002527 -0.003361 0.003566 0.001106 0.129555 
2.0462500000000001 -0.265717 -0.283844 -0.002039 0.002569 -0.003076 0.003899 0.001877 0.131180 
2.0474999999999999 -0.278534 -0.270782 -0.001871 0.002620 -0.003042 0.004168 0.003113 0.132378 
2.0487500000000001 -0.290985 -0.255219 -0.001583 0.002684 -0.002329 0.004138 0.004410 0.134079 
2.0499999999999998 -0.303375 -0.240204 -0.001553 0.002949 -0.001776 0.004502 0.005722 0.135338 
2.0512500000000000 -0.314117 -0.224609 -0.001309 0.002938 -0.001694 0.004658 0.007698 0.136696 
2.0525000000000002 -0.326263 -0.210236 -0.001211 0.003101 -0.001189 0.005003 0.009674 0.138138 
2.0537500000000000 -0.336426 -0.192383 -0.000991 0.003036 -0.000660 0.005020 0.012085 0.140198 
2.0550000000000002 -0.348145 -0.175598 -0.000788 0.003305 -0.000238 0.004661 0.014679 0.142013 
2.0562499999999999 -0.359131 -0.157318 -0.000579 0.003185 0.000071 0.004850 0.017082 0.143822 
2.0575000000000001 -0.368256 -0.138306 -0.000283 0.003282 0.000583 0.004903 0.020309 0.146469 
2.0587499999999999 -0.378540 -0.118256 -0.000060 0.003325 0.000934 0.004733 0.022736 0.148270 
2.0600000000000001 -0.388794 -0.097260 0.000365 0.003345 0.001234 0.004529 0.025742 0.150146 
2.0612499999999998 -0.398087 -0.075897 0.000535 0.003423 0.001812 0.004257 0.028687 0.152023 
2.0625000000000000 -0.405426 -0.052185 0.000804 0.003269 0.002323 0.003977 0.031891 0.153244 
2.0637500000000002 -0.413345 -0.028931 0.001185 0.003219 0.002724 0.003801 0.035049 0.153442 
2.0649999999999999 -0.420944 -0.002808 0.001175 0.003147 0.002804 0.003647 0.038742 0.154434 
2.0662500000000001 -0.427643 0.025101 0.001349 0.003116 0.003013 0.003225 0.042999 0.154991 
2.0674999999999999 -0.433060 0.052887 0.001670 0.002933 0.003506 0.002989 0.047195 0.154694 
2.0687500000000001 -0.438202 0.083420 0.002310 0.003032 0.003937 0.002441 0.052307 0.154976 
2.0699999999999998 -0.440521 0.116898 0.002289 0.002580 0.003941 0.001886 0.057755 0.154671 
2.0712500000000000 -0.442169 0.148651 0.002698 0.002739 0.004586 0.001694 0.063263 0.153564 
2.0724999999999998 -0.442902 0.185699 0.003071 0.002472 0.004511 0.001571 0.068176 0.153473 
2.0737500000000000 -0.439545 0.225952 0.003151 0.002177 0.004288 0.001021 0.073517 0.152878 
2.0750000000000002 -0.432129 0.266785 0.003563 0.002380 0.004637 0.000468 0.078964 0.151794 
2.0762499999999999 -0.423218 0.311371 0.003525 0.001651 0.004457 0.000339 0.083496 0.150360 
2.0775000000000001 -0.410614 0.359894 0.004063 0.001560 0.004337 -0.000326 0.088593 0.148819 
2.0787499999999999 -0.390411 0.409088 0.004142 0.000976 0.004254 -0.000641 0.093338 0.147049 
2.0800000000000001 -0.365951 0.463089 0.004291 0.000633 0.004041 -0.000830 0.098030 0.144501 
2.0812499999999998 -0.331665 0.519806 0.004528 0.000018 0.003803 -0.001495 0.102325 0.140869 
2.0825000000000000 -0.286285 0.572083 0.005023 -0.000375 0.004039 -0.001932 0.106995 0.137695 
2.0837500000000002 -0.233307 0.629700 0.004907 -0.000626 0.003812 -0.002316 0.111237 0.134628 
2.0850000000000000 -0.166290 0.682281 0.004525 -0.000836 0.003186 -0.002460 0.115799 0.130463 
2.0862500000000002 -0.086121 0.726502 0.004480 -0.001974 0.002976 -0.003100 0.119919 0.125916 
2.0874999999999999 0.009949 0.764526 0.005138 -0.002778 0.002573 -0.002782 0.124451 0.122253 
2.0887500000000001 0.120850 0.786438 0.004152 -0.003194 0.002336 -0.003305 0.127899 0.118324 
2.0899999999999999 0.239197 0.788391 0.004086 -0.004223 0.001544 -0.003166 0.131775 0.113571 
2.0912500000000001 0.367432 0.767090 0.003872 -0.004525 0.001711 -0.003272 0.134323 0.110428 
2.0924999999999998 0.491333 0.722290 0.002426 -0.005403 0.001451 -0.003123 0.137550 0.106392 
2.0937500000000000 0.604065 0.638367 0.002007 -0.005278 0.001275 -0.003227 0.139031 0.101936 
2.0950000000000002 0.699463 0.540771 0.000494 -0.005246 0.000788 -0.003301 0.140945 0.096825 
2.0962499999999999 0.769867 0.431305 0.000252 -0.005412 0.000684 -0.003429 0.142387 0.091896 
2.0975000000000001 0.807434 0.305511 -0.000684 -0.005100 0.000206 -0.003642 0.143921 0.087814 
2.0987499999999999 0.825073 0.186951 -0.001127 -0.004910 0.000082 -0.003421 0.143936 0.083359 
2.1000000000000001 0.817871 0.064209 -0.001997 -0.004985 -0.000289 -0.003701 0.144730 0.078567 
2.1012499999999998 0.790833 -0.037231 -0.002490 -0.004212 -0.000414 -0.003479 0.145416 0.073441 
2.1025000000000000 0.750794 -0.125366 -0.002754 -0.003627 -0.001071 -0.003479 0.145752 0.069580 
2.1037499999999998 0.701538 -0.206421 -0.002900 -0.003062 -0.001007 -0.003145 0.146515 0.065201 
2.1050000000000000 0.649231 -0.270325 -0.003223 -0.002736 -0.001580 -0.003640 0.146759 0.061630 
2.1062500000000002 0.594391 -0.319580 -0.003057 -0.002258 -0.002030 -0.003050 0.147041 0.057587 
2.1074999999999999 0.538635 -0.358337 -0.003228 -0.001674 -0.001818 -0.002598 0.146652 0.054329 
2.1087500000000001 0.484985 -0.388886 -0.003275 -0.001122 -0.002493 -0.002818 0.145973 0.050819 
2.1099999999999999 0.431305 -0.412018 -0.003138 -0.000768 -0.002921 -0.002597 0.145752 0.048042 
2.1112500000000001 0.383423 -0.428650 -0.003013 -0.000618 -0.002949 -0.001812 0.145165 0.045532 
2.1124999999999998 0.335373 -0.441269 -0.002930 -0.000245 -0.003050 -0.001712 0.143868 0.042893 
2.1137500000000000 0.290573 -0.450653 -0.002470 0.000040 -0.003323 -0.001227 0.142830 0.039688 
2.1150000000000002 0.249756 -0.454666 -0.002684 0.000072 -0.003037 -0.001002 0.141472 0.036491 
2.1162500000000000 0.211594 -0.456207 -0.002370 0.000151 -0.003337 -0.000190 0.141296 0.033791 
2.1175000000000002 0.175232 -0.455551 -0.002316 0.000392 -0.003387 -0.000330 0.140511 0.031670 
2.1187499999999999 0.142532 -0.453491 -0.002138 0.000546 -0.003071 0.000010 0.140076 0.029068 
2.1200000000000001 0.110840 -0.450592 -0.001898 0.000688 -0.002919 0.000559 0.139847 0.026901 
2.1212499999999999 0.081421 -0.444443 -0.001969 0.000826 -0.003125 0.000752 0.139359 0.024574 
2.1225000000000001 0.053375 -0.438309 -0.001776 0.000982 -0.002685 0.000876 0.138824 0.023056 
2.1237499999999998 0.028381 -0.430374 -0.001833 0.001092 -0.002795 0.000766 0.138786 0.021103 
2.1250000000000000 0.003815 -0.422394 -0.001797 0.001345 -0.002564 0.000831 0.138069 0.019188 
2.1262500000000002 -0.020813 -0.414627 -0.001553 0.000861 -0.002221 0.001295 0.137657 0.018272 
2.1274999999999999 -0.040558 -0.406097 -0.001388 0.001236 -0.001796 0.001184 0.137375 0.016518 
2.1287500000000001 -0.061981 -0.397064 -0.001559 0.001188 -0.001868 0.001413 0.136627 0.015007 
2.1299999999999999 -0.081024 -0.387863 -0.001092 0.001136 -0.001757 0.001454 0.135696 0.012741 
2.1312500000000001 -0.099152 -0.376053 -0.000844 0.001307 -0.002175 0.001709 0.134842 0.010284 
2.1324999999999998 -0.117584 -0.366882 -0.000851 0.001049 -0.001421 0.001617 0.134232 0.008759 
2.1337500000000000 -0.133148 -0.355499 -0.001165 0.001254 -0.001275 0.001822 0.134377 0.005936 
2.1349999999999998 -0.148956 -0.345398 -0.000862 0.001178 -0.001296 0.001837 0.133881 0.003754 
2.1362500000000000 -0.164459 -0.334045 -0.000770 0.001320 -0.001021 0.001731 0.133995 0.001083 
2.1375000000000002 -0.179382 -0.321686 -0.000700 0.001270 -0.000986 0.001904 0.134216 -0.000870 
2.1387499999999999 -0.193359 -0.309265 -0.000598 0.001209 -0.000741 0.002079 0.133278 -0.002808 
2.1400000000000001 -0.207001 -0.296204 -0.000519 0.001340 -0.000612 0.001969 0.133110 -0.004875 
2.1412499999999999 -0.219940 -0.283783 -0.000309 0.001357 -0.000252 0.002272 0.132790 -0.006935 
2.1425000000000001 -0.234009 -0.270538 -0.000271 0.001383 -0.000523 0.002119 0.132156 -0.009727 
2.1437499999999998 -0.244904 -0.258148 -0.000243 0.001536 -0.000186 0.002296 0.131348 -0.011795 
2.1450000000000000 -0.256470 -0.243347 -0.000139 0.001265 -0.000076 0.002273 0.129776 -0.014023 
2.1462500000000002 -0.268311 -0.229187 -0.000190 0.001303 0.000421 0.001721 0.128685 -0.016876 
2.1475000000000000 -0.279755 -0.214783 -0.000160 0.001387 0.000385 0.001855 0.126839 -0.019493 
2.1487500000000002 -0.289002 -0.198883 -0.000053 0.001323 0.000487 0.002030 0.125824 -0.022888 
2.1499999999999999 -0.300934 -0.182983 0.000100 0.001368 0.000413 0.001634 0.124008 -0.025978 
2.1512500000000001 -0.310303 -0.166565 0.000060 0.001391 0.000819 0.001646 0.122574 -0.029152 
