!
! C:\Users\rflab\Downloads\Lab5_KD_ZW\190.S2P
!
! Touchstone 1.1 file saved by VNA.EXE V1.65 (www.ke5fx.com/gpib/readme.htm)
! 11/12/2024 12:18:46 AM
!
!    Source: HEWLETT PACKARD,8753D,0,6.14
!  Min freq: 1.900000E+009 Hz
!  Max freq: 2.900000E+009 Hz
!    Points: 801
!    Params: S11 S21 S12 S22
!
!!!!!
# GHZ S RI R 50
1.8999999999999999 0.962646 0.242798 0.008236 0.001914 0.004345 0.001741 0.024771 -0.055584 
1.9012500000000001 0.952698 0.108215 0.008680 0.000635 0.004430 0.001517 0.022470 -0.055878 
1.9025000000000001 0.923401 -0.007568 0.008258 -0.000043 0.004518 0.001019 0.020685 -0.056122 
1.9037500000000001 0.877564 -0.112915 0.007856 -0.001146 0.004898 0.001156 0.018362 -0.056608 
1.9050000000000000 0.829804 -0.201721 0.007271 -0.002036 0.004740 0.000583 0.016630 -0.055834 
1.9062500000000000 0.769775 -0.269409 0.006815 -0.002665 0.004596 0.000273 0.014214 -0.055109 
1.9075000000000000 0.711395 -0.334198 0.005790 -0.003400 0.005053 -0.000198 0.012312 -0.054369 
1.9087499999999999 0.650208 -0.378784 0.005381 -0.004066 0.005171 -0.000873 0.009727 -0.053431 
1.9099999999999999 0.588165 -0.417328 0.004926 -0.004232 0.004881 -0.001118 0.007385 -0.052422 
1.9112499999999999 0.534119 -0.447144 0.003990 -0.004557 0.004961 -0.001850 0.003944 -0.051226 
1.9125000000000001 0.480682 -0.472351 0.003455 -0.004569 0.004561 -0.002316 0.001190 -0.050161 
1.9137500000000001 0.426636 -0.487869 0.002962 -0.004812 0.004231 -0.002587 -0.001762 -0.049669 
1.9150000000000000 0.377869 -0.500275 0.002385 -0.004528 0.004097 -0.003149 -0.004644 -0.049017 
1.9162500000000000 0.332916 -0.509125 0.001941 -0.004962 0.003905 -0.003284 -0.007370 -0.048292 
1.9175000000000000 0.290405 -0.513916 0.001520 -0.004974 0.003706 -0.003817 -0.009413 -0.047321 
1.9187500000000000 0.250000 -0.516754 0.001028 -0.005090 0.003221 -0.004171 -0.011122 -0.046272 
1.9199999999999999 0.212036 -0.515656 0.000945 -0.004950 0.002981 -0.004421 -0.013142 -0.045259 
1.9212499999999999 0.176483 -0.513519 0.000322 -0.004653 0.002523 -0.004534 -0.014812 -0.043388 
1.9225000000000001 0.143280 -0.510498 -0.000114 -0.004447 0.001646 -0.004776 -0.016905 -0.041508 
1.9237500000000001 0.110321 -0.507263 -0.000577 -0.004390 0.001302 -0.005116 -0.018370 -0.040026 
1.9250000000000000 0.080902 -0.501862 -0.000943 -0.004054 0.000748 -0.005108 -0.020187 -0.037853 
1.9262500000000000 0.052002 -0.494812 -0.001024 -0.003915 0.000293 -0.005298 -0.022427 -0.035503 
1.9275000000000000 0.026306 -0.489105 -0.001390 -0.004085 0.000070 -0.005309 -0.024521 -0.033401 
1.9287500000000000 0.000336 -0.480743 -0.001678 -0.003690 -0.000690 -0.004883 -0.026489 -0.031384 
1.9299999999999999 -0.022400 -0.471893 -0.001753 -0.003351 -0.000829 -0.005045 -0.028625 -0.029564 
1.9312499999999999 -0.044952 -0.463440 -0.002012 -0.003317 -0.001375 -0.004605 -0.030609 -0.028191 
1.9325000000000001 -0.068024 -0.453705 -0.002200 -0.003087 -0.002102 -0.004668 -0.032333 -0.026562 
1.9337500000000001 -0.088013 -0.443619 -0.002363 -0.002760 -0.002453 -0.004348 -0.033579 -0.025160 
1.9350000000000001 -0.109375 -0.432694 -0.002603 -0.002527 -0.002977 -0.004179 -0.034666 -0.023899 
1.9362500000000000 -0.128555 -0.421692 -0.002799 -0.002463 -0.003106 -0.003973 -0.034876 -0.022579 
1.9375000000000000 -0.147537 -0.411041 -0.002830 -0.002282 -0.003459 -0.003525 -0.035704 -0.020794 
1.9387500000000000 -0.165588 -0.399170 -0.003003 -0.001847 -0.003995 -0.003014 -0.036461 -0.019096 
1.9399999999999999 -0.183991 -0.387054 -0.002955 -0.001758 -0.004117 -0.003028 -0.036858 -0.016645 
1.9412499999999999 -0.200195 -0.375336 -0.003179 -0.001356 -0.004246 -0.002385 -0.037830 -0.014601 
1.9424999999999999 -0.216461 -0.363907 -0.003374 -0.001377 -0.004490 -0.001868 -0.038260 -0.011963 
1.9437500000000001 -0.233215 -0.350006 -0.003294 -0.001132 -0.004591 -0.001662 -0.039534 -0.010012 
1.9450000000000001 -0.248505 -0.335922 -0.003391 -0.000765 -0.004727 -0.001182 -0.040644 -0.008556 
1.9462500000000000 -0.263657 -0.322891 -0.003387 -0.000645 -0.004510 -0.000828 -0.042095 -0.006493 
1.9475000000000000 -0.278183 -0.308044 -0.003373 -0.000343 -0.004702 -0.000553 -0.043022 -0.005739 
1.9487500000000000 -0.292984 -0.293579 -0.003450 -0.000001 -0.005056 -0.000183 -0.044615 -0.004845 
1.9500000000000000 -0.305786 -0.278732 -0.003444 0.000036 -0.005085 0.000535 -0.045254 -0.003803 
1.9512499999999999 -0.320267 -0.263611 -0.003445 0.000503 -0.004331 0.001045 -0.046103 -0.002979 
1.9524999999999999 -0.333649 -0.246002 -0.003517 0.000718 -0.005049 0.001014 -0.046625 -0.002426 
1.9537500000000001 -0.347061 -0.230438 -0.003557 0.000897 -0.004700 0.001820 -0.046724 -0.001696 
1.9550000000000001 -0.358704 -0.212173 -0.003190 0.001110 -0.004563 0.002298 -0.047335 -0.000154 
1.9562500000000000 -0.370392 -0.193436 -0.003371 0.001403 -0.004300 0.002606 -0.047678 0.001162 
1.9575000000000000 -0.383682 -0.174362 -0.003338 0.001776 -0.003861 0.003076 -0.048630 0.002203 
1.9587500000000000 -0.394989 -0.152695 -0.003164 0.001939 -0.003646 0.002912 -0.049271 0.004137 
1.9600000000000000 -0.405304 -0.131714 -0.002951 0.002402 -0.003454 0.003726 -0.050789 0.005272 
1.9612499999999999 -0.417206 -0.109772 -0.002687 0.002498 -0.003101 0.003910 -0.051983 0.006786 
1.9624999999999999 -0.427643 -0.086487 -0.002598 0.002472 -0.002711 0.004113 -0.053623 0.008602 
1.9637500000000001 -0.438324 -0.061981 -0.002616 0.002824 -0.002209 0.004420 -0.055145 0.009796 
1.9650000000000001 -0.447571 -0.034424 -0.002456 0.003113 -0.001977 0.004638 -0.056747 0.010487 
1.9662500000000001 -0.456360 -0.006897 -0.002101 0.003379 -0.001327 0.004966 -0.058109 0.011593 
1.9675000000000000 -0.462524 0.021454 -0.002043 0.003542 -0.000899 0.004720 -0.059378 0.013340 
1.9687500000000000 -0.470291 0.054657 -0.001799 0.003863 -0.000312 0.004978 -0.060665 0.014189 
1.9700000000000000 -0.477356 0.089157 -0.001625 0.003835 0.000133 0.004979 -0.061672 0.015579 
1.9712499999999999 -0.481903 0.126282 -0.001152 0.004519 0.000484 0.004705 -0.062565 0.017574 
1.9724999999999999 -0.482544 0.164886 -0.000830 0.004462 0.000901 0.004804 -0.063095 0.019943 
1.9737499999999999 -0.483536 0.207001 -0.000629 0.004673 0.001587 0.004621 -0.064236 0.022221 
1.9750000000000001 -0.480896 0.251846 -0.000083 0.004711 0.001773 0.004246 -0.065540 0.024990 
1.9762500000000001 -0.477539 0.300110 0.000423 0.004985 0.002361 0.004205 -0.066853 0.027687 
1.9775000000000000 -0.468750 0.348145 0.000850 0.005248 0.002463 0.003890 -0.068504 0.030575 
1.9787500000000000 -0.453491 0.402649 0.001089 0.005181 0.003365 0.004086 -0.069996 0.032989 
1.9800000000000000 -0.431702 0.460388 0.002136 0.004914 0.003459 0.003655 -0.071423 0.035892 
1.9812500000000000 -0.402222 0.523132 0.002351 0.004970 0.003512 0.003066 -0.072758 0.038250 
1.9824999999999999 -0.363220 0.585877 0.003000 0.004989 0.003821 0.002687 -0.073399 0.040756 
1.9837499999999999 -0.314392 0.646729 0.003882 0.004620 0.003803 0.002018 -0.074127 0.043148 
1.9850000000000001 -0.251526 0.712524 0.004268 0.004796 0.003935 0.002021 -0.074398 0.045727 
1.9862500000000001 -0.174316 0.772522 0.005485 0.004391 0.004262 0.001698 -0.074631 0.048813 
1.9875000000000000 -0.080444 0.828064 0.006207 0.003748 0.004121 0.001299 -0.073917 0.051723 
1.9887500000000000 0.030273 0.864441 0.007092 0.002633 0.004484 0.000530 -0.073532 0.055489 
1.9900000000000000 0.158508 0.886475 0.007277 0.002124 0.004617 0.000512 -0.072857 0.059177 
1.9912500000000000 0.293030 0.885559 0.007591 0.000771 0.004603 -0.000553 -0.072330 0.062958 
1.9924999999999999 0.433044 0.847473 0.007869 -0.000460 0.004110 -0.000444 -0.072071 0.066677 
1.9937499999999999 0.563721 0.790466 0.007396 -0.001850 0.004284 -0.000962 -0.071514 0.070614 
1.9950000000000001 0.688721 0.693787 0.007333 -0.002793 0.004240 -0.001320 -0.071114 0.074150 
1.9962500000000001 0.790710 0.571106 0.006107 -0.003721 0.003571 -0.001562 -0.070141 0.077587 
1.9975000000000001 0.859741 0.444458 0.005757 -0.004927 0.003565 -0.001571 -0.069859 0.081013 
1.9987500000000000 0.893250 0.304993 0.004572 -0.005367 0.003764 -0.001916 -0.068779 0.083477 
2.0000000000000000 0.903442 0.177734 0.003977 -0.005620 0.003546 -0.002084 -0.067234 0.086132 
2.0012500000000002 0.885376 0.050659 0.003235 -0.005669 0.003336 -0.002593 -0.064972 0.088730 
2.0024999999999999 0.857361 -0.061584 0.002021 -0.005989 0.002949 -0.003008 -0.063206 0.091316 
2.0037500000000001 0.809509 -0.153870 0.001199 -0.005888 0.002681 -0.003131 -0.060474 0.094288 
2.0049999999999999 0.755493 -0.234985 0.000115 -0.005521 0.002334 -0.003503 -0.057838 0.096657 
2.0062500000000001 0.694488 -0.298218 -0.000144 -0.005642 0.001935 -0.003869 -0.055115 0.100018 
2.0074999999999998 0.636261 -0.353638 -0.000841 -0.004936 0.001942 -0.003985 -0.052464 0.103081 
2.0087500000000000 0.573944 -0.389374 -0.001199 -0.004928 0.001670 -0.004177 -0.050129 0.105518 
2.0099999999999998 0.517273 -0.421509 -0.001535 -0.004468 0.000697 -0.004452 -0.047714 0.107945 
2.0112500000000000 0.461670 -0.445007 -0.001538 -0.003608 0.000500 -0.004448 -0.045532 0.110107 
2.0125000000000002 0.409821 -0.464081 -0.002061 -0.003671 0.000069 -0.004442 -0.043461 0.112324 
2.0137499999999999 0.362778 -0.474457 -0.002369 -0.003223 -0.000372 -0.004041 -0.041149 0.113712 
2.0150000000000001 0.316376 -0.485794 -0.002478 -0.002858 -0.000613 -0.004168 -0.038872 0.114662 
2.0162499999999999 0.273651 -0.490189 -0.002487 -0.002737 -0.001308 -0.004162 -0.036236 0.115353 
2.0175000000000001 0.234360 -0.490799 -0.002722 -0.002182 -0.001483 -0.004169 -0.033558 0.116363 
2.0187499999999998 0.198273 -0.491119 -0.002673 -0.002161 -0.002018 -0.003769 -0.031494 0.117386 
2.0200000000000000 0.161926 -0.488495 -0.002623 -0.001806 -0.002159 -0.003693 -0.027939 0.116779 
2.0212500000000002 0.128082 -0.485153 -0.002996 -0.001584 -0.002212 -0.003462 -0.025833 0.118240 
2.0225000000000000 0.098358 -0.479797 -0.002788 -0.001289 -0.002667 -0.003112 -0.022648 0.118855 
2.0237500000000002 0.069214 -0.474823 -0.002679 -0.001144 -0.003043 -0.002805 -0.020523 0.119652 
2.0249999999999999 0.041016 -0.468018 -0.002618 -0.001010 -0.002823 -0.002561 -0.018166 0.120461 
2.0262500000000001 0.016968 -0.459320 -0.002575 -0.000631 -0.003260 -0.002146 -0.016548 0.121765 
2.0274999999999999 -0.006836 -0.451050 -0.002733 -0.000404 -0.003657 -0.001741 -0.014717 0.121941 
2.0287500000000001 -0.030945 -0.443359 -0.002828 -0.000235 -0.003585 -0.001956 -0.013901 0.122810 
2.0299999999999998 -0.052277 -0.432465 -0.002646 -0.000242 -0.003499 -0.001503 -0.012665 0.123055 
2.0312500000000000 -0.075012 -0.423157 -0.002387 0.000093 -0.003726 -0.000788 -0.011543 0.123161 
2.0325000000000002 -0.094269 -0.413269 -0.002518 0.000392 -0.003661 -0.000599 -0.010200 0.122688 
2.0337499999999999 -0.113709 -0.402435 -0.002389 0.000435 -0.003681 -0.000022 -0.009247 0.123421 
2.0350000000000001 -0.132568 -0.391113 -0.002268 0.000448 -0.003772 0.000034 -0.008293 0.123283 
2.0362499999999999 -0.150360 -0.379791 -0.002358 0.000570 -0.003509 0.000611 -0.007149 0.123329 
2.0375000000000001 -0.166717 -0.369171 -0.002396 0.000641 -0.003539 0.000787 -0.005135 0.123680 
2.0387499999999998 -0.182953 -0.359528 -0.002123 0.000979 -0.003514 0.001292 -0.004227 0.124962 
2.0400000000000000 -0.197967 -0.346588 -0.002009 0.001131 -0.003495 0.001379 -0.002769 0.125725 
2.0412499999999998 -0.213104 -0.333862 -0.001985 0.001244 -0.003253 0.001381 -0.001526 0.126999 
2.0425000000000000 -0.226746 -0.320557 -0.002032 0.001254 -0.003052 0.001981 -0.000923 0.128166 
2.0437500000000002 -0.241150 -0.309662 -0.001959 0.001499 -0.002964 0.002134 0.000122 0.129517 
2.0449999999999999 -0.254486 -0.295471 -0.001683 0.001475 -0.002908 0.002356 0.000954 0.130783 
2.0462500000000001 -0.266815 -0.280518 -0.001493 0.001752 -0.002696 0.002496 0.002045 0.132645 
2.0474999999999999 -0.279602 -0.268066 -0.001500 0.001639 -0.002113 0.002502 0.002815 0.133553 
2.0487500000000001 -0.292938 -0.252289 -0.001402 0.001622 -0.002218 0.002786 0.004517 0.135223 
2.0499999999999998 -0.304748 -0.237366 -0.001188 0.001815 -0.001723 0.002774 0.006340 0.136414 
2.0512500000000000 -0.316193 -0.221863 -0.001163 0.001952 -0.001712 0.003087 0.008171 0.137329 
2.0525000000000002 -0.328430 -0.206207 -0.001085 0.001938 -0.001537 0.003122 0.010490 0.138611 
2.0537500000000000 -0.338196 -0.188995 -0.001059 0.002040 -0.000834 0.003486 0.012634 0.140602 
2.0550000000000002 -0.349670 -0.171509 -0.000877 0.002323 -0.000703 0.003374 0.015434 0.142578 
2.0562499999999999 -0.360474 -0.152222 -0.000677 0.002180 -0.000558 0.003348 0.018005 0.144394 
2.0575000000000001 -0.369141 -0.133575 -0.000694 0.002263 -0.000327 0.003669 0.021072 0.146576 
2.0587499999999999 -0.380554 -0.114105 -0.000457 0.002438 -0.000093 0.003654 0.023590 0.148422 
2.0600000000000001 -0.390442 -0.092529 -0.000136 0.002383 0.000364 0.003646 0.026749 0.150391 
2.0612499999999998 -0.399200 -0.070679 -0.000105 0.002394 0.000509 0.003479 0.029648 0.151901 
2.0625000000000000 -0.406433 -0.046249 0.000007 0.002541 0.000887 0.003131 0.032852 0.152985 
2.0637500000000002 -0.414322 -0.022949 0.000152 0.002705 0.001431 0.002885 0.036514 0.153351 
2.0649999999999999 -0.420761 0.002640 0.000626 0.002692 0.001507 0.003327 0.040070 0.154236 
2.0662500000000001 -0.428299 0.031616 0.000722 0.002644 0.002008 0.002879 0.043487 0.154373 
2.0674999999999999 -0.434494 0.059891 0.000748 0.002604 0.002091 0.002672 0.047974 0.154297 
2.0687500000000001 -0.438141 0.089401 0.000925 0.002645 0.002220 0.002476 0.052963 0.154228 
2.0699999999999998 -0.441864 0.124008 0.001237 0.002378 0.002652 0.002701 0.058037 0.154106 
2.0712500000000000 -0.441925 0.157959 0.001488 0.002547 0.002481 0.002425 0.063889 0.153091 
2.0724999999999998 -0.442078 0.194855 0.001534 0.002735 0.002877 0.001995 0.068512 0.152496 
2.0737500000000000 -0.438690 0.235321 0.001836 0.002589 0.003333 0.001625 0.073929 0.152222 
2.0750000000000002 -0.430328 0.277039 0.001997 0.002409 0.003303 0.001612 0.079651 0.151077 
2.0762499999999999 -0.421112 0.322418 0.002498 0.002309 0.003392 0.001002 0.084015 0.149384 
2.0775000000000001 -0.407196 0.371338 0.002753 0.001889 0.003458 0.000849 0.088226 0.148209 
2.0787499999999999 -0.383698 0.420319 0.002823 0.001709 0.003611 0.000687 0.093109 0.145935 
2.0800000000000001 -0.358810 0.473267 0.003510 0.001673 0.003496 0.000126 0.097321 0.143700 
2.0812499999999998 -0.323334 0.531677 0.003628 0.001284 0.003621 0.000034 0.101395 0.140503 
2.0825000000000000 -0.273987 0.582550 0.003561 0.000951 0.003578 -0.000532 0.105820 0.137573 
2.0837500000000002 -0.220276 0.640228 0.004143 0.001315 0.003380 -0.000762 0.110519 0.133057 
2.0850000000000000 -0.148224 0.692902 0.004453 0.000586 0.003030 -0.001079 0.115006 0.129379 
2.0862500000000002 -0.065186 0.736023 0.004893 -0.000600 0.003161 -0.001276 0.119278 0.125794 
2.0874999999999999 0.032471 0.773743 0.004874 -0.000930 0.003097 -0.001674 0.123200 0.121491 
2.0887500000000001 0.144592 0.789978 0.005079 -0.001209 0.002938 -0.002016 0.126778 0.117645 
2.0899999999999999 0.268555 0.784180 0.005100 -0.002401 0.002514 -0.002174 0.130478 0.113419 
2.0912500000000001 0.387329 0.763061 0.004313 -0.003119 0.002252 -0.002329 0.133301 0.109650 
2.0924999999999998 0.513611 0.711548 0.004128 -0.003489 0.002513 -0.002444 0.135803 0.106072 
2.0937500000000000 0.629211 0.627380 0.003004 -0.004247 0.001934 -0.002334 0.137444 0.101334 
2.0950000000000002 0.714966 0.515747 0.002621 -0.004766 0.001840 -0.002829 0.139786 0.097305 
2.0962499999999999 0.780487 0.405090 0.002093 -0.004649 0.001929 -0.002940 0.140533 0.092621 
2.0975000000000001 0.814667 0.282623 0.001367 -0.004811 0.001660 -0.003266 0.141434 0.088112 
2.0987499999999999 0.825439 0.156250 0.000739 -0.005094 0.001128 -0.003218 0.142624 0.083862 
2.1000000000000001 0.815125 0.042053 -0.000157 -0.004801 0.001103 -0.003023 0.143051 0.078323 
2.1012499999999998 0.783508 -0.056580 -0.000438 -0.004638 0.001023 -0.003333 0.143707 0.074173 
2.1025000000000000 0.739868 -0.148010 -0.001469 -0.004569 0.000605 -0.003646 0.143921 0.069961 
2.1037499999999998 0.693848 -0.217712 -0.001423 -0.004011 0.000097 -0.003862 0.144898 0.066055 
2.1050000000000000 0.636780 -0.283203 -0.002175 -0.004019 -0.000105 -0.004135 0.145401 0.061768 
2.1062500000000002 0.582123 -0.328827 -0.002334 -0.003084 -0.000469 -0.004139 0.145325 0.058578 
2.1074999999999999 0.526398 -0.365723 -0.002700 -0.002982 -0.000975 -0.003582 0.144997 0.055366 
2.1087500000000001 0.472702 -0.395340 -0.002725 -0.002660 -0.001491 -0.003872 0.144501 0.051926 
2.1099999999999999 0.419907 -0.416275 -0.002732 -0.002230 -0.001969 -0.003803 0.144234 0.049141 
2.1112500000000001 0.371246 -0.431427 -0.002694 -0.002164 -0.001954 -0.003498 0.143997 0.046944 
2.1124999999999998 0.324173 -0.442261 -0.002947 -0.001381 -0.002417 -0.003226 0.142540 0.043312 
2.1137500000000000 0.280533 -0.451462 -0.002723 -0.001324 -0.002772 -0.002848 0.141983 0.041145 
2.1150000000000002 0.239395 -0.453949 -0.002980 -0.000958 -0.002782 -0.002416 0.140511 0.037689 
2.1162500000000000 0.202194 -0.455597 -0.002710 -0.000443 -0.003158 -0.001558 0.140068 0.035034 
2.1175000000000002 0.166367 -0.454697 -0.002773 -0.000645 -0.003316 -0.001578 0.139549 0.032684 
2.1187499999999999 0.134064 -0.451981 -0.002635 -0.000565 -0.003505 -0.001050 0.139038 0.029671 
2.1200000000000001 0.102341 -0.448700 -0.002801 -0.000300 -0.003522 -0.000956 0.139000 0.027939 
2.1212499999999999 0.074402 -0.442261 -0.002598 0.000084 -0.003861 -0.000541 0.138725 0.025818 
2.1225000000000001 0.046555 -0.435196 -0.002685 0.000438 -0.003895 -0.000194 0.138824 0.023727 
2.1237499999999998 0.021896 -0.428268 -0.002459 0.000313 -0.003710 0.000082 0.138367 0.022171 
2.1250000000000000 -0.003082 -0.420364 -0.002601 0.000566 -0.003490 0.000089 0.137779 0.020081 
2.1262500000000002 -0.026428 -0.411911 -0.002206 0.000916 -0.003087 0.000535 0.137535 0.019241 
2.1274999999999999 -0.046433 -0.403015 -0.002343 0.000922 -0.002979 0.000798 0.137268 0.017578 
2.1287500000000001 -0.067917 -0.392532 -0.002133 0.001080 -0.003170 0.001102 0.136490 0.015625 
2.1299999999999999 -0.086060 -0.385346 -0.001876 0.001218 -0.003000 0.001441 0.135658 0.013580 
2.1312500000000001 -0.104309 -0.372635 -0.002104 0.001253 -0.002892 0.001701 0.135307 0.011017 
2.1324999999999998 -0.122253 -0.363312 -0.001795 0.001312 -0.002784 0.001947 0.134430 0.009666 
2.1337500000000000 -0.137787 -0.351990 -0.001780 0.001423 -0.002816 0.002272 0.134285 0.006279 
2.1349999999999998 -0.153351 -0.341736 -0.001669 0.001732 -0.002264 0.002344 0.134071 0.004082 
2.1362500000000000 -0.168457 -0.329925 -0.001609 0.001856 -0.002327 0.001956 0.134850 0.001785 
2.1375000000000002 -0.183350 -0.317749 -0.001500 0.001972 -0.001727 0.002764 0.134544 -0.000473 
2.1387499999999999 -0.197174 -0.305206 -0.001327 0.001910 -0.001625 0.002830 0.134193 -0.002556 
2.1400000000000001 -0.210846 -0.291992 -0.001477 0.002167 -0.001219 0.002947 0.133789 -0.005051 
2.1412499999999999 -0.223785 -0.279388 -0.001086 0.002005 -0.001006 0.003081 0.133431 -0.006912 
2.1425000000000001 -0.237640 -0.265595 -0.001001 0.002191 -0.001041 0.003304 0.132958 -0.009216 
2.1437499999999998 -0.248596 -0.253662 -0.000728 0.002125 -0.000915 0.003354 0.132187 -0.011887 
2.1450000000000000 -0.260071 -0.238373 -0.000662 0.002237 -0.000364 0.003186 0.130600 -0.013893 
2.1462500000000002 -0.271698 -0.224213 -0.000497 0.002273 -0.000014 0.003321 0.129219 -0.016640 
2.1475000000000000 -0.283081 -0.209808 -0.000284 0.002306 0.000376 0.003019 0.127831 -0.019684 
2.1487500000000002 -0.292633 -0.193451 -0.000249 0.002236 0.000614 0.003208 0.126602 -0.022491 
2.1499999999999999 -0.303864 -0.177063 -0.000303 0.002303 0.000540 0.003188 0.124535 -0.026176 
2.1512500000000001 -0.313477 -0.161285 0.000208 0.002218 0.001108 0.003052 0.123344 -0.028854 
