!
! C:\Users\rflab\Downloads\Lab5_KD_ZW\20.S2P
!
! Touchstone 1.1 file saved by VNA.EXE V1.65 (www.ke5fx.com/gpib/readme.htm)
! 11/11/2024 11:36:30 PM
!
!    Source: HEWLETT PACKARD,8753D,0,6.14
!  Min freq: 1.900000E+009 Hz
!  Max freq: 2.900000E+009 Hz
!    Points: 801
!    Params: S11 S21 S12 S22
!
!!!!!
# GHZ S RI R 50
1.8999999999999999 0.957458 0.273682 -0.026377 0.017864 -0.015717 0.006984 0.025820 -0.057253 
1.9012500000000001 0.952393 0.147827 -0.023409 0.020712 -0.015127 0.007913 0.023071 -0.057617 
1.9025000000000001 0.930176 0.023865 -0.019619 0.022509 -0.014431 0.009137 0.021328 -0.058266 
1.9037500000000001 0.889832 -0.085999 -0.016115 0.024025 -0.014047 0.010269 0.018644 -0.058290 
1.9050000000000000 0.841522 -0.175873 -0.011992 0.024735 -0.013492 0.011343 0.016874 -0.058104 
1.9062500000000000 0.782959 -0.252960 -0.008938 0.025783 -0.012562 0.012571 0.014303 -0.057705 
1.9075000000000000 0.725159 -0.316132 -0.005598 0.024789 -0.011552 0.014182 0.012186 -0.057034 
1.9087499999999999 0.665833 -0.366577 -0.002911 0.024632 -0.010311 0.015256 0.009148 -0.056206 
1.9099999999999999 0.603912 -0.405792 -0.000108 0.023262 -0.009044 0.016526 0.006491 -0.055210 
1.9112499999999999 0.549408 -0.439056 0.001733 0.022100 -0.007472 0.017278 0.003334 -0.054008 
1.9125000000000001 0.491364 -0.465057 0.003763 0.021197 -0.005661 0.017816 0.000519 -0.053190 
1.9137500000000001 0.439041 -0.483398 0.005532 0.019884 -0.004354 0.018319 -0.002924 -0.052610 
1.9150000000000000 0.390808 -0.496262 0.006730 0.018911 -0.002688 0.018608 -0.005682 -0.051746 
1.9162500000000000 0.342957 -0.506409 0.008115 0.017560 -0.001399 0.019178 -0.008606 -0.050827 
1.9175000000000000 0.301697 -0.511780 0.009089 0.016654 0.000659 0.019401 -0.010696 -0.049421 
1.9187500000000000 0.260406 -0.516419 0.010064 0.015573 0.002661 0.019594 -0.012751 -0.048761 
1.9199999999999999 0.223206 -0.515503 0.010863 0.014111 0.004924 0.019182 -0.015223 -0.047190 
1.9212499999999999 0.186493 -0.513580 0.011963 0.012922 0.007033 0.018851 -0.017570 -0.045820 
1.9225000000000001 0.152252 -0.511536 0.012679 0.011673 0.008710 0.017821 -0.019032 -0.043600 
1.9237500000000001 0.118774 -0.508514 0.013199 0.010309 0.009971 0.017179 -0.020496 -0.041985 
1.9250000000000000 0.089233 -0.502899 0.013782 0.009098 0.011410 0.016005 -0.022785 -0.039215 
1.9262500000000000 0.060120 -0.497345 0.013945 0.007838 0.012512 0.014883 -0.024685 -0.036854 
1.9275000000000000 0.034912 -0.490845 0.014248 0.006641 0.014071 0.013491 -0.026634 -0.034229 
1.9287500000000000 0.007172 -0.484253 0.014280 0.005293 0.015175 0.012108 -0.028824 -0.032009 
1.9299999999999999 -0.015533 -0.475250 0.014290 0.004190 0.016209 0.011024 -0.030842 -0.029873 
1.9312499999999999 -0.038147 -0.466583 0.014442 0.003296 0.017160 0.009476 -0.032471 -0.028194 
1.9325000000000001 -0.061554 -0.456970 0.014128 0.002351 0.018147 0.007841 -0.034615 -0.026443 
1.9337500000000001 -0.082993 -0.445663 0.014287 0.001305 0.018809 0.005948 -0.035530 -0.024555 
1.9350000000000001 -0.103500 -0.435608 0.014347 0.000430 0.019185 0.004459 -0.036629 -0.022934 
1.9362500000000000 -0.122635 -0.425293 0.014207 -0.000378 0.019213 0.002509 -0.036718 -0.021072 
1.9375000000000000 -0.142441 -0.415283 0.014035 -0.001447 0.019113 0.000859 -0.037567 -0.019087 
1.9387500000000000 -0.159653 -0.403366 0.014014 -0.002275 0.019279 -0.000443 -0.037752 -0.017309 
1.9399999999999999 -0.178085 -0.391876 0.013752 -0.003519 0.019187 -0.002600 -0.038031 -0.015154 
1.9412499999999999 -0.195267 -0.380493 0.013315 -0.004083 0.018955 -0.004026 -0.038805 -0.012823 
1.9424999999999999 -0.210831 -0.367752 0.012824 -0.005212 0.018784 -0.005786 -0.039213 -0.010540 
1.9437500000000001 -0.227020 -0.353394 0.012492 -0.005960 0.018329 -0.007113 -0.039591 -0.008299 
1.9450000000000001 -0.243805 -0.340546 0.012105 -0.006813 0.017644 -0.008792 -0.040442 -0.006296 
1.9462500000000000 -0.258911 -0.327347 0.011678 -0.007459 0.016754 -0.010204 -0.041733 -0.004545 
1.9475000000000000 -0.273529 -0.313003 0.011240 -0.008362 0.015906 -0.011559 -0.042259 -0.003330 
1.9487500000000000 -0.288437 -0.298721 0.010661 -0.009078 0.014730 -0.013015 -0.043196 -0.002361 
1.9500000000000000 -0.301285 -0.283951 0.010118 -0.009976 0.013594 -0.014184 -0.044050 -0.001225 
1.9512499999999999 -0.316376 -0.268662 0.009437 -0.010635 0.012610 -0.015342 -0.044577 -0.000937 
1.9524999999999999 -0.328919 -0.250885 0.009025 -0.011477 0.011124 -0.016633 -0.044577 -0.000174 
1.9537500000000001 -0.342667 -0.235016 0.008114 -0.012226 0.009691 -0.017797 -0.044426 0.000648 
1.9550000000000001 -0.354736 -0.217056 0.007309 -0.012990 0.007944 -0.018670 -0.045198 0.001793 
1.9562500000000000 -0.366684 -0.198456 0.006459 -0.013521 0.006391 -0.019442 -0.045353 0.002649 
1.9575000000000000 -0.380051 -0.179169 0.005486 -0.014333 0.004274 -0.020073 -0.046221 0.003811 
1.9587500000000000 -0.391403 -0.158249 0.004515 -0.014683 0.002817 -0.020496 -0.046473 0.005110 
1.9600000000000000 -0.402496 -0.137878 0.003366 -0.015210 0.000841 -0.020781 -0.047314 0.006357 
1.9612499999999999 -0.414123 -0.115326 0.002701 -0.015591 -0.000904 -0.020887 -0.048710 0.007357 
1.9624999999999999 -0.424255 -0.092896 0.001359 -0.015831 -0.002829 -0.020704 -0.050194 0.008549 
1.9637500000000001 -0.435516 -0.068207 0.000457 -0.016349 -0.004686 -0.020622 -0.051664 0.009655 
1.9650000000000001 -0.445435 -0.040863 -0.000684 -0.016527 -0.006462 -0.020279 -0.053284 0.010401 
1.9662500000000001 -0.453125 -0.013062 -0.001810 -0.017016 -0.008751 -0.019510 -0.054802 0.010921 
1.9675000000000000 -0.461212 0.015839 -0.003168 -0.017254 -0.010229 -0.018650 -0.056519 0.012201 
1.9687500000000000 -0.467834 0.047882 -0.004297 -0.017653 -0.012020 -0.017338 -0.057655 0.013128 
1.9700000000000000 -0.475235 0.082611 -0.006037 -0.018105 -0.013689 -0.016455 -0.058760 0.014069 
1.9712499999999999 -0.479355 0.119614 -0.007631 -0.018076 -0.015153 -0.015099 -0.060055 0.015604 
1.9724999999999999 -0.483490 0.155701 -0.009613 -0.017769 -0.016565 -0.013964 -0.061388 0.017864 
1.9737499999999999 -0.482483 0.198151 -0.011441 -0.017575 -0.017599 -0.012503 -0.062490 0.019707 
1.9750000000000001 -0.482208 0.242371 -0.013570 -0.017169 -0.018719 -0.010727 -0.063850 0.021996 
1.9762500000000001 -0.477203 0.288544 -0.015497 -0.016748 -0.020061 -0.009052 -0.066093 0.025127 
1.9775000000000000 -0.468933 0.340759 -0.017603 -0.015512 -0.020746 -0.007479 -0.067822 0.027161 
1.9787500000000000 -0.454590 0.391541 -0.019529 -0.014301 -0.021666 -0.005014 -0.069653 0.029972 
1.9800000000000000 -0.431763 0.448486 -0.021278 -0.013124 -0.022074 -0.003050 -0.071266 0.032673 
1.9812500000000000 -0.405701 0.511475 -0.023975 -0.011372 -0.022001 -0.000956 -0.072865 0.034985 
1.9824999999999999 -0.368835 0.573792 -0.025826 -0.009773 -0.021614 0.000918 -0.073952 0.037476 
1.9837499999999999 -0.322510 0.635681 -0.028212 -0.007059 -0.021695 0.003178 -0.074867 0.039665 
1.9850000000000001 -0.258911 0.700806 -0.029885 -0.004025 -0.021147 0.005079 -0.075947 0.042961 
1.9862500000000001 -0.185791 0.760254 -0.031916 -0.000437 -0.020351 0.007114 -0.076649 0.045593 
1.9875000000000000 -0.094727 0.815369 -0.033758 0.003778 -0.019768 0.008852 -0.076302 0.048805 
1.9887500000000000 0.014038 0.858276 -0.033548 0.008717 -0.018783 0.010795 -0.076248 0.052898 
1.9900000000000000 0.138001 0.877808 -0.033573 0.014366 -0.018011 0.011887 -0.076324 0.056351 
1.9912500000000000 0.264771 0.885254 -0.032194 0.019743 -0.016238 0.013675 -0.075264 0.060390 
1.9924999999999999 0.410217 0.856628 -0.029160 0.025278 -0.015265 0.015089 -0.075062 0.064331 
1.9937499999999999 0.539795 0.800537 -0.025337 0.029526 -0.013747 0.015884 -0.075191 0.068470 
1.9950000000000001 0.666809 0.707825 -0.020588 0.033386 -0.011922 0.017022 -0.074715 0.072136 
1.9962500000000001 0.767395 0.591675 -0.014748 0.035831 -0.010792 0.017757 -0.074310 0.076073 
1.9975000000000001 0.843140 0.468750 -0.008797 0.036259 -0.009759 0.018567 -0.073738 0.079212 
1.9987500000000000 0.883606 0.328857 -0.002653 0.036634 -0.008101 0.019475 -0.072727 0.082825 
2.0000000000000000 0.900635 0.200073 0.001944 0.035784 -0.006715 0.020313 -0.070969 0.086025 
2.0012500000000002 0.889832 0.069641 0.006620 0.034004 -0.004981 0.021148 -0.069508 0.088043 
2.0024999999999999 0.858460 -0.041809 0.010908 0.031254 -0.003384 0.021624 -0.067268 0.091499 
2.0037500000000001 0.813477 -0.137329 0.014061 0.028656 -0.001014 0.022251 -0.064438 0.094864 
2.0049999999999999 0.759705 -0.217957 0.016455 0.026037 0.000909 0.022400 -0.061996 0.097954 
2.0062500000000001 0.702820 -0.285828 0.018539 0.022347 0.003015 0.022745 -0.059330 0.100586 
2.0074999999999998 0.647247 -0.342285 0.020196 0.019621 0.005102 0.022111 -0.055954 0.103821 
2.0087500000000000 0.585693 -0.384522 0.020796 0.016747 0.007149 0.022202 -0.053455 0.106918 
2.0099999999999998 0.528503 -0.416412 0.021458 0.013809 0.009253 0.021373 -0.050606 0.109600 
2.0112500000000000 0.472351 -0.439819 0.021599 0.011020 0.011551 0.021112 -0.048695 0.111782 
2.0125000000000002 0.422058 -0.460052 0.021461 0.008759 0.013942 0.019738 -0.045956 0.113991 
2.0137499999999999 0.372742 -0.473587 0.021224 0.006393 0.015840 0.018000 -0.043060 0.115814 
2.0150000000000001 0.326630 -0.482498 0.020748 0.004643 0.017448 0.016093 -0.040447 0.117397 
2.0162499999999999 0.283981 -0.489578 0.020243 0.002958 0.019060 0.014338 -0.038776 0.118176 
2.0175000000000001 0.242081 -0.491333 0.019993 0.001449 0.020375 0.012383 -0.035046 0.118164 
2.0187499999999998 0.205887 -0.492035 0.019211 -0.000151 0.021132 0.010425 -0.032185 0.118786 
2.0200000000000000 0.170044 -0.489288 0.018632 -0.001476 0.022174 0.008633 -0.028519 0.119896 
2.0212500000000002 0.136124 -0.487289 0.018173 -0.002921 0.022589 0.006573 -0.026051 0.120201 
2.0225000000000000 0.106323 -0.482712 0.017611 -0.004130 0.022747 0.004602 -0.022564 0.120812 
2.0237500000000002 0.077850 -0.476898 0.016974 -0.005335 0.023321 0.002487 -0.020355 0.120865 
2.0249999999999999 0.049133 -0.472199 0.016076 -0.006491 0.023722 0.000031 -0.017296 0.121635 
2.0262500000000001 0.022980 -0.462707 0.015386 -0.007493 0.023407 -0.002167 -0.015327 0.122635 
2.0274999999999999 -0.000549 -0.454224 0.014396 -0.008372 0.023116 -0.004356 -0.012917 0.122604 
2.0287500000000001 -0.024872 -0.446075 0.013520 -0.009323 0.022819 -0.006663 -0.011703 0.123268 
2.0299999999999998 -0.046661 -0.436432 0.012881 -0.009803 0.021879 -0.008755 -0.010185 0.123413 
2.0312500000000000 -0.068542 -0.427918 0.011605 -0.010496 0.020407 -0.010284 -0.009270 0.122734 
2.0325000000000002 -0.087372 -0.417511 0.011077 -0.011024 0.019630 -0.012148 -0.008003 0.122749 
2.0337499999999999 -0.108673 -0.406097 0.010170 -0.011467 0.018408 -0.013766 -0.006828 0.122711 
2.0350000000000001 -0.127838 -0.396393 0.009177 -0.012114 0.017050 -0.015296 -0.006241 0.122215 
2.0362499999999999 -0.144989 -0.384888 0.008533 -0.012783 0.015656 -0.016608 -0.004486 0.122299 
2.0375000000000001 -0.160980 -0.373932 0.007635 -0.013203 0.014079 -0.018093 -0.003334 0.122154 
2.0387499999999998 -0.177979 -0.362549 0.006681 -0.013827 0.012361 -0.019148 -0.001732 0.122925 
2.0400000000000000 -0.193543 -0.350800 0.005757 -0.014277 0.010904 -0.019877 -0.000450 0.123589 
2.0412499999999998 -0.208496 -0.339752 0.004603 -0.014488 0.008802 -0.020731 0.000626 0.124352 
2.0425000000000000 -0.222473 -0.326538 0.003723 -0.014650 0.007217 -0.021456 0.001747 0.125313 
2.0437500000000002 -0.236633 -0.314514 0.002449 -0.014817 0.005387 -0.022466 0.002098 0.126663 
2.0449999999999999 -0.251038 -0.299927 0.001399 -0.014832 0.003435 -0.022920 0.003410 0.127464 
2.0462500000000001 -0.263031 -0.286072 0.000334 -0.014754 0.001769 -0.022565 0.003677 0.129158 
2.0474999999999999 -0.276123 -0.273346 -0.000548 -0.014914 -0.000477 -0.023396 0.004364 0.130058 
2.0487500000000001 -0.289032 -0.258423 -0.001447 -0.014898 -0.002550 -0.023014 0.005501 0.131287 
2.0499999999999998 -0.300964 -0.243256 -0.002453 -0.014790 -0.004446 -0.022932 0.006515 0.132294 
2.0512500000000000 -0.312530 -0.227112 -0.003345 -0.014700 -0.006628 -0.022345 0.008751 0.133568 
2.0525000000000002 -0.324585 -0.212219 -0.004141 -0.014662 -0.008530 -0.021906 0.010269 0.134895 
2.0537500000000000 -0.334869 -0.195068 -0.005124 -0.014587 -0.010704 -0.021126 0.012627 0.136505 
2.0550000000000002 -0.346924 -0.178314 -0.006253 -0.014365 -0.012611 -0.020262 0.014702 0.138779 
2.0562499999999999 -0.357300 -0.159210 -0.007422 -0.014206 -0.014091 -0.019009 0.017395 0.140335 
2.0575000000000001 -0.366028 -0.140442 -0.008501 -0.013893 -0.016066 -0.017811 0.020294 0.142555 
2.0587499999999999 -0.377411 -0.121765 -0.009522 -0.013507 -0.017492 -0.016525 0.022507 0.145264 
2.0600000000000001 -0.387390 -0.100525 -0.010873 -0.012974 -0.019260 -0.014717 0.024765 0.147034 
2.0612499999999998 -0.396378 -0.079453 -0.011916 -0.012316 -0.020351 -0.012699 0.027832 0.148865 
2.0625000000000000 -0.403458 -0.055099 -0.013154 -0.011465 -0.021688 -0.011255 0.031006 0.150406 
2.0637500000000002 -0.411179 -0.032806 -0.014159 -0.010769 -0.022080 -0.009088 0.033951 0.151077 
2.0649999999999999 -0.418564 -0.006104 -0.014952 -0.010084 -0.023282 -0.007201 0.037231 0.152473 
2.0662500000000001 -0.426056 0.021118 -0.016140 -0.009213 -0.023566 -0.005177 0.040894 0.153007 
2.0674999999999999 -0.431732 0.048660 -0.017283 -0.008173 -0.024568 -0.002961 0.045097 0.153267 
2.0687500000000001 -0.436127 0.078583 -0.018310 -0.007114 -0.025106 -0.000963 0.049889 0.154037 
2.0699999999999998 -0.439957 0.111160 -0.019243 -0.005863 -0.024880 0.001581 0.055023 0.153679 
2.0712500000000000 -0.440155 0.145081 -0.020363 -0.004532 -0.025028 0.003880 0.060074 0.153351 
2.0724999999999998 -0.441101 0.180145 -0.021566 -0.002966 -0.024521 0.006475 0.065002 0.153153 
2.0737500000000000 -0.438263 0.219788 -0.022230 -0.001249 -0.023821 0.008980 0.069992 0.153015 
2.0750000000000002 -0.432037 0.260834 -0.023003 0.000986 -0.022886 0.010464 0.075973 0.152557 
2.0762499999999999 -0.422699 0.305420 -0.023548 0.002956 -0.021791 0.013081 0.080200 0.151642 
2.0775000000000001 -0.410523 0.353180 -0.024073 0.005203 -0.020504 0.015060 0.085571 0.150619 
2.0787499999999999 -0.393066 0.401886 -0.024325 0.007368 -0.018801 0.016825 0.089508 0.148636 
2.0800000000000001 -0.366745 0.454086 -0.024497 0.010505 -0.017562 0.018429 0.094116 0.146927 
2.0812499999999998 -0.337982 0.510467 -0.024279 0.012705 -0.015818 0.020433 0.099228 0.143631 
2.0825000000000000 -0.292908 0.560394 -0.024027 0.015604 -0.013966 0.021626 0.103485 0.140762 
2.0837500000000002 -0.243713 0.615845 -0.023409 0.018974 -0.011513 0.022850 0.107605 0.136856 
2.0850000000000000 -0.175232 0.669617 -0.022303 0.022411 -0.009515 0.023653 0.112412 0.133896 
2.0862500000000002 -0.097809 0.716339 -0.020626 0.026236 -0.006685 0.024303 0.116806 0.130081 
2.0874999999999999 -0.007385 0.755554 -0.017796 0.030607 -0.004467 0.024577 0.121582 0.126053 
2.0887500000000001 0.104553 0.778381 -0.014364 0.034050 -0.002046 0.024580 0.125549 0.121933 
2.0899999999999999 0.214417 0.784546 -0.009371 0.037111 -0.000217 0.024232 0.129456 0.117844 
2.0912500000000001 0.339355 0.767090 -0.003899 0.039375 0.001511 0.023872 0.132843 0.114304 
2.0924999999999998 0.463318 0.722839 0.002464 0.039873 0.003294 0.023670 0.135910 0.110611 
2.0937500000000000 0.574768 0.651794 0.008949 0.039394 0.004906 0.023395 0.137558 0.105858 
2.0950000000000002 0.670837 0.561829 0.014971 0.037209 0.006608 0.023088 0.139916 0.100822 
2.0962499999999999 0.751892 0.449463 0.019812 0.034029 0.008542 0.023023 0.141548 0.095993 
2.0975000000000001 0.792542 0.325806 0.023576 0.030271 0.010314 0.023076 0.142822 0.091934 
2.0987499999999999 0.817688 0.199036 0.027056 0.025814 0.012615 0.022238 0.143860 0.086990 
2.1000000000000001 0.812317 0.086243 0.029337 0.021618 0.014772 0.021526 0.143799 0.082016 
2.1012499999999998 0.788391 -0.021606 0.030552 0.017099 0.017057 0.020399 0.145081 0.076675 
2.1025000000000000 0.750488 -0.109619 0.031782 0.012335 0.019247 0.018581 0.145874 0.072357 
2.1037499999999998 0.709473 -0.191650 0.032118 0.008656 0.021183 0.017679 0.146500 0.067490 
2.1050000000000000 0.655090 -0.260132 0.032089 0.004677 0.023426 0.015615 0.146912 0.063294 
2.1062500000000002 0.600952 -0.309906 0.030819 0.000874 0.025417 0.013184 0.146873 0.059212 
2.1074999999999999 0.545532 -0.351013 0.029730 -0.002906 0.027605 0.010559 0.147057 0.055519 
2.1087500000000001 0.491943 -0.383499 0.028124 -0.005520 0.028767 0.007231 0.146637 0.051704 
2.1099999999999999 0.438522 -0.407547 0.025985 -0.007872 0.029951 0.004187 0.145981 0.049309 
2.1112500000000001 0.389816 -0.424942 0.024354 -0.009809 0.030046 0.000772 0.145531 0.046150 
2.1124999999999998 0.341400 -0.438827 0.021822 -0.011518 0.029388 -0.002308 0.144280 0.042717 
2.1137500000000000 0.297714 -0.449143 0.020213 -0.012242 0.028648 -0.005449 0.143364 0.039055 
2.1150000000000002 0.256668 -0.453842 0.018686 -0.013027 0.027338 -0.008898 0.142174 0.036179 
2.1162500000000000 0.218109 -0.455704 0.017186 -0.014023 0.025959 -0.011075 0.141128 0.033485 
2.1175000000000002 0.181442 -0.455460 0.015678 -0.014831 0.024715 -0.013441 0.139900 0.030533 
2.1187499999999999 0.148239 -0.453232 0.014203 -0.015626 0.022983 -0.015421 0.139458 0.027679 
2.1200000000000001 0.115890 -0.450348 0.012926 -0.016308 0.021381 -0.017404 0.139412 0.025368 
2.1212499999999999 0.086487 -0.443848 0.011584 -0.016769 0.019444 -0.019076 0.138374 0.022774 
2.1225000000000001 0.058289 -0.437927 0.010276 -0.017411 0.017690 -0.020639 0.138016 0.021118 
2.1237499999999998 0.032700 -0.431930 0.008559 -0.017966 0.015070 -0.022152 0.137650 0.018616 
2.1250000000000000 0.008102 -0.423630 0.006824 -0.018131 0.013292 -0.022960 0.137184 0.016991 
2.1262500000000002 -0.015747 -0.415482 0.005366 -0.018606 0.010913 -0.023700 0.136238 0.015831 
2.1274999999999999 -0.036896 -0.407440 0.003960 -0.018155 0.008668 -0.024476 0.135559 0.014267 
2.1287500000000001 -0.057739 -0.397629 0.002736 -0.018269 0.007098 -0.024558 0.135155 0.012505 
2.1299999999999999 -0.076370 -0.389084 0.001534 -0.017827 0.004751 -0.025249 0.133987 0.010857 
2.1312500000000001 -0.095657 -0.377121 0.000515 -0.017720 0.002797 -0.025707 0.133133 0.008423 
2.1324999999999998 -0.114471 -0.368011 -0.000783 -0.017448 0.000891 -0.026125 0.132088 0.006264 
2.1337500000000000 -0.130310 -0.356781 -0.001741 -0.017734 -0.001585 -0.025860 0.131561 0.004189 
2.1349999999999998 -0.146210 -0.346374 -0.002720 -0.017631 -0.003746 -0.025772 0.131050 0.002075 
2.1362500000000000 -0.162109 -0.334717 -0.003944 -0.017386 -0.006123 -0.025261 0.131447 -0.000832 
2.1375000000000002 -0.176666 -0.323364 -0.005004 -0.017208 -0.008286 -0.024883 0.131676 -0.002541 
2.1387499999999999 -0.191498 -0.310730 -0.006417 -0.016937 -0.010557 -0.023701 0.131043 -0.004463 
2.1400000000000001 -0.204742 -0.298157 -0.007941 -0.016228 -0.012550 -0.022799 0.131065 -0.006538 
2.1412499999999999 -0.217987 -0.285248 -0.008965 -0.015720 -0.014530 -0.021406 0.130356 -0.008095 
2.1425000000000001 -0.232056 -0.272064 -0.010231 -0.014896 -0.016457 -0.020267 0.129883 -0.010788 
2.1437499999999998 -0.243011 -0.260223 -0.011337 -0.014276 -0.017937 -0.018871 0.129677 -0.012169 
2.1450000000000000 -0.254730 -0.245209 -0.012175 -0.013250 -0.019623 -0.017117 0.128601 -0.014397 
2.1462500000000002 -0.266388 -0.231049 -0.012909 -0.012445 -0.021555 -0.015305 0.126999 -0.017029 
2.1475000000000000 -0.278046 -0.216644 -0.013571 -0.011562 -0.022627 -0.013248 0.125931 -0.019417 
2.1487500000000002 -0.287567 -0.201019 -0.014364 -0.010870 -0.024057 -0.011368 0.124779 -0.022308 
2.1499999999999999 -0.299164 -0.185120 -0.015390 -0.010162 -0.025038 -0.008968 0.122803 -0.025276 
2.1512500000000001 -0.308655 -0.169159 -0.016176 -0.009426 -0.025612 -0.006762 0.122131 -0.028061 
