!
! C:\Users\rflab\Downloads\Lab5_KD_ZW\200.S2P
!
! Touchstone 1.1 file saved by VNA.EXE V1.65 (www.ke5fx.com/gpib/readme.htm)
! 11/12/2024 12:19:49 AM
!
!    Source: HEWLETT PACKARD,8753D,0,6.14
!  Min freq: 1.900000E+009 Hz
!  Max freq: 2.900000E+009 Hz
!    Points: 801
!    Params: S11 S21 S12 S22
!
!!!!!
# GHZ S RI R 50
1.8999999999999999 0.961792 0.252258 0.007142 0.001553 0.003898 0.001625 0.023235 -0.056503 
1.9012500000000001 0.954773 0.119385 0.007637 0.000625 0.004166 0.001298 0.020975 -0.056938 
1.9025000000000001 0.924866 -0.000488 0.007466 -0.000554 0.004249 0.001031 0.019005 -0.056805 
1.9037500000000001 0.882690 -0.106934 0.006653 -0.001429 0.004327 0.000515 0.016722 -0.057133 
1.9050000000000000 0.832245 -0.190979 0.006435 -0.002158 0.004339 0.000433 0.014927 -0.055939 
1.9062500000000000 0.776703 -0.264709 0.005917 -0.002436 0.004642 -0.000018 0.012821 -0.055714 
1.9075000000000000 0.714264 -0.325989 0.005517 -0.003513 0.004261 -0.000307 0.010679 -0.054451 
1.9087499999999999 0.655396 -0.377319 0.004395 -0.004045 0.004579 -0.000504 0.008144 -0.053528 
1.9099999999999999 0.595734 -0.414490 0.003890 -0.003868 0.004530 -0.001384 0.005600 -0.052572 
1.9112499999999999 0.537659 -0.447052 0.003555 -0.004086 0.004358 -0.001395 0.002729 -0.051201 
1.9125000000000001 0.482605 -0.470459 0.002712 -0.004462 0.004121 -0.002097 -0.000298 -0.050123 
1.9137500000000001 0.431213 -0.487900 0.002631 -0.003954 0.003675 -0.002236 -0.003075 -0.049406 
1.9150000000000000 0.381287 -0.500336 0.001788 -0.004386 0.003604 -0.002758 -0.005686 -0.048658 
1.9162500000000000 0.335022 -0.509155 0.001761 -0.004168 0.003447 -0.003155 -0.008121 -0.047726 
1.9175000000000000 0.291626 -0.514069 0.001153 -0.004373 0.003057 -0.003396 -0.010391 -0.046927 
1.9187500000000000 0.251587 -0.518005 0.000669 -0.004199 0.002831 -0.003809 -0.012056 -0.045992 
1.9199999999999999 0.214050 -0.516937 0.000562 -0.004602 0.002599 -0.004055 -0.013683 -0.044603 
1.9212499999999999 0.179321 -0.514557 0.000150 -0.004280 0.002271 -0.004177 -0.015463 -0.043222 
1.9225000000000001 0.146912 -0.511688 -0.000049 -0.004080 0.001609 -0.004616 -0.016962 -0.041256 
1.9237500000000001 0.112793 -0.507538 -0.000346 -0.004024 0.001183 -0.004736 -0.018522 -0.039652 
1.9250000000000000 0.083069 -0.502838 -0.000724 -0.003912 0.000768 -0.004877 -0.019905 -0.037395 
1.9262500000000000 0.055267 -0.496521 -0.001140 -0.003564 0.000292 -0.004721 -0.022038 -0.034927 
1.9275000000000000 0.028442 -0.488983 -0.001333 -0.003437 -0.000138 -0.004908 -0.023525 -0.032894 
1.9287500000000000 0.001495 -0.481781 -0.001611 -0.003343 -0.000514 -0.004450 -0.025715 -0.030659 
1.9299999999999999 -0.021301 -0.473602 -0.001817 -0.002870 -0.001349 -0.004654 -0.027718 -0.029087 
1.9312499999999999 -0.042633 -0.464905 -0.001938 -0.003005 -0.001451 -0.004514 -0.029251 -0.027504 
1.9325000000000001 -0.066223 -0.454590 -0.002216 -0.002682 -0.001773 -0.004224 -0.031090 -0.026417 
1.9337500000000001 -0.087326 -0.444046 -0.002298 -0.002510 -0.002580 -0.004099 -0.032072 -0.024860 
1.9350000000000001 -0.108200 -0.433746 -0.002276 -0.002465 -0.002340 -0.003769 -0.032936 -0.023548 
1.9362500000000000 -0.127228 -0.423248 -0.002356 -0.002180 -0.002794 -0.003228 -0.033783 -0.022243 
1.9375000000000000 -0.145966 -0.412109 -0.002527 -0.001889 -0.003341 -0.003145 -0.034441 -0.020693 
1.9387500000000000 -0.163544 -0.401459 -0.002641 -0.001749 -0.003646 -0.003098 -0.034506 -0.018929 
1.9399999999999999 -0.181900 -0.389008 -0.003024 -0.001461 -0.003581 -0.002656 -0.035389 -0.016954 
1.9412499999999999 -0.198624 -0.376800 -0.003064 -0.001425 -0.003740 -0.002378 -0.036049 -0.015198 
1.9424999999999999 -0.215088 -0.365005 -0.002819 -0.001121 -0.004155 -0.001834 -0.036533 -0.013039 
1.9437500000000001 -0.231216 -0.350937 -0.002993 -0.000908 -0.004052 -0.001554 -0.038023 -0.011042 
1.9450000000000001 -0.247360 -0.337784 -0.003050 -0.000618 -0.004282 -0.001192 -0.038717 -0.009615 
1.9462500000000000 -0.262909 -0.323715 -0.002979 -0.000469 -0.004579 -0.000734 -0.040462 -0.008190 
1.9475000000000000 -0.276428 -0.309845 -0.003268 -0.000189 -0.004714 -0.000349 -0.041668 -0.007025 
1.9487500000000000 -0.292236 -0.295303 -0.003290 -0.000016 -0.004627 0.000066 -0.042784 -0.006121 
1.9500000000000000 -0.304810 -0.280441 -0.003188 0.000119 -0.004287 0.000505 -0.043844 -0.005033 
1.9512499999999999 -0.319046 -0.265045 -0.003242 0.000412 -0.004581 0.000593 -0.044523 -0.004663 
1.9524999999999999 -0.332092 -0.248306 -0.003092 0.000600 -0.004476 0.001100 -0.045460 -0.004047 
1.9537500000000001 -0.346069 -0.231857 -0.003073 0.000929 -0.004268 0.001525 -0.045740 -0.003086 
1.9550000000000001 -0.357681 -0.214050 -0.002990 0.001135 -0.004120 0.002148 -0.046410 -0.001949 
1.9562500000000000 -0.369614 -0.194962 -0.002893 0.001465 -0.003924 0.002370 -0.047148 -0.000807 
1.9575000000000000 -0.382141 -0.175919 -0.002925 0.001516 -0.003726 0.002600 -0.048464 0.000780 
1.9587500000000000 -0.393845 -0.154892 -0.002824 0.002015 -0.003262 0.002986 -0.049309 0.002699 
1.9600000000000000 -0.404724 -0.134003 -0.002927 0.001963 -0.002941 0.003653 -0.050598 0.003712 
1.9612499999999999 -0.416840 -0.111176 -0.002605 0.002247 -0.002761 0.003559 -0.051933 0.005005 
1.9624999999999999 -0.426208 -0.089478 -0.002337 0.002329 -0.002339 0.003886 -0.053875 0.006817 
1.9637500000000001 -0.437195 -0.063690 -0.002438 0.002834 -0.002053 0.003783 -0.055435 0.008247 
1.9650000000000001 -0.446869 -0.036255 -0.002090 0.002821 -0.001575 0.004239 -0.057045 0.009186 
1.9662500000000001 -0.455658 -0.009644 -0.001776 0.003111 -0.001285 0.004276 -0.058609 0.010132 
1.9675000000000000 -0.463440 0.019867 -0.001853 0.003258 -0.001137 0.004782 -0.060162 0.011883 
1.9687500000000000 -0.470673 0.052734 -0.001592 0.003410 -0.000247 0.004527 -0.061558 0.012829 
1.9700000000000000 -0.476761 0.087311 -0.001220 0.003551 0.000207 0.004430 -0.062614 0.014267 
1.9712499999999999 -0.480560 0.125320 -0.001146 0.004006 0.000432 0.004114 -0.063709 0.016369 
1.9724999999999999 -0.483215 0.160629 -0.000811 0.003993 0.001060 0.004409 -0.064785 0.018646 
1.9737499999999999 -0.485199 0.202270 -0.000515 0.004468 0.001644 0.004205 -0.065533 0.021519 
1.9750000000000001 -0.482361 0.248001 0.000017 0.004478 0.001755 0.004196 -0.067020 0.023655 
1.9762500000000001 -0.477875 0.295410 0.000487 0.004592 0.002222 0.003970 -0.068539 0.026993 
1.9775000000000000 -0.468933 0.346680 0.000731 0.004655 0.002436 0.003782 -0.070065 0.029682 
1.9787500000000000 -0.455505 0.399292 0.001313 0.004598 0.002857 0.003260 -0.071789 0.032635 
1.9800000000000000 -0.431152 0.455505 0.002265 0.005017 0.003347 0.003197 -0.073288 0.035397 
1.9812500000000000 -0.405212 0.519348 0.002595 0.004622 0.003423 0.002864 -0.074383 0.037918 
1.9824999999999999 -0.366699 0.580017 0.003228 0.004498 0.003587 0.002520 -0.075203 0.040428 
1.9837499999999999 -0.318726 0.642151 0.003767 0.004429 0.003549 0.001842 -0.075829 0.043114 
1.9850000000000001 -0.257233 0.709045 0.004337 0.004014 0.003996 0.001611 -0.076515 0.046223 
1.9862500000000001 -0.180359 0.767944 0.004892 0.004037 0.003705 0.001434 -0.076263 0.049053 
1.9875000000000000 -0.083984 0.822510 0.005571 0.003376 0.004184 0.000758 -0.075989 0.051868 
1.9887500000000000 0.025146 0.863220 0.006358 0.002258 0.004161 0.000397 -0.075607 0.055771 
1.9900000000000000 0.151123 0.886597 0.006705 0.001501 0.004169 0.000158 -0.074913 0.059574 
1.9912500000000000 0.282654 0.892517 0.006793 0.001013 0.003933 -0.000165 -0.074188 0.062984 
1.9924999999999999 0.423828 0.856934 0.007246 -0.000562 0.003900 -0.000450 -0.073551 0.067177 
1.9937499999999999 0.555664 0.797852 0.006804 -0.001781 0.003998 -0.000778 -0.073090 0.070740 
1.9950000000000001 0.679565 0.699402 0.006448 -0.002909 0.003868 -0.001125 -0.072819 0.074699 
1.9962500000000001 0.777405 0.584351 0.005901 -0.004054 0.003644 -0.001206 -0.071548 0.077759 
1.9975000000000001 0.851379 0.453552 0.005587 -0.004881 0.003588 -0.001728 -0.071060 0.081345 
1.9987500000000000 0.894898 0.319153 0.004429 -0.004972 0.003263 -0.001995 -0.070095 0.084137 
2.0000000000000000 0.903137 0.185364 0.003512 -0.005641 0.003221 -0.002295 -0.067879 0.086857 
2.0012500000000002 0.890076 0.056946 0.002411 -0.005680 0.002812 -0.002640 -0.066139 0.088646 
2.0024999999999999 0.858582 -0.050354 0.001837 -0.005343 0.002780 -0.003021 -0.063972 0.091827 
2.0037500000000001 0.813721 -0.148132 0.001081 -0.005451 0.002532 -0.002618 -0.061394 0.094746 
2.0049999999999999 0.755798 -0.226257 0.000444 -0.005377 0.002219 -0.003175 -0.058731 0.097069 
2.0062500000000001 0.698914 -0.294434 0.000115 -0.004771 0.002015 -0.003526 -0.056038 0.100376 
2.0074999999999998 0.639648 -0.347137 -0.000865 -0.004812 0.001659 -0.003709 -0.053375 0.102783 
2.0087500000000000 0.578461 -0.388489 -0.001055 -0.004462 0.001478 -0.003778 -0.050484 0.104965 
2.0099999999999998 0.520019 -0.421997 -0.001827 -0.004027 0.001128 -0.003641 -0.048592 0.107376 
2.0112500000000000 0.464722 -0.442810 -0.002034 -0.003667 0.000395 -0.004038 -0.046356 0.109345 
2.0125000000000002 0.414307 -0.462524 -0.001831 -0.003021 0.000226 -0.003981 -0.043602 0.111687 
2.0137499999999999 0.366074 -0.474960 -0.002275 -0.003029 -0.000600 -0.003860 -0.041172 0.113030 
2.0150000000000001 0.319367 -0.484833 -0.002311 -0.002861 -0.000150 -0.003896 -0.039101 0.113934 
2.0162499999999999 0.278107 -0.488892 -0.002375 -0.002532 -0.000934 -0.003800 -0.037033 0.114685 
2.0175000000000001 0.236374 -0.491943 -0.002262 -0.002155 -0.001476 -0.003414 -0.034409 0.114887 
2.0187499999999998 0.201065 -0.491119 -0.002427 -0.001774 -0.001776 -0.003435 -0.031494 0.116451 
2.0200000000000000 0.163803 -0.488708 -0.002499 -0.001411 -0.001777 -0.003119 -0.028610 0.116135 
2.0212500000000002 0.130402 -0.485825 -0.002732 -0.001650 -0.002092 -0.003007 -0.026287 0.116905 
2.0225000000000000 0.100006 -0.480743 -0.002607 -0.001335 -0.002190 -0.002834 -0.023125 0.117763 
2.0237500000000002 0.071396 -0.475098 -0.002567 -0.000955 -0.002512 -0.002481 -0.021210 0.117756 
2.0249999999999999 0.043701 -0.468872 -0.002624 -0.000955 -0.002919 -0.002174 -0.018837 0.118599 
2.0262500000000001 0.017670 -0.460419 -0.002519 -0.000457 -0.003017 -0.002007 -0.017128 0.119698 
2.0274999999999999 -0.004944 -0.451691 -0.002311 -0.000232 -0.003164 -0.001405 -0.015480 0.120071 
2.0287500000000001 -0.030060 -0.444244 -0.002503 -0.000076 -0.003440 -0.001434 -0.014008 0.120750 
2.0299999999999998 -0.051575 -0.433960 -0.002618 0.000064 -0.003477 -0.001204 -0.013153 0.120804 
2.0312500000000000 -0.073212 -0.424286 -0.002185 0.000045 -0.003344 -0.000580 -0.012344 0.120689 
2.0325000000000002 -0.093079 -0.413696 -0.002308 -0.000036 -0.003506 -0.000360 -0.010818 0.120598 
2.0337499999999999 -0.112060 -0.403320 -0.002476 0.000358 -0.003542 0.000310 -0.010330 0.121361 
2.0350000000000001 -0.131653 -0.392670 -0.002160 0.000418 -0.003031 0.000007 -0.009201 0.121285 
2.0362499999999999 -0.149231 -0.381287 -0.002111 0.000666 -0.003270 0.000470 -0.007828 0.120865 
2.0375000000000001 -0.165680 -0.371643 -0.002068 0.000626 -0.003202 0.000857 -0.006424 0.121582 
2.0387499999999998 -0.180389 -0.359955 -0.002033 0.000794 -0.002915 0.000795 -0.005165 0.122589 
2.0400000000000000 -0.196930 -0.346649 -0.001926 0.001060 -0.002928 0.000951 -0.004150 0.123947 
2.0412499999999998 -0.212494 -0.334930 -0.001742 0.001143 -0.003382 0.001658 -0.002525 0.124764 
2.0425000000000000 -0.225678 -0.322144 -0.001767 0.001354 -0.002817 0.001873 -0.002167 0.126366 
2.0437500000000002 -0.240173 -0.310242 -0.001574 0.001281 -0.002716 0.001965 -0.001251 0.127640 
2.0449999999999999 -0.254639 -0.295715 -0.001534 0.001436 -0.002549 0.002125 -0.000198 0.129082 
2.0462500000000001 -0.266388 -0.281464 -0.001512 0.001443 -0.002230 0.002035 0.000374 0.130722 
2.0474999999999999 -0.278564 -0.268982 -0.001345 0.001392 -0.001698 0.002401 0.001358 0.132194 
2.0487500000000001 -0.291870 -0.253357 -0.001178 0.001499 -0.001931 0.002503 0.002884 0.133736 
2.0499999999999998 -0.304169 -0.238007 -0.001235 0.001548 -0.001631 0.002402 0.004555 0.135193 
2.0512500000000000 -0.315491 -0.222717 -0.001068 0.001698 -0.001234 0.002742 0.006126 0.136284 
2.0525000000000002 -0.327759 -0.207398 -0.000909 0.001697 -0.001301 0.003007 0.008049 0.137848 
2.0537500000000000 -0.337647 -0.189545 -0.000820 0.001871 -0.001100 0.002914 0.010467 0.139374 
2.0550000000000002 -0.349091 -0.173096 -0.000984 0.002090 -0.000758 0.002937 0.013283 0.141640 
2.0562499999999999 -0.360229 -0.154144 -0.000665 0.002129 -0.000371 0.002979 0.015617 0.143181 
2.0575000000000001 -0.369598 -0.134766 -0.000446 0.002073 -0.000397 0.003326 0.019257 0.145767 
2.0587499999999999 -0.379547 -0.116272 -0.000301 0.002299 0.000008 0.003128 0.021896 0.147919 
2.0600000000000001 -0.389801 -0.093933 -0.000253 0.002310 0.000367 0.003127 0.024735 0.150192 
2.0612499999999998 -0.398712 -0.072662 -0.000051 0.002128 0.000793 0.002980 0.027725 0.151856 
2.0625000000000000 -0.405960 -0.048462 0.000314 0.002398 0.000701 0.002764 0.031097 0.153107 
2.0637500000000002 -0.414093 -0.024948 0.000181 0.002270 0.000954 0.002777 0.034485 0.153854 
2.0649999999999999 -0.421219 0.000671 0.000543 0.002282 0.001216 0.002674 0.038300 0.154770 
2.0662500000000001 -0.427750 0.029373 0.000547 0.002315 0.001786 0.002498 0.042419 0.155258 
2.0674999999999999 -0.434204 0.056549 0.000664 0.002426 0.002032 0.002218 0.046761 0.155541 
2.0687500000000001 -0.438416 0.088074 0.000951 0.002412 0.001983 0.002803 0.051369 0.155640 
2.0699999999999998 -0.440781 0.122360 0.000994 0.002410 0.002540 0.001848 0.056938 0.155647 
2.0712500000000000 -0.442108 0.155182 0.001379 0.002322 0.002756 0.001684 0.062225 0.154709 
2.0724999999999998 -0.442291 0.192474 0.001256 0.002589 0.002602 0.001743 0.067200 0.154419 
2.0737500000000000 -0.439240 0.232361 0.001843 0.002473 0.002661 0.001632 0.072266 0.154251 
2.0750000000000002 -0.431274 0.273346 0.002218 0.002267 0.002904 0.001542 0.077484 0.153351 
2.0762499999999999 -0.421600 0.319550 0.002278 0.002091 0.003037 0.001110 0.082108 0.151886 
2.0775000000000001 -0.408142 0.368530 0.002700 0.001518 0.002982 0.000947 0.087723 0.150391 
2.0787499999999999 -0.386444 0.417999 0.002614 0.001711 0.003084 0.000216 0.091644 0.148239 
2.0800000000000001 -0.360458 0.474029 0.002590 0.001485 0.003017 0.000179 0.096344 0.145897 
2.0812499999999998 -0.327240 0.528931 0.002985 0.001589 0.003180 -0.000035 0.100388 0.142609 
2.0825000000000000 -0.278595 0.583404 0.003338 0.001064 0.003145 -0.000279 0.105087 0.139572 
2.0837500000000002 -0.226471 0.638641 0.003703 0.000751 0.002732 -0.000654 0.109863 0.135986 
2.0850000000000000 -0.155518 0.690521 0.003855 0.000240 0.002874 -0.000990 0.114349 0.132324 
2.0862500000000002 -0.071899 0.736206 0.003942 -0.000095 0.002773 -0.001451 0.117767 0.127838 
2.0874999999999999 0.025452 0.771729 0.004838 -0.000805 0.002604 -0.001327 0.122452 0.123825 
2.0887500000000001 0.139038 0.790588 0.004486 -0.000769 0.002542 -0.001884 0.125847 0.119835 
2.0899999999999999 0.258301 0.788574 0.004271 -0.001839 0.002622 -0.002016 0.130112 0.115730 
2.0912500000000001 0.382690 0.763672 0.004289 -0.002273 0.002469 -0.002185 0.132874 0.111527 
2.0924999999999998 0.508911 0.716064 0.003765 -0.003190 0.002251 -0.001960 0.135269 0.108284 
2.0937500000000000 0.616882 0.629150 0.002829 -0.003681 0.001814 -0.001866 0.137116 0.103256 
2.0950000000000002 0.708557 0.532044 0.002758 -0.003850 0.001680 -0.002043 0.138802 0.098297 
2.0962499999999999 0.779785 0.410034 0.001730 -0.004550 0.001667 -0.002324 0.140305 0.093704 
2.0975000000000001 0.814453 0.289795 0.000997 -0.004380 0.001626 -0.002638 0.141182 0.089768 
2.0987499999999999 0.825684 0.165710 0.000589 -0.004417 0.001324 -0.002792 0.142593 0.084473 
2.1000000000000001 0.813477 0.049622 0.000065 -0.004236 0.001205 -0.003040 0.142593 0.080093 
2.1012499999999998 0.785523 -0.055359 -0.000430 -0.004157 0.000774 -0.002899 0.142914 0.075180 
2.1025000000000000 0.744141 -0.143005 -0.000461 -0.003892 0.000521 -0.002909 0.143326 0.070664 
2.1037499999999998 0.694763 -0.217957 -0.001539 -0.003633 0.000198 -0.003392 0.144196 0.066345 
2.1050000000000000 0.640198 -0.280701 -0.001861 -0.003216 -0.000131 -0.003447 0.144653 0.062347 
2.1062500000000002 0.585052 -0.327667 -0.001742 -0.003010 -0.000539 -0.003483 0.144638 0.058433 
2.1074999999999999 0.530029 -0.365295 -0.002247 -0.002793 -0.000843 -0.003410 0.144569 0.055153 
2.1087500000000001 0.475662 -0.395386 -0.002302 -0.002431 -0.001288 -0.003531 0.143944 0.051987 
2.1099999999999999 0.422684 -0.416489 -0.002496 -0.002003 -0.001474 -0.003616 0.143417 0.049087 
2.1112500000000001 0.374786 -0.432190 -0.002743 -0.001551 -0.002005 -0.003333 0.142677 0.046425 
2.1124999999999998 0.326767 -0.442566 -0.002299 -0.001646 -0.001977 -0.002813 0.141411 0.043060 
2.1137500000000000 0.283401 -0.451889 -0.002505 -0.001430 -0.002195 -0.002474 0.141121 0.040360 
2.1150000000000002 0.242249 -0.455292 -0.002458 -0.001193 -0.002838 -0.002425 0.139511 0.037186 
2.1162500000000000 0.204346 -0.457398 -0.002662 -0.000774 -0.002989 -0.001934 0.138901 0.034325 
2.1175000000000002 0.168655 -0.455551 -0.002495 -0.000791 -0.003088 -0.001600 0.138199 0.032310 
2.1187499999999999 0.135574 -0.453186 -0.002574 -0.000525 -0.003013 -0.001405 0.137535 0.029488 
2.1200000000000001 0.104416 -0.449524 -0.002311 -0.000261 -0.003350 -0.001125 0.137215 0.027489 
2.1212499999999999 0.076004 -0.443344 -0.002377 -0.000071 -0.003138 -0.000702 0.137367 0.025001 
2.1225000000000001 0.048309 -0.436493 -0.002423 -0.000080 -0.003317 -0.000441 0.136627 0.023346 
2.1237499999999998 0.023270 -0.430145 -0.002495 0.000474 -0.003185 -0.000184 0.136482 0.021454 
2.1250000000000000 -0.000671 -0.420548 -0.002368 0.000273 -0.003152 0.000062 0.135841 0.019585 
2.1262500000000002 -0.024399 -0.413300 -0.002079 0.000763 -0.003314 0.000644 0.135590 0.018547 
2.1274999999999999 -0.046249 -0.404678 -0.002081 0.000681 -0.003005 0.000494 0.135078 0.016861 
2.1287500000000001 -0.066071 -0.394104 -0.001859 0.000766 -0.003032 0.000848 0.134880 0.015388 
2.1299999999999999 -0.084076 -0.385346 -0.001896 0.001207 -0.003002 0.001369 0.133865 0.013825 
2.1312500000000001 -0.103577 -0.374130 -0.002022 0.001074 -0.002900 0.001240 0.133225 0.010559 
2.1324999999999998 -0.121429 -0.364563 -0.001691 0.001221 -0.002853 0.001607 0.132370 0.008812 
2.1337500000000000 -0.136902 -0.352997 -0.001807 0.001308 -0.002566 0.001965 0.132271 0.006706 
2.1349999999999998 -0.152557 -0.342621 -0.001472 0.001402 -0.002404 0.002088 0.132019 0.003982 
2.1362500000000000 -0.167877 -0.329742 -0.001542 0.001399 -0.002132 0.002508 0.133026 0.001610 
2.1375000000000002 -0.182190 -0.318512 -0.001529 0.001500 -0.001965 0.002134 0.133095 -0.000633 
2.1387499999999999 -0.197235 -0.307159 -0.001626 0.001820 -0.001736 0.002186 0.132614 -0.002762 
2.1400000000000001 -0.210754 -0.293335 -0.001167 0.002012 -0.001631 0.002547 0.132767 -0.004654 
2.1412499999999999 -0.222992 -0.280365 -0.001116 0.001805 -0.001253 0.002784 0.132324 -0.006767 
2.1425000000000001 -0.236908 -0.266907 -0.000821 0.001891 -0.001033 0.003074 0.131599 -0.009125 
2.1437499999999998 -0.247833 -0.255157 -0.000834 0.001956 -0.000828 0.003140 0.131500 -0.011307 
2.1450000000000000 -0.259705 -0.239990 -0.000644 0.002167 -0.000632 0.003042 0.130318 -0.013336 
2.1462500000000002 -0.270904 -0.225800 -0.000432 0.002298 -0.000060 0.002960 0.128677 -0.016167 
2.1475000000000000 -0.282532 -0.210938 -0.000301 0.001897 0.000051 0.003250 0.127762 -0.018944 
2.1487500000000002 -0.291809 -0.194916 -0.000072 0.002026 0.000145 0.003222 0.126953 -0.021896 
2.1499999999999999 -0.303162 -0.178772 -0.000118 0.002110 0.000441 0.003024 0.125237 -0.025146 
2.1512500000000001 -0.313202 -0.162415 0.000167 0.002249 0.001100 0.003135 0.123879 -0.028252 
