!
! C:\Users\rflab\Downloads\Lab5_KD_ZW\210.S2P
!
! Touchstone 1.1 file saved by VNA.EXE V1.65 (www.ke5fx.com/gpib/readme.htm)
! 11/12/2024 12:20:51 AM
!
!    Source: HEWLETT PACKARD,8753D,0,6.14
!  Min freq: 1.900000E+009 Hz
!  Max freq: 2.900000E+009 Hz
!    Points: 801
!    Params: S11 S21 S12 S22
!
!!!!!
# GHZ S RI R 50
1.8999999999999999 0.959412 0.260986 0.007360 0.001136 0.003686 0.001305 0.022444 -0.057005 
1.9012500000000001 0.952087 0.128357 0.006732 0.000352 0.003604 0.001146 0.019911 -0.057159 
1.9025000000000001 0.927734 0.008240 0.006412 -0.000749 0.003953 0.000583 0.017815 -0.057022 
1.9037500000000001 0.886169 -0.099121 0.006490 -0.001082 0.003772 0.000534 0.015560 -0.057491 
1.9050000000000000 0.836334 -0.188110 0.005788 -0.002503 0.003859 0.000298 0.013777 -0.056057 
1.9062500000000000 0.781372 -0.260346 0.005407 -0.002705 0.004086 0.000076 0.011318 -0.055191 
1.9075000000000000 0.718567 -0.323547 0.004570 -0.003122 0.004199 -0.000565 0.009033 -0.054253 
1.9087499999999999 0.656494 -0.375000 0.003949 -0.003736 0.004029 -0.000613 0.006746 -0.053007 
1.9099999999999999 0.596161 -0.413879 0.003453 -0.003340 0.004125 -0.001225 0.004276 -0.051373 
1.9112499999999999 0.540894 -0.445770 0.003167 -0.003827 0.003778 -0.001566 0.000916 -0.050314 
1.9125000000000001 0.486023 -0.469330 0.002420 -0.004021 0.003734 -0.002051 -0.001535 -0.049070 
1.9137500000000001 0.435287 -0.485626 0.002052 -0.003847 0.003322 -0.002425 -0.004227 -0.048052 
1.9150000000000000 0.385330 -0.498901 0.001821 -0.003830 0.003395 -0.002759 -0.006569 -0.047197 
1.9162500000000000 0.337524 -0.508728 0.001337 -0.004019 0.003275 -0.002611 -0.008873 -0.046041 
1.9175000000000000 0.294312 -0.513794 0.001058 -0.004018 0.002644 -0.003388 -0.010962 -0.045328 
1.9187500000000000 0.254547 -0.516968 0.000991 -0.003808 0.002438 -0.003537 -0.012812 -0.043465 
1.9199999999999999 0.217224 -0.516419 0.000397 -0.004188 0.002128 -0.003866 -0.014631 -0.042368 
1.9212499999999999 0.180847 -0.514313 0.000178 -0.003690 0.001619 -0.003812 -0.016356 -0.041687 
1.9225000000000001 0.147614 -0.510834 -0.000478 -0.003549 0.001520 -0.003970 -0.017513 -0.039322 
1.9237500000000001 0.114838 -0.507599 -0.000671 -0.003569 0.001063 -0.004397 -0.018587 -0.037367 
1.9250000000000000 0.084808 -0.502045 -0.000690 -0.003507 0.000484 -0.004245 -0.020290 -0.035105 
1.9262500000000000 0.056030 -0.497162 -0.000985 -0.003269 0.000030 -0.004170 -0.021988 -0.032856 
1.9275000000000000 0.030243 -0.490204 -0.001527 -0.003111 -0.000200 -0.004256 -0.023838 -0.030727 
1.9287500000000000 0.002380 -0.481445 -0.001319 -0.003023 -0.000345 -0.004230 -0.025497 -0.028946 
1.9299999999999999 -0.019653 -0.473236 -0.001635 -0.002463 -0.001206 -0.004134 -0.027313 -0.026859 
1.9312499999999999 -0.041779 -0.465393 -0.001760 -0.002454 -0.001488 -0.003938 -0.028881 -0.025574 
1.9325000000000001 -0.065277 -0.454224 -0.001939 -0.002716 -0.001716 -0.004083 -0.030430 -0.024342 
1.9337500000000001 -0.086426 -0.444992 -0.001912 -0.002381 -0.002145 -0.003780 -0.031204 -0.023111 
1.9350000000000001 -0.106583 -0.434326 -0.002192 -0.002091 -0.002306 -0.003561 -0.032398 -0.021616 
1.9362500000000000 -0.124924 -0.423691 -0.002312 -0.001929 -0.002717 -0.002945 -0.032459 -0.020651 
1.9375000000000000 -0.145142 -0.413284 -0.002531 -0.001890 -0.002874 -0.002932 -0.033152 -0.019173 
1.9387500000000000 -0.163178 -0.402084 -0.002473 -0.001735 -0.003203 -0.002789 -0.033909 -0.017660 
1.9399999999999999 -0.181427 -0.388901 -0.002545 -0.001331 -0.003572 -0.002090 -0.034107 -0.016052 
1.9412499999999999 -0.197754 -0.378342 -0.002858 -0.001272 -0.003542 -0.002166 -0.034821 -0.014143 
1.9424999999999999 -0.214203 -0.365829 -0.002774 -0.001058 -0.003951 -0.001695 -0.035492 -0.011930 
1.9437500000000001 -0.231018 -0.351807 -0.002901 -0.000789 -0.003838 -0.001172 -0.036703 -0.010384 
1.9450000000000001 -0.246643 -0.338165 -0.002976 -0.000681 -0.003971 -0.000987 -0.037729 -0.008894 
1.9462500000000000 -0.261566 -0.324570 -0.002913 -0.000446 -0.004384 -0.000479 -0.039248 -0.007586 
1.9475000000000000 -0.275497 -0.311142 -0.002838 -0.000268 -0.004218 -0.000534 -0.040485 -0.006744 
1.9487500000000000 -0.290832 -0.295715 -0.003052 0.000035 -0.004022 0.000278 -0.041710 -0.005945 
1.9500000000000000 -0.303940 -0.281158 -0.003012 0.000232 -0.004316 0.000387 -0.042727 -0.005289 
1.9512499999999999 -0.318878 -0.265274 -0.003067 0.000211 -0.004251 0.000633 -0.043468 -0.005108 
1.9524999999999999 -0.332092 -0.248734 -0.003110 0.000625 -0.003996 0.001177 -0.044563 -0.004580 
1.9537500000000001 -0.345047 -0.232208 -0.003080 0.000887 -0.003848 0.001504 -0.044994 -0.003912 
1.9550000000000001 -0.356537 -0.214844 -0.002950 0.000893 -0.003661 0.001835 -0.045658 -0.002893 
1.9562500000000000 -0.368897 -0.196060 -0.002810 0.001440 -0.003513 0.002244 -0.046574 -0.001579 
1.9575000000000000 -0.382217 -0.176712 -0.002646 0.001527 -0.003360 0.002775 -0.047522 -0.000618 
1.9587500000000000 -0.393402 -0.155106 -0.002525 0.001837 -0.003246 0.003033 -0.048901 0.001120 
1.9600000000000000 -0.405212 -0.134735 -0.002529 0.002044 -0.002656 0.003326 -0.050331 0.002693 
1.9612499999999999 -0.415314 -0.112763 -0.002498 0.002059 -0.002475 0.003419 -0.051716 0.003494 
1.9624999999999999 -0.425598 -0.090027 -0.002347 0.002279 -0.002067 0.003917 -0.053581 0.005627 
1.9637500000000001 -0.436249 -0.064148 -0.002093 0.002517 -0.001730 0.003877 -0.055653 0.006817 
1.9650000000000001 -0.446442 -0.037781 -0.001947 0.002566 -0.001713 0.004043 -0.057213 0.008232 
1.9662500000000001 -0.454865 -0.009796 -0.001822 0.002908 -0.000947 0.003995 -0.058777 0.008953 
1.9675000000000000 -0.462158 0.017761 -0.001749 0.003279 -0.000794 0.004340 -0.060619 0.010246 
1.9687500000000000 -0.469299 0.051605 -0.001326 0.003216 -0.000255 0.004264 -0.062050 0.011822 
1.9700000000000000 -0.476517 0.086136 -0.001363 0.003648 -0.000024 0.004212 -0.063137 0.013775 
1.9712499999999999 -0.480393 0.122833 -0.000873 0.003775 0.000587 0.004125 -0.064480 0.015671 
1.9724999999999999 -0.481751 0.159622 -0.000926 0.003872 0.000595 0.004273 -0.065117 0.017864 
1.9737499999999999 -0.483978 0.201675 -0.000115 0.003954 0.001012 0.004324 -0.066761 0.020584 
1.9750000000000001 -0.482666 0.246384 0.000061 0.004119 0.001591 0.004086 -0.068169 0.023037 
1.9762500000000001 -0.476654 0.294739 0.000296 0.004532 0.002140 0.003771 -0.069870 0.026459 
1.9775000000000000 -0.468872 0.346069 0.000865 0.004483 0.002315 0.003440 -0.071102 0.028915 
1.9787500000000000 -0.454529 0.397583 0.001311 0.004441 0.002658 0.003062 -0.072701 0.032742 
1.9800000000000000 -0.433716 0.454346 0.001753 0.004707 0.002826 0.002963 -0.074028 0.035500 
1.9812500000000000 -0.408142 0.515564 0.002506 0.004437 0.003404 0.002739 -0.075596 0.038143 
1.9824999999999999 -0.366150 0.580017 0.002858 0.004574 0.003328 0.002358 -0.076138 0.040527 
1.9837499999999999 -0.319458 0.641174 0.003542 0.004311 0.003563 0.001887 -0.076424 0.042995 
1.9850000000000001 -0.257019 0.707428 0.003866 0.004144 0.003804 0.001363 -0.077087 0.046593 
1.9862500000000001 -0.183716 0.765808 0.004773 0.003615 0.004058 0.001171 -0.076996 0.049824 
1.9875000000000000 -0.087463 0.817627 0.005783 0.003134 0.003999 0.000834 -0.076283 0.053211 
1.9887500000000000 0.017395 0.858154 0.006467 0.002796 0.003891 0.000504 -0.075485 0.056763 
1.9900000000000000 0.145020 0.883972 0.006355 0.001539 0.003964 0.000202 -0.075165 0.060844 
1.9912500000000000 0.273132 0.890625 0.006781 0.000891 0.003885 -0.000410 -0.074165 0.064640 
1.9924999999999999 0.419739 0.853394 0.007195 -0.000965 0.003848 -0.000486 -0.073704 0.068741 
1.9937499999999999 0.552002 0.794800 0.006498 -0.001829 0.003829 -0.000698 -0.072998 0.072697 
1.9950000000000001 0.676941 0.705566 0.006785 -0.002952 0.003449 -0.001241 -0.072540 0.076191 
1.9962500000000001 0.777283 0.584167 0.005578 -0.003227 0.003392 -0.001547 -0.071537 0.079712 
1.9975000000000001 0.855286 0.459106 0.004620 -0.004854 0.003380 -0.001402 -0.070408 0.083061 
1.9987500000000000 0.894470 0.317505 0.004169 -0.005129 0.002901 -0.001826 -0.069622 0.085651 
2.0000000000000000 0.900269 0.191101 0.002868 -0.004929 0.003043 -0.002292 -0.067577 0.089054 
2.0012500000000002 0.890686 0.062317 0.002274 -0.005502 0.002877 -0.002485 -0.064949 0.091438 
2.0024999999999999 0.858460 -0.050049 0.001744 -0.005218 0.002467 -0.002801 -0.063152 0.094070 
2.0037500000000001 0.812561 -0.143616 0.001294 -0.005292 0.002296 -0.002730 -0.060184 0.096695 
2.0049999999999999 0.756104 -0.224670 0.000512 -0.005497 0.002049 -0.003279 -0.057278 0.099380 
2.0062500000000001 0.699860 -0.291016 -0.000413 -0.004820 0.001590 -0.003526 -0.054634 0.102169 
2.0074999999999998 0.638123 -0.347961 -0.000929 -0.004431 0.001305 -0.003465 -0.051373 0.104813 
2.0087500000000000 0.581207 -0.388306 -0.001189 -0.004223 0.000978 -0.003586 -0.048698 0.107258 
2.0099999999999998 0.523224 -0.417297 -0.001697 -0.004079 0.000816 -0.003936 -0.045845 0.109573 
2.0112500000000000 0.467163 -0.442200 -0.001896 -0.003296 0.000721 -0.003721 -0.043812 0.111691 
2.0125000000000002 0.416840 -0.461304 -0.002098 -0.003113 -0.000216 -0.004153 -0.041439 0.113564 
2.0137499999999999 0.367142 -0.473999 -0.002006 -0.002754 -0.000215 -0.003783 -0.038990 0.114655 
2.0150000000000001 0.321411 -0.484451 -0.002337 -0.002563 -0.000832 -0.003809 -0.036575 0.115963 
2.0162499999999999 0.278244 -0.489548 -0.002255 -0.002184 -0.001143 -0.003610 -0.034412 0.116310 
2.0175000000000001 0.238296 -0.491898 -0.002232 -0.002144 -0.001462 -0.003593 -0.031620 0.116573 
2.0187499999999998 0.200577 -0.491760 -0.002405 -0.001454 -0.001825 -0.003199 -0.028866 0.117161 
2.0200000000000000 0.164932 -0.489243 -0.002573 -0.001458 -0.001828 -0.002903 -0.025841 0.117039 
2.0212500000000002 0.131973 -0.486252 -0.002463 -0.001398 -0.002477 -0.002828 -0.023853 0.117882 
2.0225000000000000 0.101105 -0.481003 -0.002245 -0.000991 -0.002275 -0.002584 -0.020638 0.118446 
2.0237500000000002 0.073074 -0.475418 -0.002681 -0.000944 -0.002550 -0.002358 -0.018639 0.118473 
2.0249999999999999 0.044556 -0.469452 -0.002516 -0.000510 -0.002859 -0.001945 -0.016525 0.119019 
2.0262500000000001 0.019104 -0.459778 -0.002540 -0.000400 -0.002936 -0.001525 -0.014778 0.119713 
2.0274999999999999 -0.003937 -0.451141 -0.002671 -0.000288 -0.002961 -0.001662 -0.013123 0.120369 
2.0287500000000001 -0.028229 -0.443787 -0.002344 -0.000125 -0.003518 -0.001342 -0.012329 0.120934 
2.0299999999999998 -0.050781 -0.433594 -0.002403 0.000045 -0.003218 -0.000632 -0.011162 0.120850 
2.0312500000000000 -0.072327 -0.424805 -0.002443 0.000296 -0.003290 -0.000556 -0.010841 0.120445 
2.0325000000000002 -0.091766 -0.414123 -0.002131 0.000218 -0.003397 -0.000428 -0.009071 0.120384 
2.0337499999999999 -0.112579 -0.403778 -0.001991 0.000548 -0.003270 0.000050 -0.008636 0.120842 
2.0350000000000001 -0.130493 -0.393158 -0.002099 0.000635 -0.003240 0.000381 -0.007828 0.120407 
2.0362499999999999 -0.147430 -0.382233 -0.002098 0.000840 -0.003414 0.000669 -0.006760 0.120590 
2.0375000000000001 -0.164612 -0.370941 -0.001835 0.000731 -0.002942 0.000816 -0.005959 0.121285 
2.0387499999999998 -0.180573 -0.360077 -0.001861 0.000936 -0.002684 0.001096 -0.004532 0.121918 
2.0400000000000000 -0.195648 -0.347687 -0.001928 0.001038 -0.002782 0.001443 -0.003891 0.123505 
2.0412499999999998 -0.211487 -0.336060 -0.001675 0.001300 -0.002843 0.001521 -0.002357 0.123863 
2.0425000000000000 -0.225098 -0.322632 -0.001573 0.001225 -0.002396 0.001636 -0.001213 0.125633 
2.0437500000000002 -0.239441 -0.310303 -0.001615 0.001291 -0.002763 0.001661 -0.001060 0.127640 
2.0449999999999999 -0.254089 -0.296478 -0.001300 0.001373 -0.002276 0.002159 -0.000473 0.128548 
2.0462500000000001 -0.265869 -0.282715 -0.001383 0.001366 -0.001905 0.002200 0.000450 0.130264 
2.0474999999999999 -0.278473 -0.269745 -0.001092 0.001373 -0.001938 0.002600 0.001267 0.131554 
2.0487500000000001 -0.290772 -0.253845 -0.001200 0.001362 -0.001816 0.002547 0.002777 0.133232 
2.0499999999999998 -0.302978 -0.238861 -0.001055 0.001697 -0.001183 0.002678 0.004005 0.134934 
2.0512500000000000 -0.314819 -0.223328 -0.000961 0.001713 -0.001153 0.002600 0.005737 0.136055 
2.0525000000000002 -0.326782 -0.208130 -0.000839 0.001936 -0.000698 0.002854 0.007660 0.137695 
2.0537500000000000 -0.336548 -0.190186 -0.000763 0.001798 -0.000978 0.003022 0.010399 0.139664 
2.0550000000000002 -0.348999 -0.173004 -0.000611 0.001971 -0.000427 0.002819 0.012901 0.141914 
2.0562499999999999 -0.359528 -0.154388 -0.000568 0.002023 -0.000322 0.002959 0.015244 0.143799 
2.0575000000000001 -0.368652 -0.135895 -0.000303 0.001900 -0.000062 0.003084 0.018379 0.145988 
2.0587499999999999 -0.379547 -0.116425 -0.000258 0.002163 0.000369 0.003251 0.020676 0.148727 
2.0600000000000001 -0.388886 -0.094604 -0.000180 0.002235 0.000532 0.002866 0.023727 0.150696 
2.0612499999999998 -0.398239 -0.073105 0.000262 0.002417 0.000804 0.002798 0.027237 0.152420 
2.0625000000000000 -0.405319 -0.049271 0.000204 0.002139 0.001207 0.002817 0.030304 0.153992 
2.0637500000000002 -0.413422 -0.026093 0.000546 0.002154 0.001761 0.002401 0.033615 0.154724 
2.0649999999999999 -0.420319 -0.000412 0.000598 0.002118 0.001502 0.002682 0.037415 0.156006 
2.0662500000000001 -0.427811 0.028854 0.000630 0.002126 0.001549 0.002250 0.041801 0.155708 
2.0674999999999999 -0.431854 0.056259 0.000814 0.002100 0.001725 0.002258 0.046097 0.155823 
2.0687500000000001 -0.437607 0.086563 0.001187 0.002124 0.002199 0.002124 0.051147 0.156166 
2.0699999999999998 -0.441086 0.120712 0.001222 0.001823 0.001891 0.001890 0.056816 0.156082 
2.0712500000000000 -0.442200 0.153381 0.001303 0.002110 0.002509 0.001886 0.062637 0.155594 
2.0724999999999998 -0.442169 0.190521 0.001972 0.002025 0.002618 0.001621 0.067474 0.154984 
2.0737500000000000 -0.438202 0.230347 0.001717 0.002007 0.003082 0.001107 0.072189 0.155014 
2.0750000000000002 -0.430939 0.271973 0.002137 0.001756 0.002965 0.000779 0.078781 0.153748 
2.0762499999999999 -0.421417 0.317566 0.002156 0.001738 0.002911 0.000627 0.083099 0.152298 
2.0775000000000001 -0.408081 0.365265 0.002641 0.001341 0.002994 0.000445 0.088791 0.150986 
2.0787499999999999 -0.386505 0.414368 0.002594 0.001510 0.002936 0.000290 0.092850 0.149139 
2.0800000000000001 -0.361755 0.468155 0.002915 0.001325 0.002989 0.000427 0.097862 0.146149 
2.0812499999999998 -0.327881 0.525482 0.002772 0.001010 0.003228 -0.000279 0.102051 0.143341 
2.0825000000000000 -0.280243 0.578613 0.003270 0.001015 0.002827 -0.000785 0.106918 0.140015 
2.0837500000000002 -0.228485 0.636688 0.003822 0.000443 0.003276 -0.000601 0.111618 0.135742 
2.0850000000000000 -0.157410 0.687042 0.003558 0.000093 0.002562 -0.001187 0.116165 0.132156 
2.0862500000000002 -0.075500 0.731567 0.003912 -0.000388 0.002431 -0.001319 0.120087 0.128021 
2.0874999999999999 0.020264 0.770142 0.003830 -0.000701 0.002427 -0.001703 0.124771 0.123673 
2.0887500000000001 0.131714 0.783569 0.003840 -0.001598 0.002449 -0.001428 0.128792 0.119408 
2.0899999999999999 0.256592 0.787109 0.004478 -0.001765 0.002117 -0.001618 0.132194 0.115616 
2.0912500000000001 0.377075 0.765747 0.003743 -0.002965 0.001842 -0.002153 0.135269 0.111206 
2.0924999999999998 0.502258 0.715698 0.003628 -0.002946 0.001543 -0.002207 0.137817 0.107437 
2.0937500000000000 0.616760 0.627014 0.002413 -0.003453 0.001683 -0.002004 0.139557 0.102501 
2.0950000000000002 0.705444 0.532044 0.002406 -0.004021 0.001599 -0.002091 0.141632 0.097023 
2.0962499999999999 0.772888 0.414886 0.001799 -0.004213 0.001508 -0.002418 0.143005 0.092445 
2.0975000000000001 0.807007 0.294739 0.001080 -0.004312 0.001102 -0.002699 0.143578 0.088013 
2.0987499999999999 0.818848 0.169373 0.000530 -0.004623 0.000893 -0.002874 0.145065 0.083496 
2.1000000000000001 0.812744 0.056580 0.000101 -0.004351 0.000789 -0.002819 0.145340 0.078217 
2.1012499999999998 0.786438 -0.050049 -0.000722 -0.004036 0.000471 -0.002848 0.145340 0.073898 
2.1025000000000000 0.742676 -0.137390 -0.000845 -0.004061 0.000300 -0.003080 0.146408 0.069076 
2.1037499999999998 0.693481 -0.211243 -0.001659 -0.003451 0.000442 -0.003359 0.146606 0.064896 
2.1050000000000000 0.639893 -0.277283 -0.001761 -0.003130 -0.000618 -0.003228 0.146973 0.060486 
2.1062500000000002 0.586121 -0.325317 -0.001740 -0.002984 -0.000981 -0.003140 0.146362 0.056442 
2.1074999999999999 0.530731 -0.363251 -0.002207 -0.002681 -0.000826 -0.003466 0.146477 0.053352 
2.1087500000000001 0.477570 -0.392883 -0.002390 -0.002051 -0.001334 -0.003076 0.145485 0.049766 
2.1099999999999999 0.424042 -0.415070 -0.002527 -0.001836 -0.001614 -0.003134 0.144974 0.047028 
2.1112500000000001 0.375595 -0.430588 -0.002434 -0.001905 -0.002167 -0.003115 0.144875 0.044167 
2.1124999999999998 0.327835 -0.441193 -0.002981 -0.001111 -0.002175 -0.002258 0.143059 0.041122 
2.1137500000000000 0.284607 -0.450806 -0.002543 -0.001068 -0.002593 -0.002347 0.141815 0.038277 
2.1150000000000002 0.243790 -0.453995 -0.002327 -0.000814 -0.002733 -0.001850 0.140762 0.035149 
2.1162500000000000 0.205719 -0.456467 -0.002351 -0.000633 -0.002655 -0.001792 0.139862 0.032791 
2.1175000000000002 0.170227 -0.455368 -0.002450 -0.000228 -0.002857 -0.001397 0.138779 0.030861 
2.1187499999999999 0.137573 -0.452713 -0.002318 -0.000182 -0.002884 -0.001272 0.138153 0.027954 
2.1200000000000001 0.105942 -0.449249 -0.002048 -0.000050 -0.002883 -0.000924 0.138329 0.026184 
2.1212499999999999 0.077591 -0.442993 -0.002231 0.000119 -0.003347 -0.000625 0.137146 0.023712 
2.1225000000000001 0.049728 -0.436203 -0.002563 0.000267 -0.003147 0.000046 0.136658 0.022102 
2.1237499999999998 0.024521 -0.429916 -0.002342 0.000387 -0.003129 0.000254 0.136665 0.020302 
2.1250000000000000 -0.000778 -0.420242 -0.002248 0.000555 -0.002873 0.000457 0.135971 0.018684 
2.1262500000000002 -0.023727 -0.413055 -0.001960 0.000702 -0.003211 0.000742 0.135300 0.017609 
2.1274999999999999 -0.044693 -0.403702 -0.001713 0.000900 -0.003130 0.000678 0.134407 0.016289 
2.1287500000000001 -0.065292 -0.393692 -0.001894 0.001004 -0.002521 0.000840 0.134338 0.014336 
2.1299999999999999 -0.083420 -0.385513 -0.001843 0.001028 -0.002822 0.001298 0.133423 0.012978 
2.1312500000000001 -0.102051 -0.374390 -0.001572 0.001270 -0.002633 0.001603 0.132530 0.010712 
2.1324999999999998 -0.120361 -0.364380 -0.001367 0.001283 -0.002309 0.001733 0.132370 0.009399 
2.1337500000000000 -0.135803 -0.353241 -0.001615 0.001547 -0.002164 0.001943 0.131729 0.006592 
2.1349999999999998 -0.151337 -0.343292 -0.001398 0.001388 -0.002018 0.002126 0.131523 0.004593 
2.1362500000000000 -0.166870 -0.331024 -0.001186 0.001673 -0.001951 0.002437 0.132202 0.002098 
2.1375000000000002 -0.181305 -0.319122 -0.001141 0.001539 -0.001631 0.002581 0.132187 0.000237 
2.1387499999999999 -0.195648 -0.306427 -0.001198 0.001806 -0.001229 0.002795 0.131455 -0.001724 
2.1400000000000001 -0.209412 -0.293426 -0.001101 0.001884 -0.001156 0.002777 0.131867 -0.003754 
2.1412499999999999 -0.222382 -0.280731 -0.000731 0.002051 -0.000936 0.002847 0.131760 -0.005524 
2.1425000000000001 -0.235992 -0.267517 -0.000849 0.001780 -0.000520 0.002782 0.130814 -0.007980 
2.1437499999999998 -0.246857 -0.255157 -0.000412 0.001801 -0.000626 0.002510 0.130302 -0.009827 
2.1450000000000000 -0.258911 -0.240356 -0.000484 0.002140 -0.000104 0.003167 0.129219 -0.012108 
2.1462500000000002 -0.270294 -0.226135 -0.000393 0.002050 0.000165 0.002978 0.128143 -0.015274 
2.1475000000000000 -0.281616 -0.211243 0.000025 0.002012 0.000635 0.002511 0.126885 -0.017494 
2.1487500000000002 -0.290955 -0.195496 0.000182 0.002049 0.000762 0.002844 0.125725 -0.020996 
2.1499999999999999 -0.302399 -0.179382 0.000283 0.002009 0.000977 0.003054 0.124519 -0.024002 
2.1512500000000001 -0.312195 -0.163117 0.000274 0.002195 0.001247 0.002716 0.123459 -0.026543 
