!
! C:\Users\rflab\Downloads\Lab5_KD_ZW\220.S2P
!
! Touchstone 1.1 file saved by VNA.EXE V1.65 (www.ke5fx.com/gpib/readme.htm)
! 11/12/2024 12:21:51 AM
!
!    Source: HEWLETT PACKARD,8753D,0,6.14
!  Min freq: 1.900000E+009 Hz
!  Max freq: 2.900000E+009 Hz
!    Points: 801
!    Params: S11 S21 S12 S22
!
!!!!!
# GHZ S RI R 50
1.8999999999999999 0.960815 0.266907 0.006915 0.000751 0.003702 0.001015 0.021643 -0.058271 
1.9012500000000001 0.958374 0.132568 0.006777 -0.000373 0.003723 0.000573 0.019392 -0.058138 
1.9025000000000001 0.926331 0.010254 0.006413 -0.001017 0.003534 0.000421 0.017176 -0.057606 
1.9037500000000001 0.885437 -0.097473 0.006034 -0.001565 0.003773 0.000294 0.014694 -0.058056 
1.9050000000000000 0.838257 -0.184448 0.005641 -0.002875 0.003522 -0.000098 0.012611 -0.056707 
1.9062500000000000 0.780182 -0.261932 0.005037 -0.002826 0.003736 -0.000413 0.010176 -0.055443 
1.9075000000000000 0.717377 -0.320038 0.004415 -0.003536 0.003969 -0.000765 0.008268 -0.054646 
1.9087499999999999 0.660034 -0.371887 0.003934 -0.003762 0.003794 -0.001172 0.005384 -0.053074 
1.9099999999999999 0.600861 -0.413117 0.003342 -0.004030 0.003605 -0.001545 0.003073 -0.051689 
1.9112499999999999 0.542481 -0.444214 0.002594 -0.004081 0.003739 -0.002053 0.000031 -0.050053 
1.9125000000000001 0.488159 -0.467194 0.002560 -0.004332 0.003208 -0.002115 -0.002462 -0.048662 
1.9137500000000001 0.435013 -0.485657 0.001780 -0.003863 0.003175 -0.002634 -0.005383 -0.047642 
1.9150000000000000 0.386230 -0.498947 0.001551 -0.004016 0.003077 -0.002826 -0.007782 -0.046499 
1.9162500000000000 0.336761 -0.507965 0.000855 -0.004022 0.002852 -0.003006 -0.010235 -0.045322 
1.9175000000000000 0.295013 -0.512604 0.000802 -0.003843 0.002607 -0.003082 -0.012133 -0.044168 
1.9187500000000000 0.254974 -0.517059 0.000316 -0.003678 0.002223 -0.003522 -0.013470 -0.042894 
1.9199999999999999 0.217682 -0.515564 0.000091 -0.003587 0.001729 -0.004051 -0.015432 -0.041552 
1.9212499999999999 0.182434 -0.514343 -0.000129 -0.003790 0.001638 -0.004166 -0.016632 -0.040070 
1.9225000000000001 0.149139 -0.511536 -0.000766 -0.003557 0.000792 -0.003888 -0.017889 -0.037865 
1.9237500000000001 0.115479 -0.507690 -0.000718 -0.003622 0.000740 -0.004287 -0.019636 -0.035692 
1.9250000000000000 0.085113 -0.502533 -0.000788 -0.003287 0.000095 -0.004180 -0.020947 -0.033772 
1.9262500000000000 0.056946 -0.497009 -0.001255 -0.003300 -0.000071 -0.004142 -0.022701 -0.031513 
1.9275000000000000 0.030945 -0.489838 -0.001454 -0.003068 -0.000337 -0.003927 -0.024059 -0.029205 
1.9287500000000000 0.004150 -0.482513 -0.001444 -0.002933 -0.000978 -0.003804 -0.025921 -0.027393 
1.9299999999999999 -0.019196 -0.473175 -0.001817 -0.002611 -0.001285 -0.004313 -0.027531 -0.025620 
1.9312499999999999 -0.040924 -0.464264 -0.001892 -0.002366 -0.001535 -0.004022 -0.028984 -0.024498 
1.9325000000000001 -0.065002 -0.454468 -0.002002 -0.002154 -0.002015 -0.003808 -0.030193 -0.023129 
1.9337500000000001 -0.085739 -0.444092 -0.002252 -0.002195 -0.002138 -0.003473 -0.030975 -0.021866 
1.9350000000000001 -0.106506 -0.433960 -0.002267 -0.002196 -0.002483 -0.003353 -0.032021 -0.020679 
1.9362500000000000 -0.126038 -0.423767 -0.002639 -0.001748 -0.002815 -0.002907 -0.031916 -0.019812 
1.9375000000000000 -0.145172 -0.413193 -0.002585 -0.001724 -0.002825 -0.002847 -0.032581 -0.018175 
1.9387500000000000 -0.162354 -0.400925 -0.002731 -0.001498 -0.003552 -0.002534 -0.033009 -0.016554 
1.9399999999999999 -0.180328 -0.389526 -0.002734 -0.001214 -0.003246 -0.001886 -0.033108 -0.014969 
1.9412499999999999 -0.197815 -0.377091 -0.002781 -0.001059 -0.003739 -0.001757 -0.033861 -0.013281 
1.9424999999999999 -0.214356 -0.365906 -0.002726 -0.000893 -0.003745 -0.001352 -0.034454 -0.010952 
1.9437500000000001 -0.230087 -0.351761 -0.002816 -0.000595 -0.004052 -0.001445 -0.035925 -0.010098 
1.9450000000000001 -0.246338 -0.338562 -0.002740 -0.000546 -0.004154 -0.000788 -0.036665 -0.008451 
1.9462500000000000 -0.261307 -0.325256 -0.003022 -0.000324 -0.004046 -0.000502 -0.037922 -0.007019 
1.9475000000000000 -0.275742 -0.310608 -0.003073 -0.000002 -0.004187 -0.000277 -0.039408 -0.006897 
1.9487500000000000 -0.290787 -0.296219 -0.003061 0.000191 -0.004237 0.000331 -0.040514 -0.006025 
1.9500000000000000 -0.303574 -0.281174 -0.002941 0.000419 -0.004037 0.000620 -0.041779 -0.005451 
1.9512499999999999 -0.318100 -0.265625 -0.002893 0.000566 -0.004084 0.001153 -0.042637 -0.005322 
1.9524999999999999 -0.331451 -0.249023 -0.002822 0.000832 -0.004059 0.001389 -0.043581 -0.004734 
1.9537500000000001 -0.344666 -0.232529 -0.002939 0.000931 -0.004106 0.001623 -0.043987 -0.004225 
1.9550000000000001 -0.356918 -0.214951 -0.002802 0.001300 -0.003684 0.002184 -0.044752 -0.003317 
1.9562500000000000 -0.368118 -0.196259 -0.002953 0.001346 -0.003530 0.002667 -0.045864 -0.002201 
1.9575000000000000 -0.381043 -0.176956 -0.002770 0.001670 -0.003249 0.002769 -0.047073 -0.001225 
1.9587500000000000 -0.393249 -0.156097 -0.002739 0.001868 -0.003030 0.003141 -0.048355 0.000309 
1.9600000000000000 -0.403534 -0.135407 -0.002619 0.002174 -0.002785 0.003497 -0.049431 0.001816 
1.9612499999999999 -0.415772 -0.112763 -0.002307 0.002327 -0.002648 0.003495 -0.051197 0.002712 
1.9624999999999999 -0.424805 -0.090179 -0.002165 0.002592 -0.002006 0.003846 -0.053276 0.004456 
1.9637500000000001 -0.436279 -0.065063 -0.001858 0.002618 -0.001710 0.004022 -0.055035 0.005974 
1.9650000000000001 -0.445343 -0.037872 -0.001822 0.003004 -0.001201 0.004340 -0.057011 0.006714 
1.9662500000000001 -0.454193 -0.010071 -0.001719 0.002951 -0.000801 0.004087 -0.058857 0.007946 
1.9675000000000000 -0.462555 0.018280 -0.001564 0.003067 -0.000453 0.004569 -0.060566 0.009510 
1.9687500000000000 -0.469330 0.050598 -0.001482 0.003391 -0.000042 0.004366 -0.062157 0.010738 
1.9700000000000000 -0.475220 0.084213 -0.001273 0.003803 0.000221 0.004325 -0.063274 0.012341 
1.9712499999999999 -0.479523 0.121918 -0.000923 0.003934 0.000819 0.003960 -0.064808 0.014595 
1.9724999999999999 -0.483429 0.160004 -0.000525 0.003983 0.001038 0.004103 -0.065659 0.016933 
1.9737499999999999 -0.484345 0.200821 -0.000139 0.004220 0.001429 0.004305 -0.067001 0.019917 
1.9750000000000001 -0.482407 0.245285 0.000320 0.004267 0.001870 0.003995 -0.068249 0.022671 
1.9762500000000001 -0.476898 0.293152 0.000623 0.004249 0.002256 0.003681 -0.070076 0.025818 
1.9775000000000000 -0.468140 0.343811 0.001402 0.004547 0.002663 0.003623 -0.072220 0.028912 
1.9787500000000000 -0.455017 0.395935 0.001726 0.004520 0.003059 0.003381 -0.073479 0.031654 
1.9800000000000000 -0.432312 0.454529 0.002213 0.004458 0.003301 0.003055 -0.074898 0.034870 
1.9812500000000000 -0.405701 0.513428 0.002461 0.004500 0.003628 0.002567 -0.076218 0.037735 
1.9824999999999999 -0.368042 0.579712 0.003312 0.004441 0.003702 0.002172 -0.077183 0.040646 
1.9837499999999999 -0.321045 0.641602 0.003865 0.004287 0.003597 0.001663 -0.077442 0.043118 
1.9850000000000001 -0.256561 0.706573 0.004528 0.003938 0.003883 0.001502 -0.077530 0.046520 
1.9862500000000001 -0.178223 0.766357 0.005593 0.003495 0.003963 0.001061 -0.077774 0.050110 
1.9875000000000000 -0.091858 0.824158 0.005873 0.003209 0.004034 0.000526 -0.076950 0.053074 
1.9887500000000000 0.018189 0.857727 0.006249 0.001852 0.003953 0.000154 -0.076588 0.056873 
1.9900000000000000 0.143189 0.883301 0.006717 0.000958 0.004282 -0.000376 -0.075619 0.061333 
1.9912500000000000 0.273865 0.886047 0.006986 -0.000078 0.003844 -0.000547 -0.074940 0.065151 
1.9924999999999999 0.417847 0.855713 0.007004 -0.001259 0.003788 -0.000847 -0.074261 0.069260 
1.9937499999999999 0.548462 0.797607 0.006956 -0.002122 0.003772 -0.001206 -0.073742 0.073471 
1.9950000000000001 0.674622 0.703796 0.006751 -0.003209 0.003309 -0.001642 -0.072754 0.077042 
1.9962500000000001 0.778564 0.588196 0.005679 -0.004104 0.003425 -0.001433 -0.071480 0.080658 
1.9975000000000001 0.847656 0.462891 0.004643 -0.004956 0.003453 -0.002082 -0.070930 0.084122 
1.9987500000000000 0.887451 0.323425 0.003973 -0.005269 0.003180 -0.002513 -0.069576 0.086498 
2.0000000000000000 0.901184 0.188965 0.003030 -0.005213 0.002934 -0.002452 -0.067802 0.089981 
2.0012500000000002 0.888794 0.060303 0.002272 -0.006552 0.002793 -0.002817 -0.065552 0.091888 
2.0024999999999999 0.858765 -0.046326 0.001227 -0.006101 0.002657 -0.003121 -0.062428 0.095406 
2.0037500000000001 0.810913 -0.142029 0.000715 -0.005527 0.002080 -0.003421 -0.059772 0.097786 
2.0049999999999999 0.756653 -0.223755 0.000001 -0.005284 0.001938 -0.003686 -0.056751 0.100243 
2.0062500000000001 0.698486 -0.290619 -0.000752 -0.005157 0.001830 -0.003773 -0.053875 0.103497 
2.0074999999999998 0.641907 -0.343811 -0.001418 -0.005022 0.001553 -0.003637 -0.050755 0.106083 
2.0087500000000000 0.578094 -0.386841 -0.001660 -0.004455 0.000993 -0.003928 -0.048004 0.108391 
2.0099999999999998 0.521454 -0.418243 -0.002082 -0.003986 0.000356 -0.004368 -0.045193 0.110924 
2.0112500000000000 0.467285 -0.441467 -0.002190 -0.003853 -0.000123 -0.004315 -0.042858 0.113117 
2.0125000000000002 0.415588 -0.461395 -0.002427 -0.003021 -0.000387 -0.003816 -0.040623 0.114315 
2.0137499999999999 0.368027 -0.473755 -0.002683 -0.003175 -0.000806 -0.004250 -0.037724 0.116013 
2.0150000000000001 0.321549 -0.484100 -0.002697 -0.002571 -0.001221 -0.003879 -0.035412 0.116592 
2.0162499999999999 0.278610 -0.488098 -0.002540 -0.002026 -0.001640 -0.003942 -0.033398 0.116734 
2.0175000000000001 0.237991 -0.490433 -0.002746 -0.002097 -0.001920 -0.003694 -0.030300 0.117420 
2.0187499999999998 0.200226 -0.490891 -0.002769 -0.001646 -0.002012 -0.003164 -0.027363 0.117699 
2.0200000000000000 0.165009 -0.488281 -0.002895 -0.001372 -0.002726 -0.003161 -0.024956 0.118084 
2.0212500000000002 0.131241 -0.485626 -0.002981 -0.001321 -0.002567 -0.002736 -0.021870 0.118397 
2.0225000000000000 0.101364 -0.479507 -0.002734 -0.000983 -0.002816 -0.002429 -0.019226 0.118748 
2.0237500000000002 0.073608 -0.475708 -0.002868 -0.000648 -0.003190 -0.002349 -0.017235 0.118630 
2.0249999999999999 0.045593 -0.468872 -0.002881 -0.000379 -0.003355 -0.001757 -0.015038 0.119301 
2.0262500000000001 0.019653 -0.460327 -0.002747 -0.000289 -0.003468 -0.001520 -0.013237 0.120514 
2.0274999999999999 -0.003540 -0.451355 -0.002777 -0.000071 -0.003480 -0.001349 -0.011650 0.120430 
2.0287500000000001 -0.028534 -0.443359 -0.002657 0.000245 -0.003740 -0.000713 -0.010735 0.120895 
2.0299999999999998 -0.050446 -0.434326 -0.002609 0.000325 -0.003592 -0.000307 -0.009804 0.120773 
2.0312500000000000 -0.073090 -0.424591 -0.002413 0.000498 -0.003601 -0.000197 -0.009132 0.120392 
2.0325000000000002 -0.091644 -0.413727 -0.002258 0.000948 -0.003884 -0.000081 -0.008316 0.120453 
2.0337499999999999 -0.111664 -0.403503 -0.002168 0.000722 -0.003425 0.000278 -0.007637 0.120232 
2.0350000000000001 -0.130798 -0.393249 -0.002179 0.000999 -0.003276 0.000912 -0.006958 0.120338 
2.0362499999999999 -0.147705 -0.381531 -0.002248 0.001086 -0.003302 0.000897 -0.006317 0.119919 
2.0375000000000001 -0.163818 -0.370667 -0.001985 0.001142 -0.003156 0.001307 -0.004433 0.120491 
2.0387499999999998 -0.180176 -0.359314 -0.001921 0.001450 -0.002986 0.001650 -0.003532 0.121376 
2.0400000000000000 -0.196167 -0.346893 -0.001872 0.001310 -0.003076 0.001869 -0.003143 0.122734 
2.0412499999999998 -0.210571 -0.335144 -0.001837 0.001609 -0.002760 0.002173 -0.001823 0.123489 
2.0425000000000000 -0.225189 -0.323303 -0.001524 0.001462 -0.002266 0.002276 -0.001335 0.125168 
2.0437500000000002 -0.240143 -0.311340 -0.001486 0.001721 -0.002297 0.002590 -0.000748 0.126846 
2.0449999999999999 -0.253967 -0.297272 -0.001267 0.001888 -0.002345 0.002699 0.000038 0.127602 
2.0462500000000001 -0.265350 -0.282257 -0.001130 0.001920 -0.002217 0.002862 0.000427 0.129150 
2.0474999999999999 -0.278351 -0.270020 -0.000929 0.001736 -0.001474 0.003057 0.001152 0.130631 
2.0487500000000001 -0.291412 -0.254120 -0.000900 0.002009 -0.001316 0.003341 0.002228 0.132523 
2.0499999999999998 -0.302429 -0.238464 -0.000675 0.001973 -0.000930 0.003264 0.003761 0.133904 
2.0512500000000000 -0.314789 -0.223541 -0.000705 0.002091 -0.000699 0.003535 0.005631 0.135399 
2.0525000000000002 -0.326630 -0.207825 -0.000614 0.002121 -0.000423 0.003371 0.007149 0.137260 
2.0537500000000000 -0.336884 -0.189789 -0.000597 0.002055 0.000049 0.003856 0.009865 0.139740 
2.0550000000000002 -0.347809 -0.173889 -0.000179 0.002088 -0.000221 0.003255 0.011948 0.141541 
2.0562499999999999 -0.359039 -0.154327 -0.000081 0.002318 0.000311 0.003235 0.014938 0.143272 
2.0575000000000001 -0.368683 -0.136017 0.000039 0.002382 0.000262 0.003385 0.018120 0.146011 
2.0587499999999999 -0.378540 -0.117004 0.000295 0.002351 0.000918 0.003150 0.020325 0.148056 
2.0600000000000001 -0.388611 -0.094849 0.000351 0.002484 0.001342 0.003337 0.022995 0.150207 
2.0612499999999998 -0.397873 -0.073532 0.000476 0.002042 0.001455 0.002766 0.026352 0.152206 
2.0625000000000000 -0.404877 -0.049301 0.000705 0.002298 0.001583 0.002846 0.029129 0.154129 
2.0637500000000002 -0.412979 -0.025848 0.000945 0.002284 0.002007 0.002636 0.033264 0.154724 
2.0649999999999999 -0.419983 0.000671 0.001094 0.002362 0.002012 0.002479 0.036652 0.155609 
2.0662500000000001 -0.427048 0.027435 0.001019 0.002142 0.002394 0.002452 0.040886 0.156433 
2.0674999999999999 -0.433670 0.056091 0.001281 0.002006 0.002517 0.001924 0.045425 0.156342 
2.0687500000000001 -0.436508 0.085449 0.001651 0.002049 0.002836 0.002103 0.050674 0.156509 
2.0699999999999998 -0.440674 0.119690 0.001688 0.002004 0.002848 0.001447 0.056099 0.156403 
2.0712500000000000 -0.440552 0.152710 0.001669 0.001709 0.002804 0.001168 0.061539 0.155670 
2.0724999999999998 -0.441132 0.189728 0.002039 0.001599 0.003092 0.001049 0.066483 0.155548 
2.0737500000000000 -0.438110 0.230225 0.002234 0.001562 0.003154 0.000842 0.072235 0.155167 
2.0750000000000002 -0.430054 0.271393 0.002376 0.001385 0.003190 0.000523 0.078308 0.153885 
2.0762499999999999 -0.421448 0.315979 0.002771 0.001331 0.003310 -0.000033 0.082718 0.152985 
2.0775000000000001 -0.407196 0.364777 0.002777 0.001059 0.003016 -0.000029 0.088242 0.151581 
2.0787499999999999 -0.388428 0.412720 0.002984 0.000898 0.003300 -0.000451 0.092651 0.149384 
2.0800000000000001 -0.359818 0.469437 0.003059 0.000449 0.003272 -0.000461 0.097313 0.146965 
2.0812499999999998 -0.326965 0.524872 0.003241 0.000295 0.003135 -0.000939 0.102707 0.143417 
2.0825000000000000 -0.278961 0.576019 0.003592 -0.000087 0.003139 -0.001242 0.107040 0.140472 
2.0837500000000002 -0.226776 0.633026 0.003603 -0.000363 0.002633 -0.001691 0.111832 0.137009 
2.0850000000000000 -0.157288 0.685089 0.004126 -0.000362 0.002322 -0.001816 0.116638 0.132675 
2.0862500000000002 -0.077576 0.729004 0.003812 -0.001289 0.002379 -0.001799 0.120789 0.128510 
2.0874999999999999 0.018616 0.764832 0.004039 -0.001775 0.002309 -0.002332 0.125641 0.124283 
2.0887500000000001 0.130432 0.782165 0.003521 -0.002138 0.001903 -0.002239 0.129791 0.120132 
2.0899999999999999 0.247192 0.781311 0.003839 -0.002801 0.001785 -0.002228 0.133362 0.115662 
2.0912500000000001 0.376099 0.761108 0.003150 -0.003594 0.001697 -0.002500 0.136215 0.111862 
2.0924999999999998 0.497437 0.714661 0.002979 -0.004094 0.001387 -0.002706 0.138855 0.107849 
2.0937500000000000 0.608521 0.629028 0.001786 -0.004755 0.000968 -0.002374 0.140541 0.102646 
2.0950000000000002 0.701111 0.528564 0.001451 -0.004759 0.001145 -0.002836 0.142334 0.097809 
2.0962499999999999 0.773285 0.415863 0.000583 -0.004635 0.000837 -0.003058 0.144073 0.092735 
2.0975000000000001 0.806427 0.293213 0.000128 -0.004337 0.000686 -0.002720 0.144699 0.088318 
2.0987499999999999 0.820252 0.173401 -0.000676 -0.004610 0.000505 -0.002561 0.146469 0.083176 
2.1000000000000001 0.812012 0.058411 -0.001440 -0.003846 0.000227 -0.003228 0.145996 0.078049 
2.1012499999999998 0.786926 -0.048157 -0.001743 -0.003936 -0.000064 -0.003167 0.146896 0.073151 
2.1025000000000000 0.743774 -0.134277 -0.001963 -0.003219 -0.000547 -0.002995 0.147400 0.068710 
2.1037499999999998 0.695373 -0.209229 -0.002414 -0.003184 -0.000581 -0.003280 0.147827 0.064026 
2.1050000000000000 0.640076 -0.274109 -0.002464 -0.002720 -0.000853 -0.003091 0.148117 0.060196 
2.1062500000000002 0.586914 -0.323547 -0.003058 -0.002421 -0.001679 -0.003046 0.148117 0.055962 
2.1074999999999999 0.531677 -0.361511 -0.002843 -0.001761 -0.001872 -0.002833 0.147644 0.052757 
2.1087500000000001 0.478683 -0.391571 -0.003087 -0.001508 -0.001961 -0.002957 0.146851 0.048920 
2.1099999999999999 0.425766 -0.412796 -0.003047 -0.001313 -0.002284 -0.002435 0.146248 0.046188 
2.1112500000000001 0.376968 -0.428970 -0.002837 -0.000960 -0.002662 -0.002301 0.145126 0.043777 
2.1124999999999998 0.329681 -0.440811 -0.002728 -0.000454 -0.003078 -0.001904 0.143562 0.040184 
2.1137500000000000 0.285858 -0.449783 -0.002830 -0.000378 -0.002943 -0.001501 0.142784 0.037682 
2.1150000000000002 0.245560 -0.453140 -0.002807 -0.000377 -0.002878 -0.001336 0.141403 0.034668 
2.1162500000000000 0.207001 -0.455948 -0.002447 0.000123 -0.003233 -0.000879 0.140595 0.031502 
2.1175000000000002 0.171402 -0.454452 -0.002600 0.000323 -0.002969 -0.000690 0.139404 0.029640 
2.1187499999999999 0.138397 -0.451630 -0.002561 0.000350 -0.003373 -0.000867 0.139290 0.026718 
2.1200000000000001 0.107025 -0.449143 -0.002664 0.000604 -0.003425 -0.000069 0.138214 0.024986 
2.1212499999999999 0.078613 -0.442566 -0.002095 0.000691 -0.003480 0.000211 0.137528 0.022499 
2.1225000000000001 0.050446 -0.436279 -0.001853 0.000966 -0.003389 0.000678 0.137116 0.021393 
2.1237499999999998 0.024979 -0.429855 -0.002128 0.000918 -0.002847 0.000766 0.136414 0.019234 
2.1250000000000000 0.000382 -0.419708 -0.001953 0.001284 -0.002817 0.000626 0.135681 0.017830 
2.1262500000000002 -0.022827 -0.413117 -0.001820 0.001261 -0.002789 0.001719 0.135140 0.017067 
2.1274999999999999 -0.043823 -0.404388 -0.001652 0.001271 -0.002855 0.001427 0.134628 0.015259 
2.1287500000000001 -0.064072 -0.394012 -0.001643 0.001363 -0.002493 0.001597 0.133621 0.014122 
2.1299999999999999 -0.083145 -0.386246 -0.001607 0.001544 -0.001984 0.001867 0.133141 0.012520 
2.1312500000000001 -0.101532 -0.374817 -0.001280 0.001503 -0.002210 0.002182 0.132042 0.009987 
2.1324999999999998 -0.119598 -0.364716 -0.001189 0.001577 -0.001729 0.002634 0.131409 0.008583 
2.1337500000000000 -0.135254 -0.353424 -0.000897 0.001807 -0.001714 0.002380 0.131523 0.006149 
2.1349999999999998 -0.150757 -0.343048 -0.001020 0.001926 -0.001192 0.002730 0.131165 0.004273 
2.1362500000000000 -0.166290 -0.331146 -0.000749 0.001889 -0.001227 0.003000 0.131432 0.001938 
2.1375000000000002 -0.180450 -0.319611 -0.000775 0.001984 -0.000732 0.002980 0.131729 0.000137 
2.1387499999999999 -0.195129 -0.306305 -0.000621 0.001972 -0.000721 0.002824 0.130966 -0.001663 
2.1400000000000001 -0.208801 -0.293426 -0.000637 0.002272 -0.000704 0.002929 0.130676 -0.003563 
2.1412499999999999 -0.221527 -0.280823 -0.000289 0.002029 -0.000221 0.003357 0.130844 -0.005638 
2.1425000000000001 -0.235474 -0.267731 -0.000166 0.002032 -0.000004 0.002927 0.130318 -0.007484 
2.1437499999999998 -0.246521 -0.255524 -0.000127 0.002014 0.000500 0.002734 0.129768 -0.009705 
2.1450000000000000 -0.258087 -0.240845 0.000074 0.002022 0.000448 0.003200 0.128204 -0.011879 
2.1462500000000002 -0.269592 -0.226624 0.000304 0.002096 0.000975 0.002710 0.127159 -0.014534 
2.1475000000000000 -0.281097 -0.211884 0.000215 0.001928 0.001262 0.002712 0.126045 -0.016830 
2.1487500000000002 -0.290070 -0.195892 0.000427 0.001939 0.001270 0.002714 0.125412 -0.019936 
2.1499999999999999 -0.301575 -0.179779 0.000612 0.002108 0.001559 0.002493 0.123871 -0.023369 
2.1512500000000001 -0.311462 -0.163574 0.000870 0.001843 0.002017 0.002346 0.122772 -0.026390 
