!
! C:\Users\rflab\Downloads\Lab5_KD_ZW\230.S2P
!
! Touchstone 1.1 file saved by VNA.EXE V1.65 (www.ke5fx.com/gpib/readme.htm)
! 11/12/2024 12:22:58 AM
!
!    Source: HEWLETT PACKARD,8753D,0,6.14
!  Min freq: 1.900000E+009 Hz
!  Max freq: 2.900000E+009 Hz
!    Points: 801
!    Params: S11 S21 S12 S22
!
!!!!!
# GHZ S RI R 50
1.8999999999999999 0.963013 0.263977 0.007324 0.000537 0.004047 0.001162 0.022121 -0.057692 
1.9012500000000001 0.954407 0.132385 0.007313 -0.000582 0.004107 0.000807 0.019461 -0.057587 
1.9025000000000001 0.925903 0.006348 0.006834 -0.001605 0.004056 0.000521 0.017456 -0.057150 
1.9037500000000001 0.886536 -0.098206 0.006483 -0.002049 0.003997 -0.000062 0.015240 -0.057465 
1.9050000000000000 0.837921 -0.186951 0.006111 -0.003155 0.004271 -0.000158 0.012997 -0.056604 
1.9062500000000000 0.775116 -0.260254 0.005050 -0.003387 0.004162 -0.000651 0.010466 -0.055313 
1.9075000000000000 0.718475 -0.324371 0.004198 -0.003768 0.004093 -0.000768 0.008686 -0.054173 
1.9087499999999999 0.659851 -0.375641 0.003952 -0.004232 0.004141 -0.001064 0.006241 -0.052856 
1.9099999999999999 0.596497 -0.412140 0.003275 -0.004211 0.003698 -0.001730 0.003662 -0.051714 
1.9112499999999999 0.539154 -0.444641 0.002983 -0.004162 0.004052 -0.002146 0.000679 -0.050100 
1.9125000000000001 0.485443 -0.466461 0.002381 -0.004074 0.003773 -0.002511 -0.001944 -0.048742 
1.9137500000000001 0.432816 -0.484665 0.001919 -0.004500 0.003423 -0.002740 -0.004784 -0.047752 
1.9150000000000000 0.383881 -0.498825 0.001415 -0.004553 0.003164 -0.002720 -0.007566 -0.046612 
1.9162500000000000 0.336487 -0.508118 0.001025 -0.004261 0.003090 -0.003629 -0.009964 -0.045288 
1.9175000000000000 0.294769 -0.513000 0.000775 -0.004298 0.002707 -0.003601 -0.011972 -0.044163 
1.9187500000000000 0.254273 -0.516632 0.000426 -0.004423 0.002170 -0.003711 -0.013573 -0.043079 
1.9199999999999999 0.215729 -0.516113 0.000110 -0.003950 0.002009 -0.003993 -0.015289 -0.041740 
1.9212499999999999 0.180695 -0.514038 -0.000287 -0.004189 0.001520 -0.004295 -0.016907 -0.040106 
1.9225000000000001 0.147369 -0.512390 -0.000601 -0.003678 0.001091 -0.004536 -0.018158 -0.038258 
1.9237500000000001 0.113983 -0.508392 -0.001060 -0.003466 0.000545 -0.004323 -0.019724 -0.036257 
1.9250000000000000 0.084900 -0.502594 -0.001177 -0.003543 -0.000105 -0.004477 -0.021212 -0.033998 
1.9262500000000000 0.055054 -0.496704 -0.001567 -0.003456 -0.000122 -0.004533 -0.022797 -0.032097 
1.9275000000000000 0.030273 -0.490326 -0.001782 -0.003334 -0.000515 -0.004878 -0.024738 -0.029518 
1.9287500000000000 0.003693 -0.482758 -0.001671 -0.003057 -0.000994 -0.004513 -0.026478 -0.027714 
1.9299999999999999 -0.019745 -0.473938 -0.002035 -0.002850 -0.001706 -0.004484 -0.027882 -0.025768 
1.9312499999999999 -0.042145 -0.464050 -0.002039 -0.002419 -0.002034 -0.004157 -0.029728 -0.024715 
1.9325000000000001 -0.065033 -0.455444 -0.002227 -0.002477 -0.002253 -0.003931 -0.030983 -0.023102 
1.9337500000000001 -0.086258 -0.444885 -0.002370 -0.002207 -0.002716 -0.003850 -0.031836 -0.022003 
1.9350000000000001 -0.106827 -0.433365 -0.002503 -0.001989 -0.002880 -0.003187 -0.032675 -0.020575 
1.9362500000000000 -0.125687 -0.423843 -0.002687 -0.001814 -0.003440 -0.003079 -0.032822 -0.019487 
1.9375000000000000 -0.145508 -0.412628 -0.002860 -0.001449 -0.003736 -0.002803 -0.033157 -0.018047 
1.9387500000000000 -0.163193 -0.400589 -0.002869 -0.001439 -0.003702 -0.002486 -0.033947 -0.016464 
1.9399999999999999 -0.180984 -0.389160 -0.002923 -0.001258 -0.003837 -0.001875 -0.034334 -0.014524 
1.9412499999999999 -0.198273 -0.376679 -0.003013 -0.000950 -0.004294 -0.001825 -0.034853 -0.012564 
1.9424999999999999 -0.213409 -0.364914 -0.002873 -0.000855 -0.004148 -0.001488 -0.035597 -0.010674 
1.9437500000000001 -0.231155 -0.350861 -0.003227 -0.000612 -0.004407 -0.001060 -0.036484 -0.009243 
1.9450000000000001 -0.245972 -0.337387 -0.003039 -0.000297 -0.004411 -0.000924 -0.037191 -0.007717 
1.9462500000000000 -0.262207 -0.324783 -0.003149 -0.000235 -0.004331 -0.000450 -0.038839 -0.006063 
1.9475000000000000 -0.276154 -0.309204 -0.003206 0.000085 -0.004428 0.000076 -0.040276 -0.005522 
1.9487500000000000 -0.291916 -0.295380 -0.003240 0.000105 -0.004408 0.000642 -0.041248 -0.004774 
1.9500000000000000 -0.305038 -0.280396 -0.003358 0.000563 -0.004240 0.000885 -0.042534 -0.004135 
1.9512499999999999 -0.318878 -0.265045 -0.003172 0.000772 -0.004148 0.001650 -0.043228 -0.004171 
1.9524999999999999 -0.332321 -0.247665 -0.003039 0.001062 -0.003996 0.001585 -0.043936 -0.003765 
1.9537500000000001 -0.345490 -0.232010 -0.003122 0.001139 -0.004223 0.001992 -0.044579 -0.003054 
1.9550000000000001 -0.357269 -0.214432 -0.003017 0.001266 -0.003600 0.002163 -0.045164 -0.001942 
1.9562500000000000 -0.368729 -0.195969 -0.002839 0.001578 -0.003743 0.002916 -0.045549 -0.001404 
1.9575000000000000 -0.382172 -0.175995 -0.003034 0.001936 -0.003406 0.002907 -0.047174 0.000025 
1.9587500000000000 -0.393280 -0.155548 -0.002738 0.002376 -0.002970 0.003324 -0.047661 0.001442 
1.9600000000000000 -0.404755 -0.133575 -0.002381 0.002395 -0.002535 0.003686 -0.049080 0.002731 
1.9612499999999999 -0.416992 -0.112671 -0.002491 0.002469 -0.002507 0.004128 -0.050911 0.004025 
1.9624999999999999 -0.425537 -0.090118 -0.002219 0.002614 -0.001870 0.004190 -0.052696 0.005512 
1.9637500000000001 -0.436432 -0.064240 -0.002014 0.002832 -0.001553 0.004551 -0.054226 0.006828 
1.9650000000000001 -0.446350 -0.037598 -0.001951 0.002953 -0.000958 0.004763 -0.056084 0.007744 
1.9662500000000001 -0.455292 -0.009003 -0.001687 0.003366 -0.000642 0.004729 -0.057621 0.008957 
1.9675000000000000 -0.461456 0.018829 -0.001538 0.003586 -0.000305 0.004546 -0.059330 0.010204 
1.9687500000000000 -0.469055 0.051086 -0.001050 0.003839 0.000040 0.004260 -0.060902 0.011150 
1.9700000000000000 -0.476135 0.086029 -0.000880 0.003904 0.000665 0.004692 -0.062094 0.012857 
1.9712499999999999 -0.479401 0.124252 -0.000466 0.004179 0.000907 0.004537 -0.063305 0.015110 
1.9724999999999999 -0.482712 0.159195 -0.000207 0.004576 0.001197 0.004486 -0.064510 0.017120 
1.9737499999999999 -0.482971 0.201248 0.000093 0.004612 0.001562 0.004123 -0.065460 0.019814 
1.9750000000000001 -0.481720 0.247604 0.000569 0.004824 0.002144 0.003860 -0.067318 0.022587 
1.9762500000000001 -0.477325 0.296600 0.000669 0.004592 0.002703 0.003736 -0.068848 0.025696 
1.9775000000000000 -0.468445 0.345825 0.001699 0.004753 0.003263 0.003500 -0.070602 0.028461 
1.9787500000000000 -0.455505 0.397034 0.001929 0.004941 0.003197 0.003233 -0.072487 0.031464 
1.9800000000000000 -0.431641 0.456543 0.002409 0.004295 0.003766 0.002664 -0.073563 0.034382 
1.9812500000000000 -0.404175 0.517456 0.003242 0.004381 0.003898 0.002487 -0.074924 0.037064 
1.9824999999999999 -0.366089 0.580383 0.003612 0.004517 0.004088 0.002024 -0.075943 0.040092 
1.9837499999999999 -0.321045 0.641907 0.004522 0.004035 0.004306 0.001972 -0.076218 0.042297 
1.9850000000000001 -0.257813 0.708771 0.004905 0.003803 0.004280 0.001152 -0.076851 0.045551 
1.9862500000000001 -0.182007 0.768066 0.006283 0.003245 0.004203 0.000993 -0.077175 0.048912 
1.9875000000000000 -0.087158 0.823731 0.006955 0.002857 0.004193 0.000354 -0.076580 0.052231 
1.9887500000000000 0.019165 0.866760 0.006682 0.001602 0.004409 -0.000076 -0.076077 0.055946 
1.9900000000000000 0.147522 0.883484 0.007341 0.000954 0.004373 -0.000513 -0.075520 0.059891 
1.9912500000000000 0.278503 0.889771 0.007757 -0.000398 0.004644 -0.000628 -0.074612 0.064140 
1.9924999999999999 0.418152 0.860290 0.007437 -0.001296 0.004408 -0.001307 -0.074089 0.068382 
1.9937499999999999 0.554382 0.793213 0.007222 -0.002833 0.004014 -0.001673 -0.073338 0.072414 
1.9950000000000001 0.672241 0.701172 0.006923 -0.003760 0.004000 -0.001732 -0.072914 0.076069 
1.9962500000000001 0.774536 0.586487 0.006150 -0.005291 0.003783 -0.001921 -0.071945 0.079857 
1.9975000000000001 0.849426 0.462585 0.005079 -0.005716 0.003148 -0.002212 -0.071281 0.083138 
1.9987500000000000 0.889954 0.317627 0.003846 -0.005761 0.003146 -0.002607 -0.070011 0.086540 
2.0000000000000000 0.899048 0.184204 0.003123 -0.006460 0.003131 -0.002834 -0.067810 0.089691 
2.0012500000000002 0.889771 0.061645 0.001901 -0.006333 0.002686 -0.003169 -0.066078 0.092018 
2.0024999999999999 0.857117 -0.051819 0.001048 -0.006369 0.002413 -0.003438 -0.063274 0.095093 
2.0037500000000001 0.814087 -0.142151 -0.000010 -0.006258 0.002121 -0.003571 -0.060455 0.097904 
2.0049999999999999 0.753235 -0.223083 -0.000535 -0.006023 0.001773 -0.003944 -0.057472 0.100411 
2.0062500000000001 0.699982 -0.290619 -0.001084 -0.005230 0.001465 -0.004137 -0.054878 0.103542 
2.0074999999999998 0.639221 -0.347046 -0.001507 -0.005061 0.001263 -0.004397 -0.051697 0.106316 
2.0087500000000000 0.578094 -0.387207 -0.002210 -0.004134 0.000682 -0.004440 -0.048821 0.109314 
2.0099999999999998 0.521271 -0.418793 -0.002246 -0.004038 0.000406 -0.004414 -0.046013 0.111755 
2.0112500000000000 0.467224 -0.444000 -0.003001 -0.003636 -0.000204 -0.004191 -0.043839 0.113785 
2.0125000000000002 0.413879 -0.463257 -0.002770 -0.003335 -0.000724 -0.004499 -0.041321 0.115715 
2.0137499999999999 0.367569 -0.474609 -0.002958 -0.002776 -0.001296 -0.004504 -0.038960 0.117233 
2.0150000000000001 0.319885 -0.485275 -0.003088 -0.002397 -0.001479 -0.004260 -0.036118 0.118244 
2.0162499999999999 0.279068 -0.489838 -0.002931 -0.002286 -0.002084 -0.004156 -0.033676 0.119049 
2.0175000000000001 0.236786 -0.491699 -0.002867 -0.001839 -0.002421 -0.003644 -0.030289 0.119003 
2.0187499999999998 0.200607 -0.490738 -0.003299 -0.001435 -0.002605 -0.003306 -0.027699 0.119930 
2.0200000000000000 0.164948 -0.488586 -0.003058 -0.001245 -0.002693 -0.003162 -0.024620 0.119904 
2.0212500000000002 0.131683 -0.486420 -0.003133 -0.001196 -0.002868 -0.003073 -0.022018 0.120815 
2.0225000000000000 0.100555 -0.481125 -0.003105 -0.000745 -0.003255 -0.002531 -0.019348 0.121311 
2.0237500000000002 0.072876 -0.475357 -0.003249 -0.000756 -0.003358 -0.002038 -0.016594 0.121140 
2.0249999999999999 0.045441 -0.469177 -0.003129 -0.000467 -0.003506 -0.002228 -0.014725 0.121544 
2.0262500000000001 0.019562 -0.459808 -0.002633 0.000083 -0.003864 -0.001306 -0.012611 0.122505 
2.0274999999999999 -0.004578 -0.451386 -0.002846 0.000164 -0.004199 -0.001129 -0.010536 0.122467 
2.0287500000000001 -0.028412 -0.443634 -0.002734 0.000314 -0.003795 -0.000777 -0.009567 0.123024 
2.0299999999999998 -0.050232 -0.433411 -0.002685 0.000599 -0.004020 -0.000636 -0.008461 0.122902 
2.0312500000000000 -0.072571 -0.423004 -0.002407 0.000593 -0.003910 -0.000004 -0.007866 0.122215 
2.0325000000000002 -0.091675 -0.413818 -0.002297 0.000780 -0.003764 0.000527 -0.006645 0.122490 
2.0337499999999999 -0.112213 -0.403351 -0.002398 0.000927 -0.003778 0.000501 -0.006538 0.121796 
2.0350000000000001 -0.131043 -0.391296 -0.002338 0.001019 -0.003775 0.001104 -0.005180 0.122307 
2.0362499999999999 -0.148102 -0.381012 -0.002330 0.001232 -0.003533 0.001355 -0.004028 0.121697 
2.0375000000000001 -0.164764 -0.370178 -0.002086 0.001493 -0.003495 0.001646 -0.003082 0.121834 
2.0387499999999998 -0.180756 -0.358826 -0.002003 0.001473 -0.003341 0.001901 -0.002129 0.122147 
2.0400000000000000 -0.195984 -0.347290 -0.001879 0.001731 -0.002978 0.002230 -0.000809 0.123619 
2.0412499999999998 -0.211548 -0.335358 -0.001626 0.001621 -0.002848 0.002380 -0.000237 0.123558 
2.0425000000000000 -0.225586 -0.322266 -0.001640 0.001817 -0.002665 0.002524 0.000626 0.125313 
2.0437500000000002 -0.240204 -0.310486 -0.001574 0.001801 -0.002595 0.002730 0.001007 0.126640 
2.0449999999999999 -0.254150 -0.296478 -0.001417 0.002051 -0.002357 0.003099 0.001854 0.127571 
2.0462500000000001 -0.266327 -0.281830 -0.001310 0.002030 -0.001818 0.003179 0.002579 0.128929 
2.0474999999999999 -0.278717 -0.269043 -0.000587 0.002192 -0.001797 0.003581 0.002823 0.130013 
2.0487500000000001 -0.291077 -0.253632 -0.000812 0.001889 -0.001042 0.003653 0.004082 0.131638 
2.0499999999999998 -0.303009 -0.239288 -0.000668 0.002194 -0.000733 0.003552 0.005600 0.133163 
2.0512500000000000 -0.315460 -0.223419 -0.000503 0.002339 -0.000377 0.003817 0.007027 0.134529 
2.0525000000000002 -0.327209 -0.208069 -0.000513 0.002316 0.000016 0.003472 0.008446 0.136551 
2.0537500000000000 -0.336945 -0.190064 -0.000289 0.002309 -0.000043 0.003821 0.011154 0.138123 
2.0550000000000002 -0.348297 -0.174225 -0.000266 0.002316 0.000292 0.003927 0.013153 0.140366 
2.0562499999999999 -0.358673 -0.154572 -0.000001 0.002366 0.000662 0.003509 0.015655 0.142311 
2.0575000000000001 -0.368103 -0.135376 0.000227 0.002594 0.001168 0.003378 0.018395 0.144608 
2.0587499999999999 -0.378876 -0.116363 0.000259 0.002273 0.001190 0.003459 0.020828 0.146957 
2.0600000000000001 -0.388550 -0.094421 0.000409 0.002549 0.001388 0.002851 0.023117 0.149155 
2.0612499999999998 -0.397324 -0.072800 0.000785 0.002324 0.001921 0.002875 0.026108 0.150757 
2.0625000000000000 -0.404861 -0.048828 0.000939 0.002489 0.002000 0.003042 0.029312 0.152283 
2.0637500000000002 -0.412857 -0.025345 0.001240 0.002433 0.002310 0.002599 0.032547 0.153122 
2.0649999999999999 -0.419952 0.001343 0.001146 0.002248 0.002401 0.002587 0.036186 0.154457 
2.0662500000000001 -0.427399 0.029266 0.001379 0.002069 0.002820 0.002367 0.040283 0.154915 
2.0674999999999999 -0.432922 0.056671 0.001619 0.002050 0.003031 0.001834 0.044556 0.154854 
2.0687500000000001 -0.438171 0.087372 0.001875 0.002082 0.002841 0.001967 0.049362 0.155182 
2.0699999999999998 -0.441299 0.120712 0.001920 0.001795 0.003344 0.001460 0.055038 0.155251 
2.0712500000000000 -0.441559 0.153778 0.002428 0.001930 0.003247 0.001344 0.060684 0.154282 
2.0724999999999998 -0.441925 0.191010 0.002491 0.001851 0.003408 0.000806 0.065781 0.154251 
2.0737500000000000 -0.438721 0.231079 0.002745 0.001833 0.003416 0.000501 0.071197 0.154480 
2.0750000000000002 -0.431397 0.271790 0.003009 0.001338 0.003266 0.000156 0.077179 0.153778 
2.0762499999999999 -0.421692 0.316956 0.002915 0.001235 0.003565 -0.000061 0.081421 0.152359 
2.0775000000000001 -0.408203 0.366455 0.003379 0.000947 0.003607 -0.000323 0.087174 0.150818 
2.0787499999999999 -0.385071 0.413971 0.003816 0.000654 0.003310 -0.000701 0.091797 0.149826 
2.0800000000000001 -0.360184 0.468307 0.003636 0.000461 0.003117 -0.000862 0.096596 0.146912 
2.0812499999999998 -0.328430 0.525421 0.004035 0.000181 0.003147 -0.001378 0.101975 0.144241 
2.0825000000000000 -0.279450 0.576477 0.003901 -0.000342 0.003030 -0.001569 0.106705 0.140686 
2.0837500000000002 -0.227173 0.633453 0.003733 -0.000793 0.002740 -0.001707 0.111755 0.137146 
2.0850000000000000 -0.156586 0.684601 0.003972 -0.000995 0.002488 -0.001987 0.116104 0.133240 
2.0862500000000002 -0.074158 0.730286 0.004264 -0.001352 0.002398 -0.002366 0.120224 0.129105 
2.0874999999999999 0.019775 0.764832 0.004011 -0.002683 0.002319 -0.002314 0.125732 0.125137 
2.0887500000000001 0.132690 0.783325 0.003823 -0.002795 0.002204 -0.002709 0.129425 0.121140 
2.0899999999999999 0.256287 0.780945 0.003975 -0.003765 0.001834 -0.002933 0.133209 0.116776 
2.0912500000000001 0.378174 0.759277 0.002812 -0.004185 0.001741 -0.002814 0.136871 0.112823 
2.0924999999999998 0.498230 0.713074 0.002207 -0.004911 0.001314 -0.003303 0.139717 0.108391 
2.0937500000000000 0.618958 0.624023 0.001409 -0.005033 0.001318 -0.002957 0.141983 0.103493 
2.0950000000000002 0.702759 0.535400 0.000535 -0.005256 0.000909 -0.003113 0.144318 0.098701 
2.0962499999999999 0.775146 0.414490 0.000240 -0.005067 0.000675 -0.003330 0.145577 0.094055 
2.0975000000000001 0.809753 0.296905 -0.000623 -0.004485 0.000277 -0.003356 0.146591 0.089554 
2.0987499999999999 0.819702 0.168457 -0.001585 -0.004897 0.000032 -0.003338 0.147141 0.083939 
2.1000000000000001 0.817261 0.054260 -0.001792 -0.004462 -0.000116 -0.003620 0.148010 0.078903 
2.1012499999999998 0.785889 -0.050964 -0.001849 -0.003927 -0.000636 -0.003588 0.149002 0.073318 
2.1025000000000000 0.746338 -0.136231 -0.002734 -0.003676 -0.000753 -0.003272 0.149323 0.069244 
2.1037499999999998 0.694275 -0.210266 -0.002716 -0.003255 -0.001145 -0.003488 0.150070 0.064423 
2.1050000000000000 0.642578 -0.276733 -0.003250 -0.002857 -0.001226 -0.003317 0.150360 0.060104 
2.1062500000000002 0.589233 -0.324860 -0.003228 -0.002815 -0.001829 -0.003438 0.149918 0.056351 
2.1074999999999999 0.532959 -0.362579 -0.003443 -0.001689 -0.002230 -0.002997 0.150040 0.052925 
2.1087500000000001 0.479660 -0.392502 -0.003576 -0.001374 -0.002440 -0.003062 0.148811 0.048737 
2.1099999999999999 0.425781 -0.413788 -0.003286 -0.001200 -0.002960 -0.002387 0.148087 0.046089 
2.1112500000000001 0.377899 -0.429962 -0.003309 -0.000857 -0.003645 -0.002127 0.146988 0.042976 
2.1124999999999998 0.329483 -0.440140 -0.003218 -0.000442 -0.003269 -0.002228 0.145981 0.039627 
2.1137500000000000 0.286011 -0.450134 -0.003074 -0.000262 -0.003454 -0.001358 0.144676 0.036591 
2.1150000000000002 0.244736 -0.453217 -0.002846 -0.000112 -0.003789 -0.000992 0.143539 0.033615 
2.1162500000000000 0.207230 -0.454925 -0.002644 0.000268 -0.003636 -0.000579 0.142136 0.030785 
2.1175000000000002 0.170883 -0.454376 -0.002805 0.000481 -0.003659 -0.000357 0.140655 0.028549 
2.1187499999999999 0.138412 -0.451523 -0.002708 0.000681 -0.003281 -0.000022 0.140060 0.025635 
2.1200000000000001 0.106796 -0.448654 -0.002518 0.000987 -0.003802 0.000516 0.139687 0.023674 
2.1212499999999999 0.077942 -0.442917 -0.002415 0.000929 -0.003547 0.000481 0.138947 0.021195 
2.1225000000000001 0.049759 -0.435852 -0.002371 0.000913 -0.003352 0.000799 0.138138 0.019966 
2.1237499999999998 0.025208 -0.429291 -0.002180 0.001291 -0.003387 0.001404 0.137680 0.018166 
2.1250000000000000 0.000275 -0.420166 -0.002193 0.001433 -0.003067 0.001316 0.136665 0.016594 
2.1262500000000002 -0.023956 -0.412643 -0.001807 0.001504 -0.002682 0.001837 0.135834 0.015587 
2.1274999999999999 -0.045136 -0.404968 -0.001640 0.001651 -0.002660 0.002136 0.135223 0.013908 
2.1287500000000001 -0.065659 -0.395081 -0.001519 0.001602 -0.002306 0.001854 0.133926 0.012581 
2.1299999999999999 -0.083801 -0.386520 -0.001402 0.001899 -0.002510 0.002543 0.133202 0.011162 
2.1312500000000001 -0.102615 -0.374466 -0.001306 0.001984 -0.002023 0.002384 0.132332 0.008797 
2.1324999999999998 -0.120300 -0.365540 -0.001184 0.001822 -0.001794 0.002645 0.131531 0.007675 
2.1337500000000000 -0.135681 -0.354065 -0.000994 0.001912 -0.001444 0.003238 0.131065 0.005776 
2.1349999999999998 -0.151367 -0.343872 -0.000873 0.002200 -0.001392 0.002987 0.130425 0.003555 
2.1362500000000000 -0.166992 -0.331757 -0.000870 0.002186 -0.001176 0.002862 0.130745 0.001488 
2.1375000000000002 -0.181396 -0.319977 -0.000520 0.002318 -0.000752 0.003317 0.131035 -0.000282 
2.1387499999999999 -0.195374 -0.306915 -0.000201 0.002221 -0.000542 0.003191 0.130096 -0.002129 
2.1400000000000001 -0.209168 -0.294006 -0.000155 0.002350 0.000058 0.003322 0.129997 -0.003799 
2.1412499999999999 -0.221893 -0.281403 -0.000014 0.002425 -0.000282 0.003349 0.129700 -0.005524 
2.1425000000000001 -0.235687 -0.267731 0.000254 0.002127 0.000559 0.003381 0.128761 -0.007645 
2.1437499999999998 -0.246826 -0.255768 0.000135 0.002199 0.000965 0.003566 0.128326 -0.009865 
2.1450000000000000 -0.258240 -0.240967 0.000470 0.002331 0.001226 0.003227 0.127182 -0.011742 
2.1462500000000002 -0.269745 -0.226563 0.000646 0.002179 0.001228 0.003153 0.125900 -0.014603 
2.1475000000000000 -0.281006 -0.212036 0.000696 0.002040 0.001965 0.002589 0.125038 -0.016403 
2.1487500000000002 -0.290497 -0.195892 0.000668 0.001894 0.002036 0.002957 0.124283 -0.019585 
2.1499999999999999 -0.302002 -0.179596 0.001113 0.002241 0.001999 0.002741 0.122597 -0.022797 
2.1512500000000001 -0.311615 -0.163452 0.001165 0.001734 0.002140 0.002392 0.121376 -0.025436 
