!
! C:\Users\rflab\Downloads\Lab5_KD_ZW\240.S2P
!
! Touchstone 1.1 file saved by VNA.EXE V1.65 (www.ke5fx.com/gpib/readme.htm)
! 11/12/2024 12:24:34 AM
!
!    Source: HEWLETT PACKARD,8753D,0,6.14
!  Min freq: 1.900000E+009 Hz
!  Max freq: 2.900000E+009 Hz
!    Points: 801
!    Params: S11 S21 S12 S22
!
!!!!!
# GHZ S RI R 50
1.8999999999999999 0.960815 0.256897 0.007815 0.001416 0.003995 0.001408 0.022636 -0.058064 
1.9012500000000001 0.954590 0.125061 0.008107 0.000455 0.004163 0.001019 0.019970 -0.058029 
1.9025000000000001 0.926514 0.005127 0.007228 -0.001175 0.004226 0.000888 0.018009 -0.058107 
1.9037500000000001 0.884033 -0.098572 0.007155 -0.002314 0.004454 0.000510 0.015289 -0.058018 
1.9050000000000000 0.837402 -0.186737 0.006369 -0.002723 0.004475 -0.000057 0.013622 -0.057079 
1.9062500000000000 0.776062 -0.261749 0.005716 -0.002970 0.004261 -0.000291 0.011127 -0.056091 
1.9075000000000000 0.716431 -0.322968 0.005446 -0.003831 0.004524 -0.000596 0.009218 -0.055185 
1.9087499999999999 0.655518 -0.372376 0.004597 -0.004104 0.004398 -0.001065 0.006281 -0.053646 
1.9099999999999999 0.596039 -0.414429 0.004139 -0.004499 0.004640 -0.001403 0.003876 -0.052305 
1.9112499999999999 0.540619 -0.443939 0.003626 -0.004605 0.004176 -0.001776 0.000757 -0.051247 
1.9125000000000001 0.484528 -0.467316 0.002928 -0.004554 0.004013 -0.002344 -0.002039 -0.049587 
1.9137500000000001 0.432465 -0.486877 0.002227 -0.004395 0.003694 -0.002803 -0.004999 -0.048344 
1.9150000000000000 0.384277 -0.498352 0.001692 -0.004568 0.003846 -0.003085 -0.007618 -0.047552 
1.9162500000000000 0.336517 -0.507599 0.001352 -0.004698 0.003437 -0.003013 -0.010109 -0.046190 
1.9175000000000000 0.294617 -0.513611 0.000965 -0.004407 0.003310 -0.003990 -0.012297 -0.045481 
1.9187500000000000 0.253357 -0.517242 0.000576 -0.004460 0.003027 -0.004010 -0.013895 -0.044258 
1.9199999999999999 0.215332 -0.516022 0.000226 -0.004565 0.002541 -0.004283 -0.015631 -0.042320 
1.9212499999999999 0.180664 -0.513428 -0.000056 -0.004332 0.001780 -0.004427 -0.017056 -0.040991 
1.9225000000000001 0.146668 -0.511261 -0.000300 -0.004271 0.001327 -0.004786 -0.018932 -0.038685 
1.9237500000000001 0.113342 -0.508240 -0.000594 -0.003839 0.000744 -0.005049 -0.019926 -0.037220 
1.9250000000000000 0.084717 -0.501587 -0.001030 -0.003805 0.000475 -0.005030 -0.021774 -0.034763 
1.9262500000000000 0.055023 -0.497070 -0.001329 -0.003726 0.000004 -0.004979 -0.023579 -0.032181 
1.9275000000000000 0.029877 -0.490234 -0.001614 -0.003482 -0.000491 -0.004829 -0.025337 -0.030064 
1.9287500000000000 0.003540 -0.482513 -0.001702 -0.003305 -0.000843 -0.004958 -0.027084 -0.027855 
1.9299999999999999 -0.019959 -0.472717 -0.001907 -0.003032 -0.001419 -0.004712 -0.028660 -0.026154 
1.9312499999999999 -0.042023 -0.465393 -0.002128 -0.003012 -0.001520 -0.004640 -0.030346 -0.024548 
1.9325000000000001 -0.065704 -0.455139 -0.002227 -0.002933 -0.002085 -0.004490 -0.031521 -0.023567 
1.9337500000000001 -0.086823 -0.443985 -0.002422 -0.002615 -0.002191 -0.004195 -0.032827 -0.022131 
1.9350000000000001 -0.107025 -0.433716 -0.002714 -0.002260 -0.002846 -0.003822 -0.033501 -0.020864 
1.9362500000000000 -0.126373 -0.423309 -0.002681 -0.002291 -0.003392 -0.003780 -0.033604 -0.019299 
1.9375000000000000 -0.145325 -0.412064 -0.002799 -0.001893 -0.003511 -0.003333 -0.034006 -0.017906 
1.9387500000000000 -0.163147 -0.400452 -0.003005 -0.001816 -0.003843 -0.003208 -0.034571 -0.016207 
1.9399999999999999 -0.181152 -0.388306 -0.003177 -0.001699 -0.004027 -0.002597 -0.034723 -0.014206 
1.9412499999999999 -0.198044 -0.376495 -0.003281 -0.001360 -0.004282 -0.002124 -0.035534 -0.012619 
1.9424999999999999 -0.215118 -0.363937 -0.003408 -0.001099 -0.004488 -0.002092 -0.036158 -0.009943 
1.9437500000000001 -0.231155 -0.350296 -0.003288 -0.000911 -0.004603 -0.001777 -0.036722 -0.008387 
1.9450000000000001 -0.247711 -0.337509 -0.003406 -0.000503 -0.004711 -0.001084 -0.038153 -0.006830 
1.9462500000000000 -0.262665 -0.323624 -0.003376 -0.000365 -0.004927 -0.000929 -0.039316 -0.005844 
1.9475000000000000 -0.276825 -0.310028 -0.003377 -0.000375 -0.004884 -0.000189 -0.040548 -0.005077 
1.9487500000000000 -0.291534 -0.295502 -0.003479 -0.000057 -0.004783 0.000272 -0.041786 -0.003984 
1.9500000000000000 -0.304428 -0.280396 -0.003620 0.000120 -0.004827 0.000476 -0.042473 -0.003727 
1.9512499999999999 -0.319016 -0.265167 -0.003321 0.000428 -0.004637 0.001100 -0.043560 -0.003592 
1.9524999999999999 -0.332153 -0.248215 -0.003637 0.000789 -0.004695 0.001559 -0.044073 -0.002962 
1.9537500000000001 -0.344376 -0.231689 -0.003530 0.000761 -0.004433 0.001645 -0.044203 -0.002205 
1.9550000000000001 -0.357544 -0.214493 -0.003372 0.001303 -0.004296 0.002399 -0.045410 -0.001392 
1.9562500000000000 -0.368393 -0.195450 -0.003377 0.001737 -0.004229 0.002661 -0.045351 -0.000275 
1.9575000000000000 -0.382065 -0.176559 -0.003273 0.001835 -0.003804 0.003053 -0.046175 0.000547 
1.9587500000000000 -0.392975 -0.154846 -0.003292 0.002067 -0.003533 0.003523 -0.047775 0.002441 
1.9600000000000000 -0.405365 -0.134186 -0.002938 0.002456 -0.003388 0.003761 -0.048759 0.003136 
1.9612499999999999 -0.415955 -0.111603 -0.002714 0.002683 -0.002887 0.004271 -0.050015 0.004295 
1.9624999999999999 -0.426148 -0.088928 -0.002736 0.002705 -0.002378 0.004502 -0.052135 0.006027 
1.9637500000000001 -0.436646 -0.063965 -0.002459 0.003047 -0.002211 0.004560 -0.053936 0.006882 
1.9650000000000001 -0.446472 -0.037842 -0.002272 0.003331 -0.001980 0.004925 -0.055450 0.008167 
1.9662500000000001 -0.454681 -0.009125 -0.002055 0.003536 -0.001451 0.004987 -0.056744 0.008968 
1.9675000000000000 -0.462463 0.019501 -0.001783 0.003911 -0.000774 0.005135 -0.058720 0.010471 
1.9687500000000000 -0.469055 0.052246 -0.001612 0.004177 -0.000315 0.005350 -0.060249 0.011578 
1.9700000000000000 -0.476410 0.086380 -0.001368 0.004369 0.000258 0.005101 -0.061285 0.013100 
1.9712499999999999 -0.478867 0.123215 -0.001199 0.004687 0.001060 0.005003 -0.062782 0.015091 
1.9724999999999999 -0.482300 0.160751 -0.000747 0.004606 0.001161 0.005183 -0.063358 0.017002 
1.9737499999999999 -0.482407 0.203537 -0.000548 0.005286 0.001674 0.004596 -0.064693 0.019825 
1.9750000000000001 -0.480240 0.248337 0.000228 0.005360 0.002079 0.004649 -0.066303 0.022217 
1.9762500000000001 -0.476685 0.294617 0.000388 0.005493 0.002233 0.004416 -0.068111 0.025166 
1.9775000000000000 -0.467529 0.347168 0.001271 0.005611 0.003273 0.004105 -0.070198 0.028378 
1.9787500000000000 -0.453003 0.398498 0.001832 0.005575 0.003313 0.003930 -0.071560 0.030918 
1.9800000000000000 -0.432434 0.456299 0.002751 0.005466 0.003710 0.003768 -0.073101 0.033981 
1.9812500000000000 -0.404724 0.517578 0.002992 0.005453 0.004256 0.003011 -0.074509 0.036469 
1.9824999999999999 -0.364868 0.582275 0.003761 0.004851 0.004342 0.002704 -0.075287 0.039001 
1.9837499999999999 -0.317505 0.643677 0.004432 0.004937 0.004745 0.002145 -0.076164 0.041492 
1.9850000000000001 -0.254486 0.710205 0.005059 0.005046 0.004497 0.002062 -0.076591 0.044720 
1.9862500000000001 -0.175720 0.774109 0.006166 0.004125 0.004934 0.001267 -0.076443 0.048069 
1.9875000000000000 -0.087646 0.825073 0.006680 0.003459 0.004949 0.000751 -0.076302 0.051392 
1.9887500000000000 0.024048 0.862915 0.007736 0.002694 0.005206 0.000530 -0.075859 0.055389 
1.9900000000000000 0.154053 0.884338 0.007967 0.001199 0.005036 -0.000261 -0.075539 0.059238 
1.9912500000000000 0.281433 0.888672 0.008513 0.000271 0.004740 -0.000472 -0.074757 0.062942 
1.9924999999999999 0.421692 0.852478 0.008847 -0.001209 0.004816 -0.000891 -0.074196 0.067429 
1.9937499999999999 0.556641 0.793884 0.008462 -0.002590 0.004557 -0.001212 -0.074024 0.071445 
1.9950000000000001 0.676758 0.700317 0.007413 -0.003801 0.004190 -0.001566 -0.073204 0.075138 
1.9962500000000001 0.777039 0.580750 0.007470 -0.004609 0.004545 -0.002035 -0.072552 0.078613 
1.9975000000000001 0.852112 0.450439 0.005944 -0.005791 0.003966 -0.002320 -0.071991 0.082909 
1.9987500000000000 0.887695 0.312378 0.005163 -0.006564 0.003997 -0.002698 -0.070522 0.085262 
2.0000000000000000 0.900635 0.187439 0.004335 -0.007007 0.003771 -0.003048 -0.068687 0.088688 
2.0012500000000002 0.887390 0.053894 0.003082 -0.007474 0.003621 -0.003306 -0.066834 0.091076 
2.0024999999999999 0.858093 -0.054260 0.001800 -0.007262 0.003031 -0.003675 -0.064148 0.094070 
2.0037500000000001 0.805359 -0.143494 0.000618 -0.007002 0.002762 -0.004380 -0.061657 0.097248 
2.0049999999999999 0.756470 -0.224609 0.000171 -0.006939 0.002502 -0.004048 -0.058380 0.100060 
2.0062500000000001 0.694672 -0.291931 -0.000880 -0.006221 0.002381 -0.004416 -0.055862 0.102985 
2.0074999999999998 0.637024 -0.346832 -0.001526 -0.005771 0.001995 -0.004937 -0.053066 0.105919 
2.0087500000000000 0.577972 -0.387726 -0.002035 -0.005261 0.001011 -0.004893 -0.049782 0.108818 
2.0099999999999998 0.520233 -0.419739 -0.002548 -0.005024 0.000787 -0.005189 -0.047302 0.111687 
2.0112500000000000 0.463226 -0.441162 -0.002790 -0.004401 0.000352 -0.005102 -0.044643 0.113892 
2.0125000000000002 0.413605 -0.461121 -0.002854 -0.003882 -0.000279 -0.005477 -0.042229 0.115608 
2.0137499999999999 0.367127 -0.474045 -0.003114 -0.003709 -0.000802 -0.004977 -0.040150 0.117069 
2.0150000000000001 0.318848 -0.483765 -0.003180 -0.003122 -0.001447 -0.004893 -0.037003 0.118278 
2.0162499999999999 0.275894 -0.489716 -0.003342 -0.002779 -0.002029 -0.005068 -0.035130 0.118687 
2.0175000000000001 0.236481 -0.491409 -0.003382 -0.002619 -0.002497 -0.004727 -0.031769 0.119194 
2.0187499999999998 0.201172 -0.490021 -0.003628 -0.002209 -0.002664 -0.003994 -0.028816 0.119888 
2.0200000000000000 0.164642 -0.488403 -0.003375 -0.001816 -0.003057 -0.003859 -0.025722 0.120346 
2.0212500000000002 0.130386 -0.485123 -0.003683 -0.001585 -0.003513 -0.003622 -0.023293 0.121140 
2.0225000000000000 0.101227 -0.479797 -0.003639 -0.001103 -0.003614 -0.003525 -0.019676 0.121304 
2.0237500000000002 0.072464 -0.474320 -0.003587 -0.000909 -0.003793 -0.002736 -0.017387 0.121613 
2.0249999999999999 0.044830 -0.468750 -0.003439 -0.000685 -0.004236 -0.002738 -0.014992 0.122391 
2.0262500000000001 0.018463 -0.459717 -0.003565 -0.000256 -0.004227 -0.002289 -0.013016 0.123329 
2.0274999999999999 -0.004883 -0.450531 -0.003537 -0.000012 -0.004462 -0.001976 -0.011253 0.123627 
2.0287500000000001 -0.028687 -0.443054 -0.003276 0.000002 -0.004716 -0.001512 -0.009697 0.123444 
2.0299999999999998 -0.050751 -0.432159 -0.003293 0.000433 -0.004852 -0.000646 -0.008820 0.123451 
2.0312500000000000 -0.072601 -0.422913 -0.003022 0.000643 -0.004762 -0.000507 -0.007896 0.123482 
2.0325000000000002 -0.092163 -0.413452 -0.003083 0.000708 -0.004960 -0.000019 -0.006828 0.122948 
2.0337499999999999 -0.112396 -0.401886 -0.003190 0.001009 -0.004384 0.000596 -0.005913 0.122711 
2.0350000000000001 -0.131073 -0.391754 -0.002827 0.001007 -0.004271 0.000737 -0.005188 0.122696 
2.0362499999999999 -0.148712 -0.380554 -0.002922 0.001144 -0.004415 0.001391 -0.004005 0.122414 
2.0375000000000001 -0.165161 -0.369568 -0.002688 0.001503 -0.004212 0.001330 -0.002548 0.122200 
2.0387499999999998 -0.180908 -0.358795 -0.002336 0.001573 -0.004003 0.002165 -0.000801 0.123222 
2.0400000000000000 -0.196533 -0.346466 -0.002220 0.001916 -0.003783 0.002372 -0.000450 0.123604 
2.0412499999999998 -0.211792 -0.334442 -0.002249 0.002029 -0.003740 0.002683 0.000877 0.124107 
2.0425000000000000 -0.225586 -0.322235 -0.002168 0.002172 -0.003382 0.003294 0.001411 0.125320 
2.0437500000000002 -0.239868 -0.310394 -0.001765 0.002413 -0.003177 0.003276 0.001991 0.126831 
2.0449999999999999 -0.254059 -0.295776 -0.001579 0.002191 -0.002570 0.003472 0.002861 0.127731 
2.0462500000000001 -0.265717 -0.281891 -0.001483 0.002473 -0.002280 0.003703 0.003174 0.129097 
2.0474999999999999 -0.278717 -0.269074 -0.001503 0.002446 -0.002365 0.003792 0.003952 0.129990 
2.0487500000000001 -0.291840 -0.253571 -0.001305 0.002549 -0.001754 0.003917 0.004784 0.131500 
2.0499999999999998 -0.303497 -0.238739 -0.001074 0.002554 -0.001486 0.004343 0.006180 0.132629 
2.0512500000000000 -0.315124 -0.222168 -0.001003 0.002627 -0.001047 0.004335 0.007713 0.133759 
2.0525000000000002 -0.326263 -0.207489 -0.000664 0.002551 -0.000645 0.004332 0.009460 0.135467 
2.0537500000000000 -0.337128 -0.189911 -0.000473 0.002920 -0.000369 0.004596 0.011055 0.137405 
2.0550000000000002 -0.347656 -0.173065 -0.000181 0.002994 -0.000154 0.004401 0.013817 0.139275 
2.0562499999999999 -0.358429 -0.154022 -0.000098 0.002960 0.000480 0.004263 0.016106 0.141518 
2.0575000000000001 -0.367401 -0.134827 0.000067 0.002886 0.001022 0.004313 0.019074 0.143776 
2.0587499999999999 -0.378296 -0.115204 0.000482 0.002940 0.001305 0.003927 0.021103 0.145737 
2.0600000000000001 -0.388153 -0.093567 0.000314 0.003010 0.001671 0.004174 0.023819 0.148178 
2.0612499999999998 -0.396957 -0.072586 0.000672 0.002978 0.001936 0.004016 0.026550 0.150421 
2.0625000000000000 -0.404495 -0.048141 0.000946 0.003068 0.002390 0.003491 0.029404 0.151291 
2.0637500000000002 -0.412445 -0.024796 0.001140 0.002985 0.002412 0.003589 0.033005 0.151932 
2.0649999999999999 -0.419800 0.001419 0.001354 0.003178 0.003065 0.003234 0.035912 0.153252 
2.0662500000000001 -0.425720 0.030289 0.001488 0.003024 0.003292 0.003206 0.039993 0.153480 
2.0674999999999999 -0.433258 0.057587 0.002154 0.002733 0.003414 0.002681 0.043907 0.153702 
2.0687500000000001 -0.436188 0.087387 0.002131 0.002919 0.003906 0.002557 0.049240 0.154495 
2.0699999999999998 -0.439651 0.122299 0.002277 0.002629 0.003839 0.001939 0.054893 0.154709 
2.0712500000000000 -0.439911 0.155914 0.002539 0.002403 0.003875 0.001685 0.059936 0.153854 
2.0724999999999998 -0.440582 0.191315 0.003065 0.002455 0.004350 0.001169 0.065063 0.153809 
2.0737500000000000 -0.437836 0.231934 0.003513 0.001959 0.004260 0.000759 0.070480 0.153687 
2.0750000000000002 -0.430359 0.272552 0.003610 0.001861 0.004265 0.000539 0.076279 0.152771 
2.0762499999999999 -0.420624 0.317810 0.003919 0.001831 0.004512 0.000019 0.080902 0.151932 
2.0775000000000001 -0.405762 0.365662 0.004059 0.001391 0.004106 -0.000688 0.085953 0.150619 
2.0787499999999999 -0.385956 0.415558 0.004344 0.001089 0.004506 -0.000628 0.090576 0.149078 
2.0800000000000001 -0.359467 0.469070 0.004775 0.000719 0.004124 -0.001064 0.096405 0.146751 
2.0812499999999998 -0.324188 0.523071 0.004862 0.000084 0.003945 -0.001639 0.100311 0.143341 
2.0825000000000000 -0.277801 0.577210 0.004988 -0.000310 0.003759 -0.001674 0.104996 0.140732 
2.0837500000000002 -0.224365 0.632019 0.005224 -0.000726 0.003552 -0.002095 0.109757 0.136917 
2.0850000000000000 -0.154907 0.683472 0.005360 -0.001063 0.003185 -0.002649 0.114731 0.133408 
2.0862500000000002 -0.071594 0.725891 0.005378 -0.002057 0.003262 -0.002982 0.119263 0.129715 
2.0874999999999999 0.024780 0.762024 0.005368 -0.002731 0.002848 -0.003081 0.124085 0.125534 
2.0887500000000001 0.133850 0.783386 0.005566 -0.003650 0.002472 -0.003676 0.127975 0.121414 
2.0899999999999999 0.255920 0.776856 0.004268 -0.004746 0.002300 -0.003150 0.132240 0.117233 
2.0912500000000001 0.379761 0.750854 0.003644 -0.005533 0.001930 -0.003348 0.135559 0.113510 
2.0924999999999998 0.502258 0.703613 0.003067 -0.005749 0.001430 -0.003415 0.138573 0.109825 
2.0937500000000000 0.616821 0.620972 0.002212 -0.006279 0.001360 -0.003992 0.140984 0.104668 
2.0950000000000002 0.704285 0.523621 0.001407 -0.006754 0.000931 -0.003750 0.143021 0.099861 
2.0962499999999999 0.773621 0.415802 -0.000073 -0.006730 0.001158 -0.003946 0.144714 0.094750 
2.0975000000000001 0.809418 0.291931 -0.000966 -0.006229 0.000607 -0.004167 0.145897 0.090858 
2.0987499999999999 0.820007 0.169373 -0.001536 -0.005839 0.000083 -0.003892 0.146439 0.085739 
2.1000000000000001 0.809143 0.051514 -0.001969 -0.005595 -0.000084 -0.004163 0.146973 0.080246 
2.1012499999999998 0.785523 -0.054016 -0.002984 -0.005204 -0.000644 -0.004014 0.148560 0.074890 
2.1025000000000000 0.742676 -0.134521 -0.003204 -0.004581 -0.000857 -0.004203 0.149017 0.070724 
2.1037499999999998 0.696472 -0.210022 -0.003465 -0.004024 -0.001166 -0.004467 0.150146 0.065353 
2.1050000000000000 0.640930 -0.275269 -0.003888 -0.003254 -0.001964 -0.004261 0.150574 0.061508 
2.1062500000000002 0.585998 -0.323120 -0.004116 -0.002875 -0.002609 -0.004000 0.150543 0.057152 
2.1074999999999999 0.531982 -0.361054 -0.004202 -0.002232 -0.002860 -0.003629 0.150276 0.053963 
2.1087500000000001 0.478653 -0.390884 -0.004235 -0.001771 -0.003228 -0.003372 0.149506 0.050072 
2.1099999999999999 0.425278 -0.412338 -0.003953 -0.001248 -0.003806 -0.002962 0.149086 0.047257 
2.1112500000000001 0.376785 -0.427536 -0.004102 -0.000703 -0.004215 -0.002973 0.148003 0.043999 
2.1124999999999998 0.328323 -0.438400 -0.004093 -0.000653 -0.003982 -0.002521 0.146996 0.040558 
2.1137500000000000 0.284882 -0.448013 -0.003783 -0.000391 -0.004394 -0.001952 0.145210 0.036949 
2.1150000000000002 0.244064 -0.451325 -0.003653 0.000097 -0.004332 -0.001344 0.144180 0.034065 
2.1162500000000000 0.206268 -0.453155 -0.003460 0.000616 -0.004600 -0.000801 0.143051 0.031174 
2.1175000000000002 0.170349 -0.452896 -0.003575 0.000609 -0.004701 -0.000386 0.142044 0.028282 
2.1187499999999999 0.137390 -0.450302 -0.003428 0.000880 -0.004484 0.000250 0.141167 0.026115 
2.1200000000000001 0.105927 -0.447098 -0.003054 0.000919 -0.004579 0.000323 0.140442 0.023628 
2.1212499999999999 0.077362 -0.441727 -0.003158 0.001314 -0.004374 0.000807 0.140114 0.021187 
2.1225000000000001 0.049332 -0.435028 -0.002919 0.001550 -0.004203 0.001345 0.139031 0.019737 
2.1237499999999998 0.023926 -0.428070 -0.002611 0.001788 -0.004126 0.001609 0.138489 0.017876 
2.1250000000000000 0.000305 -0.419678 -0.002465 0.001739 -0.003944 0.001939 0.137596 0.016243 
2.1262500000000002 -0.023834 -0.411484 -0.002566 0.002117 -0.003463 0.002266 0.136742 0.015251 
2.1274999999999999 -0.043625 -0.403397 -0.002023 0.002068 -0.003618 0.002701 0.135963 0.013702 
2.1287500000000001 -0.064697 -0.393051 -0.001756 0.002231 -0.003130 0.002823 0.134705 0.012260 
2.1299999999999999 -0.083923 -0.385788 -0.001618 0.002267 -0.002879 0.003104 0.134018 0.010681 
2.1312500000000001 -0.102524 -0.373703 -0.001603 0.002418 -0.002624 0.003145 0.132919 0.007919 
2.1324999999999998 -0.120331 -0.364197 -0.001334 0.002620 -0.002345 0.003541 0.132103 0.006569 
2.1337500000000000 -0.135742 -0.353119 -0.001222 0.002575 -0.001848 0.003410 0.131149 0.004547 
2.1349999999999998 -0.151092 -0.342804 -0.000958 0.002835 -0.001653 0.004185 0.130570 0.002579 
2.1362500000000000 -0.166534 -0.331574 -0.000917 0.002659 -0.001056 0.004244 0.131050 0.000183 
2.1375000000000002 -0.180634 -0.319122 -0.000816 0.002819 -0.000782 0.003966 0.130875 -0.001389 
2.1387499999999999 -0.195007 -0.306488 -0.000590 0.002746 -0.000367 0.003933 0.130043 -0.003372 
2.1400000000000001 -0.208649 -0.293366 -0.000110 0.002962 0.000135 0.004273 0.130142 -0.004822 
2.1412499999999999 -0.221466 -0.280945 0.000093 0.002934 0.000373 0.004305 0.129326 -0.006721 
2.1425000000000001 -0.235443 -0.267212 0.000277 0.002769 0.000792 0.004138 0.129044 -0.008743 
2.1437499999999998 -0.246094 -0.255371 0.000258 0.002927 0.001169 0.004221 0.128548 -0.010414 
2.1450000000000000 -0.257721 -0.240356 0.000756 0.002747 0.001592 0.003912 0.126663 -0.012581 
2.1462500000000002 -0.269135 -0.225891 0.000876 0.002640 0.001786 0.003762 0.125488 -0.015137 
2.1475000000000000 -0.280579 -0.211273 0.000702 0.002603 0.001810 0.003430 0.124298 -0.017349 
2.1487500000000002 -0.290253 -0.195221 0.001234 0.002628 0.002734 0.003129 0.123367 -0.020180 
2.1499999999999999 -0.301544 -0.179169 0.001508 0.002727 0.002944 0.003202 0.121819 -0.023247 
2.1512500000000001 -0.311523 -0.162628 0.001525 0.002475 0.002854 0.002911 0.120743 -0.026169 
