!
! C:\Users\rflab\Downloads\Lab5_KD_ZW\250.S2P
!
! Touchstone 1.1 file saved by VNA.EXE V1.65 (www.ke5fx.com/gpib/readme.htm)
! 11/12/2024 12:25:30 AM
!
!    Source: HEWLETT PACKARD,8753D,0,6.14
!  Min freq: 1.900000E+009 Hz
!  Max freq: 2.900000E+009 Hz
!    Points: 801
!    Params: S11 S21 S12 S22
!
!!!!!
# GHZ S RI R 50
1.8999999999999999 0.964417 0.262512 0.008336 0.002280 0.004297 0.002269 0.023861 -0.058216 
1.9012500000000001 0.956787 0.128906 0.008840 0.001125 0.004236 0.001952 0.021067 -0.058475 
1.9025000000000001 0.929382 0.007874 0.008428 -0.000170 0.004573 0.001655 0.018990 -0.058252 
1.9037500000000001 0.885681 -0.096741 0.007823 -0.000886 0.004791 0.001132 0.016510 -0.058392 
1.9050000000000000 0.839203 -0.187256 0.007421 -0.001976 0.004811 0.000861 0.014404 -0.057709 
1.9062500000000000 0.781097 -0.260284 0.006732 -0.002651 0.005206 0.000309 0.011976 -0.056574 
1.9075000000000000 0.718231 -0.323914 0.006209 -0.003402 0.005102 0.000012 0.009840 -0.055712 
1.9087499999999999 0.658142 -0.373352 0.005659 -0.003603 0.005293 -0.000618 0.007187 -0.054472 
1.9099999999999999 0.597565 -0.413513 0.005270 -0.004122 0.005181 -0.001305 0.004709 -0.052996 
1.9112499999999999 0.542938 -0.445190 0.004510 -0.004293 0.004948 -0.001305 0.001286 -0.051796 
1.9125000000000001 0.486359 -0.467651 0.003749 -0.004338 0.005046 -0.002028 -0.001616 -0.050293 
1.9137500000000001 0.432724 -0.486343 0.003347 -0.004843 0.004997 -0.002310 -0.004488 -0.049437 
1.9150000000000000 0.385422 -0.499115 0.002917 -0.004733 0.004414 -0.002495 -0.007397 -0.048233 
1.9162500000000000 0.336853 -0.508667 0.002280 -0.004644 0.004659 -0.003122 -0.010111 -0.047331 
1.9175000000000000 0.295410 -0.513214 0.001844 -0.004660 0.003958 -0.003914 -0.011953 -0.046112 
1.9187500000000000 0.254761 -0.516907 0.001561 -0.005074 0.003776 -0.003841 -0.014082 -0.044634 
1.9199999999999999 0.217102 -0.516419 0.000916 -0.004909 0.003225 -0.004619 -0.015732 -0.043203 
1.9212499999999999 0.180603 -0.514618 0.000649 -0.005186 0.002719 -0.004807 -0.017735 -0.041748 
1.9225000000000001 0.147339 -0.511841 0.000287 -0.004886 0.002264 -0.005010 -0.019423 -0.039818 
1.9237500000000001 0.113922 -0.508270 -0.000058 -0.004730 0.001734 -0.005424 -0.020159 -0.037680 
1.9250000000000000 0.084534 -0.502197 -0.000265 -0.004436 0.001320 -0.005346 -0.022312 -0.035484 
1.9262500000000000 0.056183 -0.496063 -0.000755 -0.004397 0.000788 -0.005566 -0.024410 -0.033012 
1.9275000000000000 0.029633 -0.490356 -0.000998 -0.004345 0.000163 -0.005412 -0.025753 -0.030437 
1.9287500000000000 0.003113 -0.482391 -0.001370 -0.003918 -0.000210 -0.005508 -0.027645 -0.028553 
1.9299999999999999 -0.019379 -0.473938 -0.001573 -0.003892 -0.000583 -0.005513 -0.029503 -0.026791 
1.9312499999999999 -0.042267 -0.465515 -0.001911 -0.003669 -0.001059 -0.005279 -0.031048 -0.025146 
1.9325000000000001 -0.065002 -0.454742 -0.002277 -0.003595 -0.001632 -0.005148 -0.032734 -0.023521 
1.9337500000000001 -0.085205 -0.444580 -0.002125 -0.003353 -0.001996 -0.005185 -0.033735 -0.022387 
1.9350000000000001 -0.106567 -0.434891 -0.002545 -0.003234 -0.002732 -0.004544 -0.034252 -0.020897 
1.9362500000000000 -0.125519 -0.424088 -0.002694 -0.002864 -0.002788 -0.004618 -0.034409 -0.019505 
1.9375000000000000 -0.145309 -0.412521 -0.002876 -0.002706 -0.003609 -0.004545 -0.035492 -0.017708 
1.9387500000000000 -0.162277 -0.401123 -0.003155 -0.002434 -0.003893 -0.004083 -0.035343 -0.016453 
1.9399999999999999 -0.180313 -0.388550 -0.003095 -0.002379 -0.003832 -0.003598 -0.035534 -0.014261 
1.9412499999999999 -0.197617 -0.376389 -0.003332 -0.002084 -0.004170 -0.003074 -0.036320 -0.011919 
1.9424999999999999 -0.214600 -0.365036 -0.003420 -0.001646 -0.004377 -0.002841 -0.036520 -0.009806 
1.9437500000000001 -0.230774 -0.351623 -0.003741 -0.001519 -0.004597 -0.002394 -0.037548 -0.008104 
1.9450000000000001 -0.246994 -0.338257 -0.003624 -0.001262 -0.005007 -0.002013 -0.038860 -0.006721 
1.9462500000000000 -0.261520 -0.324158 -0.003835 -0.001002 -0.005111 -0.001584 -0.039955 -0.004976 
1.9475000000000000 -0.275940 -0.310242 -0.003750 -0.000800 -0.005429 -0.001253 -0.041004 -0.004200 
1.9487500000000000 -0.291840 -0.295395 -0.003690 -0.000624 -0.005473 -0.000474 -0.042181 -0.003435 
1.9500000000000000 -0.304398 -0.280441 -0.003717 -0.000178 -0.005616 -0.000040 -0.042940 -0.002665 
1.9512499999999999 -0.318192 -0.265533 -0.004048 -0.000075 -0.005451 0.000556 -0.043707 -0.002352 
1.9524999999999999 -0.332275 -0.248261 -0.003883 0.000336 -0.005345 0.000970 -0.044214 -0.001982 
1.9537500000000001 -0.345627 -0.231613 -0.003986 0.000715 -0.005409 0.001284 -0.044664 -0.001310 
1.9550000000000001 -0.357315 -0.214905 -0.003894 0.000901 -0.005377 0.001986 -0.044876 -0.000303 
1.9562500000000000 -0.368393 -0.196198 -0.003957 0.001178 -0.004945 0.002480 -0.045542 0.000666 
1.9575000000000000 -0.381973 -0.176895 -0.003925 0.001497 -0.004538 0.002644 -0.046293 0.001371 
1.9587500000000000 -0.393341 -0.155762 -0.003770 0.001721 -0.004611 0.003238 -0.047316 0.003128 
1.9600000000000000 -0.403595 -0.134644 -0.003814 0.002205 -0.004478 0.003612 -0.048466 0.004147 
1.9612499999999999 -0.416809 -0.112244 -0.003606 0.002483 -0.004097 0.004184 -0.049850 0.005325 
1.9624999999999999 -0.425903 -0.089844 -0.003449 0.002754 -0.003621 0.004511 -0.051308 0.006672 
1.9637500000000001 -0.436768 -0.065491 -0.003378 0.002990 -0.003425 0.005022 -0.053169 0.007519 
1.9650000000000001 -0.446136 -0.038666 -0.003242 0.003350 -0.002762 0.005156 -0.054943 0.008709 
1.9662500000000001 -0.454590 -0.009521 -0.002932 0.003507 -0.001884 0.005475 -0.056541 0.009640 
1.9675000000000000 -0.461548 0.018738 -0.002764 0.003826 -0.001656 0.005556 -0.057793 0.010977 
1.9687500000000000 -0.469299 0.051788 -0.002742 0.004301 -0.001152 0.005786 -0.059748 0.011875 
1.9700000000000000 -0.475800 0.085602 -0.002167 0.004493 -0.000723 0.005415 -0.060690 0.013298 
1.9712499999999999 -0.480148 0.122253 -0.001970 0.004873 0.000144 0.005911 -0.061996 0.015053 
1.9724999999999999 -0.482544 0.160599 -0.001652 0.005080 0.000670 0.005814 -0.062805 0.017460 
1.9737499999999999 -0.482132 0.201935 -0.001152 0.005424 0.000936 0.005757 -0.063900 0.019848 
1.9750000000000001 -0.482086 0.245224 -0.000787 0.005698 0.001521 0.005785 -0.065701 0.022358 
1.9762500000000001 -0.478790 0.293976 -0.000305 0.006344 0.002036 0.005400 -0.067398 0.025188 
1.9775000000000000 -0.468384 0.343994 0.000051 0.006116 0.002635 0.005168 -0.069088 0.028267 
1.9787500000000000 -0.453491 0.399048 0.000968 0.006208 0.002833 0.004882 -0.070992 0.030766 
1.9800000000000000 -0.432556 0.455261 0.001682 0.006493 0.003554 0.004637 -0.072361 0.033474 
1.9812500000000000 -0.404236 0.518982 0.002397 0.006653 0.004156 0.004444 -0.073959 0.036205 
1.9824999999999999 -0.365845 0.581055 0.002925 0.006385 0.004605 0.003618 -0.074680 0.038864 
1.9837499999999999 -0.319702 0.641602 0.003760 0.006855 0.004433 0.003651 -0.075287 0.041107 
1.9850000000000001 -0.254211 0.707367 0.004843 0.006236 0.005320 0.003036 -0.075989 0.044243 
1.9862500000000001 -0.182495 0.769531 0.006089 0.006217 0.004960 0.002450 -0.076122 0.047722 
1.9875000000000000 -0.087097 0.825317 0.007441 0.005435 0.005064 0.001788 -0.075882 0.050728 
1.9887500000000000 0.020935 0.858704 0.007986 0.004669 0.005387 0.001517 -0.075420 0.054523 
1.9900000000000000 0.144165 0.884644 0.008941 0.003407 0.005541 0.000919 -0.074764 0.058529 
1.9912500000000000 0.277588 0.888489 0.009690 0.002123 0.005772 0.000505 -0.074612 0.062576 
1.9924999999999999 0.421753 0.856628 0.009990 0.000446 0.005566 -0.000007 -0.073887 0.066811 
1.9937499999999999 0.553345 0.799805 0.010225 -0.001300 0.005373 -0.000468 -0.073654 0.070797 
1.9950000000000001 0.672913 0.704712 0.009455 -0.002755 0.005397 -0.001189 -0.073246 0.074493 
1.9962500000000001 0.774780 0.584778 0.008706 -0.004065 0.005027 -0.001276 -0.072292 0.078136 
1.9975000000000001 0.850220 0.460449 0.008392 -0.005461 0.005050 -0.001853 -0.071983 0.081772 
1.9987500000000000 0.885010 0.319824 0.007118 -0.006567 0.004998 -0.002344 -0.070808 0.084770 
2.0000000000000000 0.905457 0.190002 0.005916 -0.007234 0.004924 -0.002585 -0.069328 0.087914 
2.0012500000000002 0.890198 0.062317 0.005129 -0.007827 0.004690 -0.003092 -0.067307 0.090813 
2.0024999999999999 0.862061 -0.049866 0.003663 -0.007571 0.004259 -0.003601 -0.064468 0.093494 
2.0037500000000001 0.810852 -0.142090 0.002236 -0.007435 0.003927 -0.003881 -0.061794 0.096687 
2.0049999999999999 0.758057 -0.223999 0.001125 -0.007693 0.003816 -0.004397 -0.058762 0.099022 
2.0062500000000001 0.699707 -0.289215 0.000588 -0.007601 0.003271 -0.004753 -0.056156 0.102818 
2.0074999999999998 0.640991 -0.346649 -0.000488 -0.006943 0.003025 -0.005130 -0.053513 0.105766 
2.0087500000000000 0.577728 -0.387817 -0.001132 -0.006343 0.002435 -0.005256 -0.050762 0.108513 
2.0099999999999998 0.521912 -0.418304 -0.001955 -0.005949 0.001839 -0.005594 -0.047764 0.110920 
2.0112500000000000 0.466217 -0.442657 -0.001981 -0.005495 0.001028 -0.005817 -0.045929 0.113457 
2.0125000000000002 0.415741 -0.462494 -0.002420 -0.005175 0.000596 -0.005757 -0.042889 0.115398 
2.0137499999999999 0.365845 -0.473602 -0.003050 -0.004673 0.000077 -0.006252 -0.040512 0.116722 
2.0150000000000001 0.320602 -0.485809 -0.003042 -0.004300 -0.000583 -0.005711 -0.037682 0.118500 
2.0162499999999999 0.278503 -0.490265 -0.003147 -0.003948 -0.001134 -0.005637 -0.035881 0.119621 
2.0175000000000001 0.237045 -0.490509 -0.003190 -0.003489 -0.001499 -0.005491 -0.032310 0.119385 
2.0187499999999998 0.201889 -0.491013 -0.003640 -0.003147 -0.002183 -0.005093 -0.029621 0.120235 
2.0200000000000000 0.164093 -0.488708 -0.003563 -0.002779 -0.002430 -0.004891 -0.026310 0.121056 
2.0212500000000002 0.132340 -0.485428 -0.003623 -0.002435 -0.002964 -0.004848 -0.024052 0.121429 
2.0225000000000000 0.101379 -0.480942 -0.003753 -0.002097 -0.003256 -0.004420 -0.020180 0.122124 
2.0237500000000002 0.072998 -0.474762 -0.003874 -0.001595 -0.003975 -0.004138 -0.017776 0.122208 
2.0249999999999999 0.045288 -0.468201 -0.003993 -0.001326 -0.003917 -0.003747 -0.015800 0.122910 
2.0262500000000001 0.019501 -0.459808 -0.004153 -0.001047 -0.004766 -0.003232 -0.013756 0.123650 
2.0274999999999999 -0.004517 -0.451752 -0.003877 -0.000772 -0.005019 -0.002803 -0.011841 0.123924 
2.0287500000000001 -0.028595 -0.443420 -0.003754 -0.000440 -0.005033 -0.002271 -0.010277 0.124588 
2.0299999999999998 -0.049530 -0.432831 -0.003792 -0.000218 -0.005047 -0.001810 -0.009117 0.124512 
2.0312500000000000 -0.072571 -0.422882 -0.003581 0.000130 -0.005097 -0.001462 -0.008102 0.124092 
2.0325000000000002 -0.091583 -0.412903 -0.003730 0.000203 -0.005427 -0.000970 -0.006683 0.124306 
2.0337499999999999 -0.111481 -0.402039 -0.003568 0.000557 -0.005352 -0.000609 -0.005920 0.123840 
2.0350000000000001 -0.130646 -0.392120 -0.003492 0.000723 -0.005325 0.000082 -0.005341 0.123566 
2.0362499999999999 -0.148315 -0.380798 -0.003495 0.000789 -0.005313 0.000539 -0.003830 0.123367 
2.0375000000000001 -0.165253 -0.371185 -0.003316 0.001106 -0.005016 0.000966 -0.002045 0.123413 
2.0387499999999998 -0.181427 -0.359345 -0.003330 0.001131 -0.004862 0.001446 -0.001434 0.123840 
2.0400000000000000 -0.196106 -0.347321 -0.003222 0.001470 -0.004898 0.001913 -0.000267 0.124695 
2.0412499999999998 -0.211212 -0.335083 -0.003079 0.001570 -0.004618 0.002365 0.001022 0.125092 
2.0425000000000000 -0.226013 -0.322662 -0.002914 0.002047 -0.004687 0.002196 0.001541 0.126358 
2.0437500000000002 -0.240021 -0.310059 -0.002454 0.002200 -0.004257 0.003197 0.002258 0.127815 
2.0449999999999999 -0.254211 -0.296783 -0.002402 0.002230 -0.003772 0.003456 0.002914 0.128777 
2.0462500000000001 -0.265289 -0.282684 -0.002303 0.002501 -0.003848 0.003622 0.003593 0.129921 
2.0474999999999999 -0.279419 -0.269958 -0.002064 0.002805 -0.003563 0.003970 0.004745 0.130951 
2.0487500000000001 -0.291412 -0.253937 -0.002046 0.002698 -0.003197 0.004246 0.005608 0.132599 
2.0499999999999998 -0.302826 -0.238922 -0.001992 0.002769 -0.002721 0.004064 0.006821 0.133659 
2.0512500000000000 -0.314423 -0.223114 -0.001583 0.002888 -0.002295 0.004498 0.008858 0.134659 
2.0525000000000002 -0.326752 -0.208466 -0.001564 0.003237 -0.001595 0.004800 0.010391 0.135750 
2.0537500000000000 -0.337250 -0.190552 -0.001281 0.003054 -0.001309 0.004938 0.012703 0.138275 
2.0550000000000002 -0.348267 -0.174042 -0.001113 0.003402 -0.000641 0.005338 0.014893 0.139839 
2.0562499999999999 -0.358704 -0.155426 -0.000872 0.003400 -0.000299 0.005219 0.017281 0.141838 
2.0575000000000001 -0.367828 -0.135284 -0.000638 0.003491 0.000063 0.005585 0.020187 0.144249 
2.0587499999999999 -0.378326 -0.116699 -0.000483 0.003663 0.000445 0.005049 0.022141 0.146240 
2.0600000000000001 -0.388153 -0.094666 0.000005 0.003765 0.001067 0.005207 0.024918 0.148102 
2.0612499999999998 -0.396805 -0.073578 0.000163 0.004022 0.001696 0.005101 0.027832 0.150223 
2.0625000000000000 -0.405090 -0.049164 0.000402 0.003705 0.001710 0.004947 0.030640 0.151291 
2.0637500000000002 -0.412735 -0.025589 0.000631 0.003823 0.002380 0.004871 0.033508 0.151917 
2.0649999999999999 -0.420593 0.000977 0.000962 0.003987 0.003068 0.004343 0.037247 0.152893 
2.0662500000000001 -0.426376 0.029053 0.001294 0.003728 0.003042 0.004197 0.041168 0.153198 
2.0674999999999999 -0.433441 0.056473 0.001334 0.003584 0.003503 0.003714 0.045342 0.153496 
2.0687500000000001 -0.436310 0.086456 0.002072 0.003638 0.003975 0.003367 0.050148 0.153488 
2.0699999999999998 -0.440643 0.121094 0.002327 0.003520 0.003989 0.003185 0.055466 0.153580 
2.0712500000000000 -0.441742 0.154144 0.002610 0.003624 0.004559 0.002769 0.060822 0.152969 
2.0724999999999998 -0.441833 0.190064 0.003073 0.003314 0.004724 0.002429 0.065643 0.152756 
2.0737500000000000 -0.438507 0.230804 0.003345 0.003432 0.004723 0.002212 0.070908 0.152481 
2.0750000000000002 -0.431580 0.271942 0.003767 0.003109 0.004523 0.001482 0.076996 0.152084 
2.0762499999999999 -0.421845 0.316284 0.004026 0.002970 0.005137 0.000761 0.081223 0.150696 
2.0775000000000001 -0.408295 0.364990 0.004635 0.002484 0.005143 0.000438 0.086319 0.149536 
2.0787499999999999 -0.385590 0.414276 0.004509 0.002281 0.005270 -0.000084 0.091675 0.147476 
2.0800000000000001 -0.360733 0.469284 0.005388 0.001803 0.005180 -0.000523 0.096016 0.145645 
2.0812499999999998 -0.326386 0.523163 0.005805 0.001383 0.005453 -0.001085 0.100601 0.142960 
2.0825000000000000 -0.281097 0.577759 0.005908 0.000852 0.004848 -0.001451 0.105301 0.139740 
2.0837500000000002 -0.228577 0.632050 0.006189 0.000211 0.005247 -0.001862 0.110062 0.135681 
2.0850000000000000 -0.157349 0.684265 0.006551 -0.000702 0.004692 -0.002424 0.114685 0.132492 
2.0862500000000002 -0.075317 0.729309 0.006645 -0.001072 0.004739 -0.002739 0.118744 0.128357 
2.0874999999999999 0.021179 0.764221 0.007106 -0.002333 0.003964 -0.003327 0.124054 0.124558 
2.0887500000000001 0.135193 0.783386 0.006747 -0.003390 0.003539 -0.003619 0.127464 0.120247 
2.0899999999999999 0.256775 0.779175 0.006667 -0.004621 0.003205 -0.003653 0.131714 0.116409 
2.0912500000000001 0.374756 0.762939 0.006023 -0.005651 0.003112 -0.003933 0.135025 0.112091 
2.0924999999999998 0.500671 0.714905 0.004840 -0.007140 0.002686 -0.003986 0.137711 0.108604 
2.0937500000000000 0.616028 0.626282 0.003637 -0.007389 0.002403 -0.004305 0.139763 0.103897 
2.0950000000000002 0.704895 0.532776 0.002031 -0.007533 0.002138 -0.004477 0.141556 0.098526 
2.0962499999999999 0.773895 0.412506 0.001462 -0.007751 0.002091 -0.004661 0.143562 0.094154 
2.0975000000000001 0.813019 0.291077 0.000358 -0.007737 0.001641 -0.004684 0.144257 0.089516 
2.0987499999999999 0.821899 0.171020 -0.000574 -0.007281 0.000808 -0.005081 0.145584 0.084793 
2.1000000000000001 0.817932 0.057922 -0.001288 -0.006978 0.000980 -0.004968 0.146774 0.080307 
2.1012499999999998 0.785889 -0.048096 -0.002119 -0.006698 0.000236 -0.005331 0.147385 0.074173 
2.1025000000000000 0.749695 -0.135315 -0.003052 -0.006116 -0.000338 -0.005555 0.148056 0.070389 
2.1037499999999998 0.697571 -0.212402 -0.003518 -0.005353 -0.000836 -0.005576 0.148544 0.065826 
2.1050000000000000 0.642517 -0.275147 -0.003930 -0.004792 -0.001499 -0.005626 0.149445 0.062134 
2.1062500000000002 0.589081 -0.324249 -0.004467 -0.004291 -0.001829 -0.005418 0.149277 0.057365 
2.1074999999999999 0.533966 -0.360901 -0.004543 -0.003534 -0.002913 -0.005147 0.148941 0.053886 
2.1087500000000001 0.480499 -0.391037 -0.005149 -0.002922 -0.003136 -0.004679 0.148613 0.050751 
2.1099999999999999 0.426971 -0.412903 -0.004730 -0.002245 -0.003785 -0.004483 0.147720 0.047661 
2.1112500000000001 0.379120 -0.429138 -0.004946 -0.001694 -0.004382 -0.004037 0.147301 0.044609 
2.1124999999999998 0.330978 -0.440308 -0.004661 -0.001498 -0.004830 -0.003259 0.146004 0.041618 
2.1137500000000000 0.286621 -0.449493 -0.004749 -0.000919 -0.004668 -0.002672 0.145256 0.038498 
2.1150000000000002 0.244568 -0.452347 -0.004538 -0.000654 -0.005332 -0.002284 0.142998 0.035469 
2.1162500000000000 0.206818 -0.454834 -0.004311 -0.000164 -0.005508 -0.001919 0.142540 0.031975 
2.1175000000000002 0.170868 -0.454071 -0.004215 0.000067 -0.005444 -0.001186 0.141373 0.030144 
2.1187499999999999 0.138351 -0.451553 -0.004189 0.000560 -0.005381 -0.000509 0.140816 0.027321 
2.1200000000000001 0.106598 -0.448517 -0.003907 0.000709 -0.005631 -0.000098 0.140457 0.024963 
2.1212499999999999 0.078003 -0.442566 -0.004020 0.001182 -0.005401 0.000180 0.139893 0.022171 
2.1225000000000001 0.050003 -0.435715 -0.003766 0.001274 -0.005581 0.000751 0.139206 0.020927 
2.1237499999999998 0.023544 -0.428772 -0.003723 0.001581 -0.005019 0.001256 0.138672 0.018822 
2.1250000000000000 -0.000351 -0.420410 -0.003440 0.001791 -0.005183 0.001832 0.137794 0.017227 
2.1262500000000002 -0.023972 -0.413117 -0.003388 0.002019 -0.004850 0.001988 0.137192 0.016357 
2.1274999999999999 -0.043701 -0.404312 -0.002863 0.002200 -0.004334 0.002266 0.135994 0.014595 
2.1287500000000001 -0.064865 -0.394272 -0.002527 0.002444 -0.004238 0.002907 0.135483 0.013062 
2.1299999999999999 -0.083054 -0.386002 -0.002584 0.002482 -0.003875 0.003214 0.134590 0.011322 
2.1312500000000001 -0.102936 -0.374710 -0.002272 0.002825 -0.003636 0.003375 0.133171 0.009293 
2.1324999999999998 -0.120331 -0.366150 -0.002094 0.002790 -0.003283 0.003416 0.132896 0.007431 
2.1337500000000000 -0.135559 -0.354096 -0.002071 0.002780 -0.003175 0.003856 0.132423 0.005180 
2.1349999999999998 -0.150787 -0.344147 -0.001717 0.002894 -0.002721 0.004446 0.131828 0.003174 
2.1362500000000000 -0.166657 -0.331543 -0.001655 0.003101 -0.001932 0.004336 0.131607 0.000969 
2.1375000000000002 -0.180939 -0.320129 -0.001455 0.003338 -0.001785 0.004831 0.132050 -0.000877 
2.1387499999999999 -0.195190 -0.307343 -0.001055 0.003228 -0.001329 0.004962 0.131020 -0.002670 
2.1400000000000001 -0.208313 -0.294403 -0.000999 0.003525 -0.000711 0.004821 0.130577 -0.004845 
2.1412499999999999 -0.221497 -0.281311 -0.000696 0.003414 -0.000196 0.004976 0.130150 -0.006371 
2.1425000000000001 -0.235504 -0.268127 -0.000418 0.003472 -0.000100 0.005249 0.130066 -0.008484 
2.1437499999999998 -0.246552 -0.255859 -0.000038 0.003364 0.000306 0.005023 0.129273 -0.010513 
2.1450000000000000 -0.258087 -0.240692 0.000259 0.003375 0.001062 0.004887 0.127449 -0.012527 
2.1462500000000002 -0.269653 -0.226715 0.000501 0.003412 0.001208 0.004744 0.126282 -0.014977 
2.1475000000000000 -0.281158 -0.211761 0.000740 0.003268 0.002159 0.004932 0.125244 -0.017479 
2.1487500000000002 -0.290802 -0.195740 0.001025 0.003256 0.002163 0.004895 0.124367 -0.020798 
2.1499999999999999 -0.301636 -0.179413 0.001116 0.003434 0.002795 0.004151 0.122612 -0.023842 
2.1512500000000001 -0.311829 -0.163452 0.001277 0.003442 0.002766 0.003891 0.121117 -0.026634 
