!
! C:\Users\rflab\Downloads\Lab5_KD_ZW\260.S2P
!
! Touchstone 1.1 file saved by VNA.EXE V1.65 (www.ke5fx.com/gpib/readme.htm)
! 11/12/2024 12:26:36 AM
!
!    Source: HEWLETT PACKARD,8753D,0,6.14
!  Min freq: 1.900000E+009 Hz
!  Max freq: 2.900000E+009 Hz
!    Points: 801
!    Params: S11 S21 S12 S22
!
!!!!!
# GHZ S RI R 50
1.8999999999999999 0.964111 0.270569 0.008801 0.004964 0.004069 0.003513 0.023504 -0.057650 
1.9012500000000001 0.959595 0.139221 0.009027 0.003543 0.004470 0.003237 0.020840 -0.058052 
1.9025000000000001 0.929565 0.010559 0.008978 0.002484 0.004553 0.002612 0.018936 -0.058214 
1.9037500000000001 0.889893 -0.093933 0.008849 0.000777 0.004532 0.002428 0.016792 -0.058308 
1.9050000000000000 0.840210 -0.182953 0.008898 0.000114 0.005234 0.002044 0.014509 -0.057436 
1.9062500000000000 0.785339 -0.256927 0.008520 -0.001288 0.005499 0.001774 0.011911 -0.056908 
1.9075000000000000 0.720276 -0.322082 0.007545 -0.002005 0.005674 0.001248 0.010094 -0.055864 
1.9087499999999999 0.664520 -0.372955 0.007235 -0.003022 0.005952 0.000719 0.007399 -0.054792 
1.9099999999999999 0.601959 -0.411469 0.006847 -0.003321 0.006121 0.000166 0.004574 -0.053331 
1.9112499999999999 0.543152 -0.442963 0.005873 -0.003713 0.005858 -0.000233 0.001608 -0.052423 
1.9125000000000001 0.489288 -0.467224 0.005188 -0.004019 0.005836 -0.000710 -0.001249 -0.050953 
1.9137500000000001 0.436386 -0.485916 0.004606 -0.004364 0.005552 -0.001187 -0.003967 -0.050552 
1.9150000000000000 0.388306 -0.498108 0.004154 -0.004469 0.005673 -0.001979 -0.006781 -0.049177 
1.9162500000000000 0.339081 -0.507538 0.003686 -0.004590 0.005544 -0.002540 -0.009352 -0.048389 
1.9175000000000000 0.297821 -0.512604 0.003214 -0.004836 0.005571 -0.002907 -0.011354 -0.046974 
1.9187500000000000 0.255585 -0.516083 0.002823 -0.005117 0.005008 -0.003432 -0.013006 -0.046108 
1.9199999999999999 0.218994 -0.516205 0.002308 -0.005123 0.004695 -0.004231 -0.015049 -0.044748 
1.9212499999999999 0.182465 -0.513458 0.001832 -0.005028 0.004132 -0.004704 -0.017128 -0.043327 
1.9225000000000001 0.149048 -0.511841 0.001469 -0.005070 0.003822 -0.005174 -0.018158 -0.041164 
1.9237500000000001 0.115601 -0.508270 0.001021 -0.005468 0.003357 -0.005372 -0.019686 -0.039059 
1.9250000000000000 0.086884 -0.502472 0.000576 -0.004988 0.002642 -0.005484 -0.021328 -0.036964 
1.9262500000000000 0.057465 -0.497345 0.000143 -0.005333 0.002211 -0.005664 -0.023186 -0.034790 
1.9275000000000000 0.031769 -0.490478 -0.000333 -0.004871 0.001719 -0.005799 -0.024982 -0.032223 
1.9287500000000000 0.004273 -0.483429 -0.000598 -0.004774 0.001229 -0.005895 -0.026970 -0.030277 
1.9299999999999999 -0.017944 -0.474457 -0.000832 -0.004589 0.000600 -0.006116 -0.028866 -0.028145 
1.9312499999999999 -0.040619 -0.466034 -0.000962 -0.004397 -0.000010 -0.006088 -0.030365 -0.026627 
1.9325000000000001 -0.063934 -0.455261 -0.001482 -0.004295 -0.000507 -0.006026 -0.032120 -0.025288 
1.9337500000000001 -0.084274 -0.445038 -0.001577 -0.003973 -0.001026 -0.006286 -0.033216 -0.023972 
1.9350000000000001 -0.105438 -0.434387 -0.001958 -0.004000 -0.001767 -0.005811 -0.034042 -0.022194 
1.9362500000000000 -0.124832 -0.423248 -0.002199 -0.003809 -0.002231 -0.005668 -0.034271 -0.020952 
1.9375000000000000 -0.143982 -0.413223 -0.002417 -0.003612 -0.002682 -0.005693 -0.035114 -0.019209 
1.9387500000000000 -0.161179 -0.402161 -0.002523 -0.003430 -0.003262 -0.005216 -0.035080 -0.017290 
1.9399999999999999 -0.179703 -0.389099 -0.002954 -0.003251 -0.003425 -0.004972 -0.035957 -0.015469 
1.9412499999999999 -0.196609 -0.377487 -0.003102 -0.002990 -0.003867 -0.004563 -0.036455 -0.013475 
1.9424999999999999 -0.213303 -0.365585 -0.003356 -0.002856 -0.004009 -0.004392 -0.037182 -0.011600 
1.9437500000000001 -0.229553 -0.351242 -0.003569 -0.002661 -0.004746 -0.003865 -0.037872 -0.009516 
1.9450000000000001 -0.246063 -0.337921 -0.003735 -0.002350 -0.005214 -0.003357 -0.038942 -0.008141 
1.9462500000000000 -0.260803 -0.325073 -0.003847 -0.002014 -0.005158 -0.002991 -0.040091 -0.006376 
1.9475000000000000 -0.275223 -0.310715 -0.004093 -0.001780 -0.005715 -0.002450 -0.041227 -0.005432 
1.9487500000000000 -0.290009 -0.296646 -0.003978 -0.001651 -0.005754 -0.002021 -0.042341 -0.004513 
1.9500000000000000 -0.303345 -0.281097 -0.004270 -0.001350 -0.006254 -0.001461 -0.043156 -0.003908 
1.9512499999999999 -0.317505 -0.266266 -0.004277 -0.001090 -0.006129 -0.000872 -0.044018 -0.003403 
1.9524999999999999 -0.331024 -0.249161 -0.004390 -0.000789 -0.006417 -0.000370 -0.044439 -0.003050 
1.9537500000000001 -0.344208 -0.232987 -0.004434 -0.000500 -0.006385 0.000032 -0.044893 -0.002180 
1.9550000000000001 -0.356293 -0.215546 -0.004608 0.000079 -0.006100 0.000695 -0.045353 -0.000843 
1.9562500000000000 -0.367065 -0.197510 -0.004809 0.000178 -0.005972 0.001280 -0.045805 0.000059 
1.9575000000000000 -0.381409 -0.177673 -0.004532 0.000704 -0.006102 0.001791 -0.046650 0.001764 
1.9587500000000000 -0.392929 -0.157028 -0.004305 0.001123 -0.005907 0.002451 -0.047724 0.003410 
1.9600000000000000 -0.403381 -0.135590 -0.004684 0.001490 -0.005455 0.002877 -0.049217 0.004662 
1.9612499999999999 -0.415985 -0.113068 -0.004470 0.001510 -0.005241 0.003431 -0.050594 0.005383 
1.9624999999999999 -0.424408 -0.091339 -0.004386 0.002115 -0.005074 0.004078 -0.052147 0.007351 
1.9637500000000001 -0.435730 -0.066223 -0.004391 0.002509 -0.004750 0.004257 -0.053665 0.008270 
1.9650000000000001 -0.444946 -0.039886 -0.004314 0.002733 -0.004166 0.004895 -0.055389 0.008957 
1.9662500000000001 -0.453674 -0.011749 -0.004032 0.002983 -0.003778 0.005290 -0.056892 0.009857 
1.9675000000000000 -0.460998 0.016418 -0.004135 0.003328 -0.003420 0.005342 -0.058575 0.010914 
1.9687500000000000 -0.467712 0.049744 -0.003870 0.003825 -0.002448 0.005890 -0.060249 0.011919 
1.9700000000000000 -0.474915 0.083511 -0.003967 0.004182 -0.001978 0.006177 -0.060911 0.013456 
1.9712499999999999 -0.479019 0.121018 -0.003328 0.004735 -0.001580 0.006292 -0.062250 0.015665 
1.9724999999999999 -0.482391 0.157059 -0.003077 0.005332 -0.001035 0.006454 -0.063190 0.017654 
1.9737499999999999 -0.481110 0.198425 -0.002537 0.005774 -0.000486 0.006394 -0.064278 0.019978 
1.9750000000000001 -0.481918 0.245819 -0.002274 0.006377 0.000162 0.006393 -0.066063 0.022350 
1.9762500000000001 -0.477539 0.291229 -0.002090 0.006358 0.000773 0.006358 -0.067478 0.025433 
1.9775000000000000 -0.467651 0.341919 -0.001402 0.006970 0.001233 0.006264 -0.069546 0.028202 
1.9787500000000000 -0.457092 0.395813 -0.000430 0.007156 0.002131 0.006138 -0.071110 0.031010 
1.9800000000000000 -0.433655 0.450562 0.000065 0.007938 0.002713 0.005993 -0.072586 0.033627 
1.9812500000000000 -0.405273 0.513733 0.000748 0.007627 0.003094 0.005628 -0.074036 0.035957 
1.9824999999999999 -0.369324 0.576965 0.001540 0.007573 0.003708 0.005140 -0.074978 0.038639 
1.9837499999999999 -0.324585 0.637939 0.002974 0.008386 0.004046 0.004853 -0.075771 0.040924 
1.9850000000000001 -0.261200 0.702515 0.003730 0.008061 0.004585 0.004431 -0.076160 0.043728 
1.9862500000000001 -0.184387 0.762207 0.005272 0.008295 0.005244 0.004251 -0.076546 0.047047 
1.9875000000000000 -0.092834 0.820984 0.006146 0.007544 0.005194 0.003522 -0.076366 0.050091 
1.9887500000000000 0.011414 0.856079 0.007675 0.007349 0.005479 0.003024 -0.076046 0.053795 
1.9900000000000000 0.137695 0.882141 0.008662 0.006034 0.005855 0.002607 -0.076103 0.058033 
1.9912500000000000 0.264648 0.888733 0.010163 0.004566 0.006073 0.001835 -0.075199 0.061722 
1.9924999999999999 0.411499 0.863037 0.010629 0.003175 0.006056 0.001599 -0.074863 0.065666 
1.9937499999999999 0.543457 0.802673 0.011516 0.001606 0.006085 0.000705 -0.074696 0.069469 
1.9950000000000001 0.669434 0.712341 0.010873 -0.000207 0.006069 0.000212 -0.073994 0.073349 
1.9962500000000001 0.772766 0.593323 0.010893 -0.001979 0.006110 -0.000331 -0.073536 0.076817 
1.9975000000000001 0.846680 0.466858 0.010341 -0.003417 0.005925 -0.000830 -0.072853 0.079861 
1.9987500000000000 0.888733 0.328003 0.009206 -0.005128 0.005821 -0.001112 -0.072014 0.082767 
2.0000000000000000 0.904541 0.194580 0.008114 -0.006048 0.006052 -0.001778 -0.070648 0.086197 
2.0012500000000002 0.888855 0.069031 0.006910 -0.006846 0.005608 -0.001997 -0.068432 0.088512 
2.0024999999999999 0.860779 -0.041138 0.005642 -0.007194 0.005482 -0.002640 -0.066383 0.091721 
2.0037500000000001 0.812866 -0.139221 0.004707 -0.007467 0.005763 -0.003233 -0.063343 0.094589 
2.0049999999999999 0.759705 -0.220642 0.003726 -0.007967 0.004964 -0.003821 -0.060524 0.097649 
2.0062500000000001 0.703247 -0.287506 0.002601 -0.007695 0.004794 -0.004146 -0.058113 0.100914 
2.0074999999999998 0.641846 -0.341370 0.001393 -0.007705 0.004535 -0.004484 -0.055412 0.103413 
2.0087500000000000 0.581879 -0.383881 0.000631 -0.007433 0.003863 -0.005197 -0.052784 0.106297 
2.0099999999999998 0.526398 -0.417816 0.000098 -0.007438 0.003850 -0.005541 -0.049942 0.109077 
2.0112500000000000 0.469849 -0.441559 -0.000709 -0.006662 0.002883 -0.005986 -0.048031 0.111054 
2.0125000000000002 0.418488 -0.461365 -0.001423 -0.006113 0.002549 -0.006254 -0.045338 0.113365 
2.0137499999999999 0.370865 -0.474320 -0.002027 -0.005939 0.001978 -0.006521 -0.042839 0.115181 
2.0150000000000001 0.323441 -0.484512 -0.002107 -0.005548 0.000860 -0.006830 -0.040268 0.115654 
2.0162499999999999 0.280243 -0.488846 -0.002517 -0.005157 0.000325 -0.006388 -0.038124 0.116802 
2.0175000000000001 0.239304 -0.491928 -0.002550 -0.004740 -0.000301 -0.006565 -0.035015 0.117291 
2.0187499999999998 0.202637 -0.491577 -0.003077 -0.004282 -0.000642 -0.006540 -0.032005 0.118179 
2.0200000000000000 0.166687 -0.489822 -0.003123 -0.004041 -0.001583 -0.006186 -0.028954 0.118378 
2.0212500000000002 0.134415 -0.485702 -0.003471 -0.003680 -0.001801 -0.006114 -0.026039 0.119343 
2.0225000000000000 0.104080 -0.481278 -0.003639 -0.003462 -0.002558 -0.006015 -0.022583 0.119869 
2.0237500000000002 0.074600 -0.474945 -0.004068 -0.003006 -0.002832 -0.005570 -0.020218 0.120689 
2.0249999999999999 0.047852 -0.468720 -0.003816 -0.002528 -0.003504 -0.005517 -0.018257 0.121223 
2.0262500000000001 0.021454 -0.459839 -0.003876 -0.002267 -0.004026 -0.004910 -0.015945 0.121948 
2.0274999999999999 -0.002991 -0.452423 -0.003886 -0.001867 -0.004561 -0.004668 -0.013702 0.122673 
2.0287500000000001 -0.026306 -0.444305 -0.004114 -0.001523 -0.004944 -0.004045 -0.013077 0.122849 
2.0299999999999998 -0.048462 -0.434143 -0.004073 -0.001374 -0.005395 -0.003588 -0.011299 0.122978 
2.0312500000000000 -0.070648 -0.423615 -0.003980 -0.001045 -0.005815 -0.003098 -0.010109 0.122093 
2.0325000000000002 -0.089996 -0.414368 -0.004054 -0.000799 -0.005655 -0.002588 -0.008614 0.122200 
2.0337499999999999 -0.110687 -0.403503 -0.004213 -0.000474 -0.005717 -0.001961 -0.007919 0.122353 
2.0350000000000001 -0.129547 -0.393524 -0.004112 -0.000228 -0.005992 -0.001460 -0.006195 0.122040 
2.0362499999999999 -0.147125 -0.382599 -0.004154 -0.000001 -0.006022 -0.000963 -0.005051 0.121994 
2.0375000000000001 -0.163178 -0.372070 -0.004154 0.000426 -0.006169 -0.000444 -0.003891 0.122391 
2.0387499999999998 -0.179535 -0.359711 -0.004148 0.000489 -0.005990 0.000004 -0.002151 0.122612 
2.0400000000000000 -0.194794 -0.348572 -0.003861 0.001016 -0.006035 0.000447 -0.001144 0.124001 
2.0412499999999998 -0.210541 -0.336273 -0.003895 0.001050 -0.005559 0.001228 0.000069 0.124565 
2.0425000000000000 -0.224091 -0.323639 -0.003687 0.001432 -0.005859 0.001507 0.000740 0.125732 
2.0437500000000002 -0.239227 -0.311707 -0.003609 0.001844 -0.005537 0.002038 0.001358 0.126968 
2.0449999999999999 -0.253449 -0.297424 -0.003253 0.002008 -0.005452 0.002653 0.002052 0.127998 
2.0462500000000001 -0.265259 -0.283050 -0.003445 0.002167 -0.005472 0.002774 0.002800 0.129280 
2.0474999999999999 -0.277435 -0.271332 -0.003236 0.002297 -0.004998 0.003253 0.003655 0.130028 
2.0487500000000001 -0.290649 -0.255341 -0.002962 0.002503 -0.004531 0.003815 0.004929 0.131783 
2.0499999999999998 -0.301788 -0.240448 -0.002858 0.002719 -0.004447 0.004353 0.006165 0.132637 
2.0512500000000000 -0.313721 -0.224426 -0.002723 0.002755 -0.003834 0.004468 0.007729 0.133751 
2.0525000000000002 -0.325592 -0.208862 -0.002641 0.002937 -0.003341 0.004670 0.009499 0.135216 
2.0537500000000000 -0.336334 -0.190887 -0.002486 0.003283 -0.003003 0.005216 0.011612 0.136848 
2.0550000000000002 -0.347565 -0.175110 -0.002022 0.003371 -0.002632 0.005994 0.014031 0.138901 
2.0562499999999999 -0.357880 -0.155945 -0.002053 0.003563 -0.002057 0.005816 0.016830 0.140755 
2.0575000000000001 -0.367584 -0.136871 -0.001918 0.003802 -0.001721 0.006147 0.019737 0.142914 
2.0587499999999999 -0.377777 -0.118744 -0.001602 0.004074 -0.000873 0.005908 0.021385 0.145142 
2.0600000000000001 -0.387665 -0.096161 -0.001228 0.003962 -0.000772 0.005988 0.024612 0.147110 
2.0612499999999998 -0.396668 -0.074997 -0.000788 0.004312 0.000143 0.006422 0.027115 0.149048 
2.0625000000000000 -0.404160 -0.050751 -0.000650 0.004185 0.000607 0.006063 0.029907 0.150177 
2.0637500000000002 -0.411972 -0.027786 -0.000212 0.004616 0.001141 0.005868 0.033020 0.151138 
2.0649999999999999 -0.418839 -0.001587 -0.000049 0.004431 0.002146 0.005604 0.036598 0.152817 
2.0662500000000001 -0.426956 0.026367 0.000199 0.004547 0.002335 0.005960 0.040360 0.152695 
2.0674999999999999 -0.433365 0.054581 0.000604 0.004730 0.002501 0.005440 0.044617 0.152931 
2.0687500000000001 -0.437683 0.083771 0.000883 0.004757 0.003424 0.005397 0.049179 0.154045 
2.0699999999999998 -0.439835 0.118225 0.001668 0.004738 0.003809 0.004634 0.054245 0.153648 
2.0712500000000000 -0.441986 0.151733 0.001863 0.004849 0.004167 0.004826 0.059112 0.153610 
2.0724999999999998 -0.441681 0.187470 0.002075 0.004736 0.004562 0.004098 0.064392 0.153214 
2.0737500000000000 -0.438507 0.227417 0.003057 0.004757 0.005121 0.003784 0.068634 0.153458 
2.0750000000000002 -0.431457 0.268555 0.003446 0.004765 0.005248 0.003336 0.075012 0.152939 
2.0762499999999999 -0.422485 0.312500 0.004069 0.004620 0.005850 0.002503 0.079468 0.151657 
2.0775000000000001 -0.409332 0.360321 0.004428 0.004035 0.005747 0.001809 0.084427 0.150680 
2.0787499999999999 -0.389435 0.410461 0.004934 0.003756 0.006170 0.001547 0.088501 0.148850 
2.0800000000000001 -0.363724 0.463654 0.005643 0.003559 0.006035 0.000864 0.092941 0.146889 
2.0812499999999998 -0.329925 0.522583 0.005869 0.003159 0.005931 0.000410 0.097839 0.143509 
2.0825000000000000 -0.285126 0.571137 0.006544 0.002353 0.006067 -0.000056 0.102402 0.141251 
2.0837500000000002 -0.231323 0.627319 0.007391 0.002215 0.005856 -0.000548 0.107193 0.137604 
2.0850000000000000 -0.161987 0.680084 0.007823 0.001168 0.005876 -0.001655 0.111816 0.134155 
2.0862500000000002 -0.081970 0.724304 0.008118 0.000549 0.006205 -0.002067 0.115967 0.130478 
2.0874999999999999 0.011780 0.761841 0.008623 -0.000370 0.005383 -0.002609 0.121124 0.126404 
2.0887500000000001 0.129395 0.779114 0.008420 -0.001681 0.005152 -0.002892 0.124542 0.122803 
2.0899999999999999 0.246521 0.781189 0.008540 -0.003774 0.005078 -0.003116 0.128426 0.118866 
2.0912500000000001 0.371948 0.763061 0.008674 -0.004756 0.004544 -0.003633 0.131836 0.114929 
2.0924999999999998 0.492310 0.707581 0.007436 -0.005677 0.004266 -0.004049 0.135284 0.110924 
2.0937500000000000 0.600891 0.635193 0.006323 -0.006910 0.004195 -0.004078 0.137001 0.106384 
2.0950000000000002 0.695435 0.538635 0.005379 -0.008405 0.003825 -0.004618 0.139359 0.101303 
2.0962499999999999 0.769073 0.421875 0.003940 -0.008527 0.003224 -0.004882 0.140923 0.097008 
2.0975000000000001 0.803162 0.298157 0.002661 -0.008452 0.003405 -0.005128 0.142357 0.092323 
2.0987499999999999 0.820923 0.178589 0.001459 -0.008944 0.002369 -0.005590 0.143341 0.087540 
2.1000000000000001 0.813843 0.064697 0.000526 -0.008554 0.002233 -0.005787 0.143967 0.082291 
2.1012499999999998 0.787964 -0.041870 -0.000676 -0.008194 0.001584 -0.006120 0.145233 0.076996 
2.1025000000000000 0.747742 -0.129517 -0.001639 -0.008137 0.001215 -0.006311 0.146072 0.072891 
2.1037499999999998 0.700256 -0.207336 -0.002432 -0.007317 0.000392 -0.006089 0.146896 0.068115 
2.1050000000000000 0.645386 -0.272400 -0.003021 -0.006599 -0.000094 -0.006566 0.147553 0.063965 
2.1062500000000002 0.592346 -0.320648 -0.003868 -0.006383 -0.000698 -0.006635 0.147743 0.059776 
2.1074999999999999 0.537018 -0.358887 -0.004212 -0.005444 -0.001520 -0.006754 0.148033 0.056618 
2.1087500000000001 0.483810 -0.389252 -0.004700 -0.004595 -0.002128 -0.006902 0.147209 0.052460 
2.1099999999999999 0.429794 -0.411270 -0.004963 -0.004004 -0.003251 -0.006473 0.146652 0.049904 
2.1112500000000001 0.382050 -0.427658 -0.004979 -0.003341 -0.003703 -0.005864 0.145927 0.046295 
2.1124999999999998 0.332428 -0.439117 -0.005217 -0.002839 -0.004415 -0.005170 0.144539 0.042976 
2.1137500000000000 0.289383 -0.449188 -0.004768 -0.002212 -0.005116 -0.004906 0.143570 0.039536 
2.1150000000000002 0.248047 -0.451599 -0.004887 -0.001909 -0.005485 -0.004073 0.142059 0.036392 
2.1162500000000000 0.209961 -0.454742 -0.004844 -0.001362 -0.005616 -0.003687 0.142189 0.032997 
2.1175000000000002 0.173294 -0.454117 -0.004735 -0.000872 -0.005683 -0.002751 0.140976 0.030388 
2.1187499999999999 0.140625 -0.451645 -0.004812 -0.000535 -0.006107 -0.002238 0.140404 0.027519 
2.1200000000000001 0.109100 -0.448669 -0.004908 -0.000415 -0.006324 -0.001722 0.140137 0.025116 
2.1212499999999999 0.079880 -0.442444 -0.004949 -0.000095 -0.006031 -0.001072 0.139168 0.022690 
2.1225000000000001 0.051849 -0.436249 -0.004670 0.000279 -0.006169 -0.000686 0.138565 0.020920 
2.1237499999999998 0.025909 -0.429321 -0.004613 0.000913 -0.006395 0.000075 0.138084 0.018707 
2.1250000000000000 0.001816 -0.420075 -0.004386 0.001115 -0.005898 0.000402 0.136932 0.016991 
2.1262500000000002 -0.021774 -0.413803 -0.004246 0.001519 -0.005758 0.001293 0.136414 0.015877 
2.1274999999999999 -0.042572 -0.404450 -0.003873 0.001622 -0.005908 0.001485 0.136055 0.013809 
2.1287500000000001 -0.063522 -0.394623 -0.003701 0.002005 -0.005323 0.001865 0.134842 0.012230 
2.1299999999999999 -0.081818 -0.386719 -0.003529 0.001917 -0.005245 0.002499 0.133881 0.010735 
2.1312500000000001 -0.100815 -0.375229 -0.003194 0.002198 -0.005363 0.002700 0.132767 0.008232 
2.1324999999999998 -0.118805 -0.365601 -0.003175 0.002432 -0.005005 0.003249 0.131828 0.006256 
2.1337500000000000 -0.134216 -0.354431 -0.002907 0.002653 -0.004373 0.003603 0.131661 0.003693 
2.1349999999999998 -0.149597 -0.344238 -0.002733 0.002810 -0.004437 0.004271 0.131119 0.001549 
2.1362500000000000 -0.165161 -0.332581 -0.002814 0.003062 -0.003892 0.004648 0.131729 -0.000793 
2.1375000000000002 -0.179840 -0.320435 -0.002651 0.003407 -0.003444 0.004965 0.131455 -0.002518 
2.1387499999999999 -0.193756 -0.307861 -0.002292 0.003598 -0.002972 0.005060 0.130508 -0.004051 
2.1400000000000001 -0.207703 -0.294769 -0.001846 0.003608 -0.002740 0.004961 0.130463 -0.006157 
2.1412499999999999 -0.220490 -0.282135 -0.001753 0.003714 -0.002135 0.005529 0.129723 -0.007782 
2.1425000000000001 -0.234375 -0.268768 -0.001455 0.003812 -0.001467 0.005619 0.129318 -0.009857 
2.1437499999999998 -0.245697 -0.256989 -0.001089 0.003764 -0.000568 0.005850 0.128754 -0.012207 
2.1450000000000000 -0.256989 -0.242004 -0.000727 0.003625 -0.000440 0.005639 0.127373 -0.014290 
2.1462500000000002 -0.268372 -0.227783 -0.000603 0.003831 0.000093 0.005698 0.126053 -0.016785 
2.1475000000000000 -0.279968 -0.213165 -0.000121 0.004096 0.000473 0.005854 0.125084 -0.019112 
2.1487500000000002 -0.289612 -0.196716 -0.000158 0.003911 0.001012 0.005350 0.123871 -0.021942 
2.1499999999999999 -0.300629 -0.180695 0.000158 0.004097 0.001511 0.005533 0.121986 -0.024857 
2.1512500000000001 -0.310669 -0.164795 0.000583 0.003968 0.002132 0.005169 0.121223 -0.027420 
