!
! C:\Users\rflab\Downloads\Lab5_KD_ZW\270.S2P
!
! Touchstone 1.1 file saved by VNA.EXE V1.65 (www.ke5fx.com/gpib/readme.htm)
! 11/12/2024 12:27:47 AM
!
!    Source: HEWLETT PACKARD,8753D,0,6.14
!  Min freq: 1.900000E+009 Hz
!  Max freq: 2.900000E+009 Hz
!    Points: 801
!    Params: S11 S21 S12 S22
!
!!!!!
# GHZ S RI R 50
1.8999999999999999 0.962524 0.278687 0.007646 0.008064 0.003559 0.005085 0.024004 -0.057043 
1.9012500000000001 0.958679 0.144226 0.009027 0.007059 0.003787 0.004933 0.021282 -0.057066 
1.9025000000000001 0.930847 0.018677 0.009232 0.005325 0.004117 0.004322 0.019312 -0.057348 
1.9037500000000001 0.890137 -0.089661 0.009383 0.003972 0.004438 0.004268 0.017065 -0.057482 
1.9050000000000000 0.841400 -0.180481 0.009634 0.002440 0.004978 0.003990 0.014967 -0.056425 
1.9062500000000000 0.783783 -0.252258 0.009695 0.001050 0.005319 0.003393 0.012587 -0.055820 
1.9075000000000000 0.724091 -0.314758 0.009170 0.000394 0.006020 0.003187 0.010702 -0.054949 
1.9087499999999999 0.664917 -0.367432 0.008835 -0.000529 0.005967 0.002551 0.007948 -0.053858 
1.9099999999999999 0.604736 -0.408325 0.008382 -0.001177 0.006336 0.001986 0.005510 -0.052639 
1.9112499999999999 0.547394 -0.439911 0.007632 -0.002272 0.006413 0.001445 0.002140 -0.051249 
1.9125000000000001 0.491180 -0.465210 0.007148 -0.002819 0.006537 0.000833 -0.000444 -0.050150 
1.9137500000000001 0.438797 -0.483078 0.006550 -0.003253 0.006896 0.000441 -0.003248 -0.049240 
1.9150000000000000 0.389679 -0.496536 0.006196 -0.003617 0.006727 -0.000208 -0.005981 -0.048365 
1.9162500000000000 0.341919 -0.506867 0.005576 -0.003693 0.006886 -0.000976 -0.008497 -0.047340 
1.9175000000000000 0.300354 -0.513275 0.005227 -0.004420 0.006787 -0.001741 -0.010605 -0.046280 
1.9187500000000000 0.258240 -0.516052 0.005011 -0.004778 0.006648 -0.002301 -0.012657 -0.045195 
1.9199999999999999 0.220306 -0.517090 0.004133 -0.005057 0.006477 -0.003076 -0.014471 -0.043901 
1.9212499999999999 0.184814 -0.514191 0.003766 -0.005068 0.006198 -0.003538 -0.016647 -0.042526 
1.9225000000000001 0.150726 -0.513031 0.003204 -0.005212 0.005632 -0.004149 -0.017851 -0.040697 
1.9237500000000001 0.117249 -0.508514 0.002625 -0.005253 0.005086 -0.004857 -0.019178 -0.038836 
1.9250000000000000 0.087677 -0.502899 0.002166 -0.005243 0.004622 -0.004952 -0.021011 -0.036369 
1.9262500000000000 0.058258 -0.496735 0.001757 -0.005517 0.004295 -0.005611 -0.022995 -0.034134 
1.9275000000000000 0.033356 -0.490326 0.001166 -0.005112 0.003725 -0.005816 -0.024879 -0.031902 
1.9287500000000000 0.005859 -0.483215 0.000908 -0.005302 0.003043 -0.006131 -0.026772 -0.029846 
1.9299999999999999 -0.016815 -0.475220 0.000245 -0.005296 0.002648 -0.006504 -0.028751 -0.028137 
1.9312499999999999 -0.039093 -0.466644 0.000211 -0.005297 0.001832 -0.006710 -0.030346 -0.026382 
1.9325000000000001 -0.062164 -0.455658 -0.000217 -0.005193 0.001091 -0.006940 -0.032223 -0.025162 
1.9337500000000001 -0.083023 -0.445480 -0.000435 -0.004922 0.000415 -0.007015 -0.033321 -0.023521 
1.9350000000000001 -0.104157 -0.435440 -0.001103 -0.004995 0.000142 -0.006988 -0.034256 -0.022470 
1.9362500000000000 -0.124146 -0.424637 -0.001261 -0.004998 -0.000858 -0.006836 -0.034618 -0.020849 
1.9375000000000000 -0.142258 -0.414246 -0.001294 -0.004818 -0.001141 -0.006615 -0.035282 -0.019814 
1.9387500000000000 -0.159653 -0.401947 -0.001803 -0.004530 -0.001633 -0.006461 -0.035498 -0.017601 
1.9399999999999999 -0.178238 -0.389786 -0.002165 -0.004390 -0.002226 -0.006357 -0.036234 -0.015482 
1.9412499999999999 -0.195725 -0.378082 -0.002593 -0.003951 -0.003112 -0.005950 -0.036592 -0.013647 
1.9424999999999999 -0.212723 -0.366577 -0.002798 -0.003925 -0.003355 -0.006194 -0.037212 -0.011086 
1.9437500000000001 -0.229157 -0.352768 -0.003077 -0.003765 -0.003819 -0.005555 -0.038475 -0.009418 
1.9450000000000001 -0.244049 -0.339386 -0.003227 -0.003716 -0.004321 -0.005286 -0.039642 -0.008196 
1.9462500000000000 -0.259659 -0.325607 -0.003496 -0.003365 -0.004834 -0.004797 -0.040897 -0.006157 
1.9475000000000000 -0.273850 -0.311478 -0.003654 -0.002833 -0.005292 -0.004253 -0.041960 -0.005444 
1.9487500000000000 -0.288773 -0.297302 -0.003941 -0.002950 -0.005847 -0.004002 -0.043310 -0.004814 
1.9500000000000000 -0.301590 -0.282166 -0.004244 -0.002411 -0.005996 -0.003443 -0.044264 -0.003511 
1.9512499999999999 -0.316773 -0.267258 -0.004282 -0.002435 -0.006162 -0.002686 -0.045057 -0.003313 
1.9524999999999999 -0.329773 -0.250473 -0.004471 -0.002058 -0.006702 -0.002328 -0.045591 -0.002718 
1.9537500000000001 -0.343796 -0.233353 -0.004687 -0.001706 -0.006524 -0.001630 -0.046061 -0.001945 
1.9550000000000001 -0.355515 -0.216385 -0.004817 -0.001353 -0.006909 -0.000881 -0.046541 -0.000505 
1.9562500000000000 -0.366242 -0.198608 -0.005078 -0.001158 -0.006833 -0.000483 -0.046515 0.000454 
1.9575000000000000 -0.380219 -0.179215 -0.005388 -0.000721 -0.007086 0.000311 -0.047491 0.001318 
1.9587500000000000 -0.391693 -0.157532 -0.005104 -0.000310 -0.007026 0.000829 -0.048513 0.003149 
1.9600000000000000 -0.402405 -0.136078 -0.005180 0.000086 -0.006575 0.001626 -0.049831 0.004532 
1.9612499999999999 -0.414246 -0.115906 -0.005243 0.000297 -0.006781 0.001939 -0.051125 0.005848 
1.9624999999999999 -0.424408 -0.092621 -0.005272 0.000878 -0.006339 0.002541 -0.053043 0.007492 
1.9637500000000001 -0.435394 -0.067810 -0.005419 0.001312 -0.006257 0.003147 -0.054482 0.008621 
1.9650000000000001 -0.443603 -0.041138 -0.005391 0.001829 -0.006180 0.004072 -0.055946 0.009445 
1.9662500000000001 -0.452118 -0.013031 -0.005149 0.001919 -0.005679 0.004536 -0.057182 0.010498 
1.9675000000000000 -0.460419 0.014984 -0.005451 0.002487 -0.005320 0.005172 -0.059219 0.012138 
1.9687500000000000 -0.467468 0.047974 -0.005252 0.002814 -0.004532 0.005344 -0.060377 0.013151 
1.9700000000000000 -0.474380 0.080765 -0.005170 0.003484 -0.004184 0.005723 -0.061432 0.014576 
1.9712499999999999 -0.477509 0.118561 -0.005287 0.004065 -0.003586 0.006271 -0.062380 0.016729 
1.9724999999999999 -0.482803 0.153687 -0.004918 0.004711 -0.003127 0.006625 -0.063202 0.018646 
1.9737499999999999 -0.482101 0.197174 -0.004394 0.005054 -0.002648 0.006600 -0.064331 0.021389 
1.9750000000000001 -0.480026 0.241623 -0.004176 0.005764 -0.001820 0.006858 -0.065838 0.023773 
1.9762500000000001 -0.476868 0.289581 -0.003854 0.006291 -0.001220 0.007147 -0.067215 0.026634 
1.9775000000000000 -0.469055 0.337128 -0.003613 0.006905 -0.000447 0.007482 -0.069141 0.029613 
1.9787500000000000 -0.455444 0.390930 -0.002997 0.007741 0.000054 0.007058 -0.070457 0.031849 
1.9800000000000000 -0.434326 0.447571 -0.002230 0.007935 0.000842 0.007338 -0.071968 0.034565 
1.9812500000000000 -0.407044 0.508789 -0.001504 0.008245 0.001835 0.007003 -0.073292 0.037235 
1.9824999999999999 -0.372437 0.570740 -0.000752 0.008811 0.002360 0.006711 -0.073849 0.039761 
1.9837499999999999 -0.325012 0.633240 0.000008 0.009357 0.002679 0.006581 -0.074699 0.042198 
1.9850000000000001 -0.263062 0.694733 0.001407 0.009736 0.003622 0.006195 -0.075489 0.045467 
1.9862500000000001 -0.192505 0.761841 0.002466 0.009950 0.003837 0.005732 -0.075306 0.048412 
1.9875000000000000 -0.099182 0.814331 0.004097 0.009861 0.004413 0.005468 -0.075020 0.051422 
1.9887500000000000 0.005676 0.854004 0.005508 0.009766 0.005044 0.004723 -0.074654 0.054661 
1.9900000000000000 0.127197 0.882263 0.007147 0.008754 0.005435 0.004514 -0.073883 0.058804 
1.9912500000000000 0.264221 0.891785 0.009151 0.008672 0.005599 0.004102 -0.073742 0.062786 
1.9924999999999999 0.395142 0.859619 0.009789 0.006910 0.005989 0.003452 -0.072956 0.066467 
1.9937499999999999 0.534546 0.802979 0.011223 0.005600 0.006128 0.002758 -0.072411 0.070320 
1.9950000000000001 0.658936 0.715332 0.011723 0.002889 0.006391 0.002140 -0.072182 0.074303 
1.9962500000000001 0.763061 0.603943 0.012166 0.001209 0.006486 0.001619 -0.071468 0.077751 
1.9975000000000001 0.838318 0.479553 0.011928 -0.000690 0.006734 0.001199 -0.070896 0.080730 
1.9987500000000000 0.880798 0.337952 0.011689 -0.002326 0.006876 0.001023 -0.070099 0.083645 
2.0000000000000000 0.900330 0.204712 0.011101 -0.003407 0.006822 0.000376 -0.068153 0.086666 
2.0012500000000002 0.888672 0.078735 0.009607 -0.004516 0.006987 -0.000279 -0.066177 0.089722 
2.0024999999999999 0.860840 -0.035217 0.008980 -0.005869 0.007069 -0.001128 -0.063881 0.091965 
2.0037500000000001 0.816101 -0.129395 0.007678 -0.006650 0.006716 -0.001542 -0.061153 0.095177 
2.0049999999999999 0.762573 -0.213562 0.006203 -0.007128 0.006824 -0.002383 -0.058327 0.098003 
2.0062500000000001 0.703674 -0.279571 0.005278 -0.007391 0.006601 -0.002908 -0.056396 0.101208 
2.0074999999999998 0.648315 -0.337921 0.004477 -0.007738 0.006095 -0.003660 -0.053413 0.103668 
2.0087500000000000 0.585785 -0.382202 0.003403 -0.007615 0.006204 -0.004184 -0.050846 0.106686 
2.0099999999999998 0.526733 -0.416138 0.002530 -0.007606 0.005632 -0.004662 -0.048103 0.109055 
2.0112500000000000 0.473541 -0.437622 0.001582 -0.007347 0.005274 -0.004923 -0.046219 0.111675 
2.0125000000000002 0.421845 -0.460602 0.000881 -0.007076 0.004612 -0.005656 -0.043842 0.113682 
2.0137499999999999 0.374664 -0.471314 0.000243 -0.006842 0.004513 -0.006428 -0.041504 0.115288 
2.0150000000000001 0.325974 -0.482681 -0.000129 -0.006694 0.003426 -0.006552 -0.038834 0.116348 
2.0162499999999999 0.283752 -0.488876 -0.000970 -0.006513 0.002730 -0.006970 -0.036774 0.117676 
2.0175000000000001 0.244141 -0.490051 -0.001013 -0.005999 0.002193 -0.007118 -0.034206 0.117825 
2.0187499999999998 0.207382 -0.490433 -0.001631 -0.006039 0.001348 -0.007063 -0.030277 0.118607 
2.0200000000000000 0.169617 -0.488403 -0.001830 -0.005385 0.000840 -0.007293 -0.027271 0.119278 
2.0212500000000002 0.136444 -0.485565 -0.002298 -0.005107 -0.000030 -0.007055 -0.025490 0.119724 
2.0225000000000000 0.105759 -0.481766 -0.002754 -0.005010 -0.000622 -0.006985 -0.022442 0.120655 
2.0237500000000002 0.077118 -0.475296 -0.002980 -0.004718 -0.001178 -0.007206 -0.019760 0.121613 
2.0249999999999999 0.049347 -0.469544 -0.003111 -0.004279 -0.001815 -0.006432 -0.017433 0.122086 
2.0262500000000001 0.022705 -0.460602 -0.003434 -0.003853 -0.002509 -0.006781 -0.015587 0.123001 
2.0274999999999999 -0.000183 -0.452423 -0.003664 -0.003633 -0.003119 -0.006399 -0.013603 0.123047 
2.0287500000000001 -0.024200 -0.444946 -0.003839 -0.003051 -0.003867 -0.006196 -0.012566 0.123833 
2.0299999999999998 -0.046509 -0.435150 -0.003892 -0.002896 -0.004312 -0.005784 -0.010834 0.123802 
2.0312500000000000 -0.069427 -0.425385 -0.004087 -0.002620 -0.004528 -0.005167 -0.009789 0.123833 
2.0325000000000002 -0.087982 -0.414490 -0.004155 -0.002286 -0.005258 -0.004856 -0.008492 0.123825 
2.0337499999999999 -0.108521 -0.404511 -0.004249 -0.002007 -0.005366 -0.004150 -0.007973 0.123833 
2.0350000000000001 -0.127655 -0.393982 -0.004173 -0.001961 -0.005701 -0.003730 -0.006348 0.123856 
2.0362499999999999 -0.144806 -0.382599 -0.004340 -0.001413 -0.005967 -0.003276 -0.005661 0.123444 
2.0375000000000001 -0.162018 -0.372192 -0.004225 -0.001287 -0.005992 -0.002429 -0.003212 0.123955 
2.0387499999999998 -0.177795 -0.360291 -0.004459 -0.000681 -0.006446 -0.002064 -0.002251 0.124237 
2.0400000000000000 -0.193481 -0.348938 -0.004511 -0.000572 -0.006732 -0.001698 -0.001343 0.125526 
2.0412499999999998 -0.209137 -0.337280 -0.004548 -0.000016 -0.006957 -0.001132 0.000061 0.126205 
2.0425000000000000 -0.223358 -0.323914 -0.004450 0.000098 -0.006759 -0.000804 0.000603 0.127548 
2.0437500000000002 -0.237488 -0.312530 -0.004506 0.000213 -0.007049 0.000366 0.001457 0.128593 
2.0449999999999999 -0.251862 -0.298645 -0.004315 0.000604 -0.006674 0.000646 0.002533 0.129654 
2.0462500000000001 -0.263580 -0.284241 -0.004420 0.000892 -0.006668 0.001040 0.003128 0.131180 
2.0474999999999999 -0.276917 -0.271790 -0.004412 0.001343 -0.006620 0.001573 0.003998 0.131851 
2.0487500000000001 -0.289642 -0.255798 -0.004136 0.001580 -0.006290 0.002530 0.005295 0.133835 
2.0499999999999998 -0.301148 -0.240997 -0.003957 0.001892 -0.006013 0.003070 0.006958 0.134445 
2.0512500000000000 -0.312317 -0.225464 -0.004067 0.001832 -0.006016 0.003422 0.008873 0.135651 
2.0525000000000002 -0.324524 -0.210205 -0.003963 0.002227 -0.005873 0.003754 0.010582 0.137245 
2.0537500000000000 -0.334625 -0.192932 -0.003714 0.002671 -0.005109 0.004638 0.012817 0.138832 
2.0550000000000002 -0.345886 -0.176453 -0.003638 0.002975 -0.004984 0.005140 0.015083 0.140770 
2.0562499999999999 -0.357056 -0.156952 -0.003484 0.003078 -0.004360 0.005366 0.017494 0.142235 
2.0575000000000001 -0.366333 -0.138977 -0.003231 0.003572 -0.003991 0.005994 0.020523 0.144249 
2.0587499999999999 -0.376617 -0.119110 -0.003237 0.003901 -0.003151 0.006286 0.022644 0.146332 
2.0600000000000001 -0.386719 -0.098022 -0.002770 0.004050 -0.002842 0.006465 0.025482 0.148193 
2.0612499999999998 -0.395721 -0.076691 -0.002595 0.004429 -0.001935 0.006515 0.028259 0.149994 
2.0625000000000000 -0.403198 -0.052826 -0.002446 0.004476 -0.001454 0.006747 0.031464 0.151382 
2.0637500000000002 -0.411285 -0.029236 -0.001942 0.004499 -0.000865 0.006878 0.034363 0.152191 
2.0649999999999999 -0.419113 -0.003098 -0.001593 0.004901 -0.000378 0.007396 0.038300 0.153290 
2.0662500000000001 -0.425522 0.023544 -0.001523 0.005290 0.000340 0.007082 0.041954 0.153107 
2.0674999999999999 -0.432480 0.051956 -0.000981 0.005267 0.000869 0.007071 0.045853 0.153412 
2.0687500000000001 -0.436600 0.082611 -0.000458 0.005710 0.001531 0.007167 0.050552 0.153503 
2.0699999999999998 -0.439163 0.115997 -0.000238 0.005761 0.002304 0.006601 0.056053 0.153130 
2.0712500000000000 -0.440094 0.148773 0.000269 0.006169 0.002890 0.006568 0.061447 0.152832 
2.0724999999999998 -0.441620 0.184692 0.000798 0.006084 0.003366 0.006383 0.065765 0.152145 
2.0737500000000000 -0.438354 0.224243 0.001252 0.006049 0.004335 0.005869 0.071075 0.152405 
2.0750000000000002 -0.431946 0.265564 0.001659 0.006143 0.004629 0.005570 0.076965 0.151092 
2.0762499999999999 -0.423584 0.309662 0.002516 0.006324 0.005115 0.004892 0.081513 0.150650 
2.0775000000000001 -0.410309 0.357391 0.003212 0.006490 0.005713 0.004758 0.086166 0.149124 
2.0787499999999999 -0.390350 0.406036 0.004201 0.006091 0.006127 0.004136 0.090958 0.147110 
2.0800000000000001 -0.366653 0.459625 0.004929 0.006148 0.006217 0.003506 0.095322 0.145348 
2.0812499999999998 -0.332825 0.515076 0.005355 0.006006 0.006750 0.002764 0.099594 0.142273 
2.0825000000000000 -0.288117 0.567108 0.005938 0.005320 0.006594 0.002043 0.104721 0.139099 
2.0837500000000002 -0.236816 0.623718 0.006713 0.005013 0.007255 0.001506 0.108810 0.135422 
2.0850000000000000 -0.168732 0.676025 0.007729 0.004350 0.006922 0.000776 0.113678 0.131775 
2.0862500000000002 -0.088989 0.722229 0.008840 0.003686 0.006818 0.000130 0.117554 0.127899 
2.0874999999999999 0.006043 0.757752 0.009762 0.002567 0.006987 -0.000614 0.122528 0.124252 
2.0887500000000001 0.116760 0.781067 0.009914 0.001864 0.006917 -0.001113 0.126396 0.120361 
2.0899999999999999 0.233948 0.781738 0.011031 -0.000234 0.006741 -0.001750 0.130150 0.116135 
2.0912500000000001 0.359131 0.763550 0.010886 -0.002060 0.006391 -0.002010 0.133255 0.112534 
2.0924999999999998 0.484253 0.719910 0.010296 -0.003632 0.006322 -0.002626 0.136253 0.108826 
2.0937500000000000 0.601135 0.638672 0.010349 -0.004889 0.005923 -0.002847 0.138687 0.104355 
2.0950000000000002 0.688782 0.547241 0.008844 -0.006385 0.006047 -0.003253 0.140274 0.099258 
2.0962499999999999 0.759918 0.432831 0.007533 -0.007875 0.005339 -0.003772 0.141632 0.095085 
2.0975000000000001 0.800385 0.309265 0.006202 -0.008886 0.005326 -0.004389 0.143951 0.090340 
2.0987499999999999 0.820618 0.184631 0.004998 -0.009194 0.004943 -0.004963 0.144531 0.085663 
2.1000000000000001 0.812744 0.070862 0.003623 -0.009426 0.004752 -0.005860 0.144821 0.081177 
2.1012499999999998 0.789246 -0.035522 0.002551 -0.009635 0.004443 -0.005961 0.145554 0.076035 
2.1025000000000000 0.750794 -0.125427 0.001413 -0.009234 0.003901 -0.006352 0.146713 0.071899 
2.1037499999999998 0.703979 -0.203980 0.000015 -0.009567 0.003460 -0.007164 0.147492 0.066620 
2.1050000000000000 0.648377 -0.266968 -0.000698 -0.008792 0.002507 -0.007354 0.147812 0.062851 
2.1062500000000002 0.595062 -0.318085 -0.002088 -0.008427 0.001687 -0.007935 0.148483 0.058937 
2.1074999999999999 0.540192 -0.356598 -0.002796 -0.007972 0.000990 -0.007983 0.148003 0.055511 
2.1087500000000001 0.485474 -0.387970 -0.003345 -0.007220 -0.000212 -0.008302 0.148125 0.051575 
2.1099999999999999 0.432388 -0.410645 -0.003817 -0.006706 -0.001202 -0.008337 0.147148 0.048836 
2.1112500000000001 0.384049 -0.427048 -0.003871 -0.005511 -0.001744 -0.008264 0.146477 0.045921 
2.1124999999999998 0.335327 -0.438919 -0.004465 -0.004756 -0.002763 -0.007838 0.145821 0.042252 
2.1137500000000000 0.291840 -0.448898 -0.004449 -0.004288 -0.003744 -0.007369 0.144615 0.039536 
2.1150000000000002 0.250900 -0.452606 -0.004945 -0.003953 -0.004174 -0.006646 0.143166 0.036194 
2.1162500000000000 0.212250 -0.455048 -0.004883 -0.003526 -0.004804 -0.006355 0.142792 0.033569 
2.1175000000000002 0.175812 -0.454575 -0.004931 -0.002966 -0.005143 -0.005505 0.141853 0.030640 
2.1187499999999999 0.142944 -0.452255 -0.005096 -0.002720 -0.005633 -0.004986 0.141113 0.027931 
2.1200000000000001 0.111115 -0.449219 -0.005176 -0.002522 -0.006126 -0.004428 0.140396 0.025642 
2.1212499999999999 0.082199 -0.442963 -0.005328 -0.002095 -0.006652 -0.003990 0.140427 0.023163 
2.1225000000000001 0.054169 -0.436279 -0.005437 -0.001481 -0.006782 -0.002847 0.139694 0.021278 
2.1237499999999998 0.028030 -0.429825 -0.005236 -0.001122 -0.007095 -0.002578 0.139343 0.019554 
2.1250000000000000 0.003876 -0.421234 -0.005319 -0.000614 -0.007115 -0.001937 0.138535 0.017570 
2.1262500000000002 -0.020401 -0.413986 -0.005113 -0.000083 -0.007071 -0.001181 0.137749 0.016533 
2.1274999999999999 -0.041550 -0.405243 -0.005251 0.000184 -0.006742 -0.000658 0.136925 0.014778 
2.1287500000000001 -0.062119 -0.394836 -0.004876 0.000659 -0.006849 0.000037 0.136276 0.013336 
2.1299999999999999 -0.080383 -0.386734 -0.004650 0.000943 -0.006728 0.000453 0.135300 0.011215 
2.1312500000000001 -0.099670 -0.375427 -0.004527 0.001200 -0.006795 0.001184 0.134316 0.008446 
2.1324999999999998 -0.117645 -0.365845 -0.004623 0.001394 -0.006733 0.001702 0.133568 0.006905 
2.1337500000000000 -0.133331 -0.355621 -0.004488 0.001464 -0.006654 0.002306 0.132835 0.004341 
2.1349999999999998 -0.147766 -0.344330 -0.004472 0.001787 -0.006270 0.002741 0.132340 0.002647 
2.1362500000000000 -0.163544 -0.333404 -0.004474 0.002100 -0.006298 0.003120 0.132408 -0.000122 
2.1375000000000002 -0.178955 -0.321228 -0.004100 0.002470 -0.006316 0.003884 0.132942 -0.001640 
2.1387499999999999 -0.192596 -0.308533 -0.003925 0.002943 -0.005560 0.004660 0.131340 -0.003922 
2.1400000000000001 -0.206573 -0.294983 -0.003572 0.003227 -0.004837 0.004694 0.131577 -0.005600 
2.1412499999999999 -0.219879 -0.283234 -0.003360 0.003396 -0.004571 0.005343 0.130646 -0.007576 
2.1425000000000001 -0.233795 -0.269836 -0.003080 0.003796 -0.003947 0.005790 0.130249 -0.009789 
2.1437499999999998 -0.244721 -0.257782 -0.002707 0.004056 -0.003577 0.005961 0.129128 -0.011841 
2.1450000000000000 -0.256195 -0.242554 -0.002856 0.004158 -0.002818 0.006299 0.127884 -0.013977 
2.1462500000000002 -0.267792 -0.228394 -0.002452 0.003920 -0.002525 0.006684 0.126968 -0.016762 
2.1475000000000000 -0.279083 -0.213867 -0.001865 0.004326 -0.001893 0.006768 0.125084 -0.018906 
2.1487500000000002 -0.288727 -0.197998 -0.001676 0.004442 -0.001041 0.006523 0.124085 -0.021950 
2.1499999999999999 -0.300262 -0.181854 -0.001673 0.004762 -0.000524 0.006819 0.122452 -0.025093 
2.1512500000000001 -0.310059 -0.165527 -0.001127 0.004668 0.000064 0.006794 0.121384 -0.027794 
