!
! C:\Users\rflab\Downloads\Lab5_KD_ZW\280.S2P
!
! Touchstone 1.1 file saved by VNA.EXE V1.65 (www.ke5fx.com/gpib/readme.htm)
! 11/12/2024 12:28:50 AM
!
!    Source: HEWLETT PACKARD,8753D,0,6.14
!  Min freq: 1.900000E+009 Hz
!  Max freq: 2.900000E+009 Hz
!    Points: 801
!    Params: S11 S21 S12 S22
!
!!!!!
# GHZ S RI R 50
1.8999999999999999 0.961609 0.270508 0.005514 0.011594 0.001818 0.006782 0.023952 -0.056246 
1.9012500000000001 0.954590 0.141907 0.006773 0.010790 0.002318 0.006523 0.021442 -0.056467 
1.9025000000000001 0.929199 0.014954 0.008221 0.009422 0.003093 0.006525 0.019302 -0.056458 
1.9037500000000001 0.886658 -0.090759 0.009258 0.008195 0.003392 0.006272 0.017267 -0.056517 
1.9050000000000000 0.841583 -0.180542 0.009199 0.006522 0.003959 0.006136 0.015272 -0.055925 
1.9062500000000000 0.784882 -0.256287 0.010100 0.005035 0.004425 0.005980 0.012732 -0.055502 
1.9075000000000000 0.722382 -0.319031 0.009300 0.004059 0.005063 0.005654 0.011200 -0.054127 
1.9087499999999999 0.661346 -0.370087 0.009970 0.002533 0.005740 0.005210 0.008354 -0.052973 
1.9099999999999999 0.600098 -0.409454 0.009835 0.001609 0.006291 0.004484 0.006084 -0.051847 
1.9112499999999999 0.545044 -0.441467 0.008977 0.000390 0.006737 0.003770 0.003084 -0.050768 
1.9125000000000001 0.488434 -0.465179 0.008926 -0.000631 0.006801 0.003438 0.000256 -0.049625 
1.9137500000000001 0.435577 -0.483994 0.008550 -0.001074 0.007150 0.002789 -0.002575 -0.048660 
1.9150000000000000 0.387207 -0.495636 0.007930 -0.001544 0.007529 0.002073 -0.005560 -0.047611 
1.9162500000000000 0.339355 -0.506836 0.007603 -0.002229 0.007678 0.001722 -0.008171 -0.046963 
1.9175000000000000 0.297760 -0.512573 0.007096 -0.002743 0.007912 0.000734 -0.009981 -0.046116 
1.9187500000000000 0.256927 -0.516693 0.006491 -0.003250 0.008237 0.000116 -0.011906 -0.045351 
1.9199999999999999 0.219177 -0.515350 0.006136 -0.003596 0.007779 -0.001143 -0.013586 -0.043793 
1.9212499999999999 0.182282 -0.514893 0.005962 -0.003948 0.007916 -0.001670 -0.015610 -0.042177 
1.9225000000000001 0.149811 -0.512665 0.005373 -0.004772 0.007705 -0.002621 -0.017239 -0.040224 
1.9237500000000001 0.116272 -0.508331 0.004694 -0.004857 0.007359 -0.003139 -0.018597 -0.038790 
1.9250000000000000 0.087463 -0.501953 0.004238 -0.004922 0.007201 -0.003949 -0.020454 -0.036285 
1.9262500000000000 0.058044 -0.496551 0.003968 -0.005170 0.006697 -0.004551 -0.022522 -0.034073 
1.9275000000000000 0.031830 -0.491058 0.003424 -0.005581 0.006275 -0.004969 -0.024544 -0.031761 
1.9287500000000000 0.005341 -0.482483 0.002665 -0.005419 0.005546 -0.005443 -0.026470 -0.030102 
1.9299999999999999 -0.017517 -0.474121 0.002553 -0.005605 0.005142 -0.006172 -0.028351 -0.028282 
1.9312499999999999 -0.040558 -0.465241 0.001921 -0.005464 0.004266 -0.006566 -0.029995 -0.027065 
1.9325000000000001 -0.063721 -0.455475 0.001628 -0.005591 0.003930 -0.006883 -0.031776 -0.025635 
1.9337500000000001 -0.083786 -0.445328 0.001188 -0.005581 0.003248 -0.007062 -0.032953 -0.024328 
1.9350000000000001 -0.105255 -0.434738 0.000725 -0.005350 0.002653 -0.007506 -0.033766 -0.022680 
1.9362500000000000 -0.123612 -0.423904 0.000374 -0.005667 0.001824 -0.007640 -0.034189 -0.021505 
1.9375000000000000 -0.142975 -0.413361 0.000069 -0.005504 0.001063 -0.007744 -0.035393 -0.019562 
1.9387500000000000 -0.160583 -0.402115 -0.000247 -0.005546 0.000517 -0.007521 -0.035650 -0.018055 
1.9399999999999999 -0.179321 -0.389542 -0.000692 -0.005487 0.000044 -0.007869 -0.035889 -0.015911 
1.9412499999999999 -0.196121 -0.376770 -0.001072 -0.005443 -0.000701 -0.008006 -0.036934 -0.013853 
1.9424999999999999 -0.212799 -0.365936 -0.001635 -0.005293 -0.001184 -0.007496 -0.037798 -0.011620 
1.9437500000000001 -0.229446 -0.352799 -0.001804 -0.005257 -0.001935 -0.007372 -0.038681 -0.010082 
1.9450000000000001 -0.244522 -0.338898 -0.002283 -0.005116 -0.002738 -0.007097 -0.039747 -0.008429 
1.9462500000000000 -0.260391 -0.324417 -0.002650 -0.004729 -0.003732 -0.006773 -0.041464 -0.006668 
1.9475000000000000 -0.275299 -0.310761 -0.002755 -0.004743 -0.004145 -0.006821 -0.042572 -0.005970 
1.9487500000000000 -0.289673 -0.296478 -0.003027 -0.004430 -0.004495 -0.006173 -0.043816 -0.004896 
1.9500000000000000 -0.302734 -0.282410 -0.003405 -0.004396 -0.004890 -0.005811 -0.044710 -0.003838 
1.9512499999999999 -0.316620 -0.265854 -0.003927 -0.003984 -0.005451 -0.005431 -0.045769 -0.003328 
1.9524999999999999 -0.331009 -0.249283 -0.004163 -0.003970 -0.005953 -0.004957 -0.046021 -0.002966 
1.9537500000000001 -0.343201 -0.233398 -0.004402 -0.003631 -0.006376 -0.004499 -0.046558 -0.001680 
1.9550000000000001 -0.355408 -0.215469 -0.004699 -0.003338 -0.006992 -0.003782 -0.047226 -0.000856 
1.9562500000000000 -0.367325 -0.197449 -0.004884 -0.002957 -0.007387 -0.003264 -0.047853 0.000349 
1.9575000000000000 -0.380951 -0.179047 -0.005356 -0.002541 -0.007236 -0.002419 -0.048460 0.001778 
1.9587500000000000 -0.391998 -0.156448 -0.005585 -0.002225 -0.007533 -0.001851 -0.049067 0.003592 
1.9600000000000000 -0.402130 -0.136414 -0.005623 -0.002037 -0.007547 -0.001108 -0.050198 0.004795 
1.9612499999999999 -0.414978 -0.113434 -0.006041 -0.001763 -0.008060 -0.000337 -0.051975 0.005749 
1.9624999999999999 -0.423492 -0.092041 -0.006228 -0.001250 -0.007924 0.000164 -0.053375 0.007622 
1.9637500000000001 -0.435638 -0.067169 -0.006321 -0.000745 -0.008019 0.001145 -0.054878 0.008984 
1.9650000000000001 -0.445343 -0.040802 -0.006445 -0.000392 -0.008126 0.001872 -0.056355 0.009865 
1.9662500000000001 -0.453155 -0.011566 -0.006582 0.000020 -0.007770 0.002342 -0.058353 0.011253 
1.9675000000000000 -0.460968 0.016296 -0.006734 0.000300 -0.007584 0.003276 -0.059063 0.012566 
1.9687500000000000 -0.467682 0.048492 -0.006787 0.001089 -0.007143 0.004108 -0.060843 0.013731 
1.9700000000000000 -0.473907 0.081940 -0.006717 0.001610 -0.006584 0.004619 -0.061522 0.015183 
1.9712499999999999 -0.478485 0.120285 -0.006959 0.001993 -0.006074 0.004989 -0.062557 0.017189 
1.9724999999999999 -0.481613 0.156677 -0.007137 0.003087 -0.006022 0.005928 -0.063629 0.019344 
1.9737499999999999 -0.480606 0.198090 -0.006966 0.003520 -0.005381 0.005902 -0.064331 0.022007 
1.9750000000000001 -0.479858 0.242416 -0.006871 0.004580 -0.004700 0.006907 -0.065842 0.024624 
1.9762500000000001 -0.476654 0.289856 -0.006639 0.005005 -0.004307 0.007165 -0.067326 0.027161 
1.9775000000000000 -0.469544 0.339355 -0.006639 0.005790 -0.003533 0.007300 -0.068981 0.029827 
1.9787500000000000 -0.453552 0.393799 -0.005926 0.006733 -0.002787 0.007898 -0.070316 0.032776 
1.9800000000000000 -0.431946 0.448852 -0.005914 0.007524 -0.001885 0.008017 -0.071178 0.035725 
1.9812500000000000 -0.408997 0.510132 -0.004886 0.008483 -0.001299 0.008004 -0.072865 0.037857 
1.9824999999999999 -0.368957 0.573731 -0.004579 0.009396 -0.000655 0.008132 -0.073673 0.040604 
1.9837499999999999 -0.323242 0.634460 -0.004025 0.010424 0.000442 0.007944 -0.074177 0.043102 
1.9850000000000001 -0.263611 0.699982 -0.002763 0.010820 0.000925 0.008268 -0.074352 0.045784 
1.9862500000000001 -0.190002 0.762024 -0.001377 0.011548 0.001980 0.007946 -0.074570 0.048702 
1.9875000000000000 -0.096741 0.816894 0.000292 0.012643 0.002413 0.007537 -0.073940 0.051674 
1.9887500000000000 0.008423 0.857117 0.001979 0.013031 0.003407 0.007391 -0.073692 0.055695 
1.9900000000000000 0.133789 0.877075 0.003788 0.012978 0.003774 0.007093 -0.073139 0.059185 
1.9912500000000000 0.266052 0.887756 0.006094 0.012692 0.004436 0.006514 -0.072296 0.063179 
1.9924999999999999 0.407471 0.859863 0.008067 0.011749 0.004811 0.006431 -0.071621 0.066887 
1.9937499999999999 0.538391 0.798340 0.009652 0.010473 0.005393 0.005531 -0.071259 0.070744 
1.9950000000000001 0.663574 0.712769 0.011928 0.008593 0.005629 0.005380 -0.070976 0.074574 
1.9962500000000001 0.764526 0.598999 0.012547 0.006513 0.006179 0.004755 -0.070213 0.077965 
1.9975000000000001 0.840515 0.472961 0.012918 0.004845 0.006467 0.004228 -0.069473 0.081165 
1.9987500000000000 0.883179 0.327698 0.013505 0.001872 0.007147 0.003654 -0.068806 0.083866 
2.0000000000000000 0.901062 0.196533 0.013053 0.000578 0.007306 0.003275 -0.067272 0.086559 
2.0012500000000002 0.887817 0.071350 0.012629 -0.001084 0.007522 0.002728 -0.064957 0.089088 
2.0024999999999999 0.859558 -0.038269 0.011765 -0.002484 0.007954 0.002060 -0.062481 0.092239 
2.0037500000000001 0.815491 -0.133240 0.010786 -0.003756 0.008045 0.001372 -0.060165 0.095169 
2.0049999999999999 0.759644 -0.217163 0.009841 -0.004919 0.008036 0.000715 -0.057404 0.097794 
2.0062500000000001 0.703217 -0.282044 0.008805 -0.005517 0.008010 -0.000219 -0.055389 0.100792 
2.0074999999999998 0.645477 -0.342865 0.008319 -0.006490 0.008280 -0.001109 -0.052353 0.103626 
2.0087500000000000 0.584290 -0.380463 0.006910 -0.006498 0.008307 -0.001738 -0.049770 0.106289 
2.0099999999999998 0.529266 -0.415588 0.005791 -0.006763 0.007721 -0.002772 -0.047413 0.108730 
2.0112500000000000 0.471283 -0.440002 0.005024 -0.007233 0.007866 -0.003408 -0.045475 0.111111 
2.0125000000000002 0.420624 -0.460083 0.003946 -0.007112 0.007547 -0.004297 -0.042694 0.112785 
2.0137499999999999 0.369949 -0.472214 0.003288 -0.007435 0.007342 -0.004585 -0.040764 0.114918 
2.0150000000000001 0.324387 -0.484314 0.002722 -0.007485 0.006523 -0.005508 -0.038212 0.115425 
2.0162499999999999 0.282959 -0.488724 0.002090 -0.007231 0.006124 -0.006175 -0.036579 0.116821 
2.0175000000000001 0.240799 -0.490463 0.001212 -0.006856 0.005431 -0.006650 -0.033627 0.116886 
2.0187499999999998 0.204773 -0.490814 0.000759 -0.006929 0.004532 -0.007354 -0.030617 0.118275 
2.0200000000000000 0.169525 -0.488785 0.000164 -0.007031 0.003715 -0.007426 -0.027809 0.118256 
2.0212500000000002 0.135346 -0.485260 -0.000362 -0.006419 0.003233 -0.007701 -0.025150 0.119774 
2.0225000000000000 0.104477 -0.480209 -0.000604 -0.006451 0.002829 -0.007981 -0.022339 0.120632 
2.0237500000000002 0.077148 -0.475204 -0.000996 -0.006318 0.001700 -0.008112 -0.019974 0.120514 
2.0249999999999999 0.048065 -0.467957 -0.001544 -0.005863 0.001019 -0.008408 -0.017807 0.121727 
2.0262500000000001 0.021851 -0.460449 -0.002235 -0.005495 0.000504 -0.008384 -0.015717 0.122971 
2.0274999999999999 -0.001068 -0.451630 -0.002252 -0.005623 -0.000337 -0.008569 -0.013779 0.123169 
2.0287500000000001 -0.025269 -0.443543 -0.002555 -0.005173 -0.000947 -0.008340 -0.012619 0.123924 
2.0299999999999998 -0.047333 -0.434418 -0.002803 -0.004939 -0.001981 -0.008000 -0.011269 0.123932 
2.0312500000000000 -0.069885 -0.424377 -0.003055 -0.004889 -0.002600 -0.007848 -0.010323 0.124237 
2.0325000000000002 -0.088501 -0.414551 -0.003279 -0.004458 -0.003195 -0.007277 -0.009132 0.124001 
2.0337499999999999 -0.109528 -0.404053 -0.003494 -0.004102 -0.003927 -0.007017 -0.008293 0.124306 
2.0350000000000001 -0.129578 -0.393189 -0.003821 -0.003949 -0.004674 -0.006909 -0.007523 0.124115 
2.0362499999999999 -0.145874 -0.381805 -0.004038 -0.003395 -0.005198 -0.006048 -0.005943 0.124001 
2.0375000000000001 -0.162781 -0.371429 -0.004353 -0.003314 -0.005445 -0.005794 -0.004028 0.124855 
2.0387499999999998 -0.178497 -0.360046 -0.004430 -0.002889 -0.006191 -0.005750 -0.002953 0.124733 
2.0400000000000000 -0.193543 -0.347534 -0.004687 -0.002504 -0.006778 -0.004659 -0.002052 0.125999 
2.0412499999999998 -0.208954 -0.336151 -0.004846 -0.002140 -0.007205 -0.004286 -0.000687 0.126816 
2.0425000000000000 -0.223419 -0.323639 -0.004942 -0.001767 -0.007455 -0.003628 0.000237 0.128082 
2.0437500000000002 -0.238495 -0.311615 -0.005065 -0.001647 -0.007576 -0.003094 0.000816 0.129356 
2.0449999999999999 -0.252167 -0.297760 -0.005171 -0.001076 -0.007915 -0.002027 0.002083 0.130417 
2.0462500000000001 -0.263977 -0.283844 -0.005340 -0.000775 -0.008070 -0.001551 0.003334 0.131943 
2.0474999999999999 -0.277100 -0.270721 -0.005306 -0.000530 -0.008253 -0.001244 0.004234 0.132942 
2.0487500000000001 -0.289642 -0.255432 -0.005213 -0.000166 -0.008254 -0.000001 0.005592 0.134468 
2.0499999999999998 -0.300903 -0.240967 -0.005245 -0.000086 -0.008255 0.000527 0.006844 0.135498 
2.0512500000000000 -0.312805 -0.224335 -0.005421 0.000441 -0.007957 0.001134 0.008705 0.137032 
2.0525000000000002 -0.325012 -0.209961 -0.005381 0.000691 -0.007874 0.001850 0.010384 0.137894 
2.0537500000000000 -0.334625 -0.192718 -0.005355 0.001201 -0.007879 0.002516 0.013298 0.139954 
2.0550000000000002 -0.346558 -0.175934 -0.005305 0.001491 -0.007592 0.003119 0.015381 0.141769 
2.0562499999999999 -0.356567 -0.156891 -0.005296 0.001698 -0.007486 0.004292 0.017815 0.143280 
2.0575000000000001 -0.365936 -0.138641 -0.005238 0.002270 -0.007022 0.004661 0.021400 0.145683 
2.0587499999999999 -0.377197 -0.118195 -0.005238 0.002781 -0.006447 0.005168 0.023590 0.147400 
2.0600000000000001 -0.386444 -0.096802 -0.005106 0.003319 -0.006197 0.005978 0.026169 0.149002 
2.0612499999999998 -0.395645 -0.075516 -0.004978 0.003484 -0.005519 0.006307 0.029098 0.150803 
2.0625000000000000 -0.403107 -0.051651 -0.004893 0.003897 -0.004916 0.006945 0.032166 0.151779 
2.0637500000000002 -0.410996 -0.028412 -0.004771 0.004497 -0.004527 0.007382 0.035461 0.152374 
2.0649999999999999 -0.417908 -0.002197 -0.004314 0.004677 -0.003376 0.007593 0.038979 0.153465 
2.0662500000000001 -0.424088 0.025085 -0.003989 0.004983 -0.002997 0.008207 0.042778 0.153458 
2.0674999999999999 -0.431976 0.053162 -0.003636 0.005346 -0.002176 0.008230 0.047211 0.153435 
2.0687500000000001 -0.435074 0.082001 -0.003381 0.005935 -0.001463 0.008765 0.051621 0.153275 
2.0699999999999998 -0.439133 0.117020 -0.003064 0.006456 -0.000551 0.008825 0.057121 0.153122 
2.0712500000000000 -0.441528 0.149231 -0.002699 0.006753 0.000158 0.008996 0.062561 0.152405 
2.0724999999999998 -0.440826 0.185944 -0.002123 0.007273 0.000969 0.008596 0.067123 0.151718 
2.0737500000000000 -0.437378 0.226074 -0.001383 0.007925 0.001413 0.008626 0.072311 0.151779 
2.0750000000000002 -0.430725 0.266937 -0.000643 0.008026 0.002608 0.008262 0.078217 0.151108 
2.0762499999999999 -0.421295 0.311127 0.000190 0.008175 0.003354 0.008142 0.082428 0.149185 
2.0775000000000001 -0.407562 0.358337 0.000640 0.008350 0.004130 0.007814 0.087860 0.148743 
2.0787499999999999 -0.389252 0.408722 0.001098 0.009151 0.004793 0.007601 0.091965 0.146164 
2.0800000000000001 -0.362991 0.460815 0.002576 0.008997 0.005492 0.006839 0.096504 0.144188 
2.0812499999999998 -0.329529 0.516296 0.003543 0.008996 0.006068 0.006527 0.101059 0.141190 
2.0825000000000000 -0.283569 0.566498 0.004545 0.008879 0.006775 0.005928 0.105377 0.138138 
2.0837500000000002 -0.233734 0.622833 0.005510 0.009026 0.007230 0.005235 0.109741 0.134201 
2.0850000000000000 -0.164551 0.676117 0.006315 0.008960 0.007858 0.004175 0.114044 0.131119 
2.0862500000000002 -0.083252 0.721008 0.008016 0.008882 0.008223 0.003398 0.118225 0.127045 
2.0874999999999999 0.010864 0.757690 0.009380 0.007628 0.008324 0.002819 0.123108 0.123154 
2.0887500000000001 0.123291 0.776367 0.011091 0.006826 0.008381 0.002097 0.126740 0.119148 
2.0899999999999999 0.240173 0.773926 0.012209 0.005053 0.008447 0.001521 0.130371 0.115074 
2.0912500000000001 0.365234 0.757446 0.013376 0.003118 0.008196 0.000330 0.133194 0.111008 
2.0924999999999998 0.483582 0.714539 0.014113 0.000856 0.008106 0.000317 0.135986 0.107887 
2.0937500000000000 0.597961 0.634583 0.013980 -0.000962 0.008306 -0.000609 0.138542 0.102913 
2.0950000000000002 0.686585 0.539734 0.013367 -0.002845 0.008321 -0.000891 0.140884 0.098053 
2.0962499999999999 0.764648 0.424286 0.012602 -0.005013 0.008431 -0.001381 0.142075 0.093231 
2.0975000000000001 0.803650 0.306183 0.011716 -0.006319 0.008379 -0.002226 0.143227 0.089279 
2.0987499999999999 0.817566 0.179749 0.009915 -0.008199 0.008512 -0.003004 0.144470 0.084106 
2.1000000000000001 0.811951 0.063416 0.008709 -0.008529 0.008104 -0.004032 0.144592 0.080414 
2.1012499999999998 0.786621 -0.039185 0.007557 -0.009581 0.007748 -0.004639 0.145859 0.074829 
2.1025000000000000 0.746704 -0.123962 0.006478 -0.009946 0.007588 -0.005747 0.146515 0.070892 
2.1037499999999998 0.698608 -0.202637 0.004672 -0.010350 0.007237 -0.006480 0.147034 0.066483 
2.1050000000000000 0.645386 -0.269836 0.003070 -0.010501 0.006435 -0.007187 0.147705 0.062698 
2.1062500000000002 0.592133 -0.318024 0.001701 -0.010205 0.006113 -0.007565 0.147568 0.058723 
2.1074999999999999 0.537628 -0.356140 0.000893 -0.010155 0.005331 -0.008636 0.147736 0.055161 
2.1087500000000001 0.483398 -0.387314 0.000072 -0.009815 0.004136 -0.009393 0.147179 0.051956 
2.1099999999999999 0.429703 -0.409576 -0.001145 -0.009345 0.002849 -0.009979 0.146492 0.049255 
2.1112500000000001 0.382385 -0.425583 -0.002045 -0.008728 0.001993 -0.009900 0.146233 0.046020 
2.1124999999999998 0.333710 -0.437347 -0.002385 -0.008159 0.000341 -0.010515 0.145165 0.042793 
2.1137500000000000 0.289612 -0.447174 -0.003038 -0.007389 -0.000513 -0.010392 0.144318 0.039757 
2.1150000000000002 0.248520 -0.450455 -0.003355 -0.006966 -0.001561 -0.009813 0.143219 0.036987 
2.1162500000000000 0.210678 -0.452774 -0.003772 -0.006572 -0.002492 -0.009479 0.142372 0.034004 
2.1175000000000002 0.174484 -0.452515 -0.003996 -0.006227 -0.003277 -0.009221 0.141411 0.031364 
2.1187499999999999 0.141525 -0.450226 -0.004402 -0.005506 -0.003843 -0.008816 0.141419 0.028816 
2.1200000000000001 0.109436 -0.447296 -0.004595 -0.005656 -0.004701 -0.008204 0.140579 0.026199 
2.1212499999999999 0.080841 -0.441544 -0.005049 -0.004673 -0.005191 -0.007360 0.140343 0.023651 
2.1225000000000001 0.052841 -0.435150 -0.005226 -0.004436 -0.006170 -0.007339 0.139694 0.022003 
2.1237499999999998 0.027374 -0.428833 -0.005556 -0.003898 -0.006644 -0.006606 0.139557 0.019936 
2.1250000000000000 0.003403 -0.419769 -0.005696 -0.003206 -0.006938 -0.005457 0.138412 0.018517 
2.1262500000000002 -0.020813 -0.411667 -0.005872 -0.002917 -0.007563 -0.004766 0.138084 0.017387 
2.1274999999999999 -0.041794 -0.403305 -0.005830 -0.002265 -0.007872 -0.004434 0.137329 0.015266 
2.1287500000000001 -0.062378 -0.393646 -0.006016 -0.001606 -0.008024 -0.003606 0.136337 0.013344 
2.1299999999999999 -0.081360 -0.386871 -0.005899 -0.001540 -0.008581 -0.003106 0.135712 0.011505 
2.1312500000000001 -0.101135 -0.374313 -0.005872 -0.001199 -0.008478 -0.002435 0.134689 0.009186 
2.1324999999999998 -0.118134 -0.365021 -0.006084 -0.000766 -0.008895 -0.001523 0.134453 0.007523 
2.1337500000000000 -0.133636 -0.354096 -0.006124 -0.000469 -0.008778 -0.001015 0.133873 0.005318 
2.1349999999999998 -0.148987 -0.343658 -0.005902 0.000041 -0.009051 -0.000110 0.132958 0.002823 
2.1362500000000000 -0.164215 -0.332001 -0.006060 0.000533 -0.008917 0.000777 0.133079 0.000221 
2.1375000000000002 -0.178925 -0.320252 -0.006002 0.000814 -0.008719 0.001559 0.133560 -0.001190 
2.1387499999999999 -0.193115 -0.307007 -0.005970 0.001222 -0.008476 0.002379 0.132126 -0.003525 
2.1400000000000001 -0.206665 -0.294128 -0.005925 0.001724 -0.008348 0.003285 0.131996 -0.005333 
2.1412499999999999 -0.219757 -0.281555 -0.005858 0.002261 -0.007765 0.003617 0.131439 -0.007355 
2.1425000000000001 -0.233520 -0.268494 -0.005741 0.002832 -0.007661 0.004280 0.130608 -0.009575 
2.1437499999999998 -0.244415 -0.256409 -0.005493 0.003077 -0.007122 0.005240 0.130066 -0.011719 
2.1450000000000000 -0.255981 -0.241394 -0.005210 0.003331 -0.006779 0.005795 0.128700 -0.013855 
2.1462500000000002 -0.267425 -0.227173 -0.004931 0.003609 -0.006234 0.006234 0.127190 -0.016220 
2.1475000000000000 -0.279053 -0.212738 -0.004600 0.003918 -0.005556 0.006868 0.125626 -0.019081 
2.1487500000000002 -0.288727 -0.196564 -0.004319 0.004088 -0.004839 0.007442 0.124603 -0.022278 
2.1499999999999999 -0.299774 -0.180328 -0.004331 0.004674 -0.004326 0.007524 0.123047 -0.025307 
2.1512500000000001 -0.309784 -0.164490 -0.003952 0.004650 -0.003514 0.008065 0.121597 -0.028130 
