!
! C:\Users\rflab\Downloads\Lab5_KD_ZW\290.S2P
!
! Touchstone 1.1 file saved by VNA.EXE V1.65 (www.ke5fx.com/gpib/readme.htm)
! 11/12/2024 12:30:01 AM
!
!    Source: HEWLETT PACKARD,8753D,0,6.14
!  Min freq: 1.900000E+009 Hz
!  Max freq: 2.900000E+009 Hz
!    Points: 801
!    Params: S11 S21 S12 S22
!
!!!!!
# GHZ S RI R 50
1.8999999999999999 0.962769 0.272583 0.001978 0.015104 -0.000362 0.008224 0.023724 -0.056107 
1.9012500000000001 0.955383 0.139709 0.003843 0.014062 0.000490 0.008068 0.021235 -0.056093 
1.9025000000000001 0.931458 0.010742 0.005361 0.013109 0.000872 0.007907 0.019360 -0.056202 
1.9037500000000001 0.889221 -0.091858 0.007148 0.011791 0.001491 0.007907 0.017242 -0.056528 
1.9050000000000000 0.840393 -0.182190 0.008142 0.010321 0.002130 0.008084 0.015139 -0.055634 
1.9062500000000000 0.783112 -0.255829 0.008874 0.008993 0.002935 0.007965 0.012922 -0.055088 
1.9075000000000000 0.721283 -0.319305 0.009476 0.007318 0.003724 0.007901 0.011110 -0.054049 
1.9087499999999999 0.660278 -0.369721 0.009648 0.006031 0.004562 0.007396 0.008673 -0.052662 
1.9099999999999999 0.599823 -0.409088 0.009914 0.004995 0.005286 0.007016 0.006147 -0.051809 
1.9112499999999999 0.546448 -0.442688 0.009525 0.003537 0.006022 0.006631 0.002933 -0.050488 
1.9125000000000001 0.488739 -0.465485 0.009836 0.002637 0.006472 0.006054 0.000372 -0.049456 
1.9137500000000001 0.437042 -0.484680 0.009601 0.001369 0.007021 0.005666 -0.002468 -0.048531 
1.9150000000000000 0.387619 -0.497604 0.009217 0.001019 0.007470 0.004684 -0.005356 -0.047544 
1.9162500000000000 0.340118 -0.506622 0.008928 0.000014 0.007916 0.004523 -0.007973 -0.047024 
1.9175000000000000 0.297760 -0.512482 0.008648 -0.000604 0.008320 0.003709 -0.009918 -0.045904 
1.9187500000000000 0.257385 -0.516052 0.008637 -0.001238 0.008740 0.002954 -0.011957 -0.044968 
1.9199999999999999 0.218933 -0.516602 0.008028 -0.002109 0.009033 0.001854 -0.013659 -0.043608 
1.9212499999999999 0.184357 -0.514526 0.007776 -0.002557 0.009165 0.000918 -0.015215 -0.042692 
1.9225000000000001 0.149780 -0.512970 0.007401 -0.003127 0.009274 -0.000062 -0.016867 -0.040306 
1.9237500000000001 0.115784 -0.509003 0.006841 -0.003648 0.008842 -0.001090 -0.018219 -0.038752 
1.9250000000000000 0.087097 -0.501587 0.006500 -0.003878 0.008898 -0.002004 -0.020182 -0.036501 
1.9262500000000000 0.057739 -0.497528 0.006009 -0.004358 0.008646 -0.002458 -0.022106 -0.034332 
1.9275000000000000 0.032654 -0.489563 0.005556 -0.004792 0.008416 -0.003487 -0.024250 -0.031960 
1.9287500000000000 0.004913 -0.482971 0.004943 -0.005007 0.008217 -0.004178 -0.026302 -0.030277 
1.9299999999999999 -0.017242 -0.474396 0.004662 -0.005291 0.007739 -0.004616 -0.027969 -0.028286 
1.9312499999999999 -0.039642 -0.466217 0.004344 -0.005384 0.007229 -0.005678 -0.029869 -0.027225 
1.9325000000000001 -0.063812 -0.455658 0.003585 -0.005616 0.006817 -0.006013 -0.031509 -0.025612 
1.9337500000000001 -0.083908 -0.444199 0.003392 -0.005770 0.006087 -0.006562 -0.032951 -0.024433 
1.9350000000000001 -0.105942 -0.433868 0.002826 -0.005787 0.005262 -0.007036 -0.033525 -0.023357 
1.9362500000000000 -0.123459 -0.423569 0.002333 -0.005892 0.004554 -0.007658 -0.034170 -0.021826 
1.9375000000000000 -0.143616 -0.413528 0.002091 -0.005909 0.004295 -0.008236 -0.034657 -0.019840 
1.9387500000000000 -0.161926 -0.402618 0.001596 -0.006184 0.003223 -0.008204 -0.035337 -0.018562 
1.9399999999999999 -0.179001 -0.389999 0.001357 -0.006509 0.002566 -0.008192 -0.035669 -0.016397 
1.9412499999999999 -0.196503 -0.377258 0.000789 -0.006248 0.001926 -0.008747 -0.036602 -0.014513 
1.9424999999999999 -0.212402 -0.366470 0.000168 -0.006311 0.000926 -0.008667 -0.037645 -0.011961 
1.9437500000000001 -0.229324 -0.351990 -0.000045 -0.006273 0.000298 -0.008863 -0.038641 -0.010319 
1.9450000000000001 -0.245636 -0.338562 -0.000651 -0.006152 -0.000175 -0.008906 -0.039848 -0.008831 
1.9462500000000000 -0.260529 -0.324234 -0.000877 -0.006263 -0.001147 -0.008767 -0.041250 -0.006886 
1.9475000000000000 -0.274948 -0.311066 -0.001343 -0.006117 -0.001800 -0.008474 -0.042627 -0.005939 
1.9487500000000000 -0.289322 -0.296448 -0.001713 -0.006207 -0.002503 -0.008595 -0.043732 -0.005013 
1.9500000000000000 -0.303513 -0.281082 -0.002104 -0.005944 -0.003535 -0.008123 -0.044725 -0.004219 
1.9512499999999999 -0.317154 -0.266479 -0.002627 -0.006047 -0.003790 -0.007930 -0.045679 -0.003700 
1.9524999999999999 -0.330536 -0.250214 -0.002995 -0.005712 -0.004957 -0.007578 -0.046476 -0.002926 
1.9537500000000001 -0.343903 -0.233185 -0.003409 -0.005716 -0.005515 -0.007297 -0.046677 -0.002150 
1.9550000000000001 -0.355789 -0.215744 -0.004016 -0.005389 -0.006375 -0.006720 -0.047522 -0.000935 
1.9562500000000000 -0.366867 -0.198196 -0.004198 -0.005206 -0.006624 -0.006181 -0.047842 0.000221 
1.9575000000000000 -0.380951 -0.178192 -0.004678 -0.004767 -0.007392 -0.005627 -0.049068 0.001722 
1.9587500000000000 -0.392517 -0.158371 -0.005192 -0.004445 -0.007214 -0.004784 -0.049704 0.003576 
1.9600000000000000 -0.403320 -0.136352 -0.005563 -0.004155 -0.007951 -0.004456 -0.050953 0.004799 
1.9612499999999999 -0.414856 -0.113800 -0.005860 -0.003768 -0.008353 -0.003261 -0.052280 0.005985 
1.9624999999999999 -0.424530 -0.092316 -0.006181 -0.003403 -0.008916 -0.002756 -0.054016 0.007698 
1.9637500000000001 -0.435272 -0.066681 -0.006294 -0.003224 -0.009339 -0.001863 -0.055374 0.009216 
1.9650000000000001 -0.444733 -0.040375 -0.006743 -0.002729 -0.009111 -0.000853 -0.056858 0.010147 
1.9662500000000001 -0.452911 -0.011444 -0.007059 -0.002344 -0.009510 -0.000047 -0.058640 0.011070 
1.9675000000000000 -0.460632 0.015900 -0.007380 -0.002090 -0.009382 0.000512 -0.059677 0.012421 
1.9687500000000000 -0.468506 0.049164 -0.008025 -0.001298 -0.008986 0.001402 -0.061176 0.013601 
1.9700000000000000 -0.474396 0.082855 -0.007957 -0.000990 -0.008900 0.002473 -0.061714 0.015446 
1.9712499999999999 -0.478958 0.119202 -0.008445 -0.000280 -0.008738 0.003240 -0.062553 0.017502 
1.9724999999999999 -0.481903 0.156937 -0.008682 0.000462 -0.008415 0.003958 -0.063583 0.019684 
1.9737499999999999 -0.483337 0.196762 -0.008923 0.001333 -0.008141 0.004608 -0.064762 0.022186 
1.9750000000000001 -0.481583 0.243027 -0.009285 0.002256 -0.007772 0.005547 -0.065987 0.024544 
1.9762500000000001 -0.477905 0.290283 -0.009320 0.002935 -0.007212 0.006212 -0.067230 0.027718 
1.9775000000000000 -0.466980 0.340698 -0.009078 0.003906 -0.006751 0.007000 -0.069057 0.030132 
1.9787500000000000 -0.455627 0.392761 -0.009221 0.004833 -0.005826 0.007332 -0.070473 0.033100 
1.9800000000000000 -0.435608 0.445557 -0.009063 0.005895 -0.005067 0.007927 -0.071503 0.036034 
1.9812500000000000 -0.407410 0.509827 -0.008704 0.006956 -0.004460 0.008338 -0.072964 0.038406 
1.9824999999999999 -0.369446 0.573059 -0.008515 0.007887 -0.003657 0.008862 -0.073914 0.040924 
1.9837499999999999 -0.323425 0.636108 -0.008018 0.009681 -0.002614 0.009072 -0.074139 0.043007 
1.9850000000000001 -0.262451 0.700104 -0.007124 0.011013 -0.002052 0.008991 -0.074169 0.046444 
1.9862500000000001 -0.191589 0.761597 -0.006232 0.012250 -0.000849 0.009413 -0.074612 0.049110 
1.9875000000000000 -0.096741 0.816589 -0.004389 0.013773 -0.000282 0.009387 -0.073902 0.052345 
1.9887500000000000 0.010742 0.856018 -0.002794 0.014559 0.000600 0.009310 -0.073635 0.055580 
1.9900000000000000 0.131531 0.880005 -0.000658 0.015816 0.001501 0.008894 -0.072762 0.059456 
1.9912500000000000 0.263672 0.881714 0.001426 0.016356 0.002185 0.008888 -0.072296 0.063469 
1.9924999999999999 0.407593 0.860046 0.004309 0.015862 0.002826 0.008732 -0.071659 0.067348 
1.9937499999999999 0.540161 0.805847 0.006354 0.015124 0.003806 0.008420 -0.071239 0.071007 
1.9950000000000001 0.663086 0.713562 0.008792 0.014390 0.004097 0.008003 -0.070881 0.074505 
1.9962500000000001 0.765869 0.598450 0.011305 0.012103 0.004868 0.007302 -0.070015 0.077984 
1.9975000000000001 0.843201 0.470703 0.011941 0.010674 0.005692 0.007286 -0.069710 0.081226 
1.9987500000000000 0.884216 0.331177 0.013161 0.007785 0.006047 0.006739 -0.068432 0.084076 
2.0000000000000000 0.898498 0.200562 0.013917 0.006178 0.006494 0.006466 -0.066841 0.086685 
2.0012500000000002 0.889221 0.072205 0.013907 0.004143 0.007183 0.005754 -0.065266 0.088993 
2.0024999999999999 0.862183 -0.037109 0.014379 0.002180 0.007988 0.005399 -0.062500 0.092045 
2.0037500000000001 0.813415 -0.135010 0.013348 0.000258 0.008609 0.004213 -0.059700 0.094826 
2.0049999999999999 0.762573 -0.218384 0.012976 -0.001511 0.008822 0.004062 -0.057430 0.097065 
2.0062500000000001 0.703125 -0.282959 0.012244 -0.002929 0.009247 0.003409 -0.055027 0.100220 
2.0074999999999998 0.646332 -0.341614 0.011289 -0.003710 0.009418 0.002175 -0.052124 0.103390 
2.0087500000000000 0.585449 -0.383484 0.010487 -0.004777 0.009668 0.001387 -0.049671 0.105675 
2.0099999999999998 0.528839 -0.415070 0.009349 -0.005723 0.009886 0.000586 -0.047050 0.108463 
2.0112500000000000 0.471069 -0.441284 0.008225 -0.005880 0.010286 -0.000399 -0.044991 0.110676 
2.0125000000000002 0.420715 -0.459717 0.007808 -0.006465 0.009876 -0.001685 -0.042957 0.112675 
2.0137499999999999 0.372894 -0.473877 0.006495 -0.006842 0.010012 -0.002436 -0.040817 0.113964 
2.0150000000000001 0.325134 -0.482834 0.005809 -0.006950 0.009604 -0.003499 -0.038540 0.115261 
2.0162499999999999 0.283005 -0.489731 0.004855 -0.007320 0.009274 -0.004369 -0.036640 0.116360 
2.0175000000000001 0.241913 -0.491013 0.004374 -0.007043 0.008853 -0.005492 -0.033939 0.116573 
2.0187499999999998 0.204239 -0.491638 0.003824 -0.007692 0.008227 -0.006091 -0.030766 0.117561 
2.0200000000000000 0.170090 -0.489929 0.003238 -0.007397 0.007501 -0.006976 -0.028080 0.118263 
2.0212500000000002 0.135742 -0.485962 0.002420 -0.007532 0.006632 -0.006924 -0.025383 0.118713 
2.0225000000000000 0.104645 -0.481506 0.001742 -0.007552 0.006077 -0.007897 -0.022446 0.119640 
2.0237500000000002 0.076004 -0.475326 0.001002 -0.007341 0.005568 -0.008684 -0.020424 0.119995 
2.0249999999999999 0.049255 -0.470001 0.000736 -0.007473 0.004495 -0.008884 -0.017845 0.121132 
2.0262500000000001 0.022797 -0.460236 0.000130 -0.007521 0.003916 -0.009312 -0.016205 0.122353 
2.0274999999999999 -0.001282 -0.452972 -0.000273 -0.007271 0.002717 -0.009536 -0.014450 0.123001 
2.0287500000000001 -0.025482 -0.444855 -0.000869 -0.006996 0.001994 -0.010005 -0.013496 0.123215 
2.0299999999999998 -0.047791 -0.433807 -0.001243 -0.006744 0.001238 -0.009942 -0.012093 0.123764 
2.0312500000000000 -0.070099 -0.425201 -0.001652 -0.006691 0.000010 -0.010228 -0.011093 0.123848 
2.0325000000000002 -0.089233 -0.414032 -0.001798 -0.006468 -0.000796 -0.009427 -0.009911 0.123634 
2.0337499999999999 -0.109436 -0.404266 -0.002320 -0.006174 -0.001378 -0.009730 -0.008972 0.124092 
2.0350000000000001 -0.128876 -0.393585 -0.002595 -0.005929 -0.002395 -0.009432 -0.008072 0.123871 
2.0362499999999999 -0.145752 -0.382385 -0.003137 -0.005751 -0.003157 -0.009172 -0.006409 0.123543 
2.0375000000000001 -0.162262 -0.371948 -0.003632 -0.005497 -0.003973 -0.008705 -0.005005 0.124596 
2.0387499999999998 -0.178314 -0.360565 -0.003964 -0.005243 -0.004519 -0.008652 -0.003372 0.125099 
2.0400000000000000 -0.194763 -0.348114 -0.004324 -0.004899 -0.005221 -0.008202 -0.002350 0.126091 
2.0412499999999998 -0.209168 -0.337372 -0.004592 -0.004623 -0.006088 -0.007782 -0.000801 0.126839 
2.0425000000000000 -0.223175 -0.323975 -0.005088 -0.004311 -0.007050 -0.007170 -0.000160 0.128212 
2.0437500000000002 -0.238007 -0.312439 -0.005192 -0.003812 -0.007221 -0.006436 0.000732 0.129799 
2.0449999999999999 -0.252594 -0.297882 -0.005289 -0.003617 -0.007811 -0.005846 0.001663 0.130775 
2.0462500000000001 -0.264130 -0.283569 -0.005484 -0.003098 -0.008309 -0.004988 0.002525 0.132080 
2.0474999999999999 -0.277191 -0.271057 -0.005703 -0.002906 -0.008912 -0.004463 0.003517 0.133446 
2.0487500000000001 -0.289825 -0.255310 -0.005817 -0.002446 -0.009215 -0.003633 0.004936 0.135216 
2.0499999999999998 -0.301849 -0.241425 -0.006200 -0.002080 -0.009398 -0.002571 0.006790 0.136086 
2.0512500000000000 -0.313232 -0.225433 -0.006144 -0.001734 -0.009723 -0.002117 0.008392 0.136955 
2.0525000000000002 -0.325256 -0.210327 -0.006503 -0.001326 -0.010301 -0.001219 0.010773 0.138718 
2.0537500000000000 -0.335480 -0.192261 -0.006563 -0.001001 -0.010343 -0.000664 0.013138 0.140122 
2.0550000000000002 -0.346924 -0.176178 -0.006590 -0.000815 -0.010261 0.000400 0.015617 0.141846 
2.0562499999999999 -0.358124 -0.156799 -0.006841 0.000035 -0.010116 0.001450 0.018349 0.143982 
2.0575000000000001 -0.366913 -0.137482 -0.007003 0.000334 -0.010301 0.002391 0.021652 0.145783 
2.0587499999999999 -0.377777 -0.118317 -0.007156 0.001019 -0.009884 0.003072 0.023590 0.148178 
2.0600000000000001 -0.387390 -0.096863 -0.007372 0.001572 -0.009456 0.004553 0.026474 0.149475 
2.0612499999999998 -0.396133 -0.075241 -0.007040 0.001853 -0.009107 0.005229 0.029755 0.151260 
2.0625000000000000 -0.403595 -0.051773 -0.007034 0.002507 -0.008810 0.005710 0.032135 0.152222 
2.0637500000000002 -0.411896 -0.028259 -0.006888 0.002942 -0.008068 0.006842 0.035172 0.153091 
2.0649999999999999 -0.418793 -0.003311 -0.006903 0.003671 -0.007291 0.007258 0.039268 0.153480 
2.0662500000000001 -0.426102 0.025696 -0.006796 0.004510 -0.006558 0.008041 0.042847 0.153618 
2.0674999999999999 -0.431702 0.053757 -0.006555 0.004997 -0.006296 0.008755 0.047455 0.153397 
2.0687500000000001 -0.436142 0.083923 -0.006282 0.005357 -0.005094 0.008945 0.052528 0.153908 
2.0699999999999998 -0.439941 0.117615 -0.006197 0.006056 -0.004385 0.010048 0.057495 0.153488 
2.0712500000000000 -0.440491 0.150452 -0.005613 0.006726 -0.003418 0.010000 0.062851 0.152481 
2.0724999999999998 -0.441315 0.186157 -0.005454 0.007346 -0.002550 0.010623 0.067673 0.151917 
2.0737500000000000 -0.438568 0.226379 -0.004750 0.008399 -0.001712 0.010844 0.072861 0.151718 
2.0750000000000002 -0.431793 0.267120 -0.004292 0.008835 -0.000445 0.011061 0.078445 0.151001 
2.0762499999999999 -0.422943 0.311340 -0.004121 0.009479 0.000431 0.010747 0.082932 0.149368 
2.0775000000000001 -0.409790 0.359314 -0.002971 0.010290 0.001463 0.010888 0.087707 0.148407 
2.0787499999999999 -0.390228 0.408417 -0.001918 0.010880 0.002733 0.010607 0.091660 0.146225 
2.0800000000000001 -0.363846 0.463913 -0.001349 0.011343 0.003202 0.010570 0.096741 0.143967 
2.0812499999999998 -0.331574 0.518250 0.000123 0.011940 0.003946 0.010056 0.100876 0.140808 
2.0825000000000000 -0.284119 0.570007 0.001115 0.012363 0.005114 0.009700 0.105454 0.137421 
2.0837500000000002 -0.232208 0.627564 0.002371 0.012756 0.005968 0.009329 0.109818 0.134201 
2.0850000000000000 -0.164337 0.679047 0.004239 0.013153 0.007166 0.008185 0.114502 0.130295 
2.0862500000000002 -0.085815 0.724121 0.005707 0.012976 0.007864 0.007549 0.118530 0.126312 
2.0874999999999999 0.009949 0.760681 0.007940 0.012956 0.008351 0.006775 0.122772 0.122391 
2.0887500000000001 0.125183 0.781006 0.009667 0.012483 0.008773 0.005923 0.126602 0.118767 
2.0899999999999999 0.241699 0.775146 0.011866 0.011298 0.009179 0.004885 0.130714 0.114441 
2.0912500000000001 0.365112 0.765869 0.013800 0.009571 0.009423 0.004182 0.133469 0.110443 
2.0924999999999998 0.489929 0.712524 0.015478 0.006794 0.009614 0.003628 0.136246 0.107246 
2.0937500000000000 0.601868 0.632996 0.016735 0.004438 0.009690 0.002791 0.137901 0.102608 
2.0950000000000002 0.698547 0.536987 0.017464 0.002257 0.009943 0.002244 0.139961 0.098099 
2.0962499999999999 0.765015 0.423187 0.017178 -0.000796 0.010736 0.001588 0.141510 0.094048 
2.0975000000000001 0.803894 0.303162 0.016589 -0.003275 0.010649 0.000830 0.142975 0.089020 
2.0987499999999999 0.822510 0.182007 0.015128 -0.004431 0.011179 -0.000566 0.143646 0.084320 
2.1000000000000001 0.815491 0.065125 0.014069 -0.006646 0.011350 -0.001360 0.144318 0.079681 
2.1012499999999998 0.787903 -0.039063 0.012781 -0.008302 0.011270 -0.002306 0.144928 0.074432 
2.1025000000000000 0.749878 -0.129028 0.011332 -0.009374 0.011308 -0.003242 0.146240 0.070740 
2.1037499999999998 0.702454 -0.205689 0.009783 -0.010291 0.011389 -0.004503 0.146423 0.066345 
2.1050000000000000 0.646301 -0.270142 0.008148 -0.011312 0.010727 -0.005814 0.147171 0.062408 
2.1062500000000002 0.592316 -0.320099 0.006519 -0.011681 0.010333 -0.006575 0.146904 0.058426 
2.1074999999999999 0.536804 -0.358093 0.005530 -0.011741 0.009558 -0.008328 0.147118 0.055077 
2.1087500000000001 0.483872 -0.388977 0.003669 -0.011721 0.008946 -0.009437 0.146683 0.051529 
2.1099999999999999 0.429962 -0.410828 0.002242 -0.011193 0.007581 -0.010649 0.146301 0.049095 
2.1112500000000001 0.381439 -0.427582 0.001295 -0.011236 0.006526 -0.011251 0.145584 0.046127 
2.1124999999999998 0.333374 -0.439255 0.000382 -0.010507 0.005008 -0.011818 0.144653 0.043083 
2.1137500000000000 0.288757 -0.448196 -0.000359 -0.010244 0.003659 -0.011702 0.143715 0.040283 
2.1150000000000002 0.247284 -0.452057 -0.001249 -0.009608 0.002347 -0.012001 0.141846 0.036919 
2.1162500000000000 0.209518 -0.454208 -0.001883 -0.009400 0.001198 -0.012238 0.141670 0.034325 
2.1175000000000002 0.173782 -0.454025 -0.002192 -0.009238 -0.000001 -0.012224 0.141167 0.031258 
2.1187499999999999 0.140717 -0.451218 -0.002860 -0.008667 -0.001215 -0.011961 0.140579 0.029106 
2.1200000000000001 0.108292 -0.448135 -0.003521 -0.008408 -0.002144 -0.011655 0.140129 0.026741 
2.1212499999999999 0.080063 -0.442490 -0.003904 -0.007857 -0.003221 -0.011663 0.139923 0.024002 
2.1225000000000001 0.051544 -0.435974 -0.004484 -0.007337 -0.004318 -0.010634 0.139389 0.022949 
2.1237499999999998 0.026489 -0.429550 -0.005001 -0.007093 -0.005255 -0.010364 0.138718 0.020294 
2.1250000000000000 0.001663 -0.419189 -0.005341 -0.006318 -0.006072 -0.009657 0.138458 0.018822 
2.1262500000000002 -0.021225 -0.412430 -0.005773 -0.006104 -0.007047 -0.009404 0.138123 0.017693 
2.1274999999999999 -0.042068 -0.404587 -0.006043 -0.005363 -0.007356 -0.008626 0.136917 0.015717 
2.1287500000000001 -0.063354 -0.394821 -0.006227 -0.004733 -0.007954 -0.008043 0.136681 0.014343 
2.1299999999999999 -0.082184 -0.386154 -0.006368 -0.004060 -0.008595 -0.007024 0.135559 0.012535 
2.1312500000000001 -0.101090 -0.374878 -0.006444 -0.003665 -0.009073 -0.006228 0.134430 0.009895 
2.1324999999999998 -0.118866 -0.365143 -0.006821 -0.003502 -0.009653 -0.005369 0.133858 0.008354 
2.1337500000000000 -0.134155 -0.354004 -0.006991 -0.003024 -0.010078 -0.004780 0.133522 0.005447 
2.1349999999999998 -0.149872 -0.343872 -0.007367 -0.002585 -0.010535 -0.003689 0.133575 0.003052 
2.1362500000000000 -0.165100 -0.332001 -0.007495 -0.002212 -0.011075 -0.002777 0.133339 0.000648 
2.1375000000000002 -0.179688 -0.320343 -0.007485 -0.001513 -0.011262 -0.001837 0.133461 -0.000916 
2.1387499999999999 -0.193970 -0.307343 -0.007934 -0.000860 -0.011478 -0.000840 0.132690 -0.003304 
2.1400000000000001 -0.207336 -0.294342 -0.007728 -0.000486 -0.011694 0.000274 0.132713 -0.005455 
2.1412499999999999 -0.220215 -0.281616 -0.007926 0.000328 -0.011309 0.001084 0.131912 -0.006935 
2.1425000000000001 -0.234345 -0.267914 -0.007843 0.000972 -0.011009 0.002216 0.131035 -0.009308 
2.1437499999999998 -0.245300 -0.256256 -0.007644 0.001176 -0.010874 0.003002 0.130455 -0.011459 
2.1450000000000000 -0.256775 -0.241028 -0.007564 0.001891 -0.010263 0.004355 0.129082 -0.013763 
2.1462500000000002 -0.268402 -0.226837 -0.007462 0.002250 -0.010475 0.005094 0.127785 -0.016464 
2.1475000000000000 -0.279571 -0.212769 -0.007182 0.002820 -0.009877 0.005581 0.126213 -0.019081 
2.1487500000000002 -0.288971 -0.196350 -0.007040 0.003115 -0.009171 0.006854 0.125320 -0.022247 
2.1499999999999999 -0.300385 -0.180145 -0.007010 0.003623 -0.008486 0.007807 0.123322 -0.025139 
2.1512500000000001 -0.310272 -0.163849 -0.006898 0.004195 -0.007802 0.008264 0.122078 -0.028038 
