!
! C:\Users\rflab\Downloads\Lab5_KD_ZW\30.S2P
!
! Touchstone 1.1 file saved by VNA.EXE V1.65 (www.ke5fx.com/gpib/readme.htm)
! 11/11/2024 11:37:33 PM
!
!    Source: HEWLETT PACKARD,8753D,0,6.14
!  Min freq: 1.900000E+009 Hz
!  Max freq: 2.900000E+009 Hz
!    Points: 801
!    Params: S11 S21 S12 S22
!
!!!!!
# GHZ S RI R 50
1.8999999999999999 0.956421 0.281616 -0.021572 0.018677 -0.013116 0.007727 0.024389 -0.057568 
1.9012500000000001 0.953430 0.143982 -0.018772 0.021008 -0.012324 0.008718 0.021883 -0.058167 
1.9025000000000001 0.930420 0.022217 -0.014646 0.022078 -0.011727 0.009649 0.019787 -0.058270 
1.9037500000000001 0.892822 -0.083679 -0.011625 0.022675 -0.011179 0.010546 0.017441 -0.058601 
1.9050000000000000 0.843353 -0.174866 -0.008224 0.023474 -0.010589 0.011492 0.015331 -0.058414 
1.9062500000000000 0.786499 -0.251556 -0.005426 0.023321 -0.009603 0.012825 0.012981 -0.057842 
1.9075000000000000 0.726776 -0.314423 -0.002613 0.022573 -0.008728 0.013633 0.010523 -0.056997 
1.9087499999999999 0.665039 -0.365784 -0.000323 0.021467 -0.007609 0.014544 0.008036 -0.055952 
1.9099999999999999 0.604217 -0.407410 0.002107 0.020646 -0.006248 0.015455 0.005556 -0.055445 
1.9112499999999999 0.548767 -0.440460 0.003941 0.019557 -0.004549 0.015981 0.002151 -0.054218 
1.9125000000000001 0.491882 -0.464020 0.005516 0.018270 -0.003082 0.016629 -0.000448 -0.052734 
1.9137500000000001 0.440353 -0.483292 0.006690 0.016849 -0.002161 0.016477 -0.003664 -0.052446 
1.9150000000000000 0.392044 -0.498581 0.007849 0.015866 -0.000648 0.017032 -0.006392 -0.051443 
1.9162500000000000 0.343903 -0.509033 0.008651 0.014688 0.001030 0.017103 -0.009190 -0.050615 
1.9175000000000000 0.302063 -0.513184 0.009744 0.013808 0.002751 0.017219 -0.011364 -0.049400 
1.9187500000000000 0.260223 -0.516846 0.010710 0.012515 0.004106 0.017021 -0.013575 -0.048363 
1.9199999999999999 0.222137 -0.515869 0.011291 0.011182 0.006072 0.016593 -0.015368 -0.047131 
1.9212499999999999 0.186798 -0.513825 0.011734 0.010193 0.007786 0.015898 -0.017193 -0.045897 
1.9225000000000001 0.153259 -0.511841 0.012474 0.008760 0.009400 0.014883 -0.018618 -0.043484 
1.9237500000000001 0.119629 -0.510071 0.012756 0.007699 0.010750 0.014061 -0.020378 -0.041462 
1.9250000000000000 0.090088 -0.502960 0.013105 0.006598 0.011903 0.012841 -0.022160 -0.039391 
1.9262500000000000 0.060822 -0.498932 0.013184 0.005466 0.013031 0.011414 -0.024204 -0.036636 
1.9275000000000000 0.034699 -0.491699 0.013451 0.004534 0.013884 0.010466 -0.025940 -0.034275 
1.9287500000000000 0.008209 -0.484589 0.013206 0.003338 0.014791 0.009199 -0.028004 -0.032093 
1.9299999999999999 -0.015106 -0.475494 0.013118 0.002439 0.015747 0.007902 -0.029579 -0.029762 
1.9312499999999999 -0.038422 -0.467285 0.013012 0.001318 0.016464 0.006512 -0.031780 -0.028194 
1.9325000000000001 -0.061096 -0.457306 0.012995 0.000546 0.016665 0.005268 -0.033054 -0.026146 
1.9337500000000001 -0.082459 -0.447144 0.012726 -0.000242 0.017219 0.003500 -0.034407 -0.024904 
1.9350000000000001 -0.103394 -0.436630 0.012720 -0.001208 0.017403 0.001886 -0.035139 -0.022875 
1.9362500000000000 -0.122452 -0.425903 0.012666 -0.002038 0.017242 0.000236 -0.035631 -0.021265 
1.9375000000000000 -0.141983 -0.415573 0.012380 -0.002687 0.017227 -0.001196 -0.036190 -0.019138 
1.9387500000000000 -0.160141 -0.404343 0.012144 -0.003439 0.017305 -0.002546 -0.036772 -0.017653 
1.9399999999999999 -0.177673 -0.392273 0.011666 -0.004310 0.017234 -0.003909 -0.036869 -0.015612 
1.9412499999999999 -0.194565 -0.380600 0.011516 -0.005087 0.016401 -0.005606 -0.037542 -0.013609 
1.9424999999999999 -0.211029 -0.368454 0.011091 -0.005925 0.015818 -0.006948 -0.038139 -0.010988 
1.9437500000000001 -0.227722 -0.354843 0.010573 -0.006602 0.015362 -0.008645 -0.038651 -0.009684 
1.9450000000000001 -0.243271 -0.340912 0.010049 -0.007201 0.014394 -0.009927 -0.039345 -0.007521 
1.9462500000000000 -0.258469 -0.327957 0.009672 -0.008087 0.013564 -0.010728 -0.040281 -0.005850 
1.9475000000000000 -0.273148 -0.313294 0.009230 -0.008667 0.012973 -0.011668 -0.040987 -0.004679 
1.9487500000000000 -0.288620 -0.299301 0.008594 -0.009178 0.011725 -0.012976 -0.041969 -0.004171 
1.9500000000000000 -0.301483 -0.283859 0.007995 -0.009877 0.010499 -0.014399 -0.042505 -0.003105 
1.9512499999999999 -0.315964 -0.268921 0.007426 -0.010674 0.009639 -0.014909 -0.043304 -0.002356 
1.9524999999999999 -0.329254 -0.251633 0.006745 -0.011096 0.008156 -0.016127 -0.043873 -0.002003 
1.9537500000000001 -0.342361 -0.235840 0.006033 -0.011697 0.006615 -0.016896 -0.043707 -0.000834 
1.9550000000000001 -0.354828 -0.218231 0.005049 -0.011970 0.005353 -0.017619 -0.043991 0.000032 
1.9562500000000000 -0.366318 -0.199616 0.004337 -0.012675 0.003709 -0.017808 -0.044634 0.001141 
1.9575000000000000 -0.380341 -0.179550 0.003387 -0.013234 0.001788 -0.018292 -0.045393 0.001917 
1.9587500000000000 -0.391342 -0.158630 0.002388 -0.013453 0.000340 -0.018360 -0.046272 0.003880 
1.9600000000000000 -0.402863 -0.137634 0.001480 -0.013790 -0.001400 -0.018301 -0.047451 0.005054 
1.9612499999999999 -0.414917 -0.115784 0.000534 -0.014088 -0.003073 -0.018208 -0.048851 0.005968 
1.9624999999999999 -0.425079 -0.093353 -0.000327 -0.014152 -0.004705 -0.018085 -0.050812 0.007080 
1.9637500000000001 -0.436279 -0.069000 -0.001386 -0.014508 -0.006449 -0.017874 -0.052231 0.008284 
1.9650000000000001 -0.445343 -0.041656 -0.002495 -0.014662 -0.008039 -0.017330 -0.054173 0.008968 
1.9662500000000001 -0.453705 -0.014038 -0.003307 -0.014566 -0.010031 -0.016294 -0.055635 0.009752 
1.9675000000000000 -0.460541 0.014252 -0.004676 -0.015302 -0.011419 -0.015347 -0.057552 0.010767 
1.9687500000000000 -0.469116 0.047272 -0.005717 -0.015256 -0.012482 -0.014389 -0.058872 0.011841 
1.9700000000000000 -0.475479 0.080414 -0.007281 -0.015122 -0.013661 -0.013156 -0.060087 0.012779 
1.9712499999999999 -0.479538 0.117889 -0.008903 -0.015002 -0.015283 -0.011743 -0.061792 0.014801 
1.9724999999999999 -0.483932 0.154770 -0.010094 -0.014718 -0.016211 -0.010450 -0.062756 0.016190 
1.9737499999999999 -0.484436 0.196365 -0.012226 -0.014171 -0.016777 -0.009165 -0.063965 0.018620 
1.9750000000000001 -0.482925 0.240921 -0.013788 -0.014244 -0.018039 -0.007638 -0.065498 0.021042 
1.9762500000000001 -0.477783 0.288574 -0.015148 -0.012854 -0.018774 -0.005552 -0.067390 0.023933 
1.9775000000000000 -0.468933 0.338074 -0.017183 -0.011749 -0.019318 -0.003910 -0.069359 0.026844 
1.9787500000000000 -0.454407 0.391419 -0.018663 -0.010736 -0.019562 -0.001961 -0.071400 0.029308 
1.9800000000000000 -0.434448 0.446655 -0.020493 -0.009407 -0.019870 -0.000010 -0.072742 0.032204 
1.9812500000000000 -0.406677 0.509705 -0.022261 -0.007612 -0.019205 0.001696 -0.074795 0.034630 
1.9824999999999999 -0.371582 0.572083 -0.023684 -0.005468 -0.019104 0.003442 -0.075851 0.037605 
1.9837499999999999 -0.326782 0.637756 -0.026024 -0.003332 -0.018767 0.005365 -0.077080 0.039635 
1.9850000000000001 -0.263580 0.700867 -0.027094 -0.000507 -0.018216 0.006730 -0.077686 0.043041 
1.9862500000000001 -0.192383 0.756470 -0.028498 0.002790 -0.017478 0.008624 -0.078075 0.046143 
1.9875000000000000 -0.097656 0.812622 -0.029379 0.006773 -0.016434 0.010058 -0.078270 0.049019 
1.9887500000000000 0.006714 0.855408 -0.029136 0.011501 -0.015486 0.011229 -0.078178 0.052677 
1.9900000000000000 0.131348 0.879211 -0.027943 0.015863 -0.014582 0.012761 -0.077702 0.056564 
1.9912500000000000 0.263733 0.889832 -0.026377 0.021036 -0.013050 0.013848 -0.077366 0.060444 
1.9924999999999999 0.403015 0.862915 -0.023350 0.025253 -0.011593 0.015018 -0.076946 0.064930 
1.9937499999999999 0.542542 0.802917 -0.019428 0.028358 -0.010523 0.015913 -0.077065 0.068779 
1.9950000000000001 0.666260 0.711670 -0.014812 0.031696 -0.009317 0.016292 -0.076496 0.072548 
1.9962500000000001 0.765869 0.601563 -0.009130 0.033237 -0.007565 0.017022 -0.075691 0.076454 
1.9975000000000001 0.842773 0.472290 -0.004179 0.033779 -0.006275 0.017471 -0.074852 0.080029 
1.9987500000000000 0.885559 0.334717 0.001528 0.032591 -0.005172 0.018270 -0.074436 0.082897 
2.0000000000000000 0.902954 0.204956 0.005066 0.031670 -0.003676 0.018798 -0.072498 0.086159 
2.0012500000000002 0.893494 0.076904 0.009539 0.029432 -0.001966 0.018989 -0.070599 0.088993 
2.0024999999999999 0.862671 -0.035522 0.012827 0.026787 -0.000428 0.019487 -0.067924 0.091984 
2.0037500000000001 0.817078 -0.133728 0.015240 0.024031 0.001240 0.019728 -0.065624 0.094860 
2.0049999999999999 0.761658 -0.217102 0.017290 0.020943 0.002934 0.019647 -0.062737 0.097755 
2.0062500000000001 0.705200 -0.285370 0.018953 0.017513 0.005099 0.019371 -0.060116 0.101231 
2.0074999999999998 0.649475 -0.341766 0.019689 0.015292 0.006866 0.019220 -0.057327 0.103958 
2.0087500000000000 0.588684 -0.382660 0.020185 0.012383 0.008794 0.018923 -0.054340 0.106075 
2.0099999999999998 0.530273 -0.416168 0.020508 0.009547 0.010765 0.018044 -0.051418 0.108963 
2.0112500000000000 0.473694 -0.439362 0.020484 0.007376 0.012517 0.016803 -0.048992 0.111420 
2.0125000000000002 0.422180 -0.460236 0.020024 0.005369 0.014318 0.015570 -0.046394 0.112934 
2.0137499999999999 0.375046 -0.474197 0.019528 0.003332 0.016256 0.014112 -0.043640 0.114834 
2.0150000000000001 0.328095 -0.485367 0.019132 0.001746 0.017104 0.012234 -0.041351 0.115990 
2.0162499999999999 0.284500 -0.489654 0.018054 0.000121 0.018478 0.010820 -0.038662 0.117058 
2.0175000000000001 0.244064 -0.493134 0.017542 -0.000867 0.019373 0.008588 -0.035881 0.117374 
2.0187499999999998 0.207901 -0.492691 0.017017 -0.002110 0.019763 0.006723 -0.033043 0.118236 
2.0200000000000000 0.171600 -0.490951 0.016480 -0.003407 0.020280 0.004919 -0.028854 0.117485 
2.0212500000000002 0.136856 -0.487732 0.015755 -0.004794 0.020534 0.003219 -0.026775 0.118641 
2.0225000000000000 0.106796 -0.483292 0.015232 -0.005510 0.020988 0.001583 -0.023335 0.118694 
2.0237500000000002 0.077805 -0.478317 0.014503 -0.006701 0.020924 -0.000429 -0.020748 0.118969 
2.0249999999999999 0.049713 -0.470825 0.013663 -0.007619 0.021028 -0.002658 -0.018234 0.119225 
2.0262500000000001 0.023773 -0.463074 0.012831 -0.008542 0.020599 -0.004622 -0.016296 0.120232 
2.0274999999999999 0.000580 -0.455078 0.012023 -0.009197 0.019792 -0.006695 -0.014191 0.120628 
2.0287500000000001 -0.025330 -0.447113 0.010836 -0.009841 0.019250 -0.008396 -0.012497 0.120529 
2.0299999999999998 -0.045837 -0.437744 0.009907 -0.009969 0.018108 -0.009902 -0.010918 0.120361 
2.0312500000000000 -0.068207 -0.428467 0.009302 -0.010681 0.017123 -0.011370 -0.009987 0.120300 
2.0325000000000002 -0.087738 -0.417969 0.008515 -0.010813 0.015858 -0.012884 -0.008911 0.119957 
2.0337499999999999 -0.107727 -0.407318 0.007668 -0.011475 0.014560 -0.014060 -0.008255 0.119728 
2.0350000000000001 -0.126465 -0.396637 0.006799 -0.011732 0.013353 -0.015507 -0.006958 0.119927 
2.0362499999999999 -0.143829 -0.385346 0.005924 -0.012160 0.011867 -0.016335 -0.005325 0.119347 
2.0375000000000001 -0.160370 -0.375763 0.005411 -0.012706 0.010501 -0.017270 -0.004211 0.119484 
2.0387499999999998 -0.176636 -0.363190 0.004199 -0.012999 0.009061 -0.018283 -0.002792 0.120125 
2.0400000000000000 -0.192352 -0.351379 0.003403 -0.013153 0.007408 -0.018928 -0.001816 0.121117 
2.0412499999999998 -0.208649 -0.339691 0.002328 -0.013296 0.005760 -0.019665 -0.000618 0.122208 
2.0425000000000000 -0.222473 -0.326294 0.001400 -0.013409 0.003927 -0.019891 0.000107 0.123505 
2.0437500000000002 -0.236572 -0.314453 0.000404 -0.013260 0.002437 -0.019967 0.000313 0.124527 
2.0449999999999999 -0.251221 -0.301086 -0.000540 -0.013185 0.000353 -0.020563 0.001114 0.126289 
2.0462500000000001 -0.263428 -0.287293 -0.001483 -0.013129 -0.000873 -0.020447 0.002052 0.127350 
2.0474999999999999 -0.275971 -0.274414 -0.002090 -0.012930 -0.003033 -0.020330 0.002335 0.128487 
2.0487500000000001 -0.289032 -0.258881 -0.002839 -0.012753 -0.004725 -0.020138 0.003029 0.130142 
2.0499999999999998 -0.300354 -0.244232 -0.003726 -0.012750 -0.006605 -0.019552 0.004540 0.131538 
2.0512500000000000 -0.312592 -0.228851 -0.004661 -0.012510 -0.008101 -0.019098 0.005974 0.132637 
2.0525000000000002 -0.324158 -0.212646 -0.005428 -0.012452 -0.009804 -0.018040 0.007927 0.134201 
2.0537500000000000 -0.335236 -0.195587 -0.006284 -0.012142 -0.011589 -0.017426 0.010048 0.135849 
2.0550000000000002 -0.345764 -0.179108 -0.007227 -0.011901 -0.013525 -0.016418 0.012375 0.138390 
2.0562499999999999 -0.356720 -0.160675 -0.008108 -0.011554 -0.014639 -0.015104 0.015045 0.139519 
2.0575000000000001 -0.365967 -0.141571 -0.009123 -0.011195 -0.016485 -0.013977 0.017845 0.142441 
2.0587499999999999 -0.376648 -0.123169 -0.009934 -0.010783 -0.017368 -0.011961 0.020782 0.144661 
2.0600000000000001 -0.387116 -0.101624 -0.011006 -0.010042 -0.018730 -0.010427 0.023224 0.147049 
2.0612499999999998 -0.395904 -0.080597 -0.011853 -0.009700 -0.019508 -0.008813 0.026199 0.149323 
2.0625000000000000 -0.403503 -0.056778 -0.012856 -0.008830 -0.020229 -0.007312 0.029266 0.150894 
2.0637500000000002 -0.411743 -0.033722 -0.013647 -0.007727 -0.020947 -0.005457 0.032669 0.152283 
2.0649999999999999 -0.418549 -0.008484 -0.014503 -0.007265 -0.021311 -0.003498 0.035851 0.153717 
2.0662500000000001 -0.426178 0.018616 -0.015168 -0.006249 -0.021684 -0.001901 0.039963 0.154411 
2.0674999999999999 -0.432480 0.046265 -0.015991 -0.005095 -0.021733 -0.000046 0.044098 0.154594 
2.0687500000000001 -0.436157 0.076645 -0.016635 -0.003970 -0.022003 0.001867 0.048546 0.155586 
2.0699999999999998 -0.438827 0.109604 -0.017769 -0.002645 -0.021585 0.004130 0.053848 0.155846 
2.0712500000000000 -0.440704 0.143158 -0.018265 -0.001505 -0.021261 0.006151 0.059219 0.155167 
2.0724999999999998 -0.441193 0.178192 -0.019133 -0.000128 -0.020893 0.008430 0.063797 0.155518 
2.0737500000000000 -0.439117 0.218201 -0.019512 0.001332 -0.019741 0.010149 0.068787 0.155533 
2.0750000000000002 -0.432953 0.258667 -0.019945 0.003454 -0.018974 0.012409 0.074600 0.154968 
2.0762499999999999 -0.424805 0.303406 -0.020185 0.005336 -0.017485 0.013607 0.079071 0.154022 
2.0775000000000001 -0.412079 0.350433 -0.020334 0.007521 -0.016039 0.015327 0.084549 0.152802 
2.0787499999999999 -0.393005 0.401459 -0.020269 0.009496 -0.014812 0.016808 0.088776 0.151352 
2.0800000000000001 -0.369278 0.452789 -0.020020 0.011567 -0.013379 0.018379 0.093834 0.149261 
2.0812499999999998 -0.338959 0.507294 -0.019968 0.014046 -0.011543 0.019140 0.098144 0.146149 
2.0825000000000000 -0.296661 0.560638 -0.019451 0.015978 -0.009766 0.020657 0.102387 0.143311 
2.0837500000000002 -0.246979 0.613739 -0.018215 0.019239 -0.007648 0.021223 0.107437 0.140091 
2.0850000000000000 -0.180267 0.669006 -0.017193 0.022242 -0.005519 0.021857 0.111786 0.135407 
2.0862500000000002 -0.103332 0.716278 -0.014830 0.025417 -0.003394 0.021955 0.115738 0.131912 
2.0874999999999999 -0.014343 0.755737 -0.012253 0.028225 -0.000913 0.022283 0.120926 0.127991 
2.0887500000000001 0.094421 0.779785 -0.008579 0.031214 0.000925 0.021554 0.124695 0.124008 
2.0899999999999999 0.214844 0.779907 -0.004526 0.032997 0.002445 0.021390 0.128769 0.119545 
2.0912500000000001 0.329102 0.768677 0.001152 0.034653 0.004126 0.020996 0.132187 0.115677 
2.0924999999999998 0.458435 0.730591 0.006668 0.034740 0.005501 0.020390 0.134949 0.111984 
2.0937500000000000 0.576965 0.658997 0.012138 0.033535 0.007058 0.019695 0.137581 0.107781 
2.0950000000000002 0.667053 0.559998 0.016838 0.030346 0.008189 0.019429 0.139297 0.102188 
2.0962499999999999 0.749695 0.455139 0.020872 0.027772 0.010106 0.019411 0.140923 0.096710 
2.0975000000000001 0.788177 0.334656 0.024237 0.023758 0.011466 0.018993 0.141319 0.092705 
2.0987499999999999 0.813477 0.206726 0.026667 0.019842 0.013341 0.018600 0.142517 0.087616 
2.1000000000000001 0.812805 0.093506 0.028059 0.015770 0.015263 0.017416 0.143280 0.082733 
2.1012499999999998 0.791748 -0.016235 0.028776 0.011362 0.017151 0.016279 0.143921 0.077286 
2.1025000000000000 0.756042 -0.108826 0.029171 0.007555 0.019121 0.014296 0.144516 0.073288 
2.1037499999999998 0.710815 -0.186523 0.028999 0.004183 0.020363 0.013361 0.144745 0.068298 
2.1050000000000000 0.656921 -0.255432 0.028234 0.000717 0.021841 0.010771 0.145813 0.063660 
2.1062500000000002 0.603027 -0.308533 0.026987 -0.002739 0.023596 0.008763 0.145599 0.059532 
2.1074999999999999 0.548370 -0.349029 0.025715 -0.005073 0.025119 0.006025 0.145607 0.056183 
2.1087500000000001 0.494385 -0.382904 0.023750 -0.007746 0.025627 0.003422 0.144958 0.052185 
2.1099999999999999 0.440659 -0.407959 0.022112 -0.009349 0.026552 0.000755 0.144760 0.048973 
2.1112500000000001 0.391846 -0.425568 0.020360 -0.010931 0.026082 -0.002456 0.143684 0.046226 
2.1124999999999998 0.343231 -0.438080 0.017796 -0.012099 0.025597 -0.005581 0.142876 0.042526 
2.1137500000000000 0.299255 -0.449265 0.016233 -0.012782 0.024232 -0.008171 0.141449 0.039078 
2.1150000000000002 0.258530 -0.453400 0.014869 -0.013588 0.023157 -0.010617 0.140312 0.036255 
2.1162500000000000 0.219620 -0.456711 0.013309 -0.014070 0.021782 -0.011909 0.139671 0.033440 
2.1175000000000002 0.183212 -0.456024 0.012251 -0.014682 0.020226 -0.013985 0.138298 0.030945 
2.1187499999999999 0.150452 -0.453476 0.010911 -0.015245 0.018616 -0.015960 0.137817 0.027565 
2.1200000000000001 0.118347 -0.450684 0.009684 -0.015629 0.017160 -0.017360 0.136887 0.025566 
2.1212499999999999 0.088654 -0.445373 0.008299 -0.016380 0.015181 -0.018928 0.136612 0.022980 
2.1225000000000001 0.059845 -0.439011 0.007059 -0.016468 0.013120 -0.020105 0.136238 0.021248 
2.1237499999999998 0.033875 -0.432999 0.005465 -0.016494 0.011253 -0.020420 0.135529 0.019020 
2.1250000000000000 0.008637 -0.423523 0.003980 -0.016768 0.008751 -0.021280 0.134644 0.017082 
2.1262500000000002 -0.014755 -0.416672 0.002985 -0.016532 0.006935 -0.021902 0.134186 0.016174 
2.1274999999999999 -0.034775 -0.408966 0.001386 -0.016555 0.005424 -0.022297 0.133736 0.014450 
2.1287500000000001 -0.057449 -0.398560 0.000429 -0.016217 0.003228 -0.022214 0.132896 0.012825 
2.1299999999999999 -0.075668 -0.388550 -0.000460 -0.015759 0.001653 -0.022574 0.132393 0.010902 
2.1312500000000001 -0.095657 -0.377289 -0.001597 -0.015556 -0.000223 -0.022552 0.131111 0.008324 
2.1324999999999998 -0.113388 -0.368607 -0.002370 -0.015221 -0.002048 -0.022734 0.130653 0.006859 
2.1337500000000000 -0.129211 -0.357086 -0.003071 -0.015194 -0.004295 -0.022235 0.130409 0.004501 
2.1349999999999998 -0.145264 -0.347260 -0.004149 -0.015074 -0.005928 -0.022403 0.129952 0.002419 
2.1362500000000000 -0.161346 -0.335663 -0.005178 -0.014797 -0.008331 -0.021296 0.130348 -0.000473 
2.1375000000000002 -0.176025 -0.324036 -0.006282 -0.014623 -0.009626 -0.020609 0.130783 -0.002434 
2.1387499999999999 -0.190582 -0.311340 -0.007503 -0.014034 -0.011871 -0.019789 0.130272 -0.003937 
2.1400000000000001 -0.204132 -0.298828 -0.008564 -0.013421 -0.013124 -0.018473 0.129944 -0.005875 
2.1412499999999999 -0.217255 -0.286316 -0.009779 -0.012778 -0.015203 -0.017511 0.129761 -0.007820 
2.1425000000000001 -0.230896 -0.272919 -0.010702 -0.012030 -0.016277 -0.015884 0.129654 -0.010277 
2.1437499999999998 -0.242523 -0.261078 -0.011422 -0.010925 -0.017717 -0.014725 0.129265 -0.012260 
2.1450000000000000 -0.253967 -0.245972 -0.012030 -0.010113 -0.018995 -0.012629 0.127983 -0.014061 
2.1462500000000002 -0.266022 -0.232086 -0.012734 -0.009534 -0.020061 -0.011164 0.127304 -0.016495 
2.1475000000000000 -0.277496 -0.217743 -0.013215 -0.008698 -0.021297 -0.009438 0.125900 -0.018967 
2.1487500000000002 -0.287109 -0.202057 -0.013761 -0.008216 -0.022030 -0.007383 0.125511 -0.021652 
2.1499999999999999 -0.298340 -0.186218 -0.014309 -0.007179 -0.022449 -0.005285 0.124229 -0.025154 
2.1512500000000001 -0.308350 -0.170319 -0.015114 -0.006441 -0.022873 -0.003126 0.122955 -0.027565 
