!
! C:\Users\rflab\Downloads\Lab5_KD_ZW\300.S2P
!
! Touchstone 1.1 file saved by VNA.EXE V1.65 (www.ke5fx.com/gpib/readme.htm)
! 11/12/2024 12:30:59 AM
!
!    Source: HEWLETT PACKARD,8753D,0,6.14
!  Min freq: 1.900000E+009 Hz
!  Max freq: 2.900000E+009 Hz
!    Points: 801
!    Params: S11 S21 S12 S22
!
!!!!!
# GHZ S RI R 50
1.8999999999999999 0.960388 0.268189 -0.002776 0.017494 -0.003259 0.008895 0.023457 -0.056133 
1.9012500000000001 0.954346 0.135803 -0.000511 0.017349 -0.002481 0.009082 0.021212 -0.056423 
1.9025000000000001 0.929260 0.012817 0.001793 0.016578 -0.001866 0.009358 0.019110 -0.056547 
1.9037500000000001 0.888306 -0.093567 0.003456 0.015584 -0.001224 0.009513 0.017002 -0.056692 
1.9050000000000000 0.840302 -0.183197 0.005720 0.014555 -0.000566 0.009597 0.014954 -0.056097 
1.9062500000000000 0.780579 -0.257782 0.006754 0.013276 0.000515 0.009953 0.012787 -0.055201 
1.9075000000000000 0.719147 -0.319763 0.008379 0.011793 0.001411 0.010157 0.010777 -0.054028 
1.9087499999999999 0.660309 -0.372833 0.008602 0.010217 0.002386 0.009950 0.008326 -0.052839 
1.9099999999999999 0.601166 -0.411377 0.009082 0.009026 0.003100 0.009775 0.005835 -0.051741 
1.9112499999999999 0.544952 -0.442993 0.009543 0.007570 0.004117 0.009275 0.002748 -0.050344 
1.9125000000000001 0.488434 -0.467041 0.009843 0.006588 0.004904 0.009047 0.000307 -0.049103 
1.9137500000000001 0.437180 -0.484207 0.010060 0.005198 0.005757 0.008757 -0.002787 -0.048491 
1.9150000000000000 0.386368 -0.497330 0.010472 0.004523 0.006379 0.008282 -0.005535 -0.047565 
1.9162500000000000 0.339539 -0.508026 0.009989 0.003511 0.007242 0.007593 -0.008005 -0.046890 
1.9175000000000000 0.296570 -0.512756 0.009976 0.002582 0.007956 0.007152 -0.010305 -0.045864 
1.9187500000000000 0.255554 -0.517151 0.009966 0.001747 0.008900 0.006474 -0.012054 -0.045076 
1.9199999999999999 0.218964 -0.516510 0.009725 0.000873 0.009486 0.005706 -0.013561 -0.043413 
1.9212499999999999 0.182342 -0.513061 0.009662 -0.000037 0.010200 0.004383 -0.015387 -0.042072 
1.9225000000000001 0.149017 -0.512054 0.009384 -0.000688 0.010451 0.003171 -0.017143 -0.040354 
1.9237500000000001 0.115631 -0.508331 0.009274 -0.001289 0.010586 0.002393 -0.018238 -0.038313 
1.9250000000000000 0.086548 -0.502686 0.008644 -0.002064 0.010904 0.001361 -0.020123 -0.036451 
1.9262500000000000 0.057404 -0.496765 0.008136 -0.002729 0.010725 0.000404 -0.022129 -0.034233 
1.9275000000000000 0.032440 -0.490448 0.007951 -0.003227 0.010725 -0.000292 -0.024014 -0.032028 
1.9287500000000000 0.004913 -0.482696 0.007391 -0.003586 0.010612 -0.001455 -0.026043 -0.030052 
1.9299999999999999 -0.018158 -0.473358 0.007092 -0.004197 0.010546 -0.002491 -0.027874 -0.028103 
1.9312499999999999 -0.040436 -0.465973 0.006598 -0.004566 0.010242 -0.003484 -0.029819 -0.026909 
1.9325000000000001 -0.064301 -0.454620 0.006332 -0.004607 0.009865 -0.004274 -0.031456 -0.025734 
1.9337500000000001 -0.084488 -0.444840 0.005889 -0.005204 0.009328 -0.005297 -0.032597 -0.024019 
1.9350000000000001 -0.105667 -0.433975 0.005473 -0.005447 0.008954 -0.005974 -0.033674 -0.023020 
1.9362500000000000 -0.125168 -0.424362 0.005001 -0.005789 0.008141 -0.006883 -0.034143 -0.021620 
1.9375000000000000 -0.143524 -0.413620 0.004690 -0.006200 0.007173 -0.007281 -0.034365 -0.020069 
1.9387500000000000 -0.160706 -0.401657 0.004168 -0.006313 0.006987 -0.007581 -0.035311 -0.018364 
1.9399999999999999 -0.180344 -0.389130 0.003773 -0.006478 0.006113 -0.008512 -0.036030 -0.016506 
1.9412499999999999 -0.196472 -0.377289 0.003218 -0.006780 0.005091 -0.008901 -0.036364 -0.014435 
1.9424999999999999 -0.212555 -0.365768 0.002736 -0.007063 0.004624 -0.009298 -0.037296 -0.012045 
1.9437500000000001 -0.230057 -0.352539 0.002105 -0.007025 0.003822 -0.009682 -0.038363 -0.010252 
1.9450000000000001 -0.246201 -0.338257 0.001622 -0.007237 0.003093 -0.010229 -0.039534 -0.008675 
1.9462500000000000 -0.260651 -0.324966 0.001232 -0.007298 0.001852 -0.010388 -0.041187 -0.007174 
1.9475000000000000 -0.275482 -0.310852 0.000825 -0.007290 0.000911 -0.010288 -0.042309 -0.005871 
1.9487500000000000 -0.290283 -0.296783 0.000347 -0.007519 0.000227 -0.010517 -0.043251 -0.005308 
1.9500000000000000 -0.303299 -0.280945 -0.000133 -0.007621 -0.000696 -0.010548 -0.045008 -0.004059 
1.9512499999999999 -0.317352 -0.266541 -0.000617 -0.007670 -0.001432 -0.010410 -0.045498 -0.004005 
1.9524999999999999 -0.330338 -0.249725 -0.001187 -0.007601 -0.002525 -0.010527 -0.046030 -0.003185 
1.9537500000000001 -0.344482 -0.232895 -0.001630 -0.007678 -0.003183 -0.010536 -0.046556 -0.002321 
1.9550000000000001 -0.356354 -0.216003 -0.002505 -0.007548 -0.003909 -0.009837 -0.046993 -0.001081 
1.9562500000000000 -0.367630 -0.197647 -0.002820 -0.007421 -0.005141 -0.009685 -0.047596 -0.000032 
1.9575000000000000 -0.380753 -0.178070 -0.003425 -0.007378 -0.005982 -0.009091 -0.048626 0.001284 
1.9587500000000000 -0.392563 -0.156433 -0.003809 -0.007163 -0.006923 -0.008542 -0.049328 0.003038 
1.9600000000000000 -0.403564 -0.136749 -0.004432 -0.006972 -0.007496 -0.008040 -0.050907 0.004635 
1.9612499999999999 -0.414520 -0.113617 -0.004875 -0.006501 -0.008182 -0.007207 -0.052147 0.005524 
1.9624999999999999 -0.423950 -0.091064 -0.005469 -0.006339 -0.009377 -0.006291 -0.053844 0.007385 
1.9637500000000001 -0.435425 -0.066193 -0.005922 -0.006273 -0.009418 -0.005674 -0.055408 0.008919 
1.9650000000000001 -0.445892 -0.039948 -0.006518 -0.005747 -0.009924 -0.004538 -0.056801 0.009907 
1.9662500000000001 -0.454590 -0.011108 -0.007035 -0.005562 -0.010369 -0.003843 -0.058342 0.010727 
1.9675000000000000 -0.460571 0.016083 -0.007628 -0.005167 -0.010783 -0.003050 -0.059742 0.012592 
1.9687500000000000 -0.466766 0.049957 -0.008237 -0.004771 -0.011038 -0.001915 -0.061296 0.013758 
1.9700000000000000 -0.474915 0.083038 -0.008863 -0.004318 -0.011242 -0.000644 -0.062004 0.015163 
1.9712499999999999 -0.479294 0.119309 -0.009271 -0.003591 -0.011183 -0.000055 -0.062950 0.017181 
1.9724999999999999 -0.481903 0.156998 -0.010040 -0.003052 -0.011245 0.001144 -0.063896 0.019352 
1.9737499999999999 -0.483002 0.198990 -0.010889 -0.002207 -0.011364 0.002041 -0.064812 0.022034 
1.9750000000000001 -0.481888 0.242310 -0.011266 -0.000971 -0.010977 0.003128 -0.066093 0.024300 
1.9762500000000001 -0.477509 0.289795 -0.011781 -0.000288 -0.010408 0.004146 -0.067642 0.027439 
1.9775000000000000 -0.468079 0.341370 -0.012046 0.000782 -0.010526 0.004967 -0.069160 0.030312 
1.9787500000000000 -0.455200 0.392944 -0.012825 0.001826 -0.009791 0.005978 -0.070675 0.033009 
1.9800000000000000 -0.433533 0.449890 -0.012738 0.003127 -0.009149 0.007058 -0.071922 0.035671 
1.9812500000000000 -0.406128 0.514221 -0.012839 0.004795 -0.008134 0.007705 -0.072975 0.038010 
1.9824999999999999 -0.369934 0.573731 -0.013176 0.005995 -0.007573 0.008749 -0.073917 0.040779 
1.9837499999999999 -0.322693 0.637512 -0.012856 0.007607 -0.006687 0.009126 -0.074234 0.043217 
1.9850000000000001 -0.263519 0.699158 -0.012773 0.009275 -0.005792 0.009798 -0.074780 0.046238 
1.9862500000000001 -0.188965 0.764465 -0.012137 0.011539 -0.004777 0.010093 -0.074577 0.049217 
1.9875000000000000 -0.096619 0.814209 -0.010724 0.013634 -0.004299 0.010469 -0.073944 0.052273 
1.9887500000000000 0.009277 0.860535 -0.009378 0.015493 -0.002890 0.010823 -0.073879 0.055489 
1.9900000000000000 0.135681 0.884766 -0.007130 0.017695 -0.001897 0.011040 -0.073166 0.059460 
1.9912500000000000 0.264160 0.888916 -0.004790 0.019073 -0.001130 0.011293 -0.072205 0.063252 
1.9924999999999999 0.405212 0.863098 -0.001830 0.020303 -0.000015 0.011346 -0.071899 0.067371 
1.9937499999999999 0.537292 0.802612 0.001073 0.020077 0.000588 0.011132 -0.071690 0.071095 
1.9950000000000001 0.661865 0.714050 0.004099 0.020130 0.001527 0.010768 -0.070976 0.074409 
1.9962500000000001 0.767334 0.598816 0.007860 0.018272 0.002432 0.010825 -0.070305 0.078220 
1.9975000000000001 0.845276 0.473572 0.009800 0.017247 0.003227 0.010552 -0.069584 0.081409 
1.9987500000000000 0.886047 0.328552 0.012339 0.015170 0.004022 0.010448 -0.068714 0.084114 
2.0000000000000000 0.902588 0.199829 0.014101 0.012927 0.004920 0.009998 -0.066723 0.087200 
2.0012500000000002 0.888245 0.072144 0.014887 0.010780 0.005907 0.009686 -0.064930 0.089371 
2.0024999999999999 0.863525 -0.036987 0.015383 0.008318 0.006615 0.009496 -0.062519 0.091721 
2.0037500000000001 0.817505 -0.134399 0.016031 0.006180 0.007829 0.009045 -0.060001 0.095135 
2.0049999999999999 0.763245 -0.215698 0.015856 0.003878 0.008679 0.008170 -0.057487 0.097576 
2.0062500000000001 0.705200 -0.286102 0.015450 0.001474 0.009396 0.007738 -0.054958 0.100426 
2.0074999999999998 0.645966 -0.342133 0.014624 -0.000089 0.010341 0.006764 -0.052483 0.103012 
2.0087500000000000 0.585602 -0.384216 0.013897 -0.001544 0.010829 0.005786 -0.049335 0.105953 
2.0099999999999998 0.529022 -0.417542 0.013383 -0.002952 0.011471 0.004896 -0.047157 0.108254 
2.0112500000000000 0.472443 -0.439880 0.012315 -0.003649 0.011837 0.003463 -0.045242 0.110703 
2.0125000000000002 0.420685 -0.459290 0.011459 -0.004713 0.012555 0.002172 -0.042576 0.112534 
2.0137499999999999 0.371491 -0.472916 0.010625 -0.005149 0.012599 0.001115 -0.040485 0.114273 
2.0150000000000001 0.324203 -0.483414 0.009760 -0.005784 0.012814 -0.000038 -0.038460 0.114842 
2.0162499999999999 0.282349 -0.489654 0.008698 -0.006408 0.012472 -0.001405 -0.036610 0.116299 
2.0175000000000001 0.242493 -0.491104 0.007817 -0.006816 0.012372 -0.002607 -0.033558 0.116711 
2.0187499999999998 0.203781 -0.492127 0.007516 -0.007205 0.011880 -0.003594 -0.030678 0.117569 
2.0200000000000000 0.168808 -0.488327 0.007068 -0.007535 0.011267 -0.004567 -0.027718 0.118202 
2.0212500000000002 0.135437 -0.487122 0.006136 -0.007711 0.011232 -0.005929 -0.025002 0.118912 
2.0225000000000000 0.104645 -0.481033 0.005227 -0.008077 0.010627 -0.007112 -0.022133 0.119438 
2.0237500000000002 0.075195 -0.475586 0.004922 -0.008247 0.009747 -0.007545 -0.020046 0.119751 
2.0249999999999999 0.047974 -0.470245 0.003937 -0.008454 0.009024 -0.008743 -0.017822 0.121079 
2.0262500000000001 0.022003 -0.461884 0.003527 -0.008553 0.008396 -0.009641 -0.015938 0.121948 
2.0274999999999999 -0.000763 -0.452301 0.002544 -0.008535 0.007396 -0.010054 -0.014313 0.122803 
2.0287500000000001 -0.025513 -0.443878 0.001672 -0.008642 0.006384 -0.010599 -0.013306 0.123520 
2.0299999999999998 -0.049225 -0.434479 0.001338 -0.008297 0.005330 -0.011379 -0.011879 0.123779 
2.0312500000000000 -0.070099 -0.425079 0.000793 -0.008469 0.004270 -0.011500 -0.011040 0.123589 
2.0325000000000002 -0.088959 -0.414978 0.000226 -0.008354 0.003134 -0.012216 -0.009674 0.123787 
2.0337499999999999 -0.110016 -0.403534 -0.000402 -0.008323 0.002243 -0.012199 -0.009109 0.123619 
2.0350000000000001 -0.129273 -0.393585 -0.000640 -0.008354 0.001527 -0.012054 -0.007584 0.123306 
2.0362499999999999 -0.145966 -0.382446 -0.001524 -0.007919 0.000283 -0.012314 -0.006660 0.123703 
2.0375000000000001 -0.163361 -0.371948 -0.001794 -0.007967 -0.001045 -0.012353 -0.004852 0.124291 
2.0387499999999998 -0.179047 -0.361023 -0.002387 -0.007668 -0.002087 -0.012424 -0.003387 0.124687 
2.0400000000000000 -0.195160 -0.348572 -0.002988 -0.007720 -0.003255 -0.011721 -0.002060 0.125977 
2.0412499999999998 -0.209961 -0.336761 -0.003674 -0.007393 -0.004251 -0.011584 -0.000832 0.126793 
2.0425000000000000 -0.224854 -0.323608 -0.003994 -0.007218 -0.004952 -0.011162 -0.000351 0.128281 
2.0437500000000002 -0.238037 -0.312195 -0.004432 -0.006655 -0.006106 -0.011003 0.000732 0.129746 
2.0449999999999999 -0.252716 -0.298584 -0.005081 -0.006235 -0.007230 -0.010290 0.001854 0.130585 
2.0462500000000001 -0.263886 -0.283997 -0.005260 -0.005983 -0.007732 -0.009842 0.002571 0.131836 
2.0474999999999999 -0.277252 -0.271210 -0.005556 -0.005577 -0.008726 -0.008955 0.003540 0.133331 
2.0487500000000001 -0.290039 -0.255951 -0.006052 -0.005274 -0.009562 -0.008472 0.004990 0.134728 
2.0499999999999998 -0.301483 -0.240692 -0.006333 -0.004731 -0.010101 -0.006965 0.006157 0.135994 
2.0512500000000000 -0.312744 -0.224854 -0.006707 -0.004647 -0.010842 -0.006164 0.008446 0.137001 
2.0525000000000002 -0.325684 -0.210144 -0.007098 -0.004459 -0.011387 -0.005273 0.010452 0.138519 
2.0537500000000000 -0.336090 -0.191467 -0.007294 -0.003835 -0.012121 -0.004034 0.012627 0.140076 
2.0550000000000002 -0.347382 -0.175385 -0.007722 -0.003524 -0.012540 -0.003232 0.015442 0.141876 
2.0562499999999999 -0.358215 -0.156525 -0.008155 -0.002844 -0.012880 -0.002118 0.017837 0.143539 
2.0575000000000001 -0.367157 -0.137177 -0.008633 -0.002505 -0.012841 -0.001060 0.021187 0.145401 
2.0587499999999999 -0.377838 -0.118561 -0.008691 -0.001795 -0.013072 0.000277 0.023377 0.147614 
2.0600000000000001 -0.387329 -0.096710 -0.009346 -0.001117 -0.013189 0.001597 0.026230 0.149551 
2.0612499999999998 -0.396545 -0.075485 -0.009394 -0.000425 -0.012882 0.002683 0.028915 0.151230 
2.0625000000000000 -0.403610 -0.051422 -0.009404 0.000350 -0.012792 0.003550 0.032501 0.151962 
2.0637500000000002 -0.411575 -0.028336 -0.009839 0.000728 -0.012169 0.004584 0.035492 0.152725 
2.0649999999999999 -0.418930 -0.001602 -0.009691 0.001645 -0.011726 0.005741 0.038879 0.153435 
2.0662500000000001 -0.426071 0.026688 -0.009948 0.002463 -0.011328 0.006675 0.042656 0.153992 
2.0674999999999999 -0.431992 0.053803 -0.009754 0.003111 -0.010813 0.007739 0.046791 0.153832 
2.0687500000000001 -0.436768 0.083099 -0.009890 0.004114 -0.010025 0.008880 0.052383 0.153793 
2.0699999999999998 -0.439850 0.117722 -0.009871 0.004683 -0.009327 0.009809 0.057510 0.153587 
2.0712500000000000 -0.440918 0.150848 -0.009837 0.005805 -0.008556 0.011003 0.062149 0.152527 
2.0724999999999998 -0.441315 0.186584 -0.009728 0.006710 -0.007546 0.011836 0.067596 0.151733 
2.0737500000000000 -0.438416 0.226440 -0.009372 0.007634 -0.006035 0.012181 0.072372 0.152008 
2.0750000000000002 -0.431671 0.267822 -0.008957 0.008777 -0.004785 0.012809 0.077927 0.150925 
2.0762499999999999 -0.423035 0.311066 -0.008377 0.010016 -0.003693 0.013167 0.082642 0.149918 
2.0775000000000001 -0.409668 0.359955 -0.007724 0.011235 -0.002470 0.013807 0.087814 0.148209 
2.0787499999999999 -0.389160 0.409668 -0.006895 0.012104 -0.001086 0.013867 0.091980 0.146469 
2.0800000000000001 -0.365128 0.463150 -0.005896 0.013399 -0.000088 0.013927 0.096451 0.143928 
2.0812499999999998 -0.331543 0.519714 -0.004541 0.014194 0.001077 0.013619 0.101105 0.140945 
2.0825000000000000 -0.285797 0.571533 -0.003860 0.015680 0.002640 0.013680 0.105591 0.137329 
2.0837500000000002 -0.235077 0.630493 -0.002174 0.016197 0.003963 0.012895 0.109253 0.133881 
2.0850000000000000 -0.163513 0.678650 -0.000172 0.017428 0.005156 0.013022 0.114212 0.130463 
2.0862500000000002 -0.083618 0.724243 0.001641 0.018373 0.006227 0.012229 0.118393 0.126450 
2.0874999999999999 0.012573 0.761414 0.004393 0.019000 0.007330 0.011217 0.123138 0.122650 
2.0887500000000001 0.122986 0.785950 0.007672 0.018681 0.008388 0.010245 0.126648 0.118897 
2.0899999999999999 0.240173 0.784241 0.010680 0.018503 0.008973 0.009326 0.130730 0.114677 
2.0912500000000001 0.368042 0.762085 0.013720 0.017086 0.009720 0.008873 0.133560 0.110672 
2.0924999999999998 0.492920 0.715515 0.016485 0.014549 0.010080 0.008203 0.136497 0.107208 
2.0937500000000000 0.602600 0.636475 0.018476 0.012192 0.010887 0.007468 0.138298 0.102997 
2.0950000000000002 0.701172 0.539429 0.020520 0.009239 0.011570 0.006489 0.139801 0.098419 
2.0962499999999999 0.769989 0.425598 0.020628 0.006061 0.011842 0.006272 0.142013 0.093308 
2.0975000000000001 0.807465 0.302673 0.020769 0.002858 0.013056 0.005265 0.142921 0.089302 
2.0987499999999999 0.822754 0.180664 0.020624 -0.000228 0.013623 0.004233 0.144012 0.084656 
2.1000000000000001 0.812927 0.064148 0.019992 -0.002906 0.014179 0.002758 0.144119 0.079529 
2.1012499999999998 0.790100 -0.038574 0.018934 -0.004739 0.014682 0.001712 0.144898 0.074860 
2.1025000000000000 0.748230 -0.129395 0.017065 -0.006880 0.014966 0.000100 0.145981 0.070633 
2.1037499999999998 0.700867 -0.205383 0.015959 -0.008761 0.015159 -0.000881 0.146545 0.066132 
2.1050000000000000 0.645447 -0.271362 0.014202 -0.010481 0.015259 -0.002728 0.147186 0.062347 
2.1062500000000002 0.592071 -0.319977 0.012403 -0.011449 0.015239 -0.004290 0.147636 0.058403 
2.1074999999999999 0.537079 -0.358185 0.010835 -0.012358 0.015058 -0.006008 0.147484 0.055214 
2.1087500000000001 0.483414 -0.389145 0.008849 -0.012918 0.014509 -0.007717 0.147057 0.051720 
2.1099999999999999 0.430267 -0.411789 0.007267 -0.012845 0.013454 -0.009705 0.146271 0.049019 
2.1112500000000001 0.381989 -0.427460 0.006084 -0.012848 0.012268 -0.011354 0.145897 0.046020 
2.1124999999999998 0.333069 -0.439148 0.004517 -0.012976 0.010887 -0.012337 0.144608 0.043091 
2.1137500000000000 0.289276 -0.448013 0.003192 -0.012520 0.009290 -0.013379 0.143707 0.039825 
2.1150000000000002 0.247681 -0.451843 0.002414 -0.012299 0.007699 -0.014010 0.142304 0.036545 
2.1162500000000000 0.208923 -0.454071 0.001556 -0.011972 0.006306 -0.014386 0.141945 0.034111 
2.1175000000000002 0.173187 -0.453369 0.000582 -0.012076 0.004728 -0.014775 0.141144 0.031303 
2.1187499999999999 0.140289 -0.451126 -0.000310 -0.011655 0.003217 -0.014949 0.140518 0.028549 
2.1200000000000001 0.108582 -0.448349 -0.001012 -0.011644 0.001746 -0.014995 0.140533 0.026512 
2.1212499999999999 0.079361 -0.442276 -0.001873 -0.011034 0.000236 -0.015193 0.140076 0.023720 
2.1225000000000001 0.051544 -0.435974 -0.002687 -0.010917 -0.000926 -0.015371 0.139549 0.022492 
2.1237499999999998 0.025971 -0.428986 -0.003529 -0.010532 -0.002370 -0.014644 0.139069 0.020393 
2.1250000000000000 0.001404 -0.420364 -0.004464 -0.009943 -0.003557 -0.014238 0.138329 0.018539 
2.1262500000000002 -0.022095 -0.413361 -0.005087 -0.009357 -0.004823 -0.013680 0.138001 0.017494 
2.1274999999999999 -0.043167 -0.403992 -0.005257 -0.008828 -0.005864 -0.013154 0.137390 0.015770 
2.1287500000000001 -0.063538 -0.394012 -0.006106 -0.008015 -0.006532 -0.012645 0.136063 0.013924 
2.1299999999999999 -0.082275 -0.386322 -0.006188 -0.007627 -0.008018 -0.011856 0.135033 0.011894 
2.1312500000000001 -0.100967 -0.374069 -0.006627 -0.007234 -0.008731 -0.011224 0.134651 0.010101 
2.1324999999999998 -0.118683 -0.364899 -0.006871 -0.006546 -0.009645 -0.010417 0.134071 0.007957 
2.1337500000000000 -0.134277 -0.353973 -0.007396 -0.006198 -0.010812 -0.009420 0.133354 0.005714 
2.1349999999999998 -0.149872 -0.343903 -0.007936 -0.006005 -0.011699 -0.008587 0.133186 0.002686 
2.1362500000000000 -0.165375 -0.331909 -0.008421 -0.005371 -0.012482 -0.007304 0.133377 0.000702 
2.1375000000000002 -0.179810 -0.319794 -0.008798 -0.004655 -0.012943 -0.006534 0.133308 -0.001198 
2.1387499999999999 -0.193756 -0.307129 -0.009197 -0.004013 -0.013290 -0.005264 0.132294 -0.003372 
2.1400000000000001 -0.207428 -0.294037 -0.009532 -0.003428 -0.014070 -0.003888 0.132393 -0.005493 
2.1412499999999999 -0.220398 -0.281220 -0.009709 -0.002757 -0.014185 -0.002990 0.131935 -0.007156 
2.1425000000000001 -0.234161 -0.268158 -0.009965 -0.002034 -0.014307 -0.001495 0.131058 -0.009621 
2.1437499999999998 -0.245056 -0.255829 -0.009980 -0.001309 -0.014796 -0.000245 0.130600 -0.011444 
2.1450000000000000 -0.256836 -0.240997 -0.009951 -0.000566 -0.014317 0.001262 0.128937 -0.013641 
2.1462500000000002 -0.268158 -0.226715 -0.009930 -0.000030 -0.014332 0.002459 0.127518 -0.016014 
2.1475000000000000 -0.279541 -0.212128 -0.009710 0.000623 -0.013915 0.003782 0.125862 -0.018814 
2.1487500000000002 -0.289154 -0.195709 -0.010008 0.001305 -0.013831 0.004429 0.125038 -0.021889 
2.1499999999999999 -0.300598 -0.180084 -0.009992 0.001947 -0.013237 0.006053 0.123039 -0.025246 
2.1512500000000001 -0.309937 -0.163696 -0.009921 0.002503 -0.012897 0.007344 0.122101 -0.028290 
