!
! C:\Users\rflab\Downloads\Lab5_KD_ZW\310.S2P
!
! Touchstone 1.1 file saved by VNA.EXE V1.65 (www.ke5fx.com/gpib/readme.htm)
! 11/12/2024 12:31:46 AM
!
!    Source: HEWLETT PACKARD,8753D,0,6.14
!  Min freq: 1.900000E+009 Hz
!  Max freq: 2.900000E+009 Hz
!    Points: 801
!    Params: S11 S21 S12 S22
!
!!!!!
# GHZ S RI R 50
1.8999999999999999 0.961731 0.268189 -0.009285 0.019125 -0.006708 0.009454 0.023632 -0.056709 
1.9012500000000001 0.957703 0.135925 -0.006510 0.019772 -0.005929 0.009790 0.021015 -0.057110 
1.9025000000000001 0.926514 0.014526 -0.003236 0.019634 -0.005436 0.010080 0.019279 -0.056767 
1.9037500000000001 0.886780 -0.091919 -0.000702 0.018977 -0.004653 0.010715 0.016869 -0.057137 
1.9050000000000000 0.839844 -0.181305 0.001272 0.018723 -0.003697 0.011059 0.014938 -0.056507 
1.9062500000000000 0.779480 -0.257599 0.003688 0.017346 -0.002975 0.011327 0.012575 -0.055544 
1.9075000000000000 0.719544 -0.319824 0.005556 0.016171 -0.001754 0.011899 0.010347 -0.054539 
1.9087499999999999 0.661377 -0.372162 0.006523 0.014439 -0.000750 0.012177 0.007936 -0.053249 
1.9099999999999999 0.599579 -0.409729 0.007824 0.013412 0.000618 0.012559 0.005617 -0.051905 
1.9112499999999999 0.544342 -0.442108 0.008566 0.011922 0.001446 0.012128 0.002592 -0.050821 
1.9125000000000001 0.489075 -0.465942 0.009315 0.010793 0.002839 0.012097 -0.000267 -0.049664 
1.9137500000000001 0.437500 -0.483826 0.009574 0.009466 0.003654 0.012000 -0.002918 -0.048681 
1.9150000000000000 0.387039 -0.497360 0.010012 0.008277 0.004833 0.011501 -0.005529 -0.047606 
1.9162500000000000 0.339661 -0.506348 0.010654 0.007313 0.005829 0.011485 -0.008293 -0.046921 
1.9175000000000000 0.297485 -0.512756 0.010607 0.006088 0.006781 0.010805 -0.010298 -0.045954 
1.9187500000000000 0.255829 -0.515717 0.010800 0.005195 0.008063 0.010378 -0.012070 -0.044786 
1.9199999999999999 0.219696 -0.514587 0.011089 0.004244 0.008803 0.009542 -0.014166 -0.043541 
1.9212499999999999 0.184082 -0.514038 0.011183 0.003387 0.010068 0.008440 -0.015858 -0.042326 
1.9225000000000001 0.150207 -0.510467 0.011030 0.002383 0.010863 0.007198 -0.017502 -0.040228 
1.9237500000000001 0.116486 -0.508209 0.010712 0.001554 0.011154 0.006382 -0.018909 -0.038656 
1.9250000000000000 0.086884 -0.501892 0.010630 0.000635 0.012025 0.005260 -0.020733 -0.036274 
1.9262500000000000 0.057587 -0.496796 0.010486 0.000079 0.012128 0.003700 -0.022820 -0.033981 
1.9275000000000000 0.033173 -0.490295 0.010183 -0.000887 0.012517 0.003154 -0.024582 -0.031830 
1.9287500000000000 0.005188 -0.482056 0.009742 -0.001897 0.012722 0.001937 -0.026115 -0.029915 
1.9299999999999999 -0.018646 -0.473999 0.009365 -0.002289 0.012737 0.000711 -0.028336 -0.028313 
1.9312499999999999 -0.040497 -0.465851 0.009241 -0.002861 0.012822 -0.000454 -0.030079 -0.026661 
1.9325000000000001 -0.062805 -0.455444 0.008759 -0.003397 0.012977 -0.001716 -0.031692 -0.025383 
1.9337500000000001 -0.084259 -0.444458 0.008516 -0.003794 0.012443 -0.002584 -0.032875 -0.024010 
1.9350000000000001 -0.104919 -0.434403 0.008213 -0.004423 0.012384 -0.003997 -0.033752 -0.022884 
1.9362500000000000 -0.123612 -0.423920 0.007508 -0.004968 0.011497 -0.004982 -0.034569 -0.021603 
1.9375000000000000 -0.143646 -0.413650 0.007292 -0.005285 0.011235 -0.006160 -0.034895 -0.019411 
1.9387500000000000 -0.161026 -0.402344 0.007085 -0.005821 0.010611 -0.007034 -0.035164 -0.017813 
1.9399999999999999 -0.179276 -0.389069 0.006573 -0.006253 0.010041 -0.007588 -0.035910 -0.015976 
1.9412499999999999 -0.195725 -0.377121 0.006342 -0.006658 0.009403 -0.008533 -0.036310 -0.014215 
1.9424999999999999 -0.212524 -0.365860 0.005548 -0.007320 0.008438 -0.009189 -0.037331 -0.011745 
1.9437500000000001 -0.229294 -0.351669 0.005157 -0.007594 0.007725 -0.009925 -0.038631 -0.009954 
1.9450000000000001 -0.244721 -0.338409 0.004663 -0.007799 0.007009 -0.010609 -0.039528 -0.008322 
1.9462500000000000 -0.260544 -0.324799 0.004127 -0.008105 0.005984 -0.010989 -0.040722 -0.006962 
1.9475000000000000 -0.274689 -0.310837 0.003512 -0.008327 0.004871 -0.011678 -0.042177 -0.005661 
1.9487500000000000 -0.289215 -0.296112 0.003113 -0.008515 0.003948 -0.011918 -0.043272 -0.004812 
1.9500000000000000 -0.302017 -0.280823 0.002386 -0.008757 0.002905 -0.012474 -0.044548 -0.003736 
1.9512499999999999 -0.317200 -0.266541 0.001976 -0.008902 0.001918 -0.012797 -0.045174 -0.003683 
1.9524999999999999 -0.330795 -0.249191 0.001327 -0.009278 0.000841 -0.012876 -0.046223 -0.003202 
1.9537500000000001 -0.343811 -0.233398 0.000801 -0.009560 -0.000292 -0.013050 -0.046295 -0.001993 
1.9550000000000001 -0.356186 -0.215561 0.000083 -0.009579 -0.001681 -0.013087 -0.046787 -0.001116 
1.9562500000000000 -0.367523 -0.197434 -0.000699 -0.009634 -0.002735 -0.012819 -0.047325 -0.000198 
1.9575000000000000 -0.381241 -0.177841 -0.001601 -0.009611 -0.003954 -0.012703 -0.048450 0.001350 
1.9587500000000000 -0.392471 -0.156067 -0.002132 -0.009634 -0.004762 -0.012419 -0.049227 0.003225 
1.9600000000000000 -0.402832 -0.136383 -0.002866 -0.009459 -0.005907 -0.012024 -0.050488 0.004509 
1.9612499999999999 -0.414612 -0.114044 -0.003505 -0.009458 -0.007118 -0.011375 -0.051655 0.005741 
1.9624999999999999 -0.424164 -0.092255 -0.004199 -0.009373 -0.008059 -0.010900 -0.053745 0.007332 
1.9637500000000001 -0.435516 -0.066925 -0.004891 -0.009302 -0.009104 -0.009917 -0.054928 0.008762 
1.9650000000000001 -0.444000 -0.039490 -0.005739 -0.009006 -0.010178 -0.008934 -0.056557 0.009415 
1.9662500000000001 -0.454071 -0.011047 -0.006342 -0.008875 -0.010960 -0.008191 -0.058128 0.010647 
1.9675000000000000 -0.459992 0.015503 -0.006920 -0.008577 -0.011555 -0.006852 -0.059570 0.012024 
1.9687500000000000 -0.468262 0.049377 -0.008044 -0.008534 -0.012053 -0.006157 -0.061041 0.013327 
1.9700000000000000 -0.474960 0.082336 -0.008918 -0.008122 -0.012947 -0.004739 -0.061613 0.014765 
1.9712499999999999 -0.478760 0.118469 -0.009786 -0.007635 -0.013175 -0.003825 -0.062859 0.016766 
1.9724999999999999 -0.481659 0.155716 -0.010764 -0.007221 -0.013618 -0.002707 -0.063992 0.019104 
1.9737499999999999 -0.481171 0.196686 -0.011694 -0.006160 -0.013690 -0.001184 -0.064865 0.021339 
1.9750000000000001 -0.481262 0.243057 -0.012624 -0.005565 -0.014132 -0.000228 -0.066124 0.024212 
1.9762500000000001 -0.476105 0.291168 -0.013852 -0.004519 -0.013673 0.001034 -0.067684 0.027184 
1.9775000000000000 -0.467712 0.340515 -0.014629 -0.003590 -0.013899 0.002410 -0.069042 0.029743 
1.9787500000000000 -0.454712 0.393799 -0.015128 -0.001950 -0.013759 0.003776 -0.070732 0.032742 
1.9800000000000000 -0.433289 0.448669 -0.016039 -0.000964 -0.013262 0.004977 -0.072083 0.035442 
1.9812500000000000 -0.406860 0.512268 -0.016843 0.000932 -0.012587 0.006242 -0.073212 0.038059 
1.9824999999999999 -0.368835 0.571167 -0.017236 0.002643 -0.012127 0.007375 -0.074074 0.040348 
1.9837499999999999 -0.322754 0.636352 -0.018031 0.004704 -0.010925 0.008407 -0.074661 0.042919 
1.9850000000000001 -0.261566 0.699280 -0.018101 0.006980 -0.010508 0.009336 -0.075123 0.045940 
1.9862500000000001 -0.189941 0.760254 -0.018221 0.009552 -0.009634 0.010404 -0.075001 0.048626 
1.9875000000000000 -0.097717 0.815186 -0.017740 0.012606 -0.008532 0.010961 -0.074741 0.051697 
1.9887500000000000 0.008423 0.857910 -0.016665 0.014981 -0.007573 0.011688 -0.074188 0.055214 
1.9900000000000000 0.132568 0.879639 -0.015123 0.017928 -0.006634 0.012387 -0.073780 0.059448 
1.9912500000000000 0.261963 0.890015 -0.012664 0.021056 -0.005304 0.012624 -0.073009 0.063042 
1.9924999999999999 0.401184 0.857849 -0.009671 0.023088 -0.004045 0.013124 -0.072369 0.067204 
1.9937499999999999 0.538391 0.803589 -0.005487 0.024755 -0.003054 0.013392 -0.071747 0.070801 
1.9950000000000001 0.664246 0.709351 -0.002089 0.024966 -0.001780 0.013514 -0.071514 0.074417 
1.9962500000000001 0.767700 0.599854 0.002547 0.024511 -0.000701 0.013790 -0.070435 0.078144 
1.9975000000000001 0.842163 0.469849 0.006027 0.023605 0.000307 0.013534 -0.069462 0.081490 
1.9987500000000000 0.883606 0.330689 0.009130 0.022020 0.001296 0.013848 -0.068844 0.083996 
2.0000000000000000 0.897034 0.202576 0.012108 0.020014 0.002398 0.013864 -0.067154 0.086815 
2.0012500000000002 0.893066 0.071045 0.014135 0.017267 0.003442 0.013651 -0.064987 0.089470 
2.0024999999999999 0.855896 -0.039978 0.015778 0.015148 0.004879 0.013710 -0.063366 0.092052 
2.0037500000000001 0.815308 -0.135925 0.016722 0.012579 0.006227 0.012938 -0.060661 0.095360 
2.0049999999999999 0.762695 -0.219849 0.017330 0.010195 0.007444 0.012340 -0.057991 0.097694 
2.0062500000000001 0.705017 -0.285126 0.017471 0.007359 0.008550 0.012387 -0.055168 0.100605 
2.0074999999999998 0.645233 -0.338318 0.017370 0.005157 0.009553 0.011690 -0.052197 0.103424 
2.0087500000000000 0.583771 -0.382996 0.017010 0.002850 0.010798 0.010709 -0.049557 0.106178 
2.0099999999999998 0.529816 -0.416901 0.016499 0.001502 0.011726 0.009592 -0.047115 0.108795 
2.0112500000000000 0.470825 -0.439392 0.015974 0.000042 0.012981 0.008915 -0.045162 0.111187 
2.0125000000000002 0.420776 -0.459686 0.014970 -0.001445 0.013680 0.006951 -0.042511 0.112755 
2.0137499999999999 0.372421 -0.472702 0.014257 -0.002262 0.014902 0.005628 -0.040615 0.114414 
2.0150000000000001 0.325775 -0.484390 0.013616 -0.003535 0.014792 0.004241 -0.038231 0.115715 
2.0162499999999999 0.283478 -0.488876 0.012704 -0.004505 0.015255 0.002918 -0.036388 0.116505 
2.0175000000000001 0.241287 -0.492188 0.012181 -0.005069 0.015425 0.001254 -0.033112 0.116970 
2.0187499999999998 0.204544 -0.490097 0.011219 -0.005808 0.015359 -0.000649 -0.031414 0.118252 
2.0200000000000000 0.168106 -0.488739 0.010628 -0.006384 0.015491 -0.001698 -0.027618 0.118126 
2.0212500000000002 0.136154 -0.487259 0.010037 -0.007246 0.015132 -0.002674 -0.025013 0.119003 
2.0225000000000000 0.105164 -0.480621 0.009292 -0.007882 0.014860 -0.004344 -0.022156 0.119854 
2.0237500000000002 0.077576 -0.475266 0.008515 -0.008120 0.014733 -0.005915 -0.020153 0.119919 
2.0249999999999999 0.047821 -0.469574 0.007465 -0.008654 0.014009 -0.007025 -0.017807 0.121147 
2.0262500000000001 0.023895 -0.461456 0.006770 -0.009184 0.013186 -0.008428 -0.015800 0.122162 
2.0274999999999999 -0.001709 -0.452698 0.005792 -0.009342 0.012209 -0.009540 -0.013969 0.122711 
2.0287500000000001 -0.025116 -0.443848 0.005234 -0.009814 0.011168 -0.010518 -0.012695 0.123329 
2.0299999999999998 -0.047699 -0.434723 0.004582 -0.009794 0.010473 -0.011658 -0.011673 0.123398 
2.0312500000000000 -0.069641 -0.425781 0.003907 -0.009723 0.009182 -0.012596 -0.010674 0.123436 
2.0325000000000002 -0.089752 -0.414185 0.003164 -0.009777 0.008074 -0.013362 -0.009430 0.124054 
2.0337499999999999 -0.109161 -0.403778 0.002430 -0.009755 0.006951 -0.013939 -0.009087 0.123795 
2.0350000000000001 -0.128632 -0.392456 0.001915 -0.009957 0.005533 -0.014415 -0.007736 0.123879 
2.0362499999999999 -0.145874 -0.382782 0.001141 -0.010362 0.004205 -0.014258 -0.006088 0.123665 
2.0375000000000001 -0.162415 -0.371368 0.000617 -0.010255 0.003030 -0.014822 -0.004562 0.124260 
2.0387499999999998 -0.178711 -0.360260 -0.000183 -0.010232 0.001465 -0.015134 -0.003487 0.125061 
2.0400000000000000 -0.194946 -0.348816 -0.000934 -0.010125 0.000360 -0.015381 -0.002457 0.126091 
2.0412499999999998 -0.210083 -0.336456 -0.001667 -0.009885 -0.000985 -0.015209 -0.001144 0.126595 
2.0425000000000000 -0.224213 -0.323273 -0.002247 -0.009723 -0.002269 -0.015106 -0.000008 0.127785 
2.0437500000000002 -0.238342 -0.311707 -0.002966 -0.009633 -0.003819 -0.014837 0.000709 0.129082 
2.0449999999999999 -0.252136 -0.297729 -0.003830 -0.009528 -0.004798 -0.014621 0.001923 0.130135 
2.0462500000000001 -0.263855 -0.283569 -0.004273 -0.008998 -0.006173 -0.014091 0.002670 0.131775 
2.0474999999999999 -0.277191 -0.271393 -0.004865 -0.008868 -0.007352 -0.013566 0.003685 0.133133 
2.0487500000000001 -0.289856 -0.255859 -0.005551 -0.008358 -0.008605 -0.013103 0.004952 0.134789 
2.0499999999999998 -0.301331 -0.240479 -0.005818 -0.008019 -0.009957 -0.012188 0.006653 0.135498 
2.0512500000000000 -0.313110 -0.224762 -0.006525 -0.007729 -0.010947 -0.011503 0.008400 0.137184 
2.0525000000000002 -0.324524 -0.209595 -0.006989 -0.007527 -0.012213 -0.010573 0.010109 0.138275 
2.0537500000000000 -0.334839 -0.191986 -0.007816 -0.007222 -0.012861 -0.009329 0.012840 0.139610 
2.0550000000000002 -0.346283 -0.175568 -0.008283 -0.006731 -0.013949 -0.008141 0.014862 0.141647 
2.0562499999999999 -0.357025 -0.156433 -0.008930 -0.006114 -0.014487 -0.007028 0.017708 0.143471 
2.0575000000000001 -0.366699 -0.136749 -0.009329 -0.005867 -0.015509 -0.005844 0.020798 0.145783 
2.0587499999999999 -0.377502 -0.118225 -0.009998 -0.005110 -0.015577 -0.004329 0.022858 0.147415 
2.0600000000000001 -0.386932 -0.096832 -0.010592 -0.004344 -0.015854 -0.002789 0.025986 0.149567 
2.0612499999999998 -0.396210 -0.074936 -0.011187 -0.003805 -0.016485 -0.001355 0.028793 0.151169 
2.0625000000000000 -0.403519 -0.051285 -0.011680 -0.003042 -0.016474 0.000160 0.031982 0.151932 
2.0637500000000002 -0.411407 -0.028473 -0.012023 -0.002129 -0.016272 0.001573 0.035233 0.152588 
2.0649999999999999 -0.417557 -0.001923 -0.012411 -0.001426 -0.016293 0.003001 0.038452 0.153671 
2.0662500000000001 -0.424881 0.027115 -0.012715 -0.000162 -0.015829 0.004272 0.042351 0.153595 
2.0674999999999999 -0.430908 0.053284 -0.013086 0.000763 -0.015719 0.005742 0.046226 0.153671 
2.0687500000000001 -0.435913 0.082169 -0.013287 0.001673 -0.015059 0.007342 0.051888 0.153770 
2.0699999999999998 -0.439102 0.116669 -0.013495 0.002912 -0.014675 0.008915 0.057182 0.153603 
2.0712500000000000 -0.440582 0.150177 -0.013678 0.003651 -0.013433 0.010622 0.062149 0.152741 
2.0724999999999998 -0.441071 0.186371 -0.013996 0.005119 -0.012647 0.011507 0.067017 0.152206 
2.0737500000000000 -0.437317 0.225861 -0.014037 0.006597 -0.011396 0.012481 0.072311 0.152390 
2.0750000000000002 -0.430725 0.266632 -0.013530 0.007683 -0.010266 0.013677 0.077896 0.151352 
2.0762499999999999 -0.421692 0.310883 -0.013350 0.009593 -0.008773 0.014785 0.082550 0.149857 
2.0775000000000001 -0.407867 0.358826 -0.012624 0.010971 -0.007470 0.015745 0.087097 0.148392 
2.0787499999999999 -0.388611 0.408356 -0.012197 0.012664 -0.006253 0.016270 0.091614 0.147018 
2.0800000000000001 -0.362427 0.460571 -0.011365 0.014101 -0.004349 0.016952 0.096435 0.144600 
2.0812499999999998 -0.329620 0.514984 -0.010536 0.015581 -0.002923 0.017090 0.100891 0.141449 
2.0825000000000000 -0.284515 0.567871 -0.009430 0.017625 -0.001399 0.017448 0.105545 0.138687 
2.0837500000000002 -0.230408 0.624329 -0.007942 0.019547 0.000903 0.017649 0.109909 0.135147 
2.0850000000000000 -0.163635 0.675781 -0.006157 0.021380 0.002077 0.017131 0.113937 0.131119 
2.0862500000000002 -0.084290 0.720337 -0.004171 0.022648 0.003881 0.016844 0.118515 0.127106 
2.0874999999999999 0.011780 0.758057 -0.001024 0.024012 0.005292 0.016111 0.123032 0.123352 
2.0887500000000001 0.121704 0.783630 0.002808 0.024908 0.006544 0.015872 0.126991 0.119194 
2.0899999999999999 0.239685 0.779114 0.006393 0.025257 0.007995 0.014626 0.130592 0.115494 
2.0912500000000001 0.363648 0.755859 0.010223 0.024910 0.008825 0.013851 0.133453 0.111710 
2.0924999999999998 0.486511 0.708984 0.014631 0.023060 0.009707 0.013170 0.136711 0.107758 
2.0937500000000000 0.600952 0.634216 0.017979 0.020576 0.010543 0.012513 0.138474 0.103096 
2.0950000000000002 0.689880 0.537781 0.021391 0.017656 0.011514 0.011777 0.140549 0.098076 
2.0962499999999999 0.764435 0.426880 0.023606 0.014050 0.012737 0.011295 0.142296 0.094223 
2.0975000000000001 0.797913 0.305420 0.024439 0.010584 0.013836 0.010306 0.143112 0.089722 
2.0987499999999999 0.819458 0.184814 0.025263 0.006388 0.014893 0.009482 0.143677 0.084961 
2.1000000000000001 0.807190 0.069092 0.024996 0.003033 0.016192 0.007829 0.144470 0.080307 
2.1012499999999998 0.786682 -0.034119 0.024601 -0.000126 0.016997 0.006565 0.145126 0.074936 
2.1025000000000000 0.746521 -0.127869 0.023466 -0.002768 0.017860 0.005402 0.145889 0.070999 
2.1037499999999998 0.700256 -0.202270 0.022381 -0.005257 0.018692 0.003323 0.146179 0.066223 
2.1050000000000000 0.645019 -0.268860 0.020493 -0.007578 0.019524 0.001150 0.147507 0.062485 
2.1062500000000002 0.592133 -0.317902 0.018929 -0.009873 0.020313 -0.000302 0.147354 0.058418 
2.1074999999999999 0.536743 -0.356262 0.017201 -0.011203 0.020314 -0.002492 0.147461 0.055336 
2.1087500000000001 0.484100 -0.387146 0.014906 -0.012498 0.020052 -0.005181 0.146584 0.052078 
2.1099999999999999 0.430038 -0.409592 0.012988 -0.013040 0.019402 -0.007363 0.146538 0.048912 
2.1112500000000001 0.381973 -0.425827 0.011358 -0.013977 0.018275 -0.010017 0.145714 0.046387 
2.1124999999999998 0.333328 -0.437103 0.009667 -0.014267 0.017000 -0.011398 0.144867 0.042656 
2.1137500000000000 0.289932 -0.447098 0.008332 -0.014443 0.015641 -0.013151 0.143913 0.039627 
2.1150000000000002 0.248169 -0.451065 0.006899 -0.014187 0.013790 -0.014795 0.142403 0.036926 
2.1162500000000000 0.210022 -0.453217 0.005605 -0.014060 0.012000 -0.015251 0.142548 0.033936 
2.1175000000000002 0.174118 -0.452682 0.004402 -0.014244 0.010466 -0.016270 0.141495 0.031136 
2.1187499999999999 0.141281 -0.450043 0.003455 -0.014070 0.008533 -0.017166 0.140266 0.028671 
2.1200000000000001 0.109482 -0.447250 0.002574 -0.014210 0.007157 -0.018048 0.140343 0.026840 
2.1212499999999999 0.080551 -0.441696 0.001254 -0.014035 0.005611 -0.018126 0.139534 0.023888 
2.1225000000000001 0.052200 -0.434906 0.000258 -0.014349 0.003593 -0.018602 0.139595 0.022179 
2.1237499999999998 0.026749 -0.428940 -0.000988 -0.013826 0.001756 -0.018579 0.139107 0.020233 
2.1250000000000000 0.001739 -0.418945 -0.002110 -0.013485 0.000231 -0.018844 0.138069 0.018646 
2.1262500000000002 -0.021042 -0.412628 -0.003104 -0.012774 -0.001605 -0.018134 0.137749 0.017517 
2.1274999999999999 -0.042740 -0.403900 -0.003760 -0.012252 -0.002984 -0.017921 0.137215 0.015785 
2.1287500000000001 -0.062592 -0.394363 -0.004424 -0.011920 -0.004576 -0.017434 0.136337 0.014053 
2.1299999999999999 -0.082428 -0.385849 -0.005188 -0.011613 -0.005700 -0.016973 0.135765 0.012428 
2.1312500000000001 -0.100571 -0.374695 -0.005966 -0.010756 -0.007013 -0.016696 0.134628 0.009728 
2.1324999999999998 -0.118439 -0.364654 -0.006478 -0.010323 -0.008413 -0.015753 0.133568 0.008156 
2.1337500000000000 -0.133392 -0.353485 -0.006980 -0.010198 -0.009850 -0.014900 0.133324 0.005485 
2.1349999999999998 -0.149384 -0.343506 -0.007699 -0.009551 -0.011456 -0.014093 0.132408 0.003052 
2.1362500000000000 -0.164612 -0.331238 -0.008350 -0.009056 -0.012573 -0.013187 0.133217 0.000702 
2.1375000000000002 -0.178833 -0.319672 -0.009066 -0.008609 -0.013584 -0.011984 0.133225 -0.001396 
2.1387499999999999 -0.193420 -0.306915 -0.009851 -0.007811 -0.014593 -0.010624 0.132553 -0.003265 
2.1400000000000001 -0.206879 -0.293701 -0.010352 -0.007126 -0.015268 -0.009127 0.132072 -0.005386 
2.1412499999999999 -0.219757 -0.281433 -0.010931 -0.006358 -0.016216 -0.007496 0.131561 -0.007111 
2.1425000000000001 -0.233582 -0.268036 -0.011251 -0.005260 -0.016945 -0.006422 0.130959 -0.009499 
2.1437499999999998 -0.244537 -0.255951 -0.011782 -0.004737 -0.017263 -0.004890 0.130066 -0.011276 
2.1450000000000000 -0.255951 -0.240906 -0.012023 -0.003880 -0.018087 -0.003509 0.128723 -0.013573 
2.1462500000000002 -0.267517 -0.226990 -0.012131 -0.002963 -0.018163 -0.001655 0.127228 -0.016029 
2.1475000000000000 -0.278992 -0.212250 -0.012281 -0.002297 -0.018186 -0.000126 0.125984 -0.018776 
2.1487500000000002 -0.288208 -0.196014 -0.012658 -0.001467 -0.018190 0.001604 0.125313 -0.021538 
2.1499999999999999 -0.299194 -0.179779 -0.012677 -0.000937 -0.018062 0.003385 0.123245 -0.025177 
2.1512500000000001 -0.309235 -0.163727 -0.013052 0.000142 -0.017396 0.004992 0.122032 -0.027489 
