!
! C:\Users\rflab\Downloads\Lab5_KD_ZW\320.S2P
!
! Touchstone 1.1 file saved by VNA.EXE V1.65 (www.ke5fx.com/gpib/readme.htm)
! 11/12/2024 12:32:37 AM
!
!    Source: HEWLETT PACKARD,8753D,0,6.14
!  Min freq: 1.900000E+009 Hz
!  Max freq: 2.900000E+009 Hz
!    Points: 801
!    Params: S11 S21 S12 S22
!
!!!!!
# GHZ S RI R 50
1.8999999999999999 0.958740 0.266419 -0.015468 0.019259 -0.010151 0.008904 0.023838 -0.057325 
1.9012500000000001 0.956360 0.135620 -0.012336 0.021068 -0.009291 0.009697 0.021643 -0.057173 
1.9025000000000001 0.929748 0.012207 -0.008775 0.021820 -0.008728 0.010276 0.019234 -0.057674 
1.9037500000000001 0.888061 -0.091370 -0.005985 0.021548 -0.008011 0.010833 0.017317 -0.057632 
1.9050000000000000 0.839813 -0.182465 -0.003346 0.021669 -0.007283 0.011852 0.014900 -0.056639 
1.9062500000000000 0.781342 -0.257568 -0.000388 0.020744 -0.006465 0.012249 0.012764 -0.056063 
1.9075000000000000 0.720337 -0.318970 0.001894 0.019366 -0.005349 0.013346 0.010664 -0.055279 
1.9087499999999999 0.661926 -0.369873 0.003552 0.018468 -0.003754 0.013808 0.007950 -0.053692 
1.9099999999999999 0.601227 -0.410034 0.005216 0.017636 -0.002775 0.014054 0.005659 -0.053131 
1.9112499999999999 0.543945 -0.441254 0.006758 0.016111 -0.001232 0.014636 0.002455 -0.051741 
1.9125000000000001 0.488098 -0.466553 0.007544 0.014694 -0.000029 0.014581 -0.000441 -0.050680 
1.9137500000000001 0.436218 -0.484345 0.008684 0.013411 0.001178 0.014701 -0.003283 -0.049585 
1.9150000000000000 0.387009 -0.497528 0.009211 0.012336 0.002407 0.014410 -0.006014 -0.048777 
1.9162500000000000 0.340057 -0.508240 0.009839 0.011067 0.003498 0.014593 -0.008587 -0.047703 
1.9175000000000000 0.296845 -0.512482 0.010512 0.009962 0.004979 0.014063 -0.010622 -0.046665 
1.9187500000000000 0.257507 -0.515564 0.011061 0.008973 0.006673 0.014042 -0.012447 -0.045633 
1.9199999999999999 0.219849 -0.516174 0.011168 0.007654 0.007837 0.013252 -0.014149 -0.044470 
1.9212499999999999 0.183197 -0.514313 0.011865 0.006855 0.009200 0.012379 -0.015978 -0.042686 
1.9225000000000001 0.149292 -0.511963 0.011645 0.005692 0.010609 0.011300 -0.017464 -0.040873 
1.9237500000000001 0.116394 -0.508545 0.012074 0.004543 0.011165 0.010210 -0.019613 -0.039209 
1.9250000000000000 0.087982 -0.503113 0.012203 0.003531 0.012288 0.008965 -0.021324 -0.036911 
1.9262500000000000 0.058563 -0.497467 0.012188 0.002421 0.012754 0.007940 -0.023026 -0.034500 
1.9275000000000000 0.033112 -0.489868 0.011958 0.001390 0.013556 0.006567 -0.024696 -0.032200 
1.9287500000000000 0.005249 -0.483459 0.011831 0.000623 0.014103 0.005447 -0.026558 -0.030224 
1.9299999999999999 -0.017700 -0.474518 0.011456 -0.000175 0.014691 0.004392 -0.028625 -0.028534 
1.9312499999999999 -0.040680 -0.466553 0.011323 -0.000784 0.014729 0.002772 -0.030617 -0.027061 
1.9325000000000001 -0.064087 -0.455658 0.011156 -0.001448 0.015199 0.001629 -0.031960 -0.025661 
1.9337500000000001 -0.084320 -0.445496 0.010895 -0.002067 0.015182 0.000258 -0.032972 -0.024185 
1.9350000000000001 -0.104355 -0.434952 0.010867 -0.002882 0.015040 -0.001113 -0.034161 -0.022537 
1.9362500000000000 -0.123627 -0.424576 0.010427 -0.003439 0.014537 -0.002409 -0.034546 -0.021406 
1.9375000000000000 -0.142685 -0.413559 0.010127 -0.004183 0.014565 -0.003744 -0.035332 -0.019716 
1.9387500000000000 -0.161514 -0.401901 0.009542 -0.005112 0.014012 -0.005000 -0.035757 -0.017765 
1.9399999999999999 -0.178894 -0.389954 0.009356 -0.005457 0.013459 -0.005895 -0.036045 -0.015985 
1.9412499999999999 -0.195908 -0.378097 0.008893 -0.006038 0.013006 -0.007550 -0.036737 -0.014090 
1.9424999999999999 -0.212601 -0.365723 0.008396 -0.006594 0.012321 -0.008062 -0.037424 -0.011517 
1.9437500000000001 -0.228943 -0.352097 0.007918 -0.007121 0.011810 -0.009619 -0.038231 -0.009724 
1.9450000000000001 -0.245209 -0.339691 0.007379 -0.007765 0.010921 -0.010228 -0.039413 -0.008234 
1.9462500000000000 -0.260468 -0.325867 0.006801 -0.008076 0.009968 -0.011338 -0.040817 -0.006384 
1.9475000000000000 -0.274887 -0.310913 0.006345 -0.008621 0.008817 -0.011914 -0.042118 -0.005312 
1.9487500000000000 -0.289658 -0.296661 0.005833 -0.009103 0.007859 -0.012646 -0.043077 -0.004850 
1.9500000000000000 -0.302628 -0.282349 0.005452 -0.009443 0.006871 -0.013418 -0.044243 -0.003778 
1.9512499999999999 -0.316986 -0.266312 0.004565 -0.009963 0.005700 -0.013978 -0.044880 -0.003302 
1.9524999999999999 -0.330856 -0.250183 0.004244 -0.010257 0.004353 -0.014696 -0.045593 -0.002699 
1.9537500000000001 -0.344116 -0.234116 0.003436 -0.010746 0.003044 -0.015265 -0.045643 -0.001581 
1.9550000000000001 -0.356110 -0.216309 0.002714 -0.010968 0.001672 -0.015267 -0.046503 -0.000484 
1.9562500000000000 -0.367310 -0.197998 0.001991 -0.011336 0.000447 -0.015804 -0.046967 0.000544 
1.9575000000000000 -0.380890 -0.179138 0.001019 -0.011562 -0.001165 -0.015553 -0.047724 0.001804 
1.9587500000000000 -0.392242 -0.157455 0.000157 -0.011442 -0.002329 -0.015592 -0.048775 0.003632 
1.9600000000000000 -0.403107 -0.137543 -0.000710 -0.011868 -0.003575 -0.015228 -0.050190 0.004986 
1.9612499999999999 -0.415436 -0.114319 -0.001303 -0.011830 -0.005384 -0.015140 -0.051113 0.005783 
1.9624999999999999 -0.424194 -0.091736 -0.002239 -0.011808 -0.006609 -0.014495 -0.052910 0.007359 
1.9637500000000001 -0.435394 -0.066925 -0.003079 -0.011998 -0.007769 -0.013970 -0.054558 0.008644 
1.9650000000000001 -0.445313 -0.040527 -0.004177 -0.011892 -0.009156 -0.013227 -0.056210 0.009895 
1.9662500000000001 -0.454437 -0.010803 -0.004931 -0.012048 -0.010476 -0.012328 -0.057705 0.010304 
1.9675000000000000 -0.460815 0.016083 -0.005708 -0.012102 -0.011415 -0.011611 -0.058933 0.011765 
1.9687500000000000 -0.467011 0.049255 -0.006875 -0.011969 -0.012631 -0.010122 -0.060524 0.013376 
1.9700000000000000 -0.475433 0.081802 -0.008102 -0.011975 -0.013320 -0.009201 -0.061277 0.014828 
1.9712499999999999 -0.479828 0.119537 -0.009483 -0.011431 -0.014194 -0.007883 -0.062475 0.016924 
1.9724999999999999 -0.482849 0.155563 -0.010683 -0.011314 -0.015115 -0.006516 -0.063370 0.018616 
1.9737499999999999 -0.482071 0.198456 -0.012108 -0.010367 -0.015430 -0.005510 -0.064831 0.021126 
1.9750000000000001 -0.481415 0.243347 -0.013267 -0.009882 -0.015907 -0.003972 -0.065838 0.023773 
1.9762500000000001 -0.477661 0.289337 -0.014791 -0.008972 -0.016306 -0.002918 -0.067421 0.026447 
1.9775000000000000 -0.469299 0.339417 -0.016109 -0.008001 -0.016538 -0.001146 -0.068874 0.029583 
1.9787500000000000 -0.456238 0.391296 -0.017305 -0.006619 -0.017214 0.000959 -0.070869 0.032002 
1.9800000000000000 -0.432983 0.450317 -0.018688 -0.005493 -0.016813 0.002294 -0.071991 0.034988 
1.9812500000000000 -0.407349 0.510071 -0.019720 -0.003937 -0.016253 0.003696 -0.073288 0.037254 
1.9824999999999999 -0.371887 0.572388 -0.020516 -0.001855 -0.016017 0.005190 -0.074055 0.039501 
1.9837499999999999 -0.326538 0.635498 -0.021887 0.000298 -0.015366 0.006621 -0.074467 0.042080 
1.9850000000000001 -0.264282 0.698273 -0.023207 0.003153 -0.014401 0.008141 -0.075245 0.044941 
1.9862500000000001 -0.191589 0.763184 -0.023314 0.006440 -0.013752 0.009420 -0.075523 0.047916 
1.9875000000000000 -0.100708 0.813965 -0.023945 0.009427 -0.013001 0.010705 -0.075325 0.051010 
1.9887500000000000 0.008362 0.859314 -0.024065 0.013118 -0.011991 0.011590 -0.074474 0.054832 
1.9900000000000000 0.133484 0.878845 -0.022372 0.017085 -0.010688 0.012824 -0.073898 0.058685 
1.9912500000000000 0.261108 0.889526 -0.019943 0.020834 -0.009607 0.013785 -0.073318 0.062531 
1.9924999999999999 0.400147 0.861328 -0.016929 0.024123 -0.008337 0.014349 -0.073017 0.066372 
1.9937499999999999 0.539795 0.803955 -0.012905 0.027416 -0.006673 0.014686 -0.072895 0.070423 
1.9950000000000001 0.660278 0.710815 -0.008410 0.028515 -0.005809 0.015394 -0.071968 0.073921 
1.9962500000000001 0.766174 0.599854 -0.003761 0.029478 -0.004651 0.015370 -0.071251 0.077351 
1.9975000000000001 0.842468 0.473206 0.000868 0.028778 -0.003535 0.015620 -0.070961 0.080669 
1.9987500000000000 0.885254 0.338440 0.005093 0.028101 -0.002152 0.016364 -0.069553 0.083229 
2.0000000000000000 0.900879 0.201111 0.008347 0.026630 -0.000975 0.016405 -0.067715 0.085564 
2.0012500000000002 0.890625 0.076233 0.011753 0.024103 0.000238 0.016826 -0.066017 0.088917 
2.0024999999999999 0.860169 -0.035095 0.014416 0.021818 0.002044 0.016832 -0.064148 0.092007 
2.0037500000000001 0.820252 -0.132202 0.016369 0.019054 0.003572 0.016835 -0.061256 0.094822 
2.0049999999999999 0.762390 -0.216675 0.017767 0.016111 0.005126 0.016751 -0.058479 0.096920 
2.0062500000000001 0.707153 -0.282654 0.018495 0.013513 0.006840 0.016425 -0.056385 0.100559 
2.0074999999999998 0.648315 -0.342682 0.019300 0.010800 0.008147 0.015835 -0.053108 0.102997 
2.0087500000000000 0.587494 -0.380035 0.018899 0.008365 0.009895 0.015277 -0.051342 0.105579 
2.0099999999999998 0.530212 -0.419006 0.018986 0.006182 0.011600 0.014239 -0.048229 0.108387 
2.0112500000000000 0.473053 -0.439880 0.018517 0.003955 0.012973 0.013537 -0.046661 0.110706 
2.0125000000000002 0.421661 -0.460327 0.017916 0.002247 0.014621 0.012240 -0.044022 0.112877 
2.0137499999999999 0.372711 -0.473938 0.017357 0.000992 0.015818 0.010553 -0.041325 0.114204 
2.0150000000000001 0.326309 -0.485229 0.016610 -0.000693 0.016761 0.008897 -0.039165 0.115269 
2.0162499999999999 0.283829 -0.489029 0.016065 -0.001654 0.017766 0.007401 -0.036987 0.116333 
2.0175000000000001 0.242600 -0.492142 0.015310 -0.002868 0.017849 0.005615 -0.034267 0.117069 
2.0187499999999998 0.206757 -0.491898 0.014718 -0.003925 0.017895 0.003650 -0.031513 0.117611 
2.0200000000000000 0.169769 -0.489731 0.014120 -0.004655 0.018311 0.002178 -0.028133 0.117802 
2.0212500000000002 0.135147 -0.486633 0.013350 -0.005735 0.018552 0.000971 -0.025894 0.118221 
2.0225000000000000 0.105164 -0.483154 0.012668 -0.006855 0.018546 -0.000884 -0.022964 0.119961 
2.0237500000000002 0.076553 -0.477493 0.012105 -0.007440 0.018533 -0.002752 -0.020451 0.120247 
2.0249999999999999 0.048553 -0.469879 0.010938 -0.008185 0.018295 -0.004411 -0.018394 0.121147 
2.0262500000000001 0.022553 -0.461884 0.010190 -0.008495 0.017471 -0.006341 -0.016571 0.122269 
2.0274999999999999 -0.000519 -0.452820 0.009332 -0.009411 0.017269 -0.008183 -0.014313 0.122498 
2.0287500000000001 -0.025909 -0.444702 0.008387 -0.009834 0.015883 -0.009382 -0.012848 0.122978 
2.0299999999999998 -0.047791 -0.435272 0.007670 -0.010224 0.015097 -0.010793 -0.011963 0.123085 
2.0312500000000000 -0.070404 -0.425354 0.007121 -0.010364 0.013817 -0.012224 -0.010948 0.122925 
2.0325000000000002 -0.089203 -0.415466 0.006176 -0.010930 0.012592 -0.013029 -0.009499 0.123222 
2.0337499999999999 -0.108734 -0.404816 0.005363 -0.010849 0.011562 -0.014506 -0.008553 0.123627 
2.0350000000000001 -0.128571 -0.394501 0.004821 -0.011203 0.010035 -0.015268 -0.007034 0.123451 
2.0362499999999999 -0.146576 -0.382843 0.004104 -0.011805 0.008712 -0.016106 -0.006332 0.123230 
2.0375000000000001 -0.162415 -0.372742 0.003230 -0.011771 0.007802 -0.016912 -0.004471 0.123840 
2.0387499999999998 -0.178803 -0.361054 0.002260 -0.012080 0.005411 -0.017405 -0.003220 0.124825 
2.0400000000000000 -0.194672 -0.349060 0.001384 -0.011930 0.004280 -0.017874 -0.002129 0.125214 
2.0412499999999998 -0.209412 -0.337097 0.000533 -0.012262 0.002602 -0.017909 -0.001099 0.126244 
2.0425000000000000 -0.223999 -0.324249 -0.000369 -0.012194 0.001319 -0.018267 -0.000137 0.127418 
2.0437500000000002 -0.238525 -0.312530 -0.000984 -0.012137 -0.000515 -0.018175 0.000786 0.128868 
2.0449999999999999 -0.252716 -0.298920 -0.002033 -0.011716 -0.001769 -0.018175 0.001785 0.130081 
2.0462500000000001 -0.264832 -0.284760 -0.002711 -0.011652 -0.003325 -0.018393 0.002678 0.131134 
2.0474999999999999 -0.277222 -0.272095 -0.003594 -0.011567 -0.005255 -0.018175 0.003593 0.132385 
2.0487500000000001 -0.289612 -0.256622 -0.003981 -0.011227 -0.006725 -0.017618 0.004921 0.134079 
2.0499999999999998 -0.301575 -0.241486 -0.004883 -0.011139 -0.008301 -0.016802 0.006424 0.135025 
2.0512500000000000 -0.313324 -0.224945 -0.005541 -0.010669 -0.009792 -0.016115 0.008423 0.136467 
2.0525000000000002 -0.324921 -0.210327 -0.006329 -0.010631 -0.011400 -0.015316 0.010193 0.137794 
2.0537500000000000 -0.334900 -0.193329 -0.007156 -0.010347 -0.012669 -0.014330 0.012268 0.139328 
2.0550000000000002 -0.346344 -0.176208 -0.007880 -0.010038 -0.014099 -0.012890 0.015221 0.141472 
2.0562499999999999 -0.357208 -0.157379 -0.008795 -0.009787 -0.015295 -0.012173 0.017731 0.142761 
2.0575000000000001 -0.366547 -0.138367 -0.009746 -0.009322 -0.016237 -0.010723 0.020638 0.144943 
2.0587499999999999 -0.378021 -0.118530 -0.010351 -0.008595 -0.017627 -0.009176 0.023148 0.147049 
2.0600000000000001 -0.387085 -0.097473 -0.011511 -0.008011 -0.018033 -0.007434 0.025620 0.148712 
2.0612499999999998 -0.396149 -0.076324 -0.012073 -0.007411 -0.018777 -0.006164 0.028870 0.150375 
2.0625000000000000 -0.403488 -0.052155 -0.012940 -0.006289 -0.019505 -0.004164 0.031601 0.151444 
2.0637500000000002 -0.412048 -0.029037 -0.013533 -0.005420 -0.019781 -0.002441 0.034897 0.151977 
2.0649999999999999 -0.418045 -0.002640 -0.014087 -0.004464 -0.019798 -0.000740 0.038361 0.153259 
2.0662500000000001 -0.426361 0.025101 -0.014708 -0.003848 -0.020187 0.001171 0.042206 0.153740 
2.0674999999999999 -0.431580 0.052780 -0.015351 -0.002785 -0.020021 0.003159 0.046715 0.153412 
2.0687500000000001 -0.435333 0.083221 -0.015907 -0.001620 -0.019783 0.004218 0.051407 0.153694 
2.0699999999999998 -0.439285 0.116196 -0.016414 -0.000331 -0.019412 0.006723 0.056511 0.153153 
2.0712500000000000 -0.440826 0.149475 -0.017106 0.000938 -0.018652 0.008802 0.061706 0.152588 
2.0724999999999998 -0.441437 0.184662 -0.017659 0.002248 -0.017937 0.010208 0.066299 0.152252 
2.0737500000000000 -0.438538 0.225067 -0.017900 0.004063 -0.016903 0.012194 0.071213 0.151977 
2.0750000000000002 -0.431580 0.265930 -0.017889 0.005879 -0.015154 0.013914 0.077393 0.151382 
2.0762499999999999 -0.422943 0.309631 -0.018370 0.007646 -0.014158 0.015108 0.081238 0.150116 
2.0775000000000001 -0.410553 0.358337 -0.017680 0.009287 -0.012802 0.016485 0.086639 0.148956 
2.0787499999999999 -0.390900 0.407135 -0.017588 0.011466 -0.011192 0.017378 0.090988 0.147156 
2.0800000000000001 -0.364471 0.461182 -0.017380 0.013704 -0.009433 0.018367 0.095459 0.144936 
2.0812499999999998 -0.333710 0.516174 -0.016159 0.015828 -0.007966 0.019505 0.100205 0.141830 
2.0825000000000000 -0.287537 0.569305 -0.015543 0.017682 -0.006079 0.020172 0.104111 0.138428 
2.0837500000000002 -0.235016 0.622375 -0.014494 0.020295 -0.004412 0.020502 0.108780 0.135071 
2.0850000000000000 -0.166168 0.675842 -0.012197 0.023214 -0.001919 0.020746 0.113083 0.131516 
2.0862500000000002 -0.088776 0.720154 -0.010118 0.025850 0.000196 0.020791 0.117416 0.127792 
2.0874999999999999 0.006653 0.758911 -0.006763 0.028448 0.002453 0.020667 0.121918 0.123764 
2.0887500000000001 0.119812 0.778137 -0.003378 0.029922 0.003721 0.019722 0.125603 0.119904 
2.0899999999999999 0.237915 0.781494 0.001423 0.031813 0.005391 0.019164 0.129387 0.115707 
2.0912500000000001 0.358521 0.765015 0.006451 0.032154 0.006638 0.018726 0.132446 0.112305 
2.0924999999999998 0.483948 0.715393 0.011467 0.030771 0.008048 0.018050 0.134956 0.108314 
2.0937500000000000 0.602417 0.639648 0.016050 0.029112 0.009306 0.017503 0.136894 0.104103 
2.0950000000000002 0.690491 0.551392 0.020660 0.026127 0.010491 0.016961 0.139534 0.099487 
2.0962499999999999 0.765411 0.434723 0.023660 0.021856 0.011745 0.016497 0.140892 0.094803 
2.0975000000000001 0.804901 0.309845 0.026197 0.017705 0.013734 0.015933 0.141510 0.090233 
2.0987499999999999 0.819763 0.185852 0.027636 0.014261 0.015614 0.015009 0.142807 0.085632 
2.1000000000000001 0.813415 0.073853 0.028244 0.010019 0.016802 0.013351 0.143539 0.080277 
2.1012499999999998 0.788696 -0.034485 0.028379 0.005869 0.018185 0.012140 0.144913 0.075424 
2.1025000000000000 0.750794 -0.125183 0.028355 0.002644 0.019878 0.010603 0.145447 0.071640 
2.1037499999999998 0.703674 -0.201538 0.027655 -0.000628 0.021198 0.009068 0.145904 0.067413 
2.1050000000000000 0.651306 -0.268433 0.026005 -0.003906 0.022144 0.006819 0.146805 0.063232 
2.1062500000000002 0.595459 -0.317108 0.024401 -0.006601 0.023324 0.004730 0.146950 0.059250 
2.1074999999999999 0.539978 -0.356476 0.022785 -0.008818 0.024168 0.001781 0.146744 0.055985 
2.1087500000000001 0.486420 -0.388290 0.020650 -0.010974 0.024994 -0.000804 0.146118 0.052399 
2.1099999999999999 0.432404 -0.410126 0.018929 -0.012227 0.024644 -0.004015 0.146011 0.049744 
2.1112500000000001 0.384552 -0.426865 0.016862 -0.013136 0.023930 -0.006850 0.145744 0.046433 
2.1124999999999998 0.335953 -0.438782 0.014724 -0.013973 0.023122 -0.009289 0.144112 0.043228 
2.1137500000000000 0.291489 -0.448700 0.013060 -0.014318 0.021416 -0.011844 0.143471 0.040215 
2.1150000000000002 0.249588 -0.452133 0.011488 -0.014865 0.019510 -0.013228 0.142075 0.037514 
2.1162500000000000 0.211823 -0.454147 0.010226 -0.015223 0.017844 -0.015369 0.141892 0.033752 
2.1175000000000002 0.175781 -0.453598 0.008969 -0.015317 0.016353 -0.016572 0.140457 0.031494 
2.1187499999999999 0.142090 -0.451538 0.007782 -0.015847 0.014761 -0.017807 0.140167 0.028816 
2.1200000000000001 0.110199 -0.448715 0.006136 -0.015950 0.012749 -0.018961 0.139954 0.026588 
2.1212499999999999 0.081909 -0.442627 0.005203 -0.016188 0.010730 -0.020050 0.139648 0.024071 
2.1225000000000001 0.053741 -0.436325 0.003714 -0.016451 0.008645 -0.020619 0.139343 0.022324 
2.1237499999999998 0.027634 -0.429550 0.002565 -0.016197 0.006864 -0.021122 0.138756 0.020157 
2.1250000000000000 0.002930 -0.420532 0.001043 -0.016104 0.005035 -0.021533 0.137932 0.018707 
2.1262500000000002 -0.020935 -0.413467 -0.000323 -0.015910 0.002789 -0.021731 0.137276 0.017403 
2.1274999999999999 -0.041534 -0.404694 -0.001306 -0.015426 0.001191 -0.021684 0.136711 0.015472 
2.1287500000000001 -0.062012 -0.394165 -0.002271 -0.014881 -0.000617 -0.021348 0.135742 0.013573 
2.1299999999999999 -0.080688 -0.387543 -0.003346 -0.014555 -0.002387 -0.021160 0.135330 0.012024 
2.1312500000000001 -0.100006 -0.374939 -0.003997 -0.014364 -0.004075 -0.020813 0.134094 0.009499 
2.1324999999999998 -0.117889 -0.365753 -0.004709 -0.013661 -0.005955 -0.020661 0.133194 0.008186 
2.1337500000000000 -0.133362 -0.354492 -0.005706 -0.013533 -0.007751 -0.020123 0.133286 0.005005 
2.1349999999999998 -0.148926 -0.344360 -0.006476 -0.013299 -0.009815 -0.019100 0.132667 0.003029 
2.1362500000000000 -0.164307 -0.332550 -0.007480 -0.012872 -0.011332 -0.018473 0.133438 0.000366 
2.1375000000000002 -0.178925 -0.320984 -0.008357 -0.012392 -0.013010 -0.017265 0.133064 -0.001602 
2.1387499999999999 -0.192749 -0.308197 -0.009315 -0.011555 -0.014589 -0.015823 0.132088 -0.003342 
2.1400000000000001 -0.206451 -0.294952 -0.010336 -0.011034 -0.015520 -0.014853 0.132095 -0.005333 
2.1412499999999999 -0.219544 -0.282196 -0.011247 -0.010213 -0.017256 -0.013388 0.131569 -0.007401 
2.1425000000000001 -0.233337 -0.268707 -0.011839 -0.009192 -0.018085 -0.012009 0.130608 -0.009506 
2.1437499999999998 -0.244354 -0.256805 -0.012505 -0.008274 -0.019005 -0.010170 0.130013 -0.011765 
2.1450000000000000 -0.255951 -0.241913 -0.012870 -0.007077 -0.019955 -0.008520 0.128448 -0.013939 
2.1462500000000002 -0.267425 -0.227600 -0.013436 -0.006434 -0.020609 -0.006626 0.127358 -0.016502 
2.1475000000000000 -0.278809 -0.213165 -0.013927 -0.005541 -0.021132 -0.004608 0.125954 -0.019196 
2.1487500000000002 -0.288239 -0.196899 -0.014283 -0.004862 -0.021774 -0.002703 0.124725 -0.021957 
2.1499999999999999 -0.299561 -0.181488 -0.014727 -0.004068 -0.021687 -0.000582 0.123184 -0.025475 
2.1512500000000001 -0.309235 -0.164948 -0.015230 -0.003228 -0.021785 0.001283 0.122108 -0.028099 
