!
! C:\Users\rflab\Downloads\Lab5_KD_ZW\330.S2P
!
! Touchstone 1.1 file saved by VNA.EXE V1.65 (www.ke5fx.com/gpib/readme.htm)
! 11/12/2024 12:33:34 AM
!
!    Source: HEWLETT PACKARD,8753D,0,6.14
!  Min freq: 1.900000E+009 Hz
!  Max freq: 2.900000E+009 Hz
!    Points: 801
!    Params: S11 S21 S12 S22
!
!!!!!
# GHZ S RI R 50
1.8999999999999999 0.960083 0.268738 -0.022099 0.018187 -0.013435 0.007670 0.024485 -0.057545 
1.9012500000000001 0.952637 0.136841 -0.018970 0.020939 -0.012806 0.008841 0.022152 -0.058107 
1.9025000000000001 0.930908 0.012756 -0.015238 0.022122 -0.012003 0.009638 0.020035 -0.057997 
1.9037500000000001 0.889832 -0.092468 -0.012199 0.023723 -0.011526 0.010719 0.017855 -0.058273 
1.9050000000000000 0.840424 -0.181488 -0.008478 0.023596 -0.010791 0.011868 0.015574 -0.057751 
1.9062500000000000 0.780365 -0.258148 -0.005196 0.023636 -0.010083 0.012760 0.013168 -0.057243 
1.9075000000000000 0.722321 -0.317902 -0.002567 0.023152 -0.008706 0.013814 0.011126 -0.056559 
1.9087499999999999 0.661804 -0.367493 0.000133 0.022018 -0.007835 0.015171 0.008276 -0.055099 
1.9099999999999999 0.601746 -0.409851 0.002322 0.021204 -0.006285 0.015860 0.005602 -0.054136 
1.9112499999999999 0.544250 -0.440613 0.003919 0.019659 -0.004804 0.016327 0.002748 -0.053217 
1.9125000000000001 0.490570 -0.466766 0.005458 0.018535 -0.003631 0.016439 -0.000191 -0.052092 
1.9137500000000001 0.436997 -0.484100 0.006898 0.017395 -0.002210 0.017147 -0.003122 -0.051443 
1.9150000000000000 0.388107 -0.497543 0.007813 0.016264 -0.000464 0.017125 -0.005852 -0.050188 
1.9162500000000000 0.339935 -0.508270 0.008838 0.014937 0.001034 0.017426 -0.008640 -0.049524 
1.9175000000000000 0.298492 -0.512268 0.009739 0.013680 0.002350 0.017633 -0.010984 -0.048418 
1.9187500000000000 0.256836 -0.516724 0.010520 0.012966 0.004401 0.017159 -0.012630 -0.047331 
1.9199999999999999 0.219696 -0.516571 0.011595 0.011410 0.005955 0.016947 -0.014822 -0.045938 
1.9212499999999999 0.182831 -0.513367 0.011840 0.010490 0.007712 0.016199 -0.016418 -0.044479 
1.9225000000000001 0.150360 -0.512878 0.012460 0.009325 0.009777 0.015233 -0.018057 -0.042643 
1.9237500000000001 0.116730 -0.507690 0.012845 0.008187 0.010668 0.014230 -0.019581 -0.040827 
1.9250000000000000 0.088654 -0.502533 0.013142 0.006962 0.012016 0.013172 -0.021332 -0.038258 
1.9262500000000000 0.058350 -0.496979 0.013335 0.005783 0.012768 0.012304 -0.023411 -0.036003 
1.9275000000000000 0.033478 -0.491028 0.013316 0.004308 0.013750 0.010466 -0.025185 -0.033726 
1.9287500000000000 0.005707 -0.483215 0.013294 0.003598 0.014736 0.009632 -0.027351 -0.031483 
1.9299999999999999 -0.017029 -0.474670 0.013179 0.002355 0.015512 0.008095 -0.029251 -0.029568 
1.9312499999999999 -0.038971 -0.466431 0.013391 0.001389 0.016485 0.006731 -0.031143 -0.027954 
1.9325000000000001 -0.062775 -0.456238 0.013067 0.000883 0.016973 0.005224 -0.032623 -0.026531 
1.9337500000000001 -0.083588 -0.445419 0.013004 0.000196 0.017377 0.003754 -0.033619 -0.024834 
1.9350000000000001 -0.105270 -0.435928 0.012918 -0.000783 0.017545 0.002216 -0.034880 -0.023668 
1.9362500000000000 -0.123001 -0.425201 0.012617 -0.001744 0.017629 0.000509 -0.035406 -0.022030 
1.9375000000000000 -0.143143 -0.413650 0.012372 -0.002551 0.017489 -0.000787 -0.035683 -0.020168 
1.9387500000000000 -0.160873 -0.402649 0.012121 -0.003232 0.017277 -0.002328 -0.036480 -0.018400 
1.9399999999999999 -0.178482 -0.390442 0.011866 -0.004091 0.017120 -0.003787 -0.036802 -0.015987 
1.9412499999999999 -0.195419 -0.378128 0.011614 -0.004905 0.016470 -0.005333 -0.037468 -0.014038 
1.9424999999999999 -0.212372 -0.366623 0.011242 -0.005683 0.016171 -0.006845 -0.038279 -0.011745 
1.9437500000000001 -0.229202 -0.352753 0.010798 -0.006503 0.015633 -0.008179 -0.039215 -0.009777 
1.9450000000000001 -0.244309 -0.339050 0.010186 -0.007162 0.014928 -0.009398 -0.039803 -0.008057 
1.9462500000000000 -0.260483 -0.325439 0.009655 -0.007621 0.013904 -0.010750 -0.041199 -0.006514 
1.9475000000000000 -0.274551 -0.311783 0.009425 -0.008501 0.012905 -0.011618 -0.042372 -0.005291 
1.9487500000000000 -0.289902 -0.296982 0.008840 -0.008944 0.012026 -0.012828 -0.043289 -0.004496 
1.9500000000000000 -0.302445 -0.282791 0.008338 -0.009625 0.010880 -0.014154 -0.044170 -0.003258 
1.9512499999999999 -0.316773 -0.266708 0.007575 -0.010180 0.009866 -0.014485 -0.044691 -0.003019 
1.9524999999999999 -0.330612 -0.250275 0.007003 -0.010916 0.008255 -0.015945 -0.045563 -0.002417 
1.9537500000000001 -0.343628 -0.234207 0.006427 -0.011466 0.007239 -0.016587 -0.045607 -0.001173 
1.9550000000000001 -0.356079 -0.216812 0.005449 -0.012128 0.005645 -0.016872 -0.046101 -0.000315 
1.9562500000000000 -0.367004 -0.197876 0.004651 -0.012534 0.004122 -0.017933 -0.046604 0.000938 
1.9575000000000000 -0.380905 -0.178803 0.003701 -0.013026 0.002501 -0.018127 -0.047634 0.002644 
1.9587500000000000 -0.392075 -0.157715 0.002834 -0.013423 0.000973 -0.018495 -0.048153 0.004080 
1.9600000000000000 -0.402863 -0.136475 0.001969 -0.013834 -0.000879 -0.018471 -0.049572 0.005283 
1.9612499999999999 -0.415649 -0.114258 0.001101 -0.013928 -0.002470 -0.018660 -0.050930 0.006344 
1.9624999999999999 -0.424286 -0.093201 0.000095 -0.014193 -0.004078 -0.018259 -0.052349 0.008110 
1.9637500000000001 -0.436127 -0.067657 -0.000911 -0.014398 -0.005836 -0.017715 -0.054409 0.009251 
1.9650000000000001 -0.445862 -0.040375 -0.001925 -0.014640 -0.007343 -0.017435 -0.055798 0.010128 
1.9662500000000001 -0.454468 -0.011444 -0.002935 -0.014983 -0.008993 -0.016621 -0.056881 0.010818 
1.9675000000000000 -0.461334 0.015564 -0.004137 -0.015217 -0.010784 -0.015627 -0.058432 0.012203 
1.9687500000000000 -0.468475 0.048706 -0.005212 -0.015395 -0.011995 -0.014723 -0.060148 0.013441 
1.9700000000000000 -0.475052 0.081909 -0.006536 -0.015506 -0.013481 -0.013812 -0.060940 0.015013 
1.9712499999999999 -0.480102 0.118393 -0.008175 -0.015388 -0.014725 -0.012322 -0.061911 0.016581 
1.9724999999999999 -0.482620 0.155884 -0.009587 -0.015350 -0.015798 -0.011205 -0.062801 0.018459 
1.9737499999999999 -0.483673 0.197082 -0.011520 -0.014885 -0.016970 -0.009998 -0.063992 0.020935 
1.9750000000000001 -0.482925 0.241394 -0.013288 -0.014624 -0.017686 -0.008438 -0.065083 0.023304 
1.9762500000000001 -0.478668 0.289825 -0.014877 -0.013367 -0.018482 -0.006809 -0.067211 0.026081 
1.9775000000000000 -0.470825 0.339600 -0.016632 -0.012732 -0.019215 -0.004860 -0.068787 0.028778 
1.9787500000000000 -0.456726 0.392151 -0.018213 -0.011429 -0.019352 -0.003256 -0.070518 0.031319 
1.9800000000000000 -0.434814 0.448547 -0.020380 -0.010460 -0.019991 -0.001070 -0.071831 0.033749 
1.9812500000000000 -0.409485 0.510681 -0.022106 -0.008648 -0.019841 0.000728 -0.073368 0.036621 
1.9824999999999999 -0.372864 0.572754 -0.023724 -0.006994 -0.019503 0.002630 -0.074253 0.038822 
1.9837499999999999 -0.325562 0.635864 -0.025681 -0.005024 -0.019313 0.004345 -0.074749 0.041229 
1.9850000000000001 -0.265198 0.701416 -0.027684 -0.001594 -0.018594 0.005778 -0.075737 0.044193 
1.9862500000000001 -0.195801 0.762146 -0.028933 0.001551 -0.018006 0.007523 -0.075726 0.047119 
1.9875000000000000 -0.102112 0.816284 -0.029617 0.005756 -0.017145 0.009407 -0.075596 0.049683 
1.9887500000000000 0.007385 0.858032 -0.030526 0.010022 -0.016203 0.010591 -0.075371 0.053612 
1.9900000000000000 0.129944 0.885864 -0.029655 0.014550 -0.015228 0.012230 -0.074951 0.056915 
1.9912500000000000 0.261047 0.888916 -0.028049 0.019559 -0.014063 0.013134 -0.074394 0.061150 
1.9924999999999999 0.401550 0.864197 -0.024950 0.024437 -0.012562 0.014544 -0.074196 0.065037 
1.9937499999999999 0.534851 0.808655 -0.021244 0.027842 -0.011490 0.015430 -0.073750 0.068649 
1.9950000000000001 0.658875 0.721314 -0.016123 0.030937 -0.010133 0.016156 -0.073460 0.072121 
1.9962500000000001 0.767334 0.601257 -0.010384 0.033564 -0.008709 0.016850 -0.072826 0.075439 
1.9975000000000001 0.842957 0.477661 -0.005829 0.034250 -0.007573 0.017722 -0.072227 0.078926 
1.9987500000000000 0.880981 0.334595 -0.000395 0.033438 -0.006275 0.018472 -0.071423 0.082027 
2.0000000000000000 0.901123 0.201355 0.003769 0.032400 -0.004987 0.018744 -0.069500 0.085037 
2.0012500000000002 0.889648 0.083740 0.007839 0.030666 -0.003133 0.019510 -0.067848 0.087246 
2.0024999999999999 0.860779 -0.036621 0.011219 0.028122 -0.001508 0.019917 -0.065640 0.089935 
2.0037500000000001 0.818359 -0.130798 0.014378 0.025440 0.000241 0.020106 -0.063457 0.093040 
2.0049999999999999 0.765747 -0.216675 0.016270 0.022781 0.002116 0.020393 -0.060783 0.096130 
2.0062500000000001 0.706268 -0.283814 0.018323 0.019732 0.004077 0.020329 -0.058582 0.099056 
2.0074999999999998 0.647369 -0.340759 0.019602 0.016760 0.006254 0.020437 -0.055801 0.101593 
2.0087500000000000 0.586731 -0.383545 0.020316 0.013969 0.008158 0.020081 -0.053307 0.104427 
2.0099999999999998 0.531006 -0.415436 0.020688 0.011480 0.009903 0.019181 -0.050983 0.106735 
2.0112500000000000 0.474823 -0.441162 0.020479 0.008819 0.012266 0.018147 -0.048893 0.109234 
2.0125000000000002 0.423615 -0.461548 0.020135 0.006522 0.013789 0.017219 -0.046116 0.111397 
2.0137499999999999 0.372955 -0.473618 0.019893 0.004748 0.015659 0.015485 -0.043903 0.113205 
2.0150000000000001 0.328979 -0.485657 0.019614 0.002854 0.016900 0.013639 -0.041664 0.114155 
2.0162499999999999 0.284882 -0.490616 0.019079 0.001570 0.018741 0.012141 -0.039459 0.115349 
2.0175000000000001 0.243378 -0.491257 0.018471 0.000304 0.019237 0.010230 -0.036125 0.115597 
2.0187499999999998 0.207626 -0.492691 0.017948 -0.001448 0.020038 0.008366 -0.033768 0.116760 
2.0200000000000000 0.170029 -0.490387 0.017360 -0.002164 0.020367 0.006264 -0.030506 0.117847 
2.0212500000000002 0.135925 -0.487351 0.016775 -0.003523 0.021200 0.004730 -0.028053 0.118027 
2.0225000000000000 0.105713 -0.482330 0.016206 -0.004773 0.021519 0.002907 -0.024487 0.119206 
2.0237500000000002 0.077896 -0.476990 0.015406 -0.005877 0.021767 0.000877 -0.022446 0.119400 
2.0249999999999999 0.049316 -0.470154 0.014656 -0.007060 0.021931 -0.001347 -0.020035 0.120628 
2.0262500000000001 0.023682 -0.461670 0.013814 -0.007828 0.021812 -0.003071 -0.017776 0.121826 
2.0274999999999999 -0.000244 -0.452606 0.013184 -0.008592 0.021319 -0.005257 -0.015961 0.121910 
2.0287500000000001 -0.024750 -0.444946 0.011973 -0.009434 0.020665 -0.007272 -0.014748 0.122650 
2.0299999999999998 -0.046661 -0.435486 0.011243 -0.010101 0.019612 -0.009506 -0.013054 0.123062 
2.0312500000000000 -0.069214 -0.426331 0.010536 -0.010418 0.018965 -0.011134 -0.011810 0.122772 
2.0325000000000002 -0.087982 -0.415924 0.009448 -0.010893 0.017707 -0.012475 -0.010536 0.122726 
2.0337499999999999 -0.108673 -0.405762 0.009164 -0.011407 0.016480 -0.013993 -0.009575 0.122658 
2.0350000000000001 -0.127960 -0.394836 0.007839 -0.011915 0.015210 -0.015526 -0.008163 0.123039 
2.0362499999999999 -0.145203 -0.383606 0.007205 -0.012364 0.013993 -0.016672 -0.007233 0.122757 
2.0375000000000001 -0.162567 -0.373810 0.006646 -0.013047 0.012051 -0.018103 -0.005165 0.123489 
2.0387499999999998 -0.177979 -0.361511 0.005475 -0.013173 0.010541 -0.018945 -0.003601 0.124062 
2.0400000000000000 -0.194153 -0.349487 0.004287 -0.013859 0.008725 -0.019440 -0.002350 0.125015 
2.0412499999999998 -0.209686 -0.338226 0.003163 -0.013848 0.007268 -0.020294 -0.000938 0.126045 
2.0425000000000000 -0.223663 -0.324371 0.002498 -0.014177 0.005176 -0.020806 -0.000244 0.127022 
2.0437500000000002 -0.238495 -0.312927 0.001243 -0.014174 0.003631 -0.020947 0.000519 0.128303 
2.0449999999999999 -0.251923 -0.298737 0.000383 -0.014116 0.001939 -0.021675 0.001801 0.129356 
2.0462500000000001 -0.264038 -0.285156 -0.000453 -0.014029 -0.000074 -0.021764 0.002670 0.130661 
2.0474999999999999 -0.277039 -0.272522 -0.001584 -0.014036 -0.001690 -0.022112 0.003540 0.132027 
2.0487500000000001 -0.289703 -0.256470 -0.002329 -0.013967 -0.003960 -0.021666 0.004974 0.133881 
2.0499999999999998 -0.301636 -0.242035 -0.003263 -0.013876 -0.005579 -0.021212 0.006455 0.134255 
2.0512500000000000 -0.313324 -0.226227 -0.004136 -0.013745 -0.007664 -0.020826 0.008278 0.135162 
2.0525000000000002 -0.325378 -0.211212 -0.004917 -0.013498 -0.009930 -0.020294 0.009819 0.136955 
2.0537500000000000 -0.335114 -0.193665 -0.005939 -0.013503 -0.011719 -0.019331 0.012634 0.138481 
2.0550000000000002 -0.346954 -0.176514 -0.006866 -0.013181 -0.013487 -0.018429 0.014618 0.140106 
2.0562499999999999 -0.357941 -0.157745 -0.007891 -0.013006 -0.015116 -0.017365 0.017067 0.142082 
2.0575000000000001 -0.365478 -0.138916 -0.009232 -0.012740 -0.016882 -0.015688 0.020584 0.144012 
2.0587499999999999 -0.377930 -0.119507 -0.010247 -0.012217 -0.018080 -0.014193 0.022736 0.145843 
2.0600000000000001 -0.387329 -0.098358 -0.011218 -0.011576 -0.019369 -0.012442 0.025650 0.147797 
2.0612499999999998 -0.396286 -0.077133 -0.012257 -0.010907 -0.020374 -0.010708 0.028702 0.149536 
2.0625000000000000 -0.403885 -0.052673 -0.013262 -0.010179 -0.021456 -0.008911 0.031235 0.150787 
2.0637500000000002 -0.411880 -0.029419 -0.014432 -0.009265 -0.021827 -0.007039 0.034653 0.151504 
2.0649999999999999 -0.419357 -0.003708 -0.015448 -0.008491 -0.022600 -0.004864 0.038200 0.152695 
2.0662500000000001 -0.424820 0.023560 -0.016453 -0.007386 -0.023087 -0.003091 0.041801 0.152725 
2.0674999999999999 -0.432404 0.052719 -0.017150 -0.006391 -0.023438 -0.000908 0.045700 0.153183 
2.0687500000000001 -0.437317 0.081726 -0.017850 -0.005517 -0.023720 0.000820 0.050713 0.153297 
2.0699999999999998 -0.439362 0.115830 -0.019072 -0.004044 -0.023687 0.003575 0.055565 0.153267 
2.0712500000000000 -0.442230 0.148071 -0.019703 -0.002769 -0.023922 0.005808 0.060761 0.152985 
2.0724999999999998 -0.442230 0.184448 -0.020596 -0.000872 -0.023167 0.008060 0.065369 0.152390 
2.0737500000000000 -0.439484 0.224335 -0.021536 0.000681 -0.022125 0.010477 0.070145 0.152451 
2.0750000000000002 -0.432465 0.264771 -0.021919 0.002863 -0.020805 0.012342 0.075455 0.151749 
2.0762499999999999 -0.423157 0.308685 -0.022655 0.004665 -0.019562 0.014318 0.079910 0.150406 
2.0775000000000001 -0.410614 0.356659 -0.022694 0.007036 -0.018511 0.016253 0.084778 0.149017 
2.0787499999999999 -0.391144 0.406067 -0.022987 0.009441 -0.017071 0.017780 0.088898 0.147492 
2.0800000000000001 -0.366150 0.459198 -0.022375 0.011831 -0.015033 0.019497 0.093452 0.145187 
2.0812499999999998 -0.331848 0.513153 -0.022158 0.014542 -0.013390 0.020763 0.097580 0.142197 
2.0825000000000000 -0.289764 0.565735 -0.022022 0.017395 -0.011555 0.021837 0.102127 0.140106 
2.0837500000000002 -0.236816 0.622406 -0.020891 0.020376 -0.008865 0.022881 0.106232 0.136154 
2.0850000000000000 -0.170654 0.674408 -0.019590 0.023651 -0.006628 0.023693 0.110931 0.132599 
2.0862500000000002 -0.091125 0.720093 -0.017616 0.027243 -0.004307 0.023796 0.115509 0.128983 
2.0874999999999999 0.002136 0.756714 -0.014360 0.030800 -0.002068 0.024170 0.119904 0.125366 
2.0887500000000001 0.112427 0.784668 -0.010220 0.034443 0.000123 0.023899 0.123550 0.121635 
2.0899999999999999 0.230774 0.781982 -0.005165 0.037159 0.002021 0.023461 0.126923 0.117035 
2.0912500000000001 0.352295 0.765381 0.000305 0.037880 0.003960 0.022890 0.130142 0.113876 
2.0924999999999998 0.477783 0.717285 0.006046 0.038275 0.005227 0.022463 0.132942 0.110344 
2.0937500000000000 0.595276 0.641663 0.012547 0.036539 0.007112 0.022000 0.135048 0.105469 
2.0950000000000002 0.688232 0.548828 0.017820 0.034592 0.008402 0.022036 0.137054 0.100761 
2.0962499999999999 0.764618 0.437317 0.022768 0.030514 0.010229 0.021222 0.138855 0.096664 
2.0975000000000001 0.804474 0.313568 0.026019 0.026819 0.012217 0.021050 0.139931 0.092270 
2.0987499999999999 0.816589 0.188721 0.028801 0.022568 0.014509 0.020491 0.141136 0.088028 
2.1000000000000001 0.814209 0.073975 0.030424 0.017391 0.016275 0.019474 0.142075 0.082565 
2.1012499999999998 0.794128 -0.030212 0.031546 0.013348 0.018547 0.017908 0.142532 0.077331 
2.1025000000000000 0.751953 -0.123352 0.031893 0.009098 0.020700 0.016659 0.143448 0.073196 
2.1037499999999998 0.707764 -0.200073 0.031792 0.004524 0.022137 0.014446 0.144287 0.068680 
2.1050000000000000 0.653320 -0.267212 0.030848 0.001297 0.024437 0.012987 0.145035 0.064743 
2.1062500000000002 0.597748 -0.317017 0.030077 -0.002473 0.025596 0.010429 0.145409 0.061172 
2.1074999999999999 0.542877 -0.355896 0.027978 -0.005260 0.027302 0.007887 0.145439 0.057770 
2.1087500000000001 0.488052 -0.387619 0.026348 -0.008224 0.028997 0.004412 0.145203 0.054092 
2.1099999999999999 0.434631 -0.409897 0.024308 -0.010186 0.029232 0.000834 0.144852 0.051010 
2.1112500000000001 0.386490 -0.427307 0.022209 -0.011881 0.028994 -0.002892 0.144402 0.048050 
2.1124999999999998 0.337128 -0.438889 0.019798 -0.012874 0.028433 -0.005890 0.143616 0.044655 
2.1137500000000000 0.292648 -0.449005 0.017973 -0.014226 0.027380 -0.008781 0.142342 0.041222 
2.1150000000000002 0.252091 -0.452469 0.016514 -0.014565 0.025660 -0.011358 0.141190 0.038322 
2.1162500000000000 0.212875 -0.455109 0.015113 -0.015388 0.023848 -0.013609 0.141045 0.035423 
2.1175000000000002 0.176743 -0.454620 0.013412 -0.015797 0.022597 -0.015512 0.140289 0.032631 
2.1187499999999999 0.143265 -0.452515 0.012303 -0.016310 0.020723 -0.017667 0.139549 0.029228 
2.1200000000000001 0.112015 -0.449326 0.010826 -0.017105 0.018484 -0.018989 0.139542 0.027443 
2.1212499999999999 0.082779 -0.443222 0.009367 -0.017671 0.016410 -0.020515 0.138977 0.025223 
2.1225000000000001 0.054443 -0.436615 0.007890 -0.018100 0.014479 -0.021782 0.138474 0.022980 
2.1237499999999998 0.028915 -0.430649 0.006069 -0.018353 0.012070 -0.022947 0.138115 0.020813 
2.1250000000000000 0.004868 -0.421219 0.004569 -0.018414 0.010397 -0.023710 0.137627 0.019013 
2.1262500000000002 -0.020676 -0.414047 0.002894 -0.018379 0.007796 -0.023949 0.137161 0.017685 
2.1274999999999999 -0.040436 -0.405121 0.001636 -0.017944 0.005651 -0.024532 0.136551 0.015602 
2.1287500000000001 -0.060974 -0.396042 0.000435 -0.017920 0.003714 -0.024455 0.135666 0.013199 
2.1299999999999999 -0.080032 -0.387222 -0.000720 -0.017441 0.001739 -0.024762 0.135178 0.011589 
2.1312500000000001 -0.099350 -0.375549 -0.001640 -0.017213 -0.000222 -0.025149 0.134171 0.008736 
2.1324999999999998 -0.117233 -0.366302 -0.002612 -0.016686 -0.002636 -0.024971 0.133598 0.007149 
2.1337500000000000 -0.132721 -0.355011 -0.003557 -0.016750 -0.004927 -0.024715 0.133156 0.004379 
2.1349999999999998 -0.148468 -0.345001 -0.004737 -0.016462 -0.006823 -0.024492 0.132973 0.002174 
2.1362500000000000 -0.163757 -0.333221 -0.005655 -0.016355 -0.009371 -0.023602 0.133308 -0.000229 
2.1375000000000002 -0.178406 -0.321075 -0.007116 -0.015735 -0.011152 -0.022610 0.133308 -0.002419 
2.1387499999999999 -0.192566 -0.308624 -0.008247 -0.015440 -0.013020 -0.021770 0.132286 -0.003952 
2.1400000000000001 -0.206146 -0.295502 -0.009588 -0.014841 -0.014545 -0.020428 0.132156 -0.006363 
2.1412499999999999 -0.219147 -0.282959 -0.010729 -0.014046 -0.016573 -0.018782 0.131775 -0.008331 
2.1425000000000001 -0.233307 -0.269653 -0.011553 -0.013306 -0.018143 -0.017324 0.131203 -0.010742 
2.1437499999999998 -0.244171 -0.257690 -0.012434 -0.012331 -0.019924 -0.015896 0.130249 -0.012634 
2.1450000000000000 -0.255890 -0.242554 -0.013578 -0.011467 -0.021330 -0.013908 0.128914 -0.014984 
2.1462500000000002 -0.267304 -0.228363 -0.013996 -0.010298 -0.022514 -0.012007 0.127625 -0.017426 
2.1475000000000000 -0.278626 -0.213898 -0.014463 -0.009521 -0.023514 -0.009890 0.126289 -0.019981 
2.1487500000000002 -0.287994 -0.197540 -0.015316 -0.008617 -0.024267 -0.007643 0.125267 -0.022919 
2.1499999999999999 -0.299286 -0.182007 -0.016092 -0.007769 -0.025103 -0.005592 0.123734 -0.026306 
2.1512500000000001 -0.309174 -0.165741 -0.016766 -0.007038 -0.025339 -0.002924 0.122437 -0.028595 
