!
! C:\Users\rflab\Downloads\Lab5_KD_ZW\340.S2P
!
! Touchstone 1.1 file saved by VNA.EXE V1.65 (www.ke5fx.com/gpib/readme.htm)
! 11/12/2024 12:34:27 AM
!
!    Source: HEWLETT PACKARD,8753D,0,6.14
!  Min freq: 1.900000E+009 Hz
!  Max freq: 2.900000E+009 Hz
!    Points: 801
!    Params: S11 S21 S12 S22
!
!!!!!
# GHZ S RI R 50
1.8999999999999999 0.957886 0.277222 -0.026556 0.017683 -0.016010 0.006900 0.025635 -0.057510 
1.9012500000000001 0.955689 0.141541 -0.023727 0.021240 -0.015431 0.008142 0.023052 -0.058004 
1.9025000000000001 0.930115 0.020935 -0.019558 0.023149 -0.014573 0.009432 0.021004 -0.058336 
1.9037500000000001 0.887268 -0.088318 -0.015860 0.024757 -0.014116 0.010547 0.018753 -0.058655 
1.9050000000000000 0.842407 -0.177582 -0.012792 0.025608 -0.013316 0.011677 0.016748 -0.058126 
1.9062500000000000 0.782440 -0.255615 -0.008725 0.025505 -0.012667 0.013107 0.014378 -0.057352 
1.9075000000000000 0.723633 -0.317841 -0.005588 0.025281 -0.011824 0.014154 0.012014 -0.056767 
1.9087499999999999 0.663635 -0.369415 -0.002872 0.024912 -0.010509 0.015600 0.009317 -0.055840 
1.9099999999999999 0.603394 -0.409302 0.000000 0.023489 -0.008839 0.016574 0.006557 -0.054487 
1.9112499999999999 0.546356 -0.438965 0.001968 0.022492 -0.007541 0.017797 0.003244 -0.053600 
1.9125000000000001 0.489716 -0.463654 0.003869 0.021273 -0.005815 0.018049 0.000265 -0.052471 
1.9137500000000001 0.439026 -0.483383 0.005309 0.019929 -0.004521 0.018705 -0.002960 -0.051636 
1.9150000000000000 0.389282 -0.497421 0.007048 0.019032 -0.002742 0.018997 -0.005787 -0.050800 
1.9162500000000000 0.341095 -0.506165 0.008060 0.017551 -0.001144 0.019519 -0.008585 -0.049906 
1.9175000000000000 0.298615 -0.512695 0.009206 0.016664 0.000582 0.019754 -0.010864 -0.049206 
1.9187500000000000 0.259003 -0.516052 0.009807 0.015375 0.002581 0.019700 -0.012779 -0.047676 
1.9199999999999999 0.220093 -0.516052 0.011348 0.014024 0.004905 0.019570 -0.014891 -0.046720 
1.9212499999999999 0.185791 -0.514252 0.011874 0.012946 0.006939 0.019134 -0.016745 -0.044876 
1.9225000000000001 0.151001 -0.512909 0.012573 0.011523 0.008578 0.018027 -0.018375 -0.043022 
1.9237500000000001 0.117706 -0.508331 0.013382 0.010346 0.010409 0.017212 -0.019962 -0.041088 
1.9250000000000000 0.089142 -0.502899 0.013605 0.008983 0.011763 0.016130 -0.022041 -0.038776 
1.9262500000000000 0.059296 -0.497589 0.014041 0.007661 0.013056 0.014540 -0.024292 -0.036182 
1.9275000000000000 0.033600 -0.490906 0.014294 0.006348 0.014393 0.013481 -0.025997 -0.033745 
1.9287500000000000 0.007294 -0.484375 0.014356 0.005469 0.015074 0.012487 -0.028206 -0.031593 
1.9299999999999999 -0.015869 -0.474945 0.014380 0.004315 0.016342 0.011045 -0.030239 -0.029716 
1.9312499999999999 -0.038666 -0.467316 0.014331 0.003237 0.017248 0.009546 -0.032330 -0.027973 
1.9325000000000001 -0.062164 -0.456329 0.014268 0.002463 0.017912 0.007692 -0.033951 -0.026340 
1.9337500000000001 -0.082611 -0.445496 0.014383 0.001223 0.018704 0.006148 -0.034943 -0.024591 
1.9350000000000001 -0.104202 -0.435089 0.014156 0.000362 0.019176 0.004177 -0.035730 -0.023121 
1.9362500000000000 -0.123154 -0.425568 0.014207 -0.000431 0.019246 0.002607 -0.036619 -0.021461 
1.9375000000000000 -0.142120 -0.414413 0.014023 -0.001428 0.019294 0.000902 -0.037029 -0.019474 
1.9387500000000000 -0.159012 -0.402939 0.013882 -0.002357 0.019220 -0.000856 -0.037523 -0.017563 
1.9399999999999999 -0.178360 -0.391434 0.013732 -0.003347 0.019301 -0.002460 -0.038137 -0.015745 
1.9412499999999999 -0.194763 -0.378983 0.013485 -0.004016 0.019072 -0.004132 -0.038464 -0.013327 
1.9424999999999999 -0.211563 -0.367004 0.013068 -0.005004 0.018592 -0.005589 -0.039188 -0.010618 
1.9437500000000001 -0.228104 -0.353653 0.012572 -0.005962 0.018234 -0.007201 -0.039967 -0.008636 
1.9450000000000001 -0.243896 -0.339752 0.012255 -0.006658 0.017618 -0.008500 -0.041170 -0.007311 
1.9462500000000000 -0.259216 -0.326736 0.011666 -0.007344 0.016820 -0.010240 -0.042444 -0.005341 
1.9475000000000000 -0.273590 -0.312988 0.011224 -0.008130 0.015819 -0.011451 -0.043400 -0.004395 
1.9487500000000000 -0.288696 -0.298431 0.010718 -0.008937 0.014805 -0.012649 -0.044399 -0.003275 
1.9500000000000000 -0.301956 -0.282837 0.010151 -0.009749 0.013840 -0.014150 -0.044825 -0.002335 
1.9512499999999999 -0.316147 -0.267761 0.009722 -0.010523 0.012590 -0.015368 -0.045496 -0.001577 
1.9524999999999999 -0.330139 -0.251419 0.009197 -0.011210 0.011361 -0.016647 -0.045856 -0.000795 
1.9537500000000001 -0.343933 -0.235153 0.008565 -0.012034 0.009892 -0.017542 -0.045959 0.000025 
1.9550000000000001 -0.355286 -0.217697 0.007757 -0.012710 0.008287 -0.018351 -0.046341 0.001118 
1.9562500000000000 -0.366775 -0.199036 0.006804 -0.013364 0.006332 -0.019415 -0.046642 0.002249 
1.9575000000000000 -0.380646 -0.179718 0.005649 -0.014104 0.005005 -0.020186 -0.047457 0.003666 
1.9587500000000000 -0.392487 -0.158768 0.004818 -0.014748 0.002962 -0.020123 -0.048107 0.005222 
1.9600000000000000 -0.403015 -0.137695 0.003782 -0.015101 0.001387 -0.020769 -0.049404 0.006611 
1.9612499999999999 -0.414886 -0.116394 0.002840 -0.015516 -0.000473 -0.020836 -0.050461 0.007385 
1.9624999999999999 -0.424103 -0.093079 0.001847 -0.015709 -0.002394 -0.020460 -0.051899 0.009193 
1.9637500000000001 -0.435059 -0.068970 0.000954 -0.016227 -0.004271 -0.020550 -0.053392 0.010641 
1.9650000000000001 -0.445007 -0.042023 -0.000316 -0.016509 -0.006262 -0.020340 -0.055042 0.011021 
1.9662500000000001 -0.453186 -0.014435 -0.001370 -0.016946 -0.008144 -0.019588 -0.056164 0.011772 
1.9675000000000000 -0.460754 0.014038 -0.002555 -0.017382 -0.009878 -0.019056 -0.057217 0.013004 
1.9687500000000000 -0.468170 0.047058 -0.004099 -0.017651 -0.011801 -0.018219 -0.059124 0.014133 
1.9700000000000000 -0.474274 0.080536 -0.005625 -0.018044 -0.013224 -0.016710 -0.059526 0.015310 
1.9712499999999999 -0.478668 0.117676 -0.007330 -0.018147 -0.014656 -0.015448 -0.060881 0.017015 
1.9724999999999999 -0.482864 0.154312 -0.008995 -0.018353 -0.016170 -0.014132 -0.061583 0.019098 
1.9737499999999999 -0.482544 0.195740 -0.010696 -0.018044 -0.017086 -0.013030 -0.062622 0.021309 
1.9750000000000001 -0.481430 0.240311 -0.012919 -0.017633 -0.018576 -0.011316 -0.063980 0.023495 
1.9762500000000001 -0.478241 0.286987 -0.015043 -0.016844 -0.019772 -0.009603 -0.065872 0.026413 
1.9775000000000000 -0.469604 0.338318 -0.017254 -0.016260 -0.020750 -0.007658 -0.067371 0.028919 
1.9787500000000000 -0.457336 0.389954 -0.019295 -0.015259 -0.021559 -0.005953 -0.069160 0.031311 
1.9800000000000000 -0.436646 0.446228 -0.021126 -0.013992 -0.021887 -0.003889 -0.070427 0.034142 
1.9812500000000000 -0.410767 0.510071 -0.023386 -0.012383 -0.022354 -0.001535 -0.071957 0.036346 
1.9824999999999999 -0.373901 0.568481 -0.025810 -0.010862 -0.022052 0.000459 -0.072765 0.038635 
1.9837499999999999 -0.326355 0.634338 -0.027906 -0.008072 -0.021744 0.002861 -0.073681 0.040962 
1.9850000000000001 -0.265259 0.700256 -0.030129 -0.005014 -0.021307 0.004406 -0.074284 0.043602 
1.9862500000000001 -0.192139 0.761292 -0.032522 -0.001652 -0.020920 0.006857 -0.074490 0.046535 
1.9875000000000000 -0.102600 0.814331 -0.033827 0.002628 -0.020378 0.008443 -0.074261 0.049503 
1.9887500000000000 0.004273 0.857056 -0.034746 0.007338 -0.019656 0.010012 -0.073940 0.053082 
1.9900000000000000 0.125977 0.883484 -0.034544 0.013170 -0.018095 0.011450 -0.073833 0.056717 
1.9912500000000000 0.256653 0.890930 -0.033916 0.018684 -0.017260 0.013162 -0.073132 0.060482 
1.9924999999999999 0.396240 0.864807 -0.030638 0.024288 -0.015993 0.014520 -0.073071 0.064362 
1.9937499999999999 0.526977 0.806458 -0.026745 0.029102 -0.014466 0.016110 -0.072628 0.068157 
1.9950000000000001 0.653259 0.721191 -0.021803 0.032497 -0.013437 0.017208 -0.072540 0.071716 
1.9962500000000001 0.764282 0.606811 -0.016327 0.035891 -0.011800 0.017792 -0.071960 0.075436 
1.9975000000000001 0.841186 0.480164 -0.010616 0.036854 -0.010377 0.018561 -0.071575 0.078499 
1.9987500000000000 0.883484 0.342834 -0.004915 0.037609 -0.009176 0.019846 -0.070568 0.081161 
2.0000000000000000 0.902405 0.206909 0.000465 0.036329 -0.007647 0.020614 -0.069237 0.084747 
2.0012500000000002 0.890259 0.078125 0.005228 0.034826 -0.005688 0.021180 -0.067284 0.086857 
2.0024999999999999 0.867127 -0.030273 0.009813 0.032347 -0.004022 0.021950 -0.065151 0.089611 
2.0037500000000001 0.817932 -0.128174 0.013193 0.029865 -0.002037 0.022887 -0.063099 0.092705 
2.0049999999999999 0.768311 -0.213623 0.016092 0.026937 0.000256 0.022698 -0.060501 0.096008 
2.0062500000000001 0.707336 -0.281525 0.018217 0.024405 0.002019 0.023396 -0.058186 0.099121 
2.0074999999999998 0.651215 -0.337158 0.019831 0.020567 0.004426 0.023097 -0.055309 0.101841 
2.0087500000000000 0.591736 -0.378540 0.020958 0.017546 0.006449 0.022896 -0.052948 0.104710 
2.0099999999999998 0.533447 -0.415009 0.021442 0.014661 0.008948 0.022422 -0.050732 0.107643 
2.0112500000000000 0.476623 -0.438538 0.022178 0.012267 0.011109 0.021911 -0.048756 0.110062 
2.0125000000000002 0.425201 -0.459015 0.021693 0.009727 0.013141 0.020236 -0.046284 0.112240 
2.0137499999999999 0.375229 -0.472794 0.021436 0.007596 0.015541 0.019405 -0.043877 0.113922 
2.0150000000000001 0.329987 -0.483658 0.021315 0.005521 0.017332 0.017279 -0.041485 0.115234 
2.0162499999999999 0.286484 -0.489868 0.020734 0.003857 0.018803 0.015415 -0.039204 0.116154 
2.0175000000000001 0.245667 -0.492630 0.020550 0.002421 0.019831 0.013566 -0.036049 0.117001 
2.0187499999999998 0.208313 -0.491409 0.019835 0.000414 0.021435 0.011698 -0.033569 0.118202 
2.0200000000000000 0.172974 -0.489746 0.019629 -0.000695 0.022335 0.009515 -0.030441 0.118401 
2.0212500000000002 0.137970 -0.486008 0.019051 -0.002253 0.022961 0.007298 -0.028004 0.119568 
2.0225000000000000 0.107559 -0.482468 0.018561 -0.003872 0.023756 0.005745 -0.024227 0.120781 
2.0237500000000002 0.079452 -0.476929 0.018008 -0.004715 0.024145 0.003536 -0.021931 0.121056 
2.0249999999999999 0.051056 -0.471527 0.016982 -0.006006 0.024443 0.001213 -0.019516 0.122040 
2.0262500000000001 0.024567 -0.462524 0.016255 -0.007264 0.024481 -0.001429 -0.017601 0.123207 
2.0274999999999999 0.001465 -0.453888 0.015450 -0.008078 0.024035 -0.003418 -0.015572 0.123756 
2.0287500000000001 -0.023376 -0.446228 0.014444 -0.009040 0.023476 -0.005805 -0.013771 0.124336 
2.0299999999999998 -0.045807 -0.435150 0.013453 -0.009814 0.022820 -0.007894 -0.012413 0.124741 
2.0312500000000000 -0.068085 -0.426910 0.012736 -0.010457 0.022017 -0.010104 -0.011131 0.124001 
2.0325000000000002 -0.086945 -0.415741 0.011786 -0.011149 0.021097 -0.011832 -0.009758 0.124374 
2.0337499999999999 -0.107483 -0.405823 0.010910 -0.011624 0.019764 -0.013489 -0.008453 0.124481 
2.0350000000000001 -0.128510 -0.394836 0.010217 -0.012437 0.018342 -0.015230 -0.007057 0.124756 
2.0362499999999999 -0.145020 -0.384399 0.009294 -0.012825 0.016875 -0.016819 -0.005669 0.124405 
2.0375000000000001 -0.161499 -0.373871 0.008629 -0.013697 0.015331 -0.018359 -0.003967 0.124863 
2.0387499999999998 -0.176239 -0.362274 0.007366 -0.013969 0.014094 -0.019203 -0.002090 0.125626 
2.0400000000000000 -0.193237 -0.350677 0.006475 -0.014831 0.011801 -0.020470 -0.001228 0.126282 
2.0412499999999998 -0.208221 -0.338898 0.005357 -0.014988 0.009904 -0.021529 0.000214 0.127152 
2.0425000000000000 -0.222534 -0.325531 0.004310 -0.015254 0.008400 -0.022766 0.001465 0.128311 
2.0437500000000002 -0.236725 -0.313354 0.002971 -0.015453 0.006499 -0.022816 0.002426 0.129692 
2.0449999999999999 -0.251495 -0.299286 0.001900 -0.015611 0.004436 -0.023706 0.003326 0.130440 
2.0462500000000001 -0.262207 -0.285706 0.000873 -0.015589 0.002344 -0.024286 0.004097 0.132019 
2.0474999999999999 -0.276489 -0.272736 -0.000236 -0.015557 0.000082 -0.024691 0.004555 0.132774 
2.0487500000000001 -0.288910 -0.257873 -0.001028 -0.015740 -0.001408 -0.024527 0.006515 0.134109 
2.0499999999999998 -0.301178 -0.242523 -0.001846 -0.015802 -0.004097 -0.024178 0.008026 0.134674 
2.0512500000000000 -0.311859 -0.226898 -0.002937 -0.015672 -0.006031 -0.023962 0.009743 0.135971 
2.0525000000000002 -0.324310 -0.211151 -0.003889 -0.015568 -0.008297 -0.023497 0.011498 0.137146 
2.0537500000000000 -0.335083 -0.193848 -0.004868 -0.015524 -0.010475 -0.022783 0.014252 0.138641 
2.0550000000000002 -0.346863 -0.177612 -0.006189 -0.015636 -0.012739 -0.021748 0.017006 0.140327 
2.0562499999999999 -0.357300 -0.159210 -0.007416 -0.015493 -0.014456 -0.020847 0.019341 0.141693 
2.0575000000000001 -0.366272 -0.140106 -0.008623 -0.015087 -0.016912 -0.019518 0.022057 0.143677 
2.0587499999999999 -0.376129 -0.120056 -0.009773 -0.014690 -0.018421 -0.017794 0.024475 0.145599 
2.0600000000000001 -0.386749 -0.099182 -0.011168 -0.013985 -0.020048 -0.015894 0.027344 0.147217 
2.0612499999999998 -0.395554 -0.077820 -0.012426 -0.013485 -0.021286 -0.014111 0.029694 0.148987 
2.0625000000000000 -0.403229 -0.054047 -0.013932 -0.012853 -0.022894 -0.012096 0.032883 0.150375 
2.0637500000000002 -0.411453 -0.030853 -0.014997 -0.011703 -0.023613 -0.010600 0.036026 0.150925 
2.0649999999999999 -0.418167 -0.005127 -0.015815 -0.011096 -0.024777 -0.008508 0.039467 0.151596 
2.0662500000000001 -0.425781 0.022797 -0.017138 -0.010181 -0.025673 -0.006182 0.042801 0.152077 
2.0674999999999999 -0.430878 0.050903 -0.018292 -0.009057 -0.025743 -0.003539 0.046829 0.152100 
2.0687500000000001 -0.436081 0.079834 -0.019196 -0.007895 -0.026522 -0.001405 0.051476 0.151977 
2.0699999999999998 -0.439362 0.113449 -0.020494 -0.006417 -0.026694 0.001275 0.056335 0.152023 
2.0712500000000000 -0.441773 0.146729 -0.021585 -0.005329 -0.026449 0.003716 0.061325 0.151306 
2.0724999999999998 -0.441711 0.182404 -0.022749 -0.003529 -0.026119 0.006569 0.065811 0.151123 
2.0737500000000000 -0.438721 0.222168 -0.023764 -0.001608 -0.025991 0.008953 0.070679 0.150955 
2.0750000000000002 -0.432221 0.262360 -0.024797 0.000523 -0.024490 0.011515 0.076385 0.150391 
2.0762499999999999 -0.423431 0.306519 -0.025438 0.002825 -0.023451 0.013796 0.080536 0.148819 
2.0775000000000001 -0.411194 0.354645 -0.025936 0.004948 -0.022238 0.015352 0.085236 0.147659 
2.0787499999999999 -0.391602 0.402863 -0.026217 0.007900 -0.020611 0.017960 0.089127 0.146286 
2.0800000000000001 -0.367600 0.456924 -0.026522 0.010676 -0.018957 0.019685 0.094086 0.143738 
2.0812499999999998 -0.335663 0.510284 -0.026205 0.013514 -0.016949 0.021397 0.098084 0.140976 
2.0825000000000000 -0.293426 0.563019 -0.025869 0.016703 -0.014708 0.023083 0.103149 0.138351 
2.0837500000000002 -0.238007 0.615967 -0.025116 0.020800 -0.012684 0.024542 0.107346 0.134598 
2.0850000000000000 -0.172180 0.671600 -0.024250 0.024113 -0.010138 0.025572 0.111435 0.131500 
2.0862500000000002 -0.097382 0.715668 -0.022396 0.028265 -0.007517 0.026070 0.115585 0.127975 
2.0874999999999999 -0.003906 0.753723 -0.019293 0.032314 -0.005081 0.026470 0.119934 0.123734 
2.0887500000000001 0.101379 0.777710 -0.015299 0.036606 -0.002619 0.026527 0.123550 0.120461 
2.0899999999999999 0.223206 0.778137 -0.010263 0.039743 -0.000253 0.026142 0.127098 0.116417 
2.0912500000000001 0.347412 0.761841 -0.003811 0.042934 0.001829 0.025988 0.130447 0.112976 
2.0924999999999998 0.471863 0.720337 0.002468 0.043037 0.003720 0.025330 0.133537 0.109070 
2.0937500000000000 0.580444 0.642456 0.009739 0.042324 0.005236 0.025226 0.135033 0.104630 
2.0950000000000002 0.674927 0.554565 0.016193 0.039614 0.006860 0.025063 0.137497 0.100151 
2.0962499999999999 0.751495 0.444122 0.021368 0.036919 0.009003 0.024920 0.139229 0.095253 
2.0975000000000001 0.797546 0.315613 0.025539 0.032488 0.011370 0.024721 0.140076 0.091385 
2.0987499999999999 0.816162 0.195679 0.029078 0.027824 0.013647 0.024153 0.141739 0.086762 
2.1000000000000001 0.811340 0.080566 0.031586 0.023550 0.015730 0.023035 0.142273 0.082672 
2.1012499999999998 0.787292 -0.026001 0.033245 0.018026 0.018614 0.021633 0.142883 0.077576 
2.1025000000000000 0.751831 -0.116821 0.034363 0.013390 0.020754 0.020508 0.144562 0.073318 
2.1037499999999998 0.707336 -0.196533 0.034206 0.009029 0.022602 0.018866 0.144974 0.068787 
2.1050000000000000 0.653320 -0.261902 0.034340 0.004662 0.025221 0.016886 0.145737 0.065109 
2.1062500000000002 0.598785 -0.312561 0.033064 0.000629 0.027371 0.014287 0.146263 0.060898 
2.1074999999999999 0.543304 -0.352692 0.031990 -0.002670 0.029869 0.011749 0.146187 0.057861 
2.1087500000000001 0.490738 -0.385208 0.029956 -0.005988 0.031252 0.007904 0.145950 0.054207 
2.1099999999999999 0.436905 -0.408554 0.028076 -0.008348 0.032135 0.004158 0.145821 0.051277 
2.1112500000000001 0.388596 -0.425400 0.025735 -0.010245 0.032347 0.000025 0.145096 0.048248 
2.1124999999999998 0.340012 -0.437210 0.023422 -0.012160 0.031565 -0.002739 0.144264 0.045082 
2.1137500000000000 0.295883 -0.448120 0.021555 -0.013350 0.030830 -0.006727 0.143532 0.041931 
2.1150000000000002 0.254105 -0.451721 0.019984 -0.014322 0.029133 -0.009676 0.142616 0.038689 
2.1162500000000000 0.215591 -0.454575 0.018003 -0.015151 0.028086 -0.011917 0.142220 0.035622 
2.1175000000000002 0.179337 -0.454132 0.016903 -0.016128 0.026636 -0.014561 0.141869 0.032723 
2.1187499999999999 0.146301 -0.451675 0.015078 -0.016699 0.024899 -0.016796 0.141106 0.029694 
2.1200000000000001 0.114090 -0.449249 0.013922 -0.017750 0.023167 -0.018762 0.140900 0.027489 
2.1212499999999999 0.085053 -0.443680 0.012211 -0.018337 0.020552 -0.020915 0.140808 0.024857 
2.1225000000000001 0.056641 -0.436752 0.010564 -0.018819 0.018166 -0.022724 0.140526 0.022903 
2.1237499999999998 0.030945 -0.430466 0.008849 -0.019380 0.016315 -0.024074 0.139847 0.020805 
2.1250000000000000 0.006332 -0.421829 0.007073 -0.019862 0.013766 -0.025103 0.139206 0.019043 
2.1262500000000002 -0.017380 -0.414871 0.005475 -0.019884 0.011220 -0.025683 0.138771 0.017464 
2.1274999999999999 -0.038696 -0.405487 0.004099 -0.019620 0.009123 -0.026420 0.138023 0.015663 
2.1287500000000001 -0.059952 -0.395798 0.002514 -0.019639 0.007084 -0.027002 0.137451 0.013092 
2.1299999999999999 -0.078476 -0.387909 0.001262 -0.019196 0.004543 -0.026986 0.136147 0.011177 
2.1312500000000001 -0.097519 -0.376083 -0.000031 -0.019106 0.002304 -0.027477 0.135727 0.008713 
2.1324999999999998 -0.115845 -0.366760 -0.001022 -0.019005 0.000143 -0.027597 0.134819 0.007072 
2.1337500000000000 -0.131226 -0.355774 -0.002101 -0.018771 -0.002583 -0.027727 0.133942 0.003929 
2.1349999999999998 -0.147064 -0.345642 -0.003264 -0.018878 -0.004889 -0.027203 0.133972 0.001877 
2.1362500000000000 -0.162567 -0.333496 -0.004720 -0.018724 -0.006975 -0.027008 0.134293 -0.000641 
2.1375000000000002 -0.177307 -0.321655 -0.005831 -0.018497 -0.009855 -0.026407 0.134041 -0.003136 
2.1387499999999999 -0.191498 -0.309113 -0.007403 -0.017826 -0.011847 -0.025467 0.132835 -0.004890 
2.1400000000000001 -0.205414 -0.296234 -0.008921 -0.017324 -0.014198 -0.023952 0.132744 -0.006821 
2.1412499999999999 -0.218384 -0.283478 -0.010204 -0.016708 -0.016115 -0.022875 0.132034 -0.009224 
2.1425000000000001 -0.231903 -0.270294 -0.011238 -0.015989 -0.018574 -0.021410 0.131470 -0.011620 
2.1437499999999998 -0.242828 -0.258331 -0.012356 -0.014744 -0.019842 -0.019701 0.130402 -0.013611 
2.1450000000000000 -0.254578 -0.243530 -0.013277 -0.014093 -0.021835 -0.017988 0.129089 -0.015457 
2.1462500000000002 -0.266235 -0.229126 -0.014147 -0.012856 -0.023170 -0.015387 0.127586 -0.018349 
2.1475000000000000 -0.277466 -0.214874 -0.015003 -0.012091 -0.024490 -0.013535 0.126030 -0.021179 
2.1487500000000002 -0.286865 -0.198517 -0.015720 -0.011522 -0.025623 -0.011522 0.125534 -0.023979 
2.1499999999999999 -0.298554 -0.182159 -0.016621 -0.010567 -0.026770 -0.008905 0.122963 -0.026916 
2.1512500000000001 -0.307953 -0.166901 -0.017500 -0.009579 -0.027628 -0.006512 0.121986 -0.029732 
