!
! C:\Users\rflab\Downloads\Lab5_KD_ZW\350.S2P
!
! Touchstone 1.1 file saved by VNA.EXE V1.65 (www.ke5fx.com/gpib/readme.htm)
! 11/12/2024 12:35:22 AM
!
!    Source: HEWLETT PACKARD,8753D,0,6.14
!  Min freq: 1.900000E+009 Hz
!  Max freq: 2.900000E+009 Hz
!    Points: 801
!    Params: S11 S21 S12 S22
!
!!!!!
# GHZ S RI R 50
1.8999999999999999 0.959595 0.266235 -0.030006 0.017342 -0.017458 0.006368 0.026375 -0.057201 
1.9012500000000001 0.958801 0.134827 -0.026333 0.020479 -0.016655 0.007392 0.024065 -0.057827 
1.9025000000000001 0.927795 0.014038 -0.022747 0.023014 -0.016551 0.008889 0.022135 -0.058142 
1.9037500000000001 0.892151 -0.093323 -0.019512 0.024982 -0.015862 0.009901 0.019491 -0.058678 
1.9050000000000000 0.837433 -0.180359 -0.015021 0.025801 -0.015375 0.011356 0.017818 -0.057920 
1.9062500000000000 0.782562 -0.255951 -0.011268 0.026180 -0.014485 0.013164 0.014986 -0.057344 
1.9075000000000000 0.721191 -0.318603 -0.007955 0.026608 -0.013612 0.014214 0.012896 -0.056797 
1.9087499999999999 0.659698 -0.371124 -0.005017 0.025848 -0.012286 0.015921 0.009926 -0.055851 
1.9099999999999999 0.601898 -0.409637 -0.002233 0.025186 -0.010761 0.017110 0.007195 -0.054949 
1.9112499999999999 0.545258 -0.441711 0.000527 0.024145 -0.009342 0.018253 0.004038 -0.053886 
1.9125000000000001 0.489136 -0.465057 0.002486 0.023068 -0.007542 0.018934 0.001062 -0.052481 
1.9137500000000001 0.435577 -0.483261 0.004497 0.021738 -0.005875 0.019323 -0.002335 -0.051832 
1.9150000000000000 0.387619 -0.497726 0.005649 0.020612 -0.004183 0.020248 -0.005114 -0.051096 
1.9162500000000000 0.339783 -0.508301 0.007243 0.019196 -0.002541 0.020401 -0.007887 -0.050369 
1.9175000000000000 0.297577 -0.513336 0.008357 0.018354 -0.000646 0.020779 -0.010353 -0.049423 
1.9187500000000000 0.256165 -0.516602 0.009957 0.017180 0.001401 0.021044 -0.012747 -0.048401 
1.9199999999999999 0.219635 -0.516205 0.010894 0.016138 0.003574 0.021074 -0.014668 -0.046940 
1.9212499999999999 0.183868 -0.513977 0.011773 0.014953 0.005945 0.020460 -0.016891 -0.045191 
1.9225000000000001 0.150452 -0.512085 0.012682 0.013458 0.007655 0.020131 -0.018839 -0.043249 
1.9237500000000001 0.117096 -0.508637 0.013412 0.012010 0.009413 0.018760 -0.020439 -0.041370 
1.9250000000000000 0.087616 -0.503784 0.013912 0.010952 0.011242 0.017746 -0.022625 -0.038799 
1.9262500000000000 0.057983 -0.496826 0.014175 0.009506 0.012754 0.016436 -0.024422 -0.036312 
1.9275000000000000 0.032623 -0.490967 0.014822 0.008316 0.013975 0.015341 -0.026730 -0.034382 
1.9287500000000000 0.005035 -0.484070 0.014848 0.006683 0.014997 0.014204 -0.028713 -0.031654 
1.9299999999999999 -0.017731 -0.474609 0.014804 0.005560 0.016762 0.012777 -0.030724 -0.029800 
1.9312499999999999 -0.039398 -0.466766 0.015034 0.004697 0.017487 0.011534 -0.033028 -0.028168 
1.9325000000000001 -0.063019 -0.455444 0.015035 0.003596 0.018547 0.009792 -0.034698 -0.026676 
1.9337500000000001 -0.084030 -0.445770 0.015239 0.002629 0.019280 0.007869 -0.036013 -0.024817 
1.9350000000000001 -0.104691 -0.434662 0.015190 0.001617 0.019925 0.006205 -0.036716 -0.022938 
1.9362500000000000 -0.123001 -0.424591 0.015104 0.000717 0.020540 0.004082 -0.037144 -0.021576 
1.9375000000000000 -0.142593 -0.413986 0.015092 -0.000429 0.020402 0.002585 -0.038273 -0.019459 
1.9387500000000000 -0.160934 -0.402771 0.014947 -0.001390 0.020608 0.001049 -0.038496 -0.017591 
1.9399999999999999 -0.178619 -0.390457 0.014791 -0.002448 0.020576 -0.001029 -0.038834 -0.015295 
1.9412499999999999 -0.195801 -0.378555 0.014428 -0.003393 0.020749 -0.002581 -0.039648 -0.013119 
1.9424999999999999 -0.212631 -0.366638 0.014273 -0.004248 0.020010 -0.004420 -0.040167 -0.010120 
1.9437500000000001 -0.228821 -0.352753 0.014063 -0.005454 0.019870 -0.005911 -0.041059 -0.008492 
1.9450000000000001 -0.245941 -0.339706 0.013423 -0.006157 0.019231 -0.007819 -0.041723 -0.006582 
1.9462500000000000 -0.259613 -0.326096 0.013041 -0.007038 0.018517 -0.009563 -0.043182 -0.004507 
1.9475000000000000 -0.274734 -0.311813 0.012674 -0.007958 0.017844 -0.010718 -0.044153 -0.003555 
1.9487500000000000 -0.289612 -0.297775 0.012111 -0.008783 0.016884 -0.012611 -0.044998 -0.002687 
1.9500000000000000 -0.302780 -0.281860 0.011544 -0.009435 0.015977 -0.013808 -0.045835 -0.001324 
1.9512499999999999 -0.317383 -0.267746 0.011118 -0.010385 0.014714 -0.015275 -0.046429 -0.000740 
1.9524999999999999 -0.330154 -0.250229 0.010324 -0.010957 0.013402 -0.016647 -0.046543 -0.000116 
1.9537500000000001 -0.343384 -0.234116 0.009820 -0.012118 0.012082 -0.017883 -0.046745 0.000927 
1.9550000000000001 -0.356171 -0.216904 0.009179 -0.012956 0.010391 -0.018977 -0.047016 0.002020 
1.9562500000000000 -0.367462 -0.198013 0.008113 -0.013646 0.008653 -0.019936 -0.046833 0.003153 
1.9575000000000000 -0.380615 -0.179230 0.007224 -0.014410 0.006495 -0.020992 -0.047678 0.004227 
1.9587500000000000 -0.391907 -0.158035 0.006083 -0.014946 0.004996 -0.021549 -0.048292 0.006334 
1.9600000000000000 -0.403351 -0.136810 0.005123 -0.015670 0.002983 -0.021624 -0.049397 0.007458 
1.9612499999999999 -0.415466 -0.114258 0.004044 -0.016278 0.000959 -0.022097 -0.050495 0.008434 
1.9624999999999999 -0.425140 -0.092834 0.003150 -0.016530 -0.000826 -0.022375 -0.051628 0.010057 
1.9637500000000001 -0.436218 -0.067932 0.002172 -0.017138 -0.002506 -0.022459 -0.053190 0.011015 
1.9650000000000001 -0.445709 -0.041321 0.000786 -0.017392 -0.004879 -0.022045 -0.054689 0.011971 
1.9662500000000001 -0.454620 -0.012390 -0.000188 -0.018036 -0.007200 -0.021513 -0.056034 0.012621 
1.9675000000000000 -0.460877 0.014893 -0.001472 -0.018705 -0.009270 -0.020844 -0.057026 0.013966 
1.9687500000000000 -0.469055 0.047791 -0.002764 -0.019068 -0.010593 -0.019888 -0.058310 0.015013 
1.9700000000000000 -0.475708 0.081314 -0.004482 -0.019709 -0.012516 -0.018942 -0.059032 0.016235 
1.9712499999999999 -0.479660 0.118881 -0.006121 -0.019756 -0.014435 -0.017929 -0.060162 0.017666 
1.9724999999999999 -0.483536 0.155762 -0.008062 -0.020035 -0.015852 -0.016596 -0.060780 0.019506 
1.9737499999999999 -0.483765 0.197723 -0.010000 -0.019835 -0.017450 -0.015170 -0.061750 0.022099 
1.9750000000000001 -0.482880 0.242706 -0.012478 -0.019382 -0.018993 -0.013405 -0.063347 0.024075 
1.9762500000000001 -0.479553 0.290710 -0.014690 -0.019272 -0.020525 -0.012066 -0.064728 0.026726 
1.9775000000000000 -0.470093 0.339172 -0.016871 -0.018904 -0.021532 -0.009972 -0.066391 0.029129 
1.9787500000000000 -0.457520 0.391785 -0.019157 -0.017313 -0.022320 -0.007694 -0.068001 0.032028 
1.9800000000000000 -0.436340 0.448914 -0.021341 -0.016121 -0.023024 -0.005384 -0.069580 0.034142 
1.9812500000000000 -0.410339 0.511292 -0.024017 -0.014956 -0.023315 -0.003424 -0.070915 0.036369 
1.9824999999999999 -0.373474 0.573914 -0.026520 -0.013170 -0.023413 -0.001282 -0.071842 0.038830 
1.9837499999999999 -0.329102 0.635620 -0.029211 -0.010708 -0.023521 0.001290 -0.072613 0.041206 
1.9850000000000001 -0.266693 0.700745 -0.031992 -0.007843 -0.023211 0.003303 -0.073433 0.043724 
1.9862500000000001 -0.191345 0.762390 -0.034206 -0.004406 -0.023018 0.005343 -0.073654 0.046654 
1.9875000000000000 -0.103088 0.817932 -0.036453 0.000332 -0.022684 0.007277 -0.073273 0.049629 
1.9887500000000000 0.005920 0.861328 -0.037951 0.005228 -0.021495 0.009210 -0.073238 0.052826 
1.9900000000000000 0.132019 0.888061 -0.037930 0.010996 -0.020356 0.011455 -0.073025 0.056530 
1.9912500000000000 0.258179 0.892700 -0.037098 0.016993 -0.019367 0.012718 -0.072311 0.060387 
1.9924999999999999 0.403381 0.860657 -0.034021 0.023428 -0.018167 0.014616 -0.072163 0.064354 
1.9937499999999999 0.534119 0.808594 -0.031075 0.028664 -0.016516 0.016202 -0.071861 0.067833 
1.9950000000000001 0.662537 0.714172 -0.025669 0.033083 -0.015091 0.016956 -0.071690 0.071491 
1.9962500000000001 0.759766 0.599548 -0.019886 0.036617 -0.013730 0.018255 -0.070976 0.074783 
1.9975000000000001 0.843201 0.481567 -0.013800 0.039093 -0.012372 0.018989 -0.070538 0.078964 
1.9987500000000000 0.885681 0.336548 -0.008017 0.039637 -0.011177 0.020217 -0.070175 0.081154 
2.0000000000000000 0.902527 0.199829 -0.002234 0.039289 -0.009463 0.021243 -0.068619 0.084011 
2.0012500000000002 0.890503 0.078735 0.003258 0.037680 -0.007851 0.022252 -0.067238 0.086578 
2.0024999999999999 0.860779 -0.038330 0.007782 0.035675 -0.005839 0.023119 -0.065388 0.090000 
2.0037500000000001 0.818481 -0.130798 0.012016 0.033196 -0.003782 0.024143 -0.062416 0.092682 
2.0049999999999999 0.763367 -0.215637 0.015165 0.029800 -0.001547 0.024397 -0.059963 0.095642 
2.0062500000000001 0.706604 -0.282501 0.017608 0.027095 0.000807 0.024680 -0.057415 0.099003 
2.0074999999999998 0.647766 -0.338471 0.019613 0.023399 0.002755 0.024952 -0.055111 0.102161 
2.0087500000000000 0.587402 -0.380341 0.020759 0.020305 0.005548 0.025033 -0.052738 0.104725 
2.0099999999999998 0.530914 -0.414642 0.021992 0.017393 0.007750 0.024911 -0.049969 0.107853 
2.0112500000000000 0.474304 -0.439789 0.022413 0.014454 0.010524 0.023924 -0.048553 0.110321 
2.0125000000000002 0.421783 -0.459869 0.022362 0.011776 0.012676 0.022961 -0.045959 0.112324 
2.0137499999999999 0.374924 -0.474564 0.022348 0.009554 0.015075 0.021526 -0.043854 0.114399 
2.0150000000000001 0.327087 -0.485184 0.022356 0.007458 0.017040 0.019712 -0.041107 0.115830 
2.0162499999999999 0.283783 -0.488586 0.021896 0.005665 0.019115 0.017786 -0.039120 0.117466 
2.0175000000000001 0.243393 -0.492050 0.021740 0.003821 0.020517 0.015822 -0.036816 0.117416 
2.0187499999999998 0.206757 -0.492081 0.021197 0.002238 0.021828 0.014270 -0.033108 0.118641 
2.0200000000000000 0.171097 -0.490951 0.020916 0.000677 0.023150 0.011901 -0.030281 0.119415 
2.0212500000000002 0.137268 -0.487366 0.020409 -0.000888 0.023771 0.009844 -0.027554 0.120167 
2.0225000000000000 0.106201 -0.483231 0.019780 -0.002446 0.024940 0.007662 -0.024509 0.121559 
2.0237500000000002 0.078140 -0.476623 0.019464 -0.003660 0.025496 0.005051 -0.022018 0.122116 
2.0249999999999999 0.049652 -0.470856 0.018456 -0.005104 0.026247 0.002815 -0.019730 0.123093 
2.0262500000000001 0.024078 -0.461761 0.017663 -0.006349 0.025879 0.000519 -0.017593 0.124359 
2.0274999999999999 0.000549 -0.453735 0.016849 -0.007478 0.026085 -0.002319 -0.015373 0.124878 
2.0287500000000001 -0.024597 -0.445526 0.016053 -0.008670 0.025749 -0.004522 -0.013855 0.125526 
2.0299999999999998 -0.046021 -0.436157 0.015141 -0.009424 0.024824 -0.006866 -0.012222 0.125473 
2.0312500000000000 -0.069214 -0.426086 0.014396 -0.010122 0.024048 -0.008970 -0.010834 0.125816 
2.0325000000000002 -0.088470 -0.416046 0.013404 -0.010769 0.022806 -0.010974 -0.009415 0.126175 
2.0337499999999999 -0.108917 -0.405487 0.012564 -0.011424 0.021973 -0.013041 -0.008209 0.126221 
2.0350000000000001 -0.128113 -0.395081 0.011960 -0.012222 0.020762 -0.014904 -0.006729 0.126205 
2.0362499999999999 -0.145416 -0.383759 0.010775 -0.013076 0.019606 -0.016587 -0.005760 0.125877 
2.0375000000000001 -0.161926 -0.373261 0.010035 -0.013916 0.018021 -0.018649 -0.003609 0.126640 
2.0387499999999998 -0.177460 -0.362366 0.008887 -0.014418 0.016418 -0.019423 -0.001755 0.126823 
2.0400000000000000 -0.193176 -0.349701 0.007930 -0.015083 0.014534 -0.021147 -0.001060 0.127914 
2.0412499999999998 -0.208710 -0.338287 0.007056 -0.015486 0.012511 -0.022265 0.000709 0.128403 
2.0425000000000000 -0.222992 -0.325470 0.005679 -0.016050 0.010358 -0.022693 0.002022 0.129662 
2.0437500000000002 -0.237335 -0.313568 0.004337 -0.016279 0.008675 -0.024042 0.002663 0.130516 
2.0449999999999999 -0.252624 -0.299164 0.003194 -0.016537 0.006449 -0.024982 0.003944 0.131386 
2.0462500000000001 -0.263946 -0.285553 0.002130 -0.016420 0.004580 -0.025623 0.004448 0.132927 
2.0474999999999999 -0.276825 -0.271881 0.001127 -0.016668 0.002382 -0.026077 0.005928 0.133392 
2.0487500000000001 -0.289734 -0.256500 0.000068 -0.016827 -0.000023 -0.026230 0.007324 0.135483 
2.0499999999999998 -0.300720 -0.242584 -0.000953 -0.016788 -0.002230 -0.026365 0.008553 0.135841 
2.0512500000000000 -0.312439 -0.226532 -0.001918 -0.016938 -0.004416 -0.025761 0.010613 0.137016 
2.0525000000000002 -0.325531 -0.211395 -0.003119 -0.016911 -0.007298 -0.025192 0.012802 0.137978 
2.0537500000000000 -0.335266 -0.193451 -0.004066 -0.016903 -0.009516 -0.024887 0.015305 0.139160 
2.0550000000000002 -0.346680 -0.177246 -0.005201 -0.016943 -0.011463 -0.024086 0.017677 0.141212 
2.0562499999999999 -0.357300 -0.158569 -0.006805 -0.016909 -0.014111 -0.023081 0.020226 0.142662 
2.0575000000000001 -0.367035 -0.139343 -0.007946 -0.016420 -0.016058 -0.021704 0.023361 0.144714 
2.0587499999999999 -0.377624 -0.120239 -0.009275 -0.016436 -0.018129 -0.020340 0.025314 0.146606 
2.0600000000000001 -0.387482 -0.098846 -0.010851 -0.015839 -0.020060 -0.018600 0.027939 0.147827 
2.0612499999999998 -0.395904 -0.077225 -0.012039 -0.015533 -0.021423 -0.016489 0.030823 0.149368 
2.0625000000000000 -0.403534 -0.053299 -0.013500 -0.014446 -0.023104 -0.014767 0.033478 0.150223 
2.0637500000000002 -0.411438 -0.030197 -0.014750 -0.013732 -0.024492 -0.013226 0.036942 0.150894 
2.0649999999999999 -0.418488 -0.003952 -0.015935 -0.013023 -0.025476 -0.010484 0.040207 0.151131 
2.0662500000000001 -0.426758 0.023056 -0.017160 -0.012063 -0.026768 -0.008312 0.043716 0.151665 
2.0674999999999999 -0.432831 0.052765 -0.018462 -0.010940 -0.027164 -0.005784 0.047813 0.151642 
2.0687500000000001 -0.436981 0.081024 -0.020044 -0.010005 -0.028013 -0.003473 0.052597 0.151390 
2.0699999999999998 -0.438705 0.115234 -0.021129 -0.008390 -0.028070 -0.000784 0.057686 0.151253 
2.0712500000000000 -0.441864 0.147644 -0.022903 -0.007183 -0.028545 0.001844 0.062195 0.150391 
2.0724999999999998 -0.441681 0.183380 -0.024017 -0.005314 -0.028284 0.004980 0.066956 0.149933 
2.0737500000000000 -0.438721 0.223511 -0.025213 -0.003468 -0.027760 0.007471 0.071655 0.149948 
2.0750000000000002 -0.432678 0.263336 -0.026194 -0.001070 -0.027166 0.010296 0.077179 0.148880 
2.0762499999999999 -0.423554 0.307861 -0.026752 0.001089 -0.025812 0.012510 0.081161 0.147797 
2.0775000000000001 -0.411133 0.356781 -0.028011 0.003872 -0.024742 0.014772 0.086151 0.146256 
2.0787499999999999 -0.391174 0.405334 -0.028498 0.006365 -0.023312 0.017099 0.090302 0.145004 
2.0800000000000001 -0.365540 0.457962 -0.028463 0.009133 -0.021916 0.019206 0.094597 0.142525 
2.0812499999999998 -0.336029 0.514862 -0.028688 0.012468 -0.019529 0.021584 0.098663 0.139542 
2.0825000000000000 -0.289063 0.564148 -0.028934 0.015696 -0.017504 0.022999 0.103165 0.136841 
2.0837500000000002 -0.239746 0.620361 -0.028364 0.019161 -0.015200 0.025127 0.108002 0.133423 
2.0850000000000000 -0.170959 0.672913 -0.027796 0.023779 -0.012598 0.026184 0.111908 0.130020 
2.0862500000000002 -0.093384 0.718994 -0.025284 0.028118 -0.009855 0.026728 0.115982 0.126282 
2.0874999999999999 -0.000183 0.756042 -0.023067 0.033184 -0.007221 0.027435 0.120255 0.122910 
2.0887500000000001 0.113709 0.775635 -0.019192 0.037617 -0.004477 0.027899 0.124245 0.119034 
2.0899999999999999 0.225220 0.785950 -0.013630 0.041346 -0.002345 0.027299 0.127831 0.114883 
2.0912500000000001 0.347534 0.765015 -0.007214 0.044502 -0.000210 0.027714 0.130371 0.111404 
2.0924999999999998 0.471802 0.719849 -0.000242 0.046072 0.001850 0.027114 0.133583 0.108261 
2.0937500000000000 0.588501 0.643677 0.006775 0.045851 0.003829 0.026690 0.135620 0.103668 
2.0950000000000002 0.683838 0.549866 0.014374 0.043371 0.005460 0.026862 0.137985 0.099266 
2.0962499999999999 0.757416 0.437470 0.019812 0.040005 0.007764 0.026693 0.139320 0.094871 
2.0975000000000001 0.801117 0.319824 0.024868 0.036108 0.009890 0.026670 0.140839 0.091309 
2.0987499999999999 0.818604 0.193970 0.028742 0.031490 0.012516 0.026604 0.141434 0.086456 
2.1000000000000001 0.816406 0.079956 0.032169 0.026749 0.015368 0.025860 0.142731 0.081680 
2.1012499999999998 0.790161 -0.027710 0.033859 0.021816 0.017778 0.024227 0.143662 0.076782 
2.1025000000000000 0.751831 -0.118286 0.035122 0.017208 0.020098 0.023136 0.144165 0.073090 
2.1037499999999998 0.706238 -0.197754 0.035423 0.011929 0.022585 0.021656 0.145340 0.068466 
2.1050000000000000 0.654663 -0.264771 0.035690 0.007790 0.025303 0.019825 0.145950 0.064728 
2.1062500000000002 0.598083 -0.313446 0.034742 0.003292 0.028023 0.017105 0.146538 0.060783 
2.1074999999999999 0.543518 -0.354065 0.033844 -0.000494 0.030346 0.014328 0.146683 0.057571 
2.1087500000000001 0.490234 -0.386230 0.032156 -0.004002 0.031967 0.011192 0.146263 0.054108 
2.1099999999999999 0.437057 -0.409546 0.029974 -0.006666 0.033663 0.006863 0.146233 0.051231 
2.1112500000000001 0.387939 -0.425934 0.027910 -0.009373 0.033783 0.003487 0.145493 0.048340 
2.1124999999999998 0.339249 -0.438126 0.025670 -0.011048 0.033743 -0.001205 0.145348 0.045189 
2.1137500000000000 0.294693 -0.447769 0.023820 -0.012389 0.032944 -0.004810 0.144264 0.041786 
2.1150000000000002 0.253296 -0.451904 0.021809 -0.013452 0.031916 -0.008099 0.143654 0.038673 
2.1162500000000000 0.215225 -0.454742 0.020475 -0.014633 0.030489 -0.010883 0.143074 0.035729 
2.1175000000000002 0.178268 -0.454544 0.018582 -0.015388 0.028590 -0.013376 0.141907 0.033318 
2.1187499999999999 0.145157 -0.452042 0.017172 -0.016683 0.027411 -0.015712 0.141945 0.030335 
2.1200000000000001 0.113251 -0.449112 0.015755 -0.017667 0.025408 -0.018312 0.141983 0.028267 
2.1212499999999999 0.084259 -0.443192 0.013927 -0.018451 0.023582 -0.020484 0.141556 0.025620 
2.1225000000000001 0.055649 -0.436798 0.012599 -0.019158 0.021185 -0.022266 0.141098 0.023941 
2.1237499999999998 0.030365 -0.430420 0.010979 -0.019726 0.018929 -0.024012 0.141121 0.021172 
2.1250000000000000 0.005661 -0.422333 0.009217 -0.020201 0.016423 -0.025332 0.140167 0.019211 
2.1262500000000002 -0.018188 -0.414459 0.007483 -0.020576 0.014025 -0.026242 0.139565 0.018105 
2.1274999999999999 -0.039413 -0.406570 0.005623 -0.020456 0.011698 -0.026978 0.138863 0.016289 
2.1287500000000001 -0.061554 -0.396286 0.004163 -0.020213 0.009578 -0.027537 0.138474 0.013878 
2.1299999999999999 -0.079178 -0.388001 0.003003 -0.020100 0.007188 -0.027997 0.137405 0.011986 
2.1312500000000001 -0.098175 -0.376282 0.001741 -0.020014 0.005009 -0.028898 0.136246 0.009369 
2.1324999999999998 -0.116119 -0.366547 0.000340 -0.019909 0.002327 -0.029083 0.135887 0.007263 
2.1337500000000000 -0.132233 -0.356110 -0.000627 -0.019862 -0.000095 -0.029547 0.135483 0.004494 
2.1349999999999998 -0.147064 -0.345550 -0.001923 -0.020011 -0.002731 -0.029259 0.134582 0.002121 
2.1362500000000000 -0.163605 -0.333832 -0.003461 -0.019951 -0.005245 -0.028997 0.135048 -0.000267 
2.1375000000000002 -0.176849 -0.321442 -0.004637 -0.020048 -0.007917 -0.028254 0.134827 -0.002625 
2.1387499999999999 -0.192108 -0.308746 -0.006167 -0.019396 -0.010418 -0.027576 0.134010 -0.004959 
2.1400000000000001 -0.205231 -0.295288 -0.007771 -0.018898 -0.012850 -0.026447 0.133804 -0.006966 
2.1412499999999999 -0.218964 -0.283020 -0.009319 -0.018299 -0.015303 -0.024998 0.133179 -0.009087 
2.1425000000000001 -0.232849 -0.270111 -0.010618 -0.017637 -0.017620 -0.024029 0.131889 -0.011658 
2.1437499999999998 -0.243652 -0.257935 -0.011890 -0.016590 -0.019341 -0.022026 0.131348 -0.013550 
2.1450000000000000 -0.254852 -0.243164 -0.012861 -0.015673 -0.021450 -0.020681 0.129540 -0.015900 
2.1462500000000002 -0.266815 -0.228943 -0.013540 -0.014940 -0.023430 -0.018238 0.128044 -0.018539 
2.1475000000000000 -0.277985 -0.214294 -0.014765 -0.013918 -0.024790 -0.016064 0.126373 -0.021004 
2.1487500000000002 -0.287537 -0.198547 -0.015589 -0.013165 -0.026232 -0.014074 0.125130 -0.024307 
2.1499999999999999 -0.298706 -0.182342 -0.016668 -0.012272 -0.027269 -0.011621 0.123177 -0.027245 
2.1512500000000001 -0.308746 -0.166321 -0.017759 -0.011356 -0.027958 -0.009165 0.121590 -0.030220 
