!
! C:\Users\rflab\Downloads\Lab5_KD_ZW\360.S2P
!
! Touchstone 1.1 file saved by VNA.EXE V1.65 (www.ke5fx.com/gpib/readme.htm)
! 11/12/2024 12:36:17 AM
!
!    Source: HEWLETT PACKARD,8753D,0,6.14
!  Min freq: 1.900000E+009 Hz
!  Max freq: 2.900000E+009 Hz
!    Points: 801
!    Params: S11 S21 S12 S22
!
!!!!!
# GHZ S RI R 50
1.8999999999999999 0.962769 0.259460 -0.030792 0.016794 -0.017863 0.006219 0.026852 -0.057184 
1.9012500000000001 0.958313 0.129211 -0.027443 0.020775 -0.017429 0.007328 0.024511 -0.057472 
1.9025000000000001 0.928223 0.012512 -0.023458 0.022791 -0.016691 0.008709 0.022266 -0.058054 
1.9037500000000001 0.883423 -0.095520 -0.019857 0.024744 -0.016349 0.010085 0.020229 -0.058296 
1.9050000000000000 0.839081 -0.185455 -0.015754 0.026281 -0.015714 0.011151 0.017660 -0.057856 
1.9062500000000000 0.780518 -0.257446 -0.011916 0.026867 -0.015229 0.013064 0.015381 -0.057268 
1.9075000000000000 0.719482 -0.322876 -0.008389 0.026934 -0.014084 0.014661 0.013121 -0.056772 
1.9087499999999999 0.658508 -0.373566 -0.004852 0.026316 -0.012924 0.015926 0.010195 -0.055323 
1.9099999999999999 0.598663 -0.412811 -0.002422 0.025543 -0.011469 0.017378 0.007509 -0.054794 
1.9112499999999999 0.542389 -0.441315 -0.000169 0.024550 -0.009642 0.018291 0.004219 -0.053715 
1.9125000000000001 0.486694 -0.465851 0.002296 0.023635 -0.007788 0.019181 0.001112 -0.052641 
1.9137500000000001 0.435211 -0.484146 0.004014 0.022387 -0.006267 0.019769 -0.002005 -0.051943 
1.9150000000000000 0.386887 -0.498703 0.005561 0.021089 -0.004858 0.020017 -0.005095 -0.051149 
1.9162500000000000 0.338654 -0.506104 0.007199 0.019975 -0.002876 0.021027 -0.008041 -0.050329 
1.9175000000000000 0.296356 -0.512482 0.008198 0.018834 -0.001078 0.021177 -0.010550 -0.049166 
1.9187500000000000 0.256012 -0.516998 0.009452 0.017636 0.001094 0.021490 -0.012646 -0.048105 
1.9199999999999999 0.218384 -0.516144 0.010624 0.016335 0.003531 0.021799 -0.014524 -0.046631 
1.9212499999999999 0.182648 -0.513946 0.011654 0.015268 0.005863 0.021202 -0.016712 -0.045166 
1.9225000000000001 0.148682 -0.511932 0.012376 0.013811 0.007575 0.020502 -0.018782 -0.043282 
1.9237500000000001 0.114655 -0.508392 0.013433 0.012701 0.009328 0.019395 -0.020294 -0.041542 
1.9250000000000000 0.086731 -0.502594 0.013960 0.010984 0.011269 0.018345 -0.022755 -0.038933 
1.9262500000000000 0.057159 -0.497345 0.014515 0.009817 0.012617 0.017485 -0.024731 -0.036572 
1.9275000000000000 0.031769 -0.490204 0.014776 0.008692 0.013945 0.016069 -0.026791 -0.034134 
1.9287500000000000 0.005493 -0.482300 0.015127 0.007250 0.015381 0.014759 -0.028988 -0.031803 
1.9299999999999999 -0.017914 -0.474457 0.015101 0.005945 0.016691 0.013599 -0.031227 -0.029968 
1.9312499999999999 -0.040131 -0.465942 0.015265 0.004936 0.017673 0.011789 -0.033237 -0.028164 
1.9325000000000001 -0.063812 -0.455566 0.015398 0.003763 0.018990 0.009901 -0.034714 -0.026352 
1.9337500000000001 -0.083725 -0.445007 0.015226 0.002717 0.019805 0.008188 -0.036135 -0.024868 
1.9350000000000001 -0.105011 -0.434341 0.015287 0.001833 0.020123 0.006386 -0.037121 -0.023182 
1.9362500000000000 -0.124649 -0.423691 0.015177 0.001063 0.020839 0.004601 -0.037603 -0.021431 
1.9375000000000000 -0.143753 -0.413223 0.015269 -0.000084 0.020597 0.002849 -0.038420 -0.019417 
1.9387500000000000 -0.161835 -0.401764 0.015219 -0.001038 0.020733 0.001171 -0.038824 -0.017553 
1.9399999999999999 -0.179443 -0.390335 0.015006 -0.002281 0.020927 -0.000701 -0.039249 -0.015183 
1.9412499999999999 -0.195313 -0.377838 0.014796 -0.003069 0.020775 -0.002406 -0.039467 -0.012779 
1.9424999999999999 -0.213242 -0.366531 0.014530 -0.004132 0.020814 -0.004275 -0.040415 -0.009880 
1.9437500000000001 -0.229507 -0.352173 0.014016 -0.005037 0.020230 -0.006113 -0.041025 -0.007885 
1.9450000000000001 -0.244553 -0.338791 0.013780 -0.006209 0.019913 -0.007523 -0.042028 -0.006172 
1.9462500000000000 -0.260422 -0.325165 0.013424 -0.006843 0.019060 -0.009478 -0.043379 -0.004427 
1.9475000000000000 -0.275055 -0.311020 0.012979 -0.007659 0.018151 -0.010811 -0.044577 -0.003143 
1.9487500000000000 -0.290649 -0.297043 0.012455 -0.008737 0.017369 -0.012523 -0.045332 -0.001978 
1.9500000000000000 -0.303009 -0.281418 0.012052 -0.009484 0.016281 -0.013794 -0.046005 -0.001297 
1.9512499999999999 -0.317825 -0.266296 0.011273 -0.010559 0.015136 -0.015256 -0.046465 -0.000362 
1.9524999999999999 -0.331085 -0.250000 0.010910 -0.011299 0.013969 -0.016737 -0.046659 0.000570 
1.9537500000000001 -0.344955 -0.233231 0.010206 -0.012206 0.012409 -0.018079 -0.046757 0.001339 
1.9550000000000001 -0.356720 -0.216141 0.009248 -0.013028 0.011008 -0.019172 -0.046951 0.002592 
1.9562500000000000 -0.367859 -0.197189 0.008372 -0.013846 0.008854 -0.020257 -0.047379 0.003525 
1.9575000000000000 -0.381531 -0.178619 0.007782 -0.014342 0.007234 -0.021059 -0.048002 0.004915 
1.9587500000000000 -0.393311 -0.156784 0.006520 -0.015201 0.005327 -0.021850 -0.048576 0.006590 
1.9600000000000000 -0.404022 -0.136780 0.005493 -0.015697 0.003397 -0.022375 -0.049438 0.007622 
1.9612499999999999 -0.415680 -0.115112 0.004603 -0.016501 0.001574 -0.022530 -0.050385 0.008526 
1.9624999999999999 -0.425598 -0.092316 0.003555 -0.017031 -0.000566 -0.022663 -0.051737 0.010227 
1.9637500000000001 -0.436707 -0.067230 0.002542 -0.017593 -0.002626 -0.022749 -0.053007 0.011656 
1.9650000000000001 -0.446777 -0.039490 0.001269 -0.017989 -0.005026 -0.022532 -0.054239 0.012299 
1.9662500000000001 -0.454468 -0.011414 0.000129 -0.018513 -0.006855 -0.022043 -0.055656 0.013004 
1.9675000000000000 -0.462524 0.016388 -0.001188 -0.018929 -0.008768 -0.021240 -0.056734 0.014021 
1.9687500000000000 -0.468201 0.048950 -0.002485 -0.019485 -0.010683 -0.020538 -0.058056 0.015097 
1.9700000000000000 -0.474838 0.082840 -0.004297 -0.019835 -0.012697 -0.019522 -0.058723 0.016365 
1.9712499999999999 -0.479218 0.119186 -0.006012 -0.020437 -0.014519 -0.018305 -0.059792 0.018076 
1.9724999999999999 -0.483566 0.156448 -0.007992 -0.020470 -0.015753 -0.016947 -0.060574 0.019802 
1.9737499999999999 -0.484863 0.198975 -0.010113 -0.020636 -0.017483 -0.015825 -0.061483 0.021969 
1.9750000000000001 -0.480820 0.243683 -0.012346 -0.020487 -0.019214 -0.013983 -0.062855 0.024113 
1.9762500000000001 -0.479462 0.291534 -0.014641 -0.019947 -0.020313 -0.012379 -0.064388 0.026787 
1.9775000000000000 -0.468994 0.342407 -0.017097 -0.019234 -0.021765 -0.010752 -0.066353 0.029179 
1.9787500000000000 -0.456299 0.394714 -0.019348 -0.018387 -0.022764 -0.008112 -0.067539 0.031609 
1.9800000000000000 -0.435242 0.451294 -0.022081 -0.017282 -0.023321 -0.006113 -0.069038 0.034294 
1.9812500000000000 -0.408447 0.512756 -0.024437 -0.015524 -0.023678 -0.003756 -0.070862 0.036385 
1.9824999999999999 -0.372437 0.575745 -0.026850 -0.013689 -0.023914 -0.001307 -0.071453 0.038937 
1.9837499999999999 -0.324890 0.637024 -0.029350 -0.011566 -0.024059 0.000715 -0.072231 0.041061 
1.9850000000000001 -0.264862 0.702667 -0.032791 -0.008547 -0.023700 0.002906 -0.072861 0.043518 
1.9862500000000001 -0.188843 0.763489 -0.034941 -0.004425 -0.023094 0.004791 -0.072788 0.046322 
1.9875000000000000 -0.097595 0.820435 -0.037296 -0.000700 -0.022825 0.006954 -0.072800 0.049564 
1.9887500000000000 0.008728 0.856689 -0.038271 0.005026 -0.022161 0.009174 -0.072628 0.052662 
1.9900000000000000 0.133789 0.883362 -0.038927 0.010855 -0.021224 0.011028 -0.072670 0.056511 
1.9912500000000000 0.267212 0.892944 -0.038101 0.017319 -0.020032 0.012879 -0.071972 0.060249 
1.9924999999999999 0.405151 0.862305 -0.035734 0.023197 -0.018672 0.014232 -0.071995 0.064438 
1.9937499999999999 0.543884 0.803345 -0.031805 0.029043 -0.017375 0.015959 -0.071449 0.068012 
1.9950000000000001 0.668884 0.713501 -0.026911 0.033514 -0.015857 0.017104 -0.071468 0.071632 
1.9962500000000001 0.768616 0.601623 -0.020321 0.037468 -0.014466 0.018151 -0.070961 0.075146 
1.9975000000000001 0.846802 0.471558 -0.014301 0.039457 -0.012949 0.019259 -0.070820 0.078239 
1.9987500000000000 0.886597 0.332398 -0.008266 0.040171 -0.011679 0.020617 -0.069603 0.081455 
2.0000000000000000 0.902466 0.202820 -0.002441 0.039742 -0.010158 0.021708 -0.068157 0.084015 
2.0012500000000002 0.891968 0.071716 0.002588 0.038145 -0.008216 0.022597 -0.067085 0.086998 
2.0024999999999999 0.862366 -0.041870 0.006983 0.036184 -0.006044 0.023399 -0.064678 0.090092 
2.0037500000000001 0.815369 -0.135864 0.011580 0.033693 -0.004102 0.024424 -0.062542 0.093029 
2.0049999999999999 0.761780 -0.219482 0.014839 0.030716 -0.001745 0.025120 -0.060097 0.095627 
2.0062500000000001 0.705841 -0.286102 0.017515 0.027683 0.000391 0.025254 -0.057411 0.099033 
2.0074999999999998 0.647919 -0.341400 0.019605 0.024236 0.002839 0.025566 -0.054913 0.102226 
2.0087500000000000 0.585480 -0.381775 0.021111 0.021235 0.004983 0.025684 -0.052559 0.105003 
2.0099999999999998 0.530609 -0.416626 0.021761 0.018091 0.007582 0.025270 -0.049702 0.108048 
2.0112500000000000 0.473969 -0.441132 0.022455 0.015179 0.010031 0.024926 -0.048317 0.110565 
2.0125000000000002 0.421692 -0.459564 0.022676 0.012070 0.012858 0.023493 -0.045853 0.112759 
2.0137499999999999 0.373749 -0.473526 0.022566 0.009695 0.015229 0.022215 -0.043465 0.114430 
2.0150000000000001 0.326035 -0.483231 0.022602 0.008148 0.017614 0.020481 -0.041008 0.115681 
2.0162499999999999 0.283356 -0.489029 0.022463 0.005833 0.019150 0.018333 -0.039032 0.117237 
2.0175000000000001 0.243011 -0.491989 0.021863 0.004015 0.020829 0.016517 -0.036129 0.117996 
2.0187499999999998 0.205185 -0.491364 0.021591 0.002523 0.022103 0.014466 -0.033279 0.119370 
2.0200000000000000 0.170700 -0.490143 0.021122 0.000995 0.022984 0.012543 -0.030239 0.119522 
2.0212500000000002 0.136292 -0.485535 0.020782 -0.000840 0.024277 0.009930 -0.027493 0.120651 
2.0225000000000000 0.106674 -0.481247 0.020107 -0.002452 0.025162 0.007782 -0.024345 0.121727 
2.0237500000000002 0.076950 -0.476181 0.019547 -0.003766 0.025873 0.005629 -0.021698 0.122505 
2.0249999999999999 0.049744 -0.470795 0.019000 -0.005394 0.026634 0.003162 -0.019310 0.123688 
2.0262500000000001 0.023224 -0.461792 0.018102 -0.006354 0.026779 0.000629 -0.017441 0.125000 
2.0274999999999999 -0.000031 -0.453552 0.017438 -0.007268 0.026260 -0.001802 -0.014801 0.125481 
2.0287500000000001 -0.024902 -0.445923 0.016305 -0.008468 0.026243 -0.004301 -0.013634 0.126450 
2.0299999999999998 -0.048004 -0.434937 0.015783 -0.009566 0.025368 -0.006706 -0.012398 0.126419 
2.0312500000000000 -0.069641 -0.425751 0.014818 -0.010275 0.024479 -0.008694 -0.010757 0.126396 
2.0325000000000002 -0.088348 -0.415344 0.013741 -0.010827 0.024023 -0.010696 -0.009094 0.126549 
2.0337499999999999 -0.108398 -0.406006 0.012824 -0.011704 0.022623 -0.012960 -0.008118 0.126648 
2.0350000000000001 -0.128204 -0.394684 0.012174 -0.012441 0.021386 -0.014862 -0.006859 0.126533 
2.0362499999999999 -0.145203 -0.383087 0.011197 -0.013110 0.019834 -0.016742 -0.004799 0.126854 
2.0375000000000001 -0.162476 -0.373138 0.010302 -0.013919 0.018237 -0.018248 -0.003349 0.126900 
2.0387499999999998 -0.177704 -0.361664 0.009241 -0.014627 0.016656 -0.020098 -0.002182 0.127319 
2.0400000000000000 -0.193878 -0.349609 0.008173 -0.015252 0.014804 -0.021021 -0.000565 0.128586 
2.0412499999999998 -0.208313 -0.337738 0.007037 -0.015733 0.013040 -0.022376 0.001228 0.128853 
2.0425000000000000 -0.222992 -0.324951 0.005828 -0.016028 0.011404 -0.023460 0.002342 0.129776 
2.0437500000000002 -0.238159 -0.312683 0.004607 -0.016455 0.008825 -0.024437 0.003037 0.131073 
2.0449999999999999 -0.252014 -0.298706 0.003453 -0.016685 0.007225 -0.025135 0.003998 0.131851 
2.0462500000000001 -0.263519 -0.285583 0.002458 -0.016700 0.004576 -0.025728 0.005104 0.133041 
2.0474999999999999 -0.277039 -0.272400 0.001363 -0.016789 0.002548 -0.026096 0.006493 0.133904 
2.0487500000000001 -0.289856 -0.257141 0.000296 -0.016867 0.000036 -0.026428 0.007629 0.135452 
2.0499999999999998 -0.301819 -0.241242 -0.000750 -0.017007 -0.002337 -0.026402 0.009270 0.136024 
2.0512500000000000 -0.313019 -0.226105 -0.001759 -0.017232 -0.004570 -0.026552 0.011505 0.137192 
2.0525000000000002 -0.325226 -0.210419 -0.003059 -0.017330 -0.006779 -0.026217 0.013206 0.137863 
2.0537500000000000 -0.334961 -0.193176 -0.003916 -0.017135 -0.009352 -0.025148 0.015305 0.139389 
2.0550000000000002 -0.346771 -0.177093 -0.005142 -0.017214 -0.011038 -0.024469 0.018044 0.141060 
2.0562499999999999 -0.357086 -0.158417 -0.006624 -0.017281 -0.013903 -0.023342 0.020615 0.142433 
2.0575000000000001 -0.366608 -0.138977 -0.007767 -0.016676 -0.016171 -0.021875 0.023544 0.144539 
2.0587499999999999 -0.377319 -0.119324 -0.009193 -0.016653 -0.017960 -0.020866 0.025650 0.146240 
2.0600000000000001 -0.387238 -0.098358 -0.010759 -0.016115 -0.020155 -0.019293 0.028458 0.147919 
2.0612499999999998 -0.396011 -0.076599 -0.012283 -0.015715 -0.021935 -0.017506 0.030838 0.149323 
2.0625000000000000 -0.403732 -0.053085 -0.013233 -0.015135 -0.023224 -0.015116 0.033829 0.150177 
2.0637500000000002 -0.411758 -0.029694 -0.014806 -0.014126 -0.024340 -0.013285 0.036911 0.150528 
2.0649999999999999 -0.418503 -0.004456 -0.016145 -0.013244 -0.025663 -0.010973 0.040466 0.151436 
2.0662500000000001 -0.426025 0.024261 -0.017384 -0.012364 -0.026792 -0.008793 0.043999 0.151482 
2.0674999999999999 -0.431152 0.051773 -0.018909 -0.011500 -0.027605 -0.006220 0.048294 0.150986 
2.0687500000000001 -0.435959 0.082230 -0.020107 -0.010155 -0.028393 -0.003615 0.052605 0.151169 
2.0699999999999998 -0.439651 0.115326 -0.021494 -0.008938 -0.028856 -0.001110 0.057602 0.151092 
2.0712500000000000 -0.440308 0.148468 -0.022755 -0.007618 -0.028830 0.001516 0.062698 0.149872 
2.0724999999999998 -0.441650 0.183624 -0.024073 -0.005903 -0.028717 0.004332 0.067154 0.149368 
2.0737500000000000 -0.438782 0.223206 -0.025412 -0.003798 -0.028185 0.007193 0.071793 0.149429 
2.0750000000000002 -0.432037 0.264038 -0.026590 -0.001524 -0.027464 0.010115 0.077301 0.148590 
2.0762499999999999 -0.422852 0.308594 -0.027441 0.000654 -0.026993 0.012270 0.081589 0.147247 
2.0775000000000001 -0.410156 0.356598 -0.028465 0.003168 -0.025261 0.014818 0.086807 0.146454 
2.0787499999999999 -0.390045 0.407440 -0.029070 0.005983 -0.023544 0.017406 0.090622 0.144455 
2.0800000000000001 -0.366348 0.458969 -0.029325 0.008874 -0.022098 0.019498 0.095223 0.142189 
2.0812499999999998 -0.333404 0.514099 -0.029819 0.012163 -0.020159 0.021341 0.099365 0.139450 
2.0825000000000000 -0.287384 0.566223 -0.029518 0.015911 -0.017614 0.023483 0.103363 0.136963 
2.0837500000000002 -0.236786 0.618744 -0.028852 0.019423 -0.015497 0.024933 0.107925 0.132401 
2.0850000000000000 -0.170288 0.672302 -0.027817 0.023647 -0.012852 0.026217 0.112015 0.129654 
2.0862500000000002 -0.091858 0.716950 -0.026188 0.028780 -0.010197 0.027168 0.115982 0.126099 
2.0874999999999999 0.001465 0.755493 -0.023718 0.033367 -0.007460 0.027948 0.120651 0.122299 
2.0887500000000001 0.112244 0.780090 -0.019447 0.037861 -0.004831 0.027990 0.124649 0.118767 
2.0899999999999999 0.230164 0.779663 -0.014454 0.042204 -0.002408 0.028133 0.128075 0.114563 
2.0912500000000001 0.357056 0.759155 -0.008240 0.044903 -0.000364 0.027678 0.130875 0.111191 
2.0924999999999998 0.476257 0.718872 -0.000723 0.045998 0.001629 0.027519 0.133766 0.107765 
2.0937500000000000 0.588562 0.640808 0.006685 0.045813 0.003125 0.027267 0.136231 0.103523 
2.0950000000000002 0.683655 0.545593 0.013208 0.043793 0.005238 0.027335 0.138329 0.099075 
2.0962499999999999 0.761200 0.438202 0.019823 0.041090 0.007259 0.027167 0.140038 0.094681 
2.0975000000000001 0.799683 0.313843 0.024858 0.037045 0.009833 0.027584 0.141045 0.090492 
2.0987499999999999 0.817566 0.194885 0.028778 0.031921 0.012341 0.026928 0.142410 0.086365 
2.1000000000000001 0.812317 0.075012 0.032127 0.027550 0.015539 0.025810 0.142410 0.081451 
2.1012499999999998 0.789612 -0.028564 0.033756 0.022514 0.017790 0.024961 0.143616 0.076553 
2.1025000000000000 0.751892 -0.118591 0.035530 0.017601 0.020287 0.023417 0.144882 0.072632 
2.1037499999999998 0.707153 -0.196472 0.036385 0.012692 0.023031 0.021894 0.145950 0.068070 
2.1050000000000000 0.651672 -0.263306 0.035694 0.008339 0.025238 0.020109 0.145981 0.064774 
2.1062500000000002 0.598419 -0.313232 0.035051 0.003809 0.028063 0.017462 0.146309 0.060570 
2.1074999999999999 0.544037 -0.353088 0.033932 -0.000517 0.030569 0.014698 0.146660 0.057663 
2.1087500000000001 0.490860 -0.385727 0.032652 -0.003866 0.032368 0.011021 0.146347 0.054001 
2.1099999999999999 0.436173 -0.408218 0.030148 -0.006443 0.033772 0.007071 0.146706 0.051201 
2.1112500000000001 0.387894 -0.425003 0.028393 -0.008868 0.033974 0.003107 0.145958 0.048569 
2.1124999999999998 0.339233 -0.437317 0.026101 -0.010670 0.034016 -0.000553 0.145119 0.045197 
2.1137500000000000 0.295303 -0.447067 0.024147 -0.011984 0.033054 -0.004284 0.144440 0.042053 
2.1150000000000002 0.253372 -0.451599 0.022425 -0.013179 0.032030 -0.007475 0.143829 0.038887 
2.1162500000000000 0.215088 -0.454514 0.020716 -0.014278 0.030704 -0.010424 0.143516 0.035973 
2.1175000000000002 0.178162 -0.453903 0.019166 -0.015511 0.029271 -0.013246 0.142357 0.033325 
2.1187499999999999 0.145081 -0.451981 0.017640 -0.016453 0.027639 -0.015517 0.141876 0.030602 
2.1200000000000001 0.113663 -0.449097 0.016306 -0.017563 0.025547 -0.017945 0.142273 0.028175 
2.1212499999999999 0.083939 -0.443344 0.014508 -0.018317 0.023810 -0.020137 0.141823 0.025078 
2.1225000000000001 0.055679 -0.436920 0.012701 -0.019193 0.021713 -0.022151 0.141525 0.023498 
2.1237499999999998 0.030273 -0.430679 0.011113 -0.019800 0.019676 -0.023742 0.141243 0.021294 
2.1250000000000000 0.005783 -0.421585 0.009272 -0.020366 0.016690 -0.025310 0.140396 0.019409 
2.1262500000000002 -0.018707 -0.414658 0.007615 -0.020217 0.014148 -0.026009 0.139778 0.017899 
2.1274999999999999 -0.040070 -0.404907 0.006065 -0.020170 0.012541 -0.026830 0.139206 0.015915 
2.1287500000000001 -0.060333 -0.395844 0.004419 -0.020550 0.010136 -0.027753 0.138680 0.014198 
2.1299999999999999 -0.079300 -0.387619 0.003201 -0.020270 0.007422 -0.028477 0.137260 0.012169 
2.1312500000000001 -0.098221 -0.376373 0.002063 -0.020125 0.005014 -0.028904 0.137009 0.009323 
2.1324999999999998 -0.116394 -0.366470 0.000841 -0.019851 0.002602 -0.029181 0.136108 0.007271 
2.1337500000000000 -0.131226 -0.355499 -0.000233 -0.019944 0.000257 -0.029604 0.135773 0.004768 
2.1349999999999998 -0.147186 -0.345032 -0.001779 -0.020025 -0.002264 -0.029432 0.135437 0.002251 
2.1362500000000000 -0.163178 -0.333832 -0.002967 -0.020226 -0.005077 -0.029209 0.135346 -0.000282 
2.1375000000000002 -0.178009 -0.321503 -0.004598 -0.019950 -0.007463 -0.028412 0.135246 -0.002411 
2.1387499999999999 -0.192230 -0.308563 -0.006012 -0.019426 -0.010269 -0.027782 0.133659 -0.004494 
2.1400000000000001 -0.205353 -0.296112 -0.007452 -0.019127 -0.012468 -0.026779 0.133873 -0.007027 
2.1412499999999999 -0.218353 -0.283539 -0.008982 -0.018648 -0.014816 -0.025843 0.133240 -0.008934 
2.1425000000000001 -0.232300 -0.270325 -0.010275 -0.017792 -0.016800 -0.024199 0.132263 -0.011337 
2.1437499999999998 -0.243378 -0.258179 -0.011719 -0.016979 -0.019051 -0.022909 0.131363 -0.013344 
2.1450000000000000 -0.254974 -0.242889 -0.012592 -0.015957 -0.021116 -0.021023 0.129623 -0.016060 
2.1462500000000002 -0.266754 -0.228912 -0.013397 -0.015127 -0.023022 -0.018991 0.128311 -0.018608 
2.1475000000000000 -0.277771 -0.214386 -0.014549 -0.014280 -0.024744 -0.016809 0.126244 -0.021141 
2.1487500000000002 -0.287689 -0.198151 -0.015686 -0.013428 -0.025984 -0.014349 0.125427 -0.024170 
2.1499999999999999 -0.298492 -0.182434 -0.016428 -0.012959 -0.027374 -0.012142 0.123230 -0.027603 
2.1512500000000001 -0.308746 -0.166351 -0.017445 -0.011860 -0.028154 -0.009676 0.121765 -0.030495 
