!
! C:\Users\rflab\Downloads\Lab5_KD_ZW\40.S2P
!
! Touchstone 1.1 file saved by VNA.EXE V1.65 (www.ke5fx.com/gpib/readme.htm)
! 11/11/2024 11:38:46 PM
!
!    Source: HEWLETT PACKARD,8753D,0,6.14
!  Min freq: 1.900000E+009 Hz
!  Max freq: 2.900000E+009 Hz
!    Points: 801
!    Params: S11 S21 S12 S22
!
!!!!!
# GHZ S RI R 50
1.8999999999999999 0.956360 0.280640 -0.015224 0.019163 -0.009704 0.008970 0.024004 -0.057568 
1.9012500000000001 0.955994 0.148804 -0.011977 0.020223 -0.008995 0.009169 0.021366 -0.057711 
1.9025000000000001 0.933106 0.019104 -0.009139 0.021106 -0.008492 0.010069 0.019371 -0.057970 
1.9037500000000001 0.893433 -0.080383 -0.006200 0.021153 -0.007851 0.010798 0.016937 -0.058228 
1.9050000000000000 0.846497 -0.177368 -0.003345 0.021082 -0.006942 0.011451 0.014875 -0.057425 
1.9062500000000000 0.789948 -0.252136 -0.000291 0.020434 -0.006024 0.012202 0.012411 -0.057037 
1.9075000000000000 0.725525 -0.314911 0.001666 0.019614 -0.005116 0.012831 0.010569 -0.056541 
1.9087499999999999 0.666992 -0.365601 0.003699 0.018471 -0.003947 0.013734 0.007755 -0.055002 
1.9099999999999999 0.605530 -0.406372 0.005241 0.017014 -0.002686 0.014078 0.005104 -0.053902 
1.9112499999999999 0.549896 -0.440124 0.006211 0.015911 -0.001408 0.014369 0.001917 -0.052872 
1.9125000000000001 0.495056 -0.465454 0.007479 0.014269 -0.000113 0.014036 -0.000957 -0.051783 
1.9137500000000001 0.442108 -0.483841 0.008558 0.013219 0.001042 0.014437 -0.003771 -0.050920 
1.9150000000000000 0.392792 -0.496735 0.009135 0.012179 0.002141 0.014215 -0.006786 -0.049536 
1.9162500000000000 0.345032 -0.507782 0.009748 0.010985 0.003407 0.014167 -0.009356 -0.048759 
1.9175000000000000 0.303223 -0.512238 0.010208 0.009851 0.005069 0.013983 -0.011671 -0.047789 
1.9187500000000000 0.261505 -0.516388 0.010844 0.008957 0.006525 0.013620 -0.013712 -0.046850 
1.9199999999999999 0.223023 -0.516571 0.011265 0.007835 0.007938 0.013024 -0.015350 -0.045046 
1.9212499999999999 0.187378 -0.514526 0.011683 0.006765 0.009128 0.012454 -0.017143 -0.043707 
1.9225000000000001 0.153503 -0.513092 0.011780 0.005607 0.009996 0.011189 -0.019035 -0.041502 
1.9237500000000001 0.120361 -0.509796 0.011758 0.004525 0.011116 0.010169 -0.020634 -0.039833 
1.9250000000000000 0.090576 -0.504394 0.012057 0.003475 0.012022 0.008827 -0.022400 -0.037346 
1.9262500000000000 0.061554 -0.498474 0.011930 0.002542 0.012935 0.007862 -0.024323 -0.034988 
1.9275000000000000 0.036102 -0.491699 0.011814 0.001457 0.013328 0.006629 -0.025803 -0.032608 
1.9287500000000000 0.007965 -0.484863 0.011762 0.000748 0.013778 0.005436 -0.027637 -0.030285 
1.9299999999999999 -0.014832 -0.475677 0.011626 -0.000052 0.014387 0.004634 -0.029278 -0.028355 
1.9312499999999999 -0.037201 -0.467377 0.011342 -0.000833 0.014671 0.002878 -0.031242 -0.026474 
1.9325000000000001 -0.061035 -0.458466 0.011103 -0.001528 0.015166 0.001700 -0.032612 -0.024830 
1.9337500000000001 -0.081192 -0.447006 0.010942 -0.002312 0.015127 0.000374 -0.033667 -0.023216 
1.9350000000000001 -0.103165 -0.438461 0.010475 -0.002742 0.014834 -0.001243 -0.034573 -0.021833 
1.9362500000000000 -0.121994 -0.426697 0.010268 -0.003741 0.014552 -0.002491 -0.034937 -0.020191 
1.9375000000000000 -0.141754 -0.416061 0.009955 -0.004179 0.014461 -0.003664 -0.035292 -0.018284 
1.9387500000000000 -0.158966 -0.404953 0.009739 -0.004889 0.013913 -0.004947 -0.035856 -0.016867 
1.9399999999999999 -0.177597 -0.393158 0.009281 -0.005651 0.013437 -0.005996 -0.035851 -0.014902 
1.9412499999999999 -0.194031 -0.380890 0.008857 -0.006336 0.012987 -0.007343 -0.036638 -0.012857 
1.9424999999999999 -0.210190 -0.369812 0.008374 -0.006748 0.012373 -0.008383 -0.037081 -0.010380 
1.9437500000000001 -0.226975 -0.355331 0.007752 -0.007290 0.011505 -0.009605 -0.037785 -0.008713 
1.9450000000000001 -0.243256 -0.342026 0.007295 -0.007883 0.011006 -0.010750 -0.038429 -0.007391 
1.9462500000000000 -0.258881 -0.328384 0.006889 -0.008276 0.009810 -0.011408 -0.039820 -0.005663 
1.9475000000000000 -0.273422 -0.314148 0.006293 -0.008665 0.008914 -0.012237 -0.040533 -0.004475 
1.9487500000000000 -0.287766 -0.299637 0.005557 -0.009142 0.007960 -0.013072 -0.041430 -0.003798 
1.9500000000000000 -0.300552 -0.284485 0.005120 -0.009678 0.006765 -0.013480 -0.042194 -0.002947 
1.9512499999999999 -0.315521 -0.269363 0.004672 -0.009812 0.005479 -0.014598 -0.042871 -0.002359 
1.9524999999999999 -0.329544 -0.252380 0.003943 -0.010445 0.004439 -0.014881 -0.042973 -0.002241 
1.9537500000000001 -0.342606 -0.236130 0.003176 -0.010938 0.003040 -0.015436 -0.043564 -0.001652 
1.9550000000000001 -0.354614 -0.217712 0.002232 -0.011182 0.001362 -0.015408 -0.044281 -0.000452 
1.9562500000000000 -0.365677 -0.199951 0.001515 -0.011296 -0.000050 -0.015924 -0.044823 0.000584 
1.9575000000000000 -0.379684 -0.180969 0.000655 -0.011855 -0.001452 -0.015555 -0.045834 0.001657 
1.9587500000000000 -0.390793 -0.159393 -0.000049 -0.011920 -0.002843 -0.015579 -0.046394 0.002815 
1.9600000000000000 -0.402328 -0.139008 -0.001061 -0.012125 -0.003993 -0.015406 -0.047613 0.004211 
1.9612499999999999 -0.414642 -0.116303 -0.001771 -0.011998 -0.005219 -0.015288 -0.049240 0.004837 
1.9624999999999999 -0.423615 -0.094574 -0.002604 -0.012073 -0.006838 -0.014539 -0.051121 0.006382 
1.9637500000000001 -0.435425 -0.069153 -0.003613 -0.012248 -0.008292 -0.014059 -0.052975 0.007252 
1.9650000000000001 -0.445038 -0.042542 -0.004364 -0.011813 -0.009839 -0.013239 -0.054562 0.008110 
1.9662500000000001 -0.453278 -0.015411 -0.005126 -0.012004 -0.010671 -0.012201 -0.056263 0.009212 
1.9675000000000000 -0.461090 0.013977 -0.006339 -0.011916 -0.011930 -0.011288 -0.057835 0.010216 
1.9687500000000000 -0.468231 0.046081 -0.007387 -0.012128 -0.012894 -0.010056 -0.059601 0.011217 
1.9700000000000000 -0.474899 0.079514 -0.008510 -0.011657 -0.014112 -0.008868 -0.060537 0.012472 
1.9712499999999999 -0.479965 0.117157 -0.009881 -0.011279 -0.014670 -0.007638 -0.062170 0.014496 
1.9724999999999999 -0.482132 0.152725 -0.011130 -0.010722 -0.015464 -0.006213 -0.063248 0.016365 
1.9737499999999999 -0.484222 0.194199 -0.012343 -0.010313 -0.015826 -0.004702 -0.064220 0.018726 
1.9750000000000001 -0.482620 0.239777 -0.013822 -0.009547 -0.016587 -0.003510 -0.066250 0.021313 
1.9762500000000001 -0.478241 0.286804 -0.015198 -0.008692 -0.016859 -0.001785 -0.068157 0.024342 
1.9775000000000000 -0.470520 0.334961 -0.016670 -0.007353 -0.017033 -0.000108 -0.069996 0.026688 
1.9787500000000000 -0.457886 0.388428 -0.017721 -0.005882 -0.016999 0.001431 -0.071701 0.030228 
1.9800000000000000 -0.435547 0.444946 -0.018955 -0.004444 -0.016742 0.002924 -0.073612 0.032944 
1.9812500000000000 -0.409851 0.506165 -0.020208 -0.002832 -0.016354 0.004814 -0.075287 0.035549 
1.9824999999999999 -0.373596 0.568481 -0.020839 -0.000937 -0.015712 0.005844 -0.076374 0.038376 
1.9837499999999999 -0.326904 0.631531 -0.022152 0.001314 -0.014906 0.007386 -0.076939 0.040611 
1.9850000000000001 -0.266266 0.694733 -0.023056 0.004033 -0.014092 0.008535 -0.077522 0.044037 
1.9862500000000001 -0.194580 0.759888 -0.023518 0.007309 -0.013405 0.009912 -0.078045 0.047283 
1.9875000000000000 -0.106140 0.814575 -0.023353 0.010823 -0.012453 0.011016 -0.077717 0.050552 
1.9887500000000000 0.002380 0.854187 -0.022585 0.014365 -0.011502 0.012320 -0.077736 0.054302 
1.9900000000000000 0.125305 0.881409 -0.021015 0.018393 -0.010168 0.012825 -0.076885 0.058483 
1.9912500000000000 0.255493 0.885803 -0.018643 0.021832 -0.008875 0.013761 -0.076561 0.062630 
1.9924999999999999 0.396668 0.861145 -0.016029 0.025312 -0.007572 0.014742 -0.076099 0.066574 
1.9937499999999999 0.532349 0.809387 -0.011040 0.027334 -0.006186 0.015059 -0.075813 0.070930 
1.9950000000000001 0.659424 0.717590 -0.006828 0.029236 -0.004792 0.015350 -0.075073 0.074852 
1.9962500000000001 0.760681 0.608032 -0.002384 0.029148 -0.003658 0.015595 -0.074177 0.078827 
1.9975000000000001 0.836121 0.477722 0.002689 0.029272 -0.002705 0.016238 -0.073532 0.081932 
1.9987500000000000 0.887817 0.340698 0.006611 0.027836 -0.001424 0.016385 -0.072330 0.085255 
2.0000000000000000 0.905029 0.210388 0.009739 0.025990 -0.000051 0.016604 -0.070381 0.088306 
2.0012500000000002 0.892944 0.086914 0.012802 0.022837 0.001616 0.016519 -0.068207 0.091183 
2.0024999999999999 0.862549 -0.035095 0.015076 0.020725 0.002929 0.016752 -0.065876 0.094105 
2.0037500000000001 0.818359 -0.126343 0.016956 0.018263 0.004642 0.016474 -0.062832 0.096813 
2.0049999999999999 0.767822 -0.215027 0.018112 0.014748 0.005980 0.016069 -0.060257 0.099625 
2.0062500000000001 0.708008 -0.280212 0.019046 0.012394 0.007277 0.015915 -0.057369 0.102566 
2.0074999999999998 0.650024 -0.338654 0.019583 0.009440 0.009073 0.015162 -0.054199 0.105473 
2.0087500000000000 0.589386 -0.382782 0.019520 0.007124 0.010640 0.014589 -0.051331 0.108120 
2.0099999999999998 0.533814 -0.415588 0.018701 0.004456 0.012130 0.013441 -0.048382 0.110485 
2.0112500000000000 0.477264 -0.440674 0.018386 0.002972 0.013529 0.012507 -0.046082 0.112705 
2.0125000000000002 0.425720 -0.460602 0.017563 0.000970 0.015052 0.011015 -0.043053 0.114681 
2.0137499999999999 0.375824 -0.473129 0.017061 -0.000249 0.016131 0.009668 -0.040653 0.116074 
2.0150000000000001 0.328384 -0.484985 0.016418 -0.001722 0.016716 0.007673 -0.037647 0.117237 
2.0162499999999999 0.287811 -0.490540 0.015494 -0.002898 0.017499 0.006042 -0.035618 0.117916 
2.0175000000000001 0.246704 -0.492279 0.014660 -0.003712 0.017722 0.003957 -0.032650 0.118233 
2.0187499999999998 0.208649 -0.493515 0.014059 -0.004667 0.017662 0.002535 -0.029537 0.118656 
2.0200000000000000 0.171722 -0.490891 0.013309 -0.005425 0.017926 0.000886 -0.026001 0.118301 
2.0212500000000002 0.138977 -0.487640 0.012618 -0.006751 0.017946 -0.000697 -0.024017 0.119068 
2.0225000000000000 0.107819 -0.483505 0.011843 -0.007282 0.017883 -0.002255 -0.020645 0.119389 
2.0237500000000002 0.079880 -0.478439 0.011097 -0.007953 0.017588 -0.003771 -0.017876 0.119328 
2.0249999999999999 0.050507 -0.471649 0.010360 -0.008681 0.017420 -0.005850 -0.015701 0.119965 
2.0262500000000001 0.024445 -0.463898 0.009250 -0.009280 0.016453 -0.006933 -0.013718 0.120728 
2.0274999999999999 0.001404 -0.455689 0.008526 -0.009685 0.015476 -0.008962 -0.011925 0.120598 
2.0287500000000001 -0.022705 -0.448425 0.007710 -0.010082 0.014656 -0.010293 -0.010963 0.120850 
2.0299999999999998 -0.045837 -0.438019 0.006734 -0.010273 0.013572 -0.011701 -0.009506 0.120567 
2.0312500000000000 -0.067505 -0.429962 0.005915 -0.010505 0.012731 -0.012485 -0.008560 0.120247 
2.0325000000000002 -0.086090 -0.418976 0.005435 -0.010900 0.011240 -0.013904 -0.007370 0.120255 
2.0337499999999999 -0.106293 -0.408691 0.004375 -0.011025 0.009901 -0.014502 -0.007385 0.119881 
2.0350000000000001 -0.125030 -0.397308 0.003705 -0.011339 0.008777 -0.015462 -0.005737 0.119782 
2.0362499999999999 -0.143280 -0.386688 0.003201 -0.011376 0.007095 -0.015741 -0.004951 0.119415 
2.0375000000000001 -0.159973 -0.376099 0.002219 -0.011308 0.005923 -0.016390 -0.003883 0.120003 
2.0387499999999998 -0.175964 -0.364441 0.001357 -0.011780 0.004427 -0.016775 -0.002586 0.120468 
2.0400000000000000 -0.191773 -0.352631 0.000612 -0.011677 0.002724 -0.016807 -0.001945 0.121567 
2.0412499999999998 -0.207092 -0.340363 -0.000199 -0.011541 0.001228 -0.017566 -0.000923 0.122459 
2.0425000000000000 -0.221771 -0.326782 -0.001075 -0.011563 0.000004 -0.017337 -0.000343 0.123848 
2.0437500000000002 -0.236054 -0.315399 -0.001674 -0.011336 -0.001799 -0.017271 -0.000175 0.125305 
2.0449999999999999 -0.249390 -0.302185 -0.002783 -0.011091 -0.002612 -0.017101 0.000877 0.126320 
2.0462500000000001 -0.261688 -0.287750 -0.003424 -0.010937 -0.004642 -0.016997 0.001694 0.128059 
2.0474999999999999 -0.275085 -0.274658 -0.003892 -0.010590 -0.006100 -0.016981 0.002029 0.129509 
2.0487500000000001 -0.288147 -0.258453 -0.004634 -0.010223 -0.007002 -0.016014 0.003075 0.131081 
2.0499999999999998 -0.299561 -0.244202 -0.005207 -0.010020 -0.008446 -0.015312 0.004311 0.132294 
2.0512500000000000 -0.311859 -0.228760 -0.005795 -0.009585 -0.010073 -0.014574 0.005913 0.134186 
2.0525000000000002 -0.323120 -0.213623 -0.006476 -0.009411 -0.011326 -0.013868 0.007492 0.135567 
2.0537500000000000 -0.334228 -0.196381 -0.007364 -0.009263 -0.012533 -0.012453 0.009842 0.137360 
2.0550000000000002 -0.345154 -0.180115 -0.007983 -0.008819 -0.013884 -0.011417 0.012131 0.139854 
2.0562499999999999 -0.356689 -0.161224 -0.008716 -0.008396 -0.014690 -0.010115 0.014885 0.141724 
2.0575000000000001 -0.365601 -0.143402 -0.009418 -0.007858 -0.015812 -0.008920 0.018242 0.143951 
2.0587499999999999 -0.376892 -0.124023 -0.010300 -0.007380 -0.016659 -0.007355 0.020294 0.146423 
2.0600000000000001 -0.386414 -0.102905 -0.010906 -0.006734 -0.017468 -0.005947 0.023132 0.148819 
2.0612499999999998 -0.395599 -0.081726 -0.011417 -0.006015 -0.017688 -0.004440 0.026428 0.151047 
2.0625000000000000 -0.403122 -0.057846 -0.012300 -0.005330 -0.018004 -0.002778 0.029739 0.152664 
2.0637500000000002 -0.410934 -0.035355 -0.012704 -0.004273 -0.018211 -0.001245 0.033050 0.153229 
2.0649999999999999 -0.418274 -0.009155 -0.013093 -0.003436 -0.018511 0.000370 0.036789 0.155136 
2.0662500000000001 -0.425659 0.017731 -0.013735 -0.002588 -0.018465 0.001937 0.040634 0.155403 
2.0674999999999999 -0.432404 0.044861 -0.014190 -0.001465 -0.017968 0.003778 0.044838 0.155807 
2.0687500000000001 -0.434937 0.073654 -0.014742 -0.000549 -0.017767 0.005287 0.050186 0.156380 
2.0699999999999998 -0.439102 0.107773 -0.015035 0.000576 -0.017621 0.006808 0.055252 0.156395 
2.0712500000000000 -0.440704 0.140747 -0.015564 0.001917 -0.016761 0.008777 0.060867 0.155594 
2.0724999999999998 -0.441681 0.175751 -0.015737 0.003148 -0.015871 0.010229 0.065460 0.155395 
2.0737500000000000 -0.439300 0.215912 -0.016060 0.004498 -0.015142 0.012014 0.070923 0.155395 
2.0750000000000002 -0.433411 0.256256 -0.015986 0.005956 -0.013374 0.013485 0.077057 0.154755 
2.0762499999999999 -0.425476 0.300232 -0.015862 0.007711 -0.012153 0.014264 0.081772 0.153427 
2.0775000000000001 -0.413177 0.348267 -0.015695 0.009476 -0.011030 0.015606 0.087158 0.152390 
2.0787499999999999 -0.394684 0.396423 -0.015277 0.011030 -0.009785 0.016433 0.091248 0.150375 
2.0800000000000001 -0.372223 0.449799 -0.014929 0.012836 -0.008105 0.017323 0.096458 0.147797 
2.0812499999999998 -0.342407 0.501312 -0.013967 0.015127 -0.006614 0.018197 0.101517 0.144943 
2.0825000000000000 -0.298828 0.559418 -0.013064 0.016869 -0.004679 0.018498 0.106018 0.141541 
2.0837500000000002 -0.251312 0.611786 -0.011952 0.019030 -0.002771 0.018992 0.110169 0.138046 
2.0850000000000000 -0.185333 0.665741 -0.010684 0.021141 -0.000618 0.019148 0.114975 0.133942 
2.0862500000000002 -0.111298 0.712921 -0.008444 0.023257 0.000971 0.018961 0.119110 0.130112 
2.0874999999999999 -0.021667 0.755066 -0.005457 0.026033 0.002705 0.018379 0.123962 0.125732 
2.0887500000000001 0.091248 0.780579 -0.002239 0.027411 0.004152 0.018007 0.127899 0.121994 
2.0899999999999999 0.202637 0.787048 0.001846 0.028013 0.005639 0.017088 0.131714 0.116882 
2.0912500000000001 0.323486 0.771729 0.006336 0.028641 0.006857 0.016537 0.134811 0.113052 
2.0924999999999998 0.449829 0.730835 0.010242 0.027916 0.008154 0.016043 0.137558 0.109039 
2.0937500000000000 0.566284 0.663269 0.015482 0.026152 0.008876 0.015339 0.139763 0.104248 
2.0950000000000002 0.665405 0.575256 0.018679 0.022806 0.010103 0.014627 0.142067 0.099365 
2.0962499999999999 0.744598 0.463409 0.021935 0.019562 0.011395 0.014111 0.142815 0.094284 
2.0975000000000001 0.791504 0.343750 0.024343 0.016311 0.012919 0.014041 0.143829 0.089813 
2.0987499999999999 0.815430 0.215637 0.025475 0.012514 0.014071 0.012568 0.144806 0.084366 
2.1000000000000001 0.816406 0.096863 0.025444 0.008579 0.015560 0.011331 0.145599 0.079376 
2.1012499999999998 0.795532 -0.013000 0.026085 0.005289 0.016994 0.010534 0.145203 0.074554 
2.1025000000000000 0.762085 -0.103332 0.025673 0.002090 0.018106 0.009029 0.145966 0.070129 
2.1037499999999998 0.713684 -0.186829 0.025209 -0.001198 0.018967 0.007502 0.146439 0.065292 
2.1050000000000000 0.661377 -0.252441 0.023647 -0.004047 0.020012 0.005539 0.146713 0.061127 
2.1062500000000002 0.606750 -0.306854 0.022324 -0.006449 0.021016 0.003501 0.146820 0.057091 
2.1074999999999999 0.551605 -0.348206 0.020485 -0.008889 0.021905 0.001315 0.146889 0.053650 
2.1087500000000001 0.497604 -0.382462 0.018709 -0.010419 0.022019 -0.001230 0.145371 0.050056 
2.1099999999999999 0.443543 -0.407333 0.016677 -0.011766 0.021860 -0.003788 0.145203 0.047096 
2.1112500000000001 0.395126 -0.425720 0.015212 -0.012243 0.021189 -0.006221 0.144302 0.044090 
2.1124999999999998 0.346344 -0.438660 0.012912 -0.013327 0.020268 -0.008647 0.143265 0.041099 
2.1137500000000000 0.302963 -0.449799 0.011644 -0.013203 0.018849 -0.010936 0.141472 0.037994 
2.1150000000000002 0.261032 -0.454315 0.010135 -0.013527 0.017492 -0.012445 0.140312 0.035004 
2.1162500000000000 0.222275 -0.457016 0.008850 -0.013795 0.016042 -0.013878 0.139542 0.032478 
2.1175000000000002 0.185577 -0.456726 0.007705 -0.014212 0.014336 -0.014679 0.138557 0.030128 
2.1187499999999999 0.152145 -0.454590 0.006718 -0.014624 0.012682 -0.016099 0.137573 0.027237 
2.1200000000000001 0.120438 -0.451996 0.005353 -0.014689 0.011229 -0.017245 0.137512 0.025108 
2.1212499999999999 0.090271 -0.446106 0.004475 -0.014708 0.009463 -0.017853 0.136627 0.022400 
2.1225000000000001 0.062073 -0.439484 0.002876 -0.014830 0.007558 -0.018243 0.135864 0.021133 
2.1237499999999998 0.035553 -0.433670 0.001794 -0.014825 0.005686 -0.018694 0.135559 0.019173 
2.1250000000000000 0.010712 -0.424896 0.000535 -0.014502 0.004156 -0.019371 0.135262 0.017525 
2.1262500000000002 -0.013153 -0.418121 -0.000379 -0.014259 0.002449 -0.019401 0.134666 0.016579 
2.1274999999999999 -0.034348 -0.409226 -0.001234 -0.013762 0.000448 -0.019125 0.134109 0.015167 
2.1287500000000001 -0.054520 -0.399475 -0.002190 -0.013582 -0.000739 -0.019157 0.133217 0.013046 
2.1299999999999999 -0.074341 -0.389954 -0.003106 -0.012990 -0.002451 -0.019312 0.132660 0.012070 
2.1312500000000001 -0.093185 -0.378616 -0.003936 -0.012822 -0.003866 -0.018815 0.131310 0.009277 
2.1324999999999998 -0.112839 -0.369293 -0.004247 -0.012218 -0.005174 -0.018507 0.130814 0.007965 
2.1337500000000000 -0.128143 -0.358368 -0.005243 -0.012072 -0.006973 -0.017962 0.130730 0.005776 
2.1349999999999998 -0.143982 -0.347839 -0.005941 -0.011939 -0.008540 -0.017371 0.130096 0.003868 
2.1362500000000000 -0.159912 -0.336975 -0.006646 -0.011449 -0.009981 -0.016396 0.130867 0.001488 
2.1375000000000002 -0.174866 -0.324829 -0.007685 -0.011103 -0.011274 -0.015358 0.131241 -0.000565 
2.1387499999999999 -0.190094 -0.312347 -0.008475 -0.010448 -0.012884 -0.014483 0.130638 -0.002243 
2.1400000000000001 -0.202667 -0.299286 -0.009110 -0.010002 -0.014183 -0.013386 0.130814 -0.004677 
2.1412499999999999 -0.216705 -0.287048 -0.009874 -0.008920 -0.015631 -0.012112 0.130638 -0.006447 
2.1425000000000001 -0.230469 -0.273834 -0.010577 -0.008209 -0.016142 -0.010811 0.130142 -0.008804 
2.1437499999999998 -0.241608 -0.261993 -0.011274 -0.007390 -0.017052 -0.009169 0.129631 -0.011154 
2.1450000000000000 -0.253326 -0.247162 -0.011580 -0.006330 -0.018217 -0.007456 0.128662 -0.012764 
2.1462500000000002 -0.265198 -0.232910 -0.012114 -0.005845 -0.018774 -0.005926 0.127831 -0.015442 
2.1475000000000000 -0.277008 -0.219055 -0.012349 -0.004972 -0.018991 -0.004450 0.126419 -0.017761 
2.1487500000000002 -0.286835 -0.202972 -0.012803 -0.004494 -0.019300 -0.002649 0.125626 -0.020966 
2.1499999999999999 -0.297791 -0.187561 -0.013039 -0.003572 -0.019992 -0.000804 0.123993 -0.024170 
2.1512500000000001 -0.307526 -0.171905 -0.013806 -0.002952 -0.019750 0.000916 0.123200 -0.026970 
