!
! C:\Users\rflab\Downloads\Lab5_KD_ZW\50.S2P
!
! Touchstone 1.1 file saved by VNA.EXE V1.65 (www.ke5fx.com/gpib/readme.htm)
! 11/11/2024 11:40:04 PM
!
!    Source: HEWLETT PACKARD,8753D,0,6.14
!  Min freq: 1.900000E+009 Hz
!  Max freq: 2.900000E+009 Hz
!    Points: 801
!    Params: S11 S21 S12 S22
!
!!!!!
# GHZ S RI R 50
1.8999999999999999 0.960693 0.274658 -0.009050 0.018306 -0.006177 0.008898 0.023348 -0.057146 
1.9012500000000001 0.958984 0.138001 -0.006384 0.019007 -0.005845 0.009383 0.020765 -0.057899 
1.9025000000000001 0.929871 0.014831 -0.003959 0.018439 -0.005301 0.009898 0.018976 -0.057714 
1.9037500000000001 0.890686 -0.092590 -0.001212 0.018595 -0.004468 0.010123 0.016737 -0.057726 
1.9050000000000000 0.843597 -0.183044 0.001204 0.018030 -0.003618 0.010924 0.014423 -0.057125 
1.9062500000000000 0.783661 -0.256927 0.003196 0.016714 -0.002991 0.011096 0.011879 -0.056765 
1.9075000000000000 0.724548 -0.317474 0.004725 0.015778 -0.002046 0.011501 0.009706 -0.055889 
1.9087499999999999 0.663574 -0.369598 0.006377 0.014460 -0.000958 0.011629 0.007120 -0.054359 
1.9099999999999999 0.604645 -0.411194 0.007347 0.012984 0.000106 0.012066 0.004858 -0.053370 
1.9112499999999999 0.545960 -0.443115 0.008242 0.011887 0.001270 0.011987 0.001560 -0.052254 
1.9125000000000001 0.491089 -0.466064 0.008888 0.010434 0.002265 0.011641 -0.000942 -0.051100 
1.9137500000000001 0.437927 -0.485992 0.009256 0.009153 0.003434 0.011672 -0.003942 -0.050148 
1.9150000000000000 0.389847 -0.499481 0.009590 0.008296 0.004360 0.011587 -0.006859 -0.048969 
1.9162500000000000 0.341705 -0.509735 0.010102 0.007531 0.005465 0.011173 -0.009558 -0.048162 
1.9175000000000000 0.300842 -0.513825 0.010464 0.006274 0.006324 0.010933 -0.011299 -0.047010 
1.9187500000000000 0.259338 -0.517731 0.010445 0.005075 0.007698 0.010021 -0.013506 -0.045780 
1.9199999999999999 0.221130 -0.517700 0.010658 0.004457 0.008862 0.009673 -0.015221 -0.044220 
1.9212499999999999 0.185883 -0.514252 0.010767 0.003510 0.009909 0.008456 -0.017162 -0.043161 
1.9225000000000001 0.151703 -0.512878 0.010769 0.002492 0.010262 0.007510 -0.018847 -0.040682 
1.9237500000000001 0.118469 -0.510193 0.010939 0.001615 0.011163 0.006323 -0.019918 -0.038956 
1.9250000000000000 0.088409 -0.503937 0.010668 0.000722 0.011580 0.005408 -0.021896 -0.036354 
1.9262500000000000 0.059448 -0.498596 0.010390 0.000108 0.012090 0.004290 -0.023685 -0.034218 
1.9275000000000000 0.034149 -0.491699 0.010333 -0.000683 0.012115 0.003290 -0.025429 -0.031673 
1.9287500000000000 0.007935 -0.485352 0.009902 -0.001483 0.012499 0.002180 -0.027355 -0.029957 
1.9299999999999999 -0.016388 -0.476471 0.009687 -0.002111 0.012559 0.001401 -0.028851 -0.027805 
1.9312499999999999 -0.038727 -0.467407 0.009155 -0.002812 0.012942 -0.000056 -0.030788 -0.026020 
1.9325000000000001 -0.063385 -0.456940 0.008860 -0.003074 0.012688 -0.001428 -0.032169 -0.024677 
1.9337500000000001 -0.083084 -0.446335 0.008559 -0.003758 0.012376 -0.002442 -0.033279 -0.022987 
1.9350000000000001 -0.104416 -0.436417 0.007973 -0.004173 0.012229 -0.003685 -0.034025 -0.021862 
1.9362500000000000 -0.123566 -0.426468 0.007809 -0.004857 0.011715 -0.004756 -0.034340 -0.020506 
1.9375000000000000 -0.142502 -0.416046 0.007450 -0.005127 0.011352 -0.005602 -0.035061 -0.018431 
1.9387500000000000 -0.160461 -0.404221 0.007105 -0.005491 0.010490 -0.006447 -0.034954 -0.016830 
1.9399999999999999 -0.178894 -0.391510 0.006942 -0.006225 0.010121 -0.007493 -0.035189 -0.014858 
1.9412499999999999 -0.195679 -0.380325 0.006139 -0.006661 0.009548 -0.008352 -0.036205 -0.013027 
1.9424999999999999 -0.212036 -0.368637 0.005774 -0.007112 0.008808 -0.009318 -0.036264 -0.010853 
1.9437500000000001 -0.228287 -0.354828 0.005367 -0.007426 0.008064 -0.009927 -0.037289 -0.009262 
1.9450000000000001 -0.244232 -0.341064 0.004740 -0.007766 0.007140 -0.010562 -0.037977 -0.007330 
1.9462500000000000 -0.260147 -0.327576 0.004144 -0.007926 0.006229 -0.011242 -0.039234 -0.005962 
1.9475000000000000 -0.274506 -0.313354 0.003726 -0.008272 0.005055 -0.011765 -0.040098 -0.004896 
1.9487500000000000 -0.289871 -0.299118 0.003163 -0.008724 0.004327 -0.011968 -0.041220 -0.004251 
1.9500000000000000 -0.302292 -0.283691 0.002765 -0.009105 0.002950 -0.012358 -0.042110 -0.003593 
1.9512499999999999 -0.316238 -0.269424 0.002063 -0.009160 0.002300 -0.012997 -0.043001 -0.003214 
1.9524999999999999 -0.330246 -0.251205 0.001466 -0.009483 0.001053 -0.013173 -0.043539 -0.002771 
1.9537500000000001 -0.343826 -0.234985 0.000922 -0.009492 -0.000002 -0.013525 -0.043657 -0.002035 
1.9550000000000001 -0.355408 -0.217148 0.000404 -0.009834 -0.001359 -0.013297 -0.044615 -0.001080 
1.9562500000000000 -0.367340 -0.198685 -0.000767 -0.010139 -0.002519 -0.013173 -0.044853 -0.000141 
1.9575000000000000 -0.381165 -0.179565 -0.001365 -0.009839 -0.003798 -0.012939 -0.045839 0.000841 
1.9587500000000000 -0.391861 -0.157806 -0.002056 -0.009812 -0.005045 -0.012578 -0.046759 0.002485 
1.9600000000000000 -0.403839 -0.137939 -0.002914 -0.009686 -0.006095 -0.012276 -0.047874 0.003513 
1.9612499999999999 -0.415497 -0.115143 -0.003424 -0.009682 -0.007356 -0.011462 -0.049355 0.004333 
1.9624999999999999 -0.424713 -0.092834 -0.004234 -0.009543 -0.008325 -0.010961 -0.051037 0.005970 
1.9637500000000001 -0.435333 -0.067810 -0.005075 -0.009312 -0.009412 -0.010200 -0.053097 0.006790 
1.9650000000000001 -0.445618 -0.041016 -0.005721 -0.009238 -0.010259 -0.009151 -0.054939 0.007877 
1.9662500000000001 -0.454620 -0.013519 -0.006523 -0.009049 -0.011075 -0.008416 -0.056713 0.008747 
1.9675000000000000 -0.462524 0.015198 -0.007372 -0.008701 -0.011907 -0.007115 -0.058586 0.009903 
1.9687500000000000 -0.469513 0.048706 -0.008401 -0.008676 -0.012248 -0.006133 -0.060543 0.010902 
1.9700000000000000 -0.476227 0.081101 -0.009129 -0.008041 -0.013009 -0.004873 -0.061398 0.012474 
1.9712499999999999 -0.480057 0.119553 -0.010264 -0.007671 -0.013691 -0.003452 -0.063080 0.014431 
1.9724999999999999 -0.483017 0.155273 -0.011265 -0.007022 -0.014012 -0.002410 -0.064030 0.016251 
1.9737499999999999 -0.484665 0.196945 -0.012022 -0.006271 -0.014216 -0.001245 -0.065170 0.018936 
1.9750000000000001 -0.482300 0.242050 -0.013193 -0.005488 -0.014171 0.000145 -0.067196 0.021542 
1.9762500000000001 -0.479340 0.290161 -0.014260 -0.004360 -0.014267 0.001225 -0.068989 0.024559 
1.9775000000000000 -0.469544 0.338562 -0.015108 -0.003448 -0.014110 0.003169 -0.070927 0.027649 
1.9787500000000000 -0.455689 0.391541 -0.015810 -0.001883 -0.013668 0.004129 -0.072296 0.030575 
1.9800000000000000 -0.433472 0.446838 -0.016390 -0.000453 -0.013512 0.005430 -0.073959 0.033485 
1.9812500000000000 -0.407776 0.513489 -0.017332 0.001463 -0.012665 0.006721 -0.075783 0.036297 
1.9824999999999999 -0.371094 0.575317 -0.017965 0.003151 -0.011963 0.007897 -0.076660 0.039440 
1.9837499999999999 -0.325378 0.637817 -0.018073 0.005548 -0.011126 0.008794 -0.077415 0.041306 
1.9850000000000001 -0.263214 0.702881 -0.018390 0.007649 -0.010356 0.009712 -0.078304 0.045086 
1.9862500000000001 -0.189819 0.764954 -0.018208 0.010327 -0.009517 0.010515 -0.078430 0.047966 
1.9875000000000000 -0.100830 0.815857 -0.017619 0.013082 -0.008389 0.011428 -0.077927 0.051517 
1.9887500000000000 0.007385 0.861206 -0.016774 0.016138 -0.006933 0.012289 -0.077541 0.055191 
1.9900000000000000 0.136108 0.885925 -0.014149 0.019341 -0.006206 0.012650 -0.077267 0.059341 
1.9912500000000000 0.266724 0.892883 -0.011648 0.021651 -0.004906 0.013365 -0.076546 0.063660 
1.9924999999999999 0.408447 0.861389 -0.007998 0.023610 -0.003589 0.013454 -0.075764 0.067574 
1.9937499999999999 0.539917 0.806274 -0.004399 0.024697 -0.002441 0.013721 -0.075165 0.071655 
1.9950000000000001 0.669922 0.707886 -0.000770 0.025613 -0.001469 0.013718 -0.074589 0.075516 
1.9962500000000001 0.773743 0.599243 0.004049 0.025389 -0.000154 0.013763 -0.073608 0.079369 
1.9975000000000001 0.850281 0.470947 0.007086 0.023573 0.000510 0.013707 -0.072819 0.082787 
1.9987500000000000 0.889954 0.332214 0.010323 0.021666 0.001872 0.013755 -0.071766 0.086033 
2.0000000000000000 0.905151 0.197693 0.012821 0.020077 0.002966 0.013854 -0.070114 0.089020 
2.0012500000000002 0.890686 0.074158 0.014797 0.017042 0.004182 0.013832 -0.067528 0.091942 
2.0024999999999999 0.864563 -0.041870 0.016483 0.014603 0.005555 0.013576 -0.064758 0.094425 
2.0037500000000001 0.818420 -0.135437 0.017521 0.011530 0.006793 0.013044 -0.062191 0.097748 
2.0049999999999999 0.763672 -0.218262 0.017971 0.008881 0.007799 0.012535 -0.059227 0.100006 
2.0062500000000001 0.705231 -0.286255 0.018153 0.006292 0.009405 0.011619 -0.056053 0.103378 
2.0074999999999998 0.648590 -0.344635 0.017859 0.003783 0.010509 0.010980 -0.052963 0.106152 
2.0087500000000000 0.587219 -0.384827 0.017078 0.002557 0.011386 0.010311 -0.049992 0.108704 
2.0099999999999998 0.530853 -0.419647 0.016252 0.000426 0.012749 0.009251 -0.047253 0.111027 
2.0112500000000000 0.474304 -0.442627 0.015880 -0.001189 0.013463 0.007772 -0.044861 0.113308 
2.0125000000000002 0.420593 -0.463196 0.015342 -0.002378 0.014087 0.006179 -0.041740 0.115044 
2.0137499999999999 0.373108 -0.474564 0.014035 -0.003506 0.014785 0.004368 -0.039490 0.116036 
2.0150000000000001 0.325912 -0.485687 0.013511 -0.004545 0.015345 0.003364 -0.036457 0.117302 
2.0162499999999999 0.283646 -0.491302 0.012316 -0.004853 0.015734 0.001667 -0.035042 0.117661 
2.0175000000000001 0.241943 -0.493576 0.011689 -0.006009 0.015485 0.000382 -0.031834 0.117027 
2.0187499999999998 0.204895 -0.493301 0.010717 -0.006304 0.015368 -0.001211 -0.028366 0.118385 
2.0200000000000000 0.169022 -0.490707 0.009897 -0.007198 0.015379 -0.002645 -0.025661 0.118176 
2.0212500000000002 0.136108 -0.489380 0.009434 -0.007722 0.014913 -0.003584 -0.023178 0.118553 
2.0225000000000000 0.105804 -0.483490 0.008410 -0.008089 0.014474 -0.005267 -0.019985 0.118835 
2.0237500000000002 0.077499 -0.479004 0.007637 -0.008626 0.013971 -0.006399 -0.017517 0.118561 
2.0249999999999999 0.048401 -0.471497 0.006995 -0.009169 0.013501 -0.007970 -0.014854 0.119011 
2.0262500000000001 0.022492 -0.463562 0.006088 -0.009346 0.012420 -0.009087 -0.013184 0.120094 
2.0274999999999999 -0.000916 -0.455444 0.005323 -0.009770 0.011297 -0.010077 -0.011482 0.119995 
2.0287500000000001 -0.025513 -0.447296 0.004324 -0.009675 0.009956 -0.011314 -0.010521 0.120575 
2.0299999999999998 -0.047668 -0.437744 0.003641 -0.009607 0.009137 -0.012151 -0.009315 0.120033 
2.0312500000000000 -0.069946 -0.427277 0.003098 -0.009642 0.007668 -0.012779 -0.008743 0.119430 
2.0325000000000002 -0.088593 -0.418152 0.002269 -0.010020 0.006600 -0.013378 -0.008118 0.119637 
2.0337499999999999 -0.108612 -0.407349 0.001484 -0.009801 0.005893 -0.013676 -0.007500 0.119827 
2.0350000000000001 -0.126953 -0.396790 0.001111 -0.010041 0.004180 -0.014134 -0.006340 0.119385 
2.0362499999999999 -0.144867 -0.385101 0.000356 -0.009964 0.003098 -0.014322 -0.005325 0.118980 
2.0375000000000001 -0.161255 -0.375519 -0.000206 -0.009990 0.001849 -0.014462 -0.004539 0.119743 
2.0387499999999998 -0.177521 -0.363831 -0.001002 -0.009688 0.000467 -0.014571 -0.003494 0.120369 
2.0400000000000000 -0.193665 -0.351532 -0.001554 -0.009722 -0.000805 -0.014614 -0.002808 0.121574 
2.0412499999999998 -0.209106 -0.339600 -0.002460 -0.009409 -0.001827 -0.014526 -0.001556 0.122459 
2.0425000000000000 -0.222198 -0.326355 -0.003166 -0.009271 -0.003029 -0.014264 -0.001160 0.123749 
2.0437500000000002 -0.236603 -0.314667 -0.003802 -0.008856 -0.004674 -0.013887 -0.000488 0.124977 
2.0449999999999999 -0.250794 -0.300995 -0.004290 -0.008563 -0.005624 -0.013494 0.000030 0.126572 
2.0462500000000001 -0.263825 -0.286591 -0.004796 -0.008446 -0.006990 -0.013318 0.000633 0.128105 
2.0474999999999999 -0.276001 -0.273743 -0.005056 -0.008094 -0.007717 -0.012570 0.001427 0.129639 
2.0487500000000001 -0.288788 -0.257660 -0.005674 -0.007652 -0.009111 -0.011802 0.002617 0.131241 
2.0499999999999998 -0.301239 -0.243530 -0.006255 -0.007234 -0.010067 -0.011020 0.003761 0.132889 
2.0512500000000000 -0.312347 -0.228149 -0.006819 -0.006772 -0.011091 -0.010110 0.005493 0.134445 
2.0525000000000002 -0.324646 -0.212585 -0.006985 -0.006693 -0.012362 -0.009272 0.006912 0.135963 
2.0537500000000000 -0.335388 -0.195251 -0.007799 -0.006138 -0.012794 -0.007936 0.009376 0.138267 
2.0550000000000002 -0.346741 -0.178528 -0.008233 -0.005813 -0.013385 -0.006845 0.011932 0.140106 
2.0562499999999999 -0.356812 -0.160858 -0.008880 -0.005302 -0.014188 -0.005731 0.014633 0.142365 
2.0575000000000001 -0.366425 -0.140686 -0.009335 -0.004682 -0.014817 -0.004144 0.017837 0.144875 
2.0587499999999999 -0.377564 -0.122192 -0.009697 -0.004230 -0.015042 -0.003252 0.020431 0.147110 
2.0600000000000001 -0.387604 -0.101288 -0.010317 -0.003452 -0.015569 -0.001647 0.023117 0.149826 
2.0612499999999998 -0.396713 -0.080399 -0.010753 -0.002779 -0.015376 -0.000213 0.026154 0.151398 
2.0625000000000000 -0.404205 -0.056061 -0.010800 -0.002169 -0.015279 0.001165 0.029190 0.153519 
2.0637500000000002 -0.411972 -0.034088 -0.011274 -0.001427 -0.015135 0.002399 0.033035 0.154816 
2.0649999999999999 -0.419006 -0.007614 -0.011405 -0.000375 -0.014922 0.003622 0.036484 0.155670 
2.0662500000000001 -0.427322 0.020279 -0.012003 0.000332 -0.014361 0.005136 0.040535 0.155922 
2.0674999999999999 -0.433426 0.047394 -0.012026 0.001238 -0.014342 0.006351 0.045258 0.156280 
2.0687500000000001 -0.436890 0.076691 -0.012213 0.002390 -0.013710 0.007829 0.050407 0.156914 
2.0699999999999998 -0.440048 0.109238 -0.012260 0.003123 -0.013336 0.009017 0.055817 0.156715 
2.0712500000000000 -0.442017 0.143250 -0.012362 0.004313 -0.011781 0.010195 0.061325 0.156067 
2.0724999999999998 -0.442444 0.178589 -0.012322 0.005418 -0.011176 0.011760 0.066574 0.155609 
2.0737500000000000 -0.439514 0.218842 -0.012217 0.006664 -0.009725 0.012716 0.071960 0.156036 
2.0750000000000002 -0.434082 0.259522 -0.012192 0.007753 -0.008782 0.013208 0.077927 0.154556 
2.0762499999999999 -0.425995 0.302948 -0.011553 0.009453 -0.007326 0.014167 0.082550 0.153809 
2.0775000000000001 -0.413208 0.351471 -0.011190 0.010348 -0.006159 0.014726 0.087967 0.152374 
2.0787499999999999 -0.394989 0.399506 -0.010319 0.012009 -0.004526 0.015552 0.092682 0.149994 
2.0800000000000001 -0.371674 0.453262 -0.009466 0.013182 -0.003228 0.015767 0.097046 0.147819 
2.0812499999999998 -0.339142 0.509644 -0.008842 0.015166 -0.002131 0.015882 0.102005 0.145111 
2.0825000000000000 -0.298737 0.560425 -0.007889 0.016022 -0.000525 0.016526 0.106857 0.141022 
2.0837500000000002 -0.247650 0.619629 -0.006292 0.018216 0.001318 0.015926 0.111343 0.137894 
2.0850000000000000 -0.180664 0.671875 -0.004498 0.019040 0.002935 0.015754 0.115768 0.133438 
2.0862500000000002 -0.103668 0.718903 -0.002423 0.020546 0.004105 0.015066 0.119919 0.129318 
2.0874999999999999 -0.011780 0.760071 -0.000145 0.022091 0.005507 0.014324 0.124985 0.124924 
2.0887500000000001 0.100952 0.788818 0.003395 0.022888 0.006510 0.013671 0.128662 0.120819 
2.0899999999999999 0.216675 0.784912 0.006735 0.022867 0.007918 0.012925 0.132675 0.116203 
2.0912500000000001 0.333740 0.775146 0.010307 0.022385 0.008879 0.012753 0.135178 0.111832 
2.0924999999999998 0.459839 0.735290 0.013943 0.020954 0.009418 0.011644 0.138222 0.108414 
2.0937500000000000 0.582031 0.658386 0.017477 0.018581 0.009798 0.010928 0.139687 0.103088 
2.0950000000000002 0.677795 0.567322 0.020069 0.015249 0.011147 0.010586 0.141991 0.097885 
2.0962499999999999 0.753265 0.451660 0.021602 0.012012 0.011682 0.009610 0.143013 0.093643 
2.0975000000000001 0.796997 0.332977 0.022009 0.008851 0.012859 0.008985 0.143662 0.088860 
2.0987499999999999 0.823120 0.206482 0.022978 0.004732 0.014068 0.007818 0.144653 0.084000 
2.1000000000000001 0.817139 0.088806 0.022638 0.002007 0.014813 0.006491 0.145081 0.079178 
2.1012499999999998 0.796387 -0.019165 0.022505 -0.000799 0.016095 0.005264 0.145996 0.073608 
2.1025000000000000 0.759277 -0.109741 0.021200 -0.003149 0.016549 0.003866 0.146256 0.069626 
2.1037499999999998 0.710022 -0.191345 0.020035 -0.005423 0.016956 0.002663 0.146332 0.064529 
2.1050000000000000 0.657898 -0.259155 0.018407 -0.007829 0.017372 0.000832 0.146637 0.060593 
2.1062500000000002 0.604492 -0.311707 0.016929 -0.009332 0.017938 -0.000784 0.146797 0.056152 
2.1074999999999999 0.548279 -0.351532 0.015066 -0.010746 0.017894 -0.002762 0.146439 0.053139 
2.1087500000000001 0.494766 -0.384201 0.013463 -0.011743 0.017655 -0.004960 0.145546 0.049858 
2.1099999999999999 0.440720 -0.409699 0.011505 -0.012387 0.017611 -0.007093 0.145065 0.047142 
2.1112500000000001 0.391403 -0.426529 0.009788 -0.012690 0.016188 -0.009102 0.144226 0.044022 
2.1124999999999998 0.343079 -0.439591 0.008518 -0.013163 0.015082 -0.010707 0.142792 0.040978 
2.1137500000000000 0.299088 -0.451019 0.007048 -0.013046 0.013338 -0.012645 0.141594 0.037865 
2.1150000000000002 0.257355 -0.455063 0.005947 -0.012704 0.011633 -0.013206 0.140320 0.034981 
2.1162500000000000 0.218826 -0.457626 0.004637 -0.012755 0.010503 -0.014089 0.139153 0.032494 
2.1175000000000002 0.183350 -0.456696 0.003654 -0.012826 0.008679 -0.014534 0.138237 0.029854 
2.1187499999999999 0.149170 -0.454178 0.003075 -0.012959 0.007350 -0.015569 0.137238 0.027351 
2.1200000000000001 0.117035 -0.451340 0.001727 -0.012693 0.006192 -0.015989 0.137436 0.025024 
2.1212499999999999 0.087647 -0.445587 0.001054 -0.012711 0.004600 -0.016055 0.136643 0.022690 
2.1225000000000001 0.058639 -0.439743 -0.000161 -0.012444 0.002946 -0.016619 0.136261 0.021263 
2.1237499999999998 0.032837 -0.432724 -0.000927 -0.012406 0.001116 -0.016481 0.135895 0.019524 
2.1250000000000000 0.008820 -0.424393 -0.002059 -0.012145 0.000216 -0.016346 0.134918 0.017746 
2.1262500000000002 -0.015823 -0.417740 -0.002849 -0.011535 -0.001752 -0.016308 0.134728 0.017189 
2.1274999999999999 -0.037018 -0.408920 -0.003500 -0.011018 -0.002962 -0.015495 0.134018 0.015373 
2.1287500000000001 -0.057846 -0.397858 -0.004334 -0.010643 -0.004000 -0.015392 0.133492 0.014076 
2.1299999999999999 -0.075912 -0.390335 -0.004814 -0.010163 -0.005026 -0.015032 0.132828 0.012627 
2.1312500000000001 -0.095947 -0.378449 -0.005247 -0.009840 -0.006387 -0.014829 0.131340 0.010078 
2.1324999999999998 -0.113861 -0.367996 -0.005624 -0.009221 -0.007639 -0.014120 0.131447 0.008385 
2.1337500000000000 -0.129547 -0.357239 -0.006273 -0.009058 -0.008960 -0.013409 0.130890 0.006226 
2.1349999999999998 -0.145966 -0.347046 -0.006965 -0.008507 -0.009788 -0.012544 0.130714 0.003998 
2.1362500000000000 -0.161987 -0.335968 -0.007686 -0.008199 -0.011170 -0.011736 0.131409 0.001640 
2.1375000000000002 -0.176086 -0.323273 -0.008020 -0.007592 -0.012375 -0.010504 0.131844 -0.000481 
2.1387499999999999 -0.191132 -0.311340 -0.008789 -0.007115 -0.013185 -0.009853 0.130821 -0.002205 
2.1400000000000001 -0.205200 -0.298492 -0.009302 -0.006545 -0.013601 -0.008378 0.130775 -0.004868 
2.1412499999999999 -0.217438 -0.285645 -0.009796 -0.005658 -0.014608 -0.007410 0.130768 -0.006424 
2.1425000000000001 -0.231781 -0.272797 -0.010171 -0.004866 -0.015170 -0.006042 0.130318 -0.008621 
2.1437499999999998 -0.242981 -0.260773 -0.010388 -0.004108 -0.015728 -0.004735 0.130158 -0.010384 
2.1450000000000000 -0.254822 -0.245972 -0.010677 -0.003343 -0.016112 -0.003268 0.128677 -0.012611 
2.1462500000000002 -0.266449 -0.231964 -0.010683 -0.002693 -0.016160 -0.001534 0.127617 -0.015373 
2.1475000000000000 -0.278137 -0.217560 -0.010878 -0.001968 -0.016654 -0.000190 0.126854 -0.018059 
2.1487500000000002 -0.287964 -0.201752 -0.011264 -0.001419 -0.016136 0.001361 0.126045 -0.021027 
2.1499999999999999 -0.299011 -0.186096 -0.011678 -0.000735 -0.016150 0.002573 0.124359 -0.024048 
2.1512500000000001 -0.309051 -0.170013 -0.011706 -0.000196 -0.015991 0.004542 0.123062 -0.027283 
