!
! C:\Users\rflab\Downloads\Lab5_KD_ZW\60.S2P
!
! Touchstone 1.1 file saved by VNA.EXE V1.65 (www.ke5fx.com/gpib/readme.htm)
! 11/11/2024 11:41:21 PM
!
!    Source: HEWLETT PACKARD,8753D,0,6.14
!  Min freq: 1.900000E+009 Hz
!  Max freq: 2.900000E+009 Hz
!    Points: 801
!    Params: S11 S21 S12 S22
!
!!!!!
# GHZ S RI R 50
1.8999999999999999 0.954651 0.263672 -0.002777 0.016071 -0.002908 0.008493 0.023108 -0.056839 
1.9012500000000001 0.953247 0.135498 -0.000371 0.016590 -0.002376 0.008816 0.020720 -0.057117 
1.9025000000000001 0.927429 0.014038 0.001908 0.016007 -0.001586 0.008691 0.018505 -0.057182 
1.9037500000000001 0.888550 -0.092468 0.003760 0.014368 -0.001053 0.009105 0.016306 -0.057386 
1.9050000000000000 0.842835 -0.182556 0.005023 0.013369 -0.000285 0.009138 0.014570 -0.056639 
1.9062500000000000 0.783508 -0.257233 0.006540 0.012250 0.000314 0.009491 0.012053 -0.056070 
1.9075000000000000 0.721649 -0.318878 0.007123 0.011376 0.001176 0.009454 0.009851 -0.055325 
1.9087499999999999 0.660797 -0.370636 0.008037 0.009678 0.002156 0.009436 0.007385 -0.053989 
1.9099999999999999 0.602264 -0.411072 0.009005 0.008319 0.003146 0.009314 0.004866 -0.053083 
1.9112499999999999 0.545319 -0.443603 0.009065 0.007319 0.003686 0.008865 0.001904 -0.051779 
1.9125000000000001 0.489136 -0.466431 0.009315 0.006305 0.004585 0.008821 -0.000820 -0.050575 
1.9137500000000001 0.437195 -0.485626 0.009437 0.005120 0.005569 0.008258 -0.003794 -0.049889 
1.9150000000000000 0.388931 -0.499847 0.009617 0.004409 0.006314 0.007974 -0.006376 -0.048517 
1.9162500000000000 0.340820 -0.509674 0.009524 0.003233 0.006691 0.007276 -0.008982 -0.047697 
1.9175000000000000 0.299377 -0.512970 0.009417 0.002506 0.007648 0.006836 -0.011295 -0.046671 
1.9187500000000000 0.258759 -0.517212 0.009583 0.001754 0.008377 0.006278 -0.012945 -0.045380 
1.9199999999999999 0.220764 -0.515839 0.009202 0.000927 0.008994 0.005422 -0.014946 -0.044201 
1.9212499999999999 0.184540 -0.514587 0.009164 0.000564 0.009436 0.004054 -0.016634 -0.042921 
1.9225000000000001 0.151062 -0.512482 0.009261 -0.000574 0.010039 0.003586 -0.018131 -0.040775 
1.9237500000000001 0.116760 -0.509125 0.008882 -0.001124 0.010182 0.002257 -0.019423 -0.038824 
1.9250000000000000 0.087891 -0.503021 0.008363 -0.001667 0.010155 0.001399 -0.021435 -0.036335 
1.9262500000000000 0.058929 -0.498108 0.007961 -0.002318 0.010351 0.000606 -0.023304 -0.034149 
1.9275000000000000 0.032196 -0.491394 0.007901 -0.003042 0.010321 -0.000659 -0.025124 -0.032089 
1.9287500000000000 0.006897 -0.484192 0.007141 -0.003266 0.010318 -0.001060 -0.026726 -0.029629 
1.9299999999999999 -0.017059 -0.475922 0.006948 -0.003920 0.010229 -0.002127 -0.028439 -0.028069 
1.9312499999999999 -0.039398 -0.466736 0.006706 -0.004194 0.010160 -0.002917 -0.030258 -0.026501 
1.9325000000000001 -0.062897 -0.456604 0.005989 -0.004508 0.009596 -0.003731 -0.031689 -0.024796 
1.9337500000000001 -0.083160 -0.445801 0.006075 -0.004900 0.009179 -0.004717 -0.032970 -0.023361 
1.9350000000000001 -0.105484 -0.435349 0.005453 -0.005364 0.008895 -0.005719 -0.033670 -0.021700 
1.9362500000000000 -0.123581 -0.425110 0.005105 -0.005611 0.008366 -0.006387 -0.033970 -0.020430 
1.9375000000000000 -0.143616 -0.414551 0.004909 -0.005866 0.007427 -0.006858 -0.034721 -0.018911 
1.9387500000000000 -0.160721 -0.403488 0.004279 -0.006375 0.007047 -0.007674 -0.035093 -0.017208 
1.9399999999999999 -0.179047 -0.391541 0.003866 -0.006556 0.006398 -0.008099 -0.035210 -0.015541 
1.9412499999999999 -0.195618 -0.379623 0.003333 -0.006612 0.005629 -0.008818 -0.036047 -0.013409 
1.9424999999999999 -0.212173 -0.368073 0.003039 -0.006889 0.004989 -0.009258 -0.036472 -0.011328 
1.9437500000000001 -0.229233 -0.353653 0.002187 -0.007119 0.004044 -0.009624 -0.037113 -0.009258 
1.9450000000000001 -0.245026 -0.340332 0.001878 -0.007122 0.003232 -0.009793 -0.038013 -0.008066 
1.9462500000000000 -0.260269 -0.327042 0.001505 -0.007277 0.002250 -0.010241 -0.039415 -0.006664 
1.9475000000000000 -0.274887 -0.312561 0.001093 -0.007435 0.001432 -0.010286 -0.040237 -0.005117 
1.9487500000000000 -0.290009 -0.297211 0.000525 -0.007447 0.000685 -0.010442 -0.041426 -0.004787 
1.9500000000000000 -0.302445 -0.283112 0.000059 -0.007698 -0.000262 -0.010527 -0.042534 -0.003826 
1.9512499999999999 -0.317017 -0.268021 -0.000504 -0.007708 -0.001482 -0.010561 -0.043268 -0.003328 
1.9524999999999999 -0.330795 -0.250595 -0.000857 -0.008048 -0.002153 -0.010406 -0.043783 -0.003065 
1.9537500000000001 -0.343247 -0.234131 -0.001716 -0.007848 -0.003052 -0.010594 -0.044199 -0.002497 
1.9550000000000001 -0.355835 -0.216248 -0.002277 -0.007828 -0.004203 -0.010318 -0.044634 -0.001457 
1.9562500000000000 -0.367248 -0.197281 -0.002685 -0.007615 -0.004848 -0.009621 -0.045437 -0.000568 
1.9575000000000000 -0.380173 -0.178497 -0.003340 -0.007491 -0.005789 -0.008995 -0.046198 0.000551 
1.9587500000000000 -0.391952 -0.156357 -0.003995 -0.007249 -0.006855 -0.008810 -0.047396 0.002043 
1.9600000000000000 -0.403259 -0.137421 -0.004470 -0.007008 -0.007486 -0.008031 -0.048584 0.003269 
1.9612499999999999 -0.415283 -0.114471 -0.004788 -0.006707 -0.008480 -0.007404 -0.050106 0.004238 
1.9624999999999999 -0.425079 -0.091980 -0.005517 -0.006733 -0.009378 -0.006633 -0.051991 0.005943 
1.9637500000000001 -0.436340 -0.067108 -0.006199 -0.006391 -0.009839 -0.006075 -0.053692 0.007072 
1.9650000000000001 -0.446167 -0.040741 -0.006793 -0.005983 -0.010430 -0.005096 -0.055477 0.007900 
1.9662500000000001 -0.453888 -0.011444 -0.007161 -0.005784 -0.010773 -0.004004 -0.057098 0.008911 
1.9675000000000000 -0.460480 0.016327 -0.007772 -0.005394 -0.011146 -0.002931 -0.058880 0.009941 
1.9687500000000000 -0.468689 0.048950 -0.008695 -0.004847 -0.011216 -0.002036 -0.060844 0.011219 
1.9700000000000000 -0.475082 0.082382 -0.009301 -0.004405 -0.011554 -0.000633 -0.061855 0.012831 
1.9712499999999999 -0.479446 0.118957 -0.009871 -0.003697 -0.011589 -0.000085 -0.063267 0.014462 
1.9724999999999999 -0.483078 0.157013 -0.010608 -0.002925 -0.011619 0.001152 -0.064331 0.016930 
1.9737499999999999 -0.483566 0.198425 -0.010985 -0.002374 -0.011530 0.002168 -0.065632 0.019386 
1.9750000000000001 -0.483017 0.244141 -0.011760 -0.001607 -0.011604 0.003526 -0.067169 0.021984 
1.9762500000000001 -0.477386 0.290222 -0.012154 -0.000116 -0.011076 0.004173 -0.068913 0.025017 
1.9775000000000000 -0.467896 0.341675 -0.012606 0.000827 -0.010612 0.005456 -0.070683 0.027901 
1.9787500000000000 -0.455627 0.393982 -0.012896 0.002067 -0.010177 0.006502 -0.072495 0.030762 
1.9800000000000000 -0.431213 0.450012 -0.012978 0.003569 -0.009463 0.007403 -0.074368 0.033688 
1.9812500000000000 -0.404480 0.512634 -0.013271 0.005089 -0.008284 0.008312 -0.075581 0.036503 
1.9824999999999999 -0.367065 0.575623 -0.013546 0.006568 -0.007840 0.009159 -0.076595 0.039288 
1.9837499999999999 -0.321167 0.637451 -0.013463 0.008329 -0.006895 0.009511 -0.077572 0.042160 
1.9850000000000001 -0.262909 0.702271 -0.012451 0.010384 -0.005829 0.010185 -0.078110 0.045319 
1.9862500000000001 -0.182922 0.764526 -0.012353 0.012306 -0.004969 0.010331 -0.078339 0.048458 
1.9875000000000000 -0.092285 0.817566 -0.011106 0.014542 -0.003739 0.011223 -0.077766 0.051422 
1.9887500000000000 0.012024 0.857666 -0.009266 0.016591 -0.002959 0.011249 -0.077572 0.055340 
1.9900000000000000 0.138733 0.881165 -0.006964 0.018424 -0.001886 0.011639 -0.077103 0.059662 
1.9912500000000000 0.268982 0.887878 -0.004396 0.020095 -0.000862 0.011680 -0.076160 0.063786 
1.9924999999999999 0.412048 0.855591 -0.000972 0.020690 0.000103 0.011641 -0.075420 0.067963 
1.9937499999999999 0.544373 0.798523 0.002110 0.021160 0.001190 0.011410 -0.074821 0.072044 
1.9950000000000001 0.667908 0.706116 0.005752 0.020159 0.002029 0.011081 -0.074135 0.075809 
1.9962500000000001 0.768616 0.594299 0.008855 0.019329 0.002911 0.010868 -0.073277 0.079662 
1.9975000000000001 0.849304 0.460571 0.011114 0.017289 0.003745 0.010890 -0.072651 0.083122 
1.9987500000000000 0.888794 0.322998 0.013395 0.015169 0.004805 0.010384 -0.071037 0.086208 
2.0000000000000000 0.901489 0.196045 0.014828 0.012392 0.005266 0.010036 -0.069668 0.089478 
2.0012500000000002 0.890015 0.068298 0.015762 0.009794 0.006470 0.009855 -0.067303 0.091763 
2.0024999999999999 0.860352 -0.043518 0.016144 0.007879 0.007413 0.009411 -0.063999 0.094929 
2.0037500000000001 0.813721 -0.142944 0.016651 0.005028 0.008416 0.008748 -0.061760 0.097874 
2.0049999999999999 0.759155 -0.221008 0.016373 0.002756 0.008930 0.008131 -0.058647 0.100548 
2.0062500000000001 0.702118 -0.287689 0.015916 0.000761 0.010213 0.007596 -0.055820 0.103336 
2.0074999999999998 0.645538 -0.344299 0.015052 -0.000960 0.010767 0.006183 -0.052483 0.105690 
2.0087500000000000 0.583710 -0.385498 0.014492 -0.002247 0.011750 0.005447 -0.049698 0.108219 
2.0099999999999998 0.529205 -0.418091 0.013403 -0.003368 0.012267 0.004339 -0.046875 0.110756 
2.0112500000000000 0.472839 -0.440704 0.012368 -0.004346 0.012779 0.003119 -0.044483 0.112705 
2.0125000000000002 0.418304 -0.461731 0.011373 -0.005399 0.012975 0.001724 -0.041897 0.114742 
2.0137499999999999 0.372376 -0.473633 0.010516 -0.006182 0.012836 0.000317 -0.038857 0.116211 
2.0150000000000001 0.324799 -0.485870 0.009381 -0.006619 0.013051 -0.000971 -0.036415 0.116276 
2.0162499999999999 0.282349 -0.488190 0.008463 -0.007256 0.013114 -0.002230 -0.034630 0.117882 
2.0175000000000001 0.240936 -0.490921 0.007994 -0.007348 0.012242 -0.003597 -0.031761 0.117313 
2.0187499999999998 0.202866 -0.492874 0.007263 -0.007745 0.011727 -0.004294 -0.028397 0.117985 
2.0200000000000000 0.169205 -0.490051 0.006254 -0.008228 0.011353 -0.005633 -0.025589 0.117870 
2.0212500000000002 0.134979 -0.486908 0.005512 -0.008275 0.010908 -0.006647 -0.023277 0.117950 
2.0225000000000000 0.105057 -0.482162 0.004838 -0.008567 0.010218 -0.007423 -0.019726 0.118935 
2.0237500000000002 0.075195 -0.477142 0.003901 -0.008775 0.009430 -0.008501 -0.017738 0.118351 
2.0249999999999999 0.048218 -0.470642 0.003377 -0.008777 0.008605 -0.009693 -0.015442 0.119133 
2.0262500000000001 0.021484 -0.462097 0.002686 -0.008825 0.007455 -0.010176 -0.013741 0.119362 
2.0274999999999999 -0.001038 -0.453979 0.001827 -0.008756 0.006682 -0.010856 -0.011871 0.119865 
2.0287500000000001 -0.025421 -0.446564 0.001289 -0.008870 0.005384 -0.011422 -0.010666 0.120102 
2.0299999999999998 -0.047729 -0.435821 0.000906 -0.008531 0.004266 -0.011842 -0.009674 0.120041 
2.0312500000000000 -0.069550 -0.427734 -0.000201 -0.008420 0.003385 -0.012236 -0.009186 0.119545 
2.0325000000000002 -0.089172 -0.416596 -0.000489 -0.008235 0.002140 -0.011997 -0.008369 0.119812 
2.0337499999999999 -0.108917 -0.405762 -0.000918 -0.008089 0.001414 -0.011938 -0.007919 0.119598 
2.0350000000000001 -0.127533 -0.395966 -0.001661 -0.008122 -0.000203 -0.012175 -0.007072 0.119255 
2.0362499999999999 -0.144867 -0.383942 -0.002306 -0.007794 -0.000941 -0.012129 -0.006393 0.119408 
2.0375000000000001 -0.160828 -0.373413 -0.002686 -0.007720 -0.002089 -0.011954 -0.004738 0.119774 
2.0387499999999998 -0.177154 -0.362427 -0.003220 -0.007585 -0.003146 -0.011557 -0.003784 0.120155 
2.0400000000000000 -0.193695 -0.350677 -0.003563 -0.007390 -0.004344 -0.011209 -0.003006 0.121414 
2.0412499999999998 -0.208099 -0.338989 -0.004107 -0.006900 -0.005219 -0.010847 -0.001816 0.122276 
2.0425000000000000 -0.222565 -0.325501 -0.004705 -0.006796 -0.006163 -0.010426 -0.001411 0.123993 
2.0437500000000002 -0.237671 -0.314026 -0.005054 -0.006245 -0.007043 -0.009742 -0.001228 0.125618 
2.0449999999999999 -0.251282 -0.299835 -0.005302 -0.005755 -0.007735 -0.009311 -0.000603 0.127014 
2.0462500000000001 -0.263458 -0.285828 -0.005813 -0.005363 -0.008834 -0.008621 0.000275 0.128395 
2.0474999999999999 -0.276031 -0.273407 -0.006103 -0.004893 -0.009344 -0.008188 0.000648 0.129944 
2.0487500000000001 -0.288055 -0.257599 -0.006350 -0.004563 -0.010118 -0.007112 0.002129 0.131981 
2.0499999999999998 -0.300293 -0.242096 -0.006717 -0.004086 -0.010882 -0.006078 0.003243 0.133202 
2.0512500000000000 -0.312012 -0.227478 -0.006973 -0.003810 -0.010805 -0.005075 0.005234 0.134872 
2.0525000000000002 -0.324280 -0.211578 -0.007317 -0.003504 -0.011447 -0.003883 0.006836 0.136612 
2.0537500000000000 -0.334656 -0.195038 -0.007712 -0.002925 -0.012307 -0.003142 0.009338 0.138893 
2.0550000000000002 -0.345886 -0.177765 -0.007842 -0.002555 -0.011922 -0.001796 0.011604 0.141075 
2.0562499999999999 -0.356842 -0.160065 -0.008303 -0.002143 -0.012552 -0.000903 0.014198 0.143036 
2.0575000000000001 -0.366638 -0.140961 -0.008483 -0.001491 -0.012445 0.000267 0.017769 0.145203 
2.0587499999999999 -0.377319 -0.121979 -0.008636 -0.000903 -0.012259 0.001178 0.020157 0.147400 
2.0600000000000001 -0.386749 -0.100342 -0.008868 -0.000293 -0.012455 0.002411 0.023178 0.150055 
2.0612499999999998 -0.395813 -0.079483 -0.008997 0.000335 -0.012108 0.003452 0.026199 0.152466 
2.0625000000000000 -0.403320 -0.055832 -0.008959 0.001041 -0.011622 0.004561 0.029450 0.153503 
2.0637500000000002 -0.411240 -0.032959 -0.008957 0.001589 -0.011382 0.005862 0.032974 0.154877 
2.0649999999999999 -0.418533 -0.007141 -0.008957 0.002408 -0.010981 0.006662 0.036942 0.155914 
2.0662500000000001 -0.425690 0.020904 -0.008752 0.003260 -0.010192 0.007652 0.041122 0.156403 
2.0674999999999999 -0.432510 0.047348 -0.008991 0.003948 -0.009960 0.008505 0.045288 0.156776 
2.0687500000000001 -0.435806 0.077774 -0.008992 0.004602 -0.008932 0.009751 0.050301 0.156769 
2.0699999999999998 -0.439163 0.110229 -0.008807 0.005668 -0.007804 0.010171 0.056320 0.157059 
2.0712500000000000 -0.440247 0.143799 -0.008423 0.006306 -0.006919 0.010791 0.061813 0.156265 
2.0724999999999998 -0.440186 0.179352 -0.008317 0.007360 -0.005958 0.011599 0.067566 0.155853 
2.0737500000000000 -0.438599 0.218964 -0.007833 0.008438 -0.004791 0.012280 0.072357 0.155701 
2.0750000000000002 -0.431915 0.259033 -0.007363 0.009068 -0.003763 0.012524 0.078400 0.154678 
2.0762499999999999 -0.423523 0.303864 -0.006746 0.010225 -0.002610 0.013103 0.083359 0.153244 
2.0775000000000001 -0.411072 0.352142 -0.006256 0.011238 -0.001225 0.012864 0.088120 0.151840 
2.0787499999999999 -0.390595 0.400909 -0.005363 0.011835 0.000062 0.013227 0.093109 0.149796 
2.0800000000000001 -0.369034 0.452255 -0.004236 0.012776 0.001212 0.013101 0.097488 0.147758 
2.0812499999999998 -0.338104 0.507782 -0.003325 0.013680 0.002656 0.012993 0.102402 0.144302 
2.0825000000000000 -0.289642 0.558227 -0.002193 0.014259 0.003553 0.012349 0.106949 0.141220 
2.0837500000000002 -0.244812 0.615540 -0.000463 0.015238 0.005214 0.012039 0.111511 0.136566 
2.0850000000000000 -0.177887 0.669952 0.000946 0.016528 0.006371 0.011657 0.115967 0.133148 
2.0862500000000002 -0.100555 0.714508 0.003468 0.016862 0.007061 0.010816 0.119980 0.129028 
2.0874999999999999 -0.007690 0.756104 0.005528 0.017042 0.007956 0.010181 0.124710 0.124741 
2.0887500000000001 0.096497 0.781128 0.008184 0.016356 0.008759 0.009124 0.128387 0.120300 
2.0899999999999999 0.217041 0.781433 0.011003 0.015910 0.009021 0.008317 0.132378 0.116249 
2.0912500000000001 0.334473 0.768555 0.013809 0.014591 0.009459 0.007547 0.135467 0.111786 
2.0924999999999998 0.461304 0.731445 0.015585 0.012326 0.009816 0.006437 0.138222 0.107781 
2.0937500000000000 0.577759 0.652039 0.017726 0.010170 0.010414 0.006168 0.139732 0.102966 
2.0950000000000002 0.675659 0.561890 0.019297 0.006873 0.010740 0.005139 0.141953 0.097702 
2.0962499999999999 0.747345 0.452972 0.019783 0.003654 0.011520 0.004672 0.143265 0.093185 
2.0975000000000001 0.789551 0.330017 0.019208 0.001172 0.012240 0.003606 0.144295 0.088394 
2.0987499999999999 0.813721 0.204956 0.018930 -0.001475 0.012486 0.002940 0.144852 0.083786 
2.1000000000000001 0.810730 0.088257 0.018221 -0.004275 0.013002 0.001565 0.145218 0.078766 
2.1012499999999998 0.788513 -0.017029 0.016727 -0.005557 0.013195 0.000436 0.145386 0.073700 
2.1025000000000000 0.754333 -0.112244 0.015591 -0.007796 0.013604 -0.000666 0.146011 0.069214 
2.1037499999999998 0.708496 -0.192139 0.014120 -0.009095 0.013947 -0.002031 0.145904 0.064697 
2.1050000000000000 0.653137 -0.257141 0.012589 -0.010318 0.013864 -0.003213 0.146484 0.060577 
2.1062500000000002 0.601685 -0.308624 0.010813 -0.011191 0.013525 -0.004714 0.146248 0.056793 
2.1074999999999999 0.546265 -0.350189 0.009009 -0.011517 0.013354 -0.006672 0.146263 0.053276 
2.1087500000000001 0.492157 -0.382187 0.007310 -0.012061 0.012183 -0.008402 0.145378 0.049797 
2.1099999999999999 0.438797 -0.406952 0.005971 -0.012407 0.011394 -0.009423 0.144898 0.046997 
2.1112500000000001 0.390167 -0.424408 0.004557 -0.012293 0.010135 -0.010602 0.143791 0.044105 
2.1124999999999998 0.341812 -0.437668 0.003312 -0.011996 0.008981 -0.011645 0.142662 0.041222 
2.1137500000000000 0.297974 -0.448196 0.002440 -0.011259 0.007427 -0.012685 0.142044 0.038650 
2.1150000000000002 0.256454 -0.452744 0.001465 -0.011372 0.006090 -0.013093 0.139893 0.035538 
2.1162500000000000 0.218002 -0.455551 0.000648 -0.011202 0.004944 -0.013329 0.139534 0.032875 
2.1175000000000002 0.182404 -0.454895 -0.000017 -0.010786 0.003561 -0.013284 0.138100 0.030365 
2.1187499999999999 0.148712 -0.452530 -0.001041 -0.010619 0.002384 -0.013766 0.137787 0.027710 
2.1200000000000001 0.116470 -0.449692 -0.001441 -0.010125 0.000451 -0.013728 0.137734 0.025971 
2.1212499999999999 0.087128 -0.444092 -0.002362 -0.009894 -0.000584 -0.013858 0.136658 0.023315 
2.1225000000000001 0.058518 -0.437897 -0.002885 -0.009739 -0.001351 -0.013476 0.136551 0.021698 
2.1237499999999998 0.032455 -0.431717 -0.003646 -0.009043 -0.002756 -0.013210 0.136337 0.019905 
2.1250000000000000 0.008164 -0.422256 -0.004232 -0.008609 -0.003822 -0.012516 0.135086 0.018547 
2.1262500000000002 -0.015381 -0.416199 -0.004848 -0.008098 -0.004922 -0.011710 0.135300 0.016892 
2.1274999999999999 -0.036209 -0.407074 -0.005159 -0.007465 -0.005740 -0.011279 0.134628 0.015793 
2.1287500000000001 -0.057465 -0.396591 -0.005687 -0.007235 -0.006491 -0.010827 0.134224 0.014549 
2.1299999999999999 -0.076248 -0.389145 -0.006068 -0.006869 -0.007663 -0.010753 0.133102 0.012642 
2.1312500000000001 -0.095337 -0.376282 -0.006405 -0.006165 -0.008480 -0.009758 0.132240 0.010025 
2.1324999999999998 -0.113953 -0.367584 -0.006710 -0.005910 -0.008997 -0.008997 0.131943 0.008972 
2.1337500000000000 -0.129639 -0.356384 -0.007088 -0.005611 -0.009970 -0.008473 0.131790 0.006004 
2.1349999999999998 -0.145843 -0.346191 -0.007195 -0.005165 -0.010975 -0.007390 0.131043 0.003998 
2.1362500000000000 -0.161743 -0.334747 -0.007662 -0.004551 -0.011569 -0.006402 0.131462 0.001579 
2.1375000000000002 -0.176117 -0.323242 -0.008056 -0.003951 -0.011562 -0.005555 0.131958 -0.000008 
2.1387499999999999 -0.190552 -0.310455 -0.008150 -0.003512 -0.012432 -0.004254 0.131401 -0.002449 
2.1400000000000001 -0.204437 -0.297394 -0.008527 -0.002749 -0.012629 -0.003389 0.131363 -0.004700 
2.1412499999999999 -0.217468 -0.285126 -0.008861 -0.002261 -0.013246 -0.002106 0.131149 -0.006264 
2.1425000000000001 -0.231140 -0.271851 -0.008980 -0.001441 -0.012984 -0.001190 0.131218 -0.008705 
2.1437499999999998 -0.242218 -0.259674 -0.008997 -0.000785 -0.013123 0.000037 0.130631 -0.010750 
2.1450000000000000 -0.254089 -0.244873 -0.008901 -0.000112 -0.012982 0.001331 0.129189 -0.013100 
2.1462500000000002 -0.266144 -0.231018 -0.009115 0.000381 -0.013085 0.002653 0.128021 -0.015541 
2.1475000000000000 -0.277649 -0.216553 -0.008885 0.000985 -0.012691 0.003776 0.126633 -0.018356 
2.1487500000000002 -0.287079 -0.200806 -0.009027 0.001539 -0.012228 0.004854 0.125977 -0.021454 
2.1499999999999999 -0.298492 -0.184998 -0.008817 0.002092 -0.011851 0.005737 0.124130 -0.024666 
2.1512500000000001 -0.307953 -0.168915 -0.009002 0.002601 -0.011300 0.007170 0.123566 -0.027336 
