!
! C:\Users\rflab\Downloads\Lab5_KD_ZW\70.S2P
!
! Touchstone 1.1 file saved by VNA.EXE V1.65 (www.ke5fx.com/gpib/readme.htm)
! 11/11/2024 11:42:18 PM
!
!    Source: HEWLETT PACKARD,8753D,0,6.14
!  Min freq: 1.900000E+009 Hz
!  Max freq: 2.900000E+009 Hz
!    Points: 801
!    Params: S11 S21 S12 S22
!
!!!!!
# GHZ S RI R 50
1.8999999999999999 0.959045 0.268372 0.002712 0.013408 0.000010 0.007526 0.023148 -0.056568 
1.9012500000000001 0.957886 0.131409 0.004493 0.012950 0.000611 0.007478 0.020756 -0.057087 
1.9025000000000001 0.931702 0.007080 0.005691 0.011769 0.001242 0.007448 0.018513 -0.057327 
1.9037500000000001 0.892395 -0.093933 0.006939 0.010013 0.001742 0.007560 0.016565 -0.057236 
1.9050000000000000 0.840546 -0.181183 0.007673 0.009214 0.002372 0.007129 0.014467 -0.057079 
1.9062500000000000 0.784790 -0.260651 0.008797 0.007953 0.003038 0.007244 0.011965 -0.056252 
1.9075000000000000 0.722107 -0.320770 0.009419 0.006629 0.003588 0.007069 0.009693 -0.055889 
1.9087499999999999 0.662964 -0.373749 0.009200 0.005393 0.004182 0.006840 0.007313 -0.054468 
1.9099999999999999 0.600433 -0.411835 0.008974 0.004109 0.004862 0.006381 0.005140 -0.053339 
1.9112499999999999 0.543396 -0.443878 0.009063 0.002997 0.005614 0.005908 0.002016 -0.052164 
1.9125000000000001 0.489563 -0.469849 0.008941 0.002294 0.006046 0.005373 -0.000975 -0.050871 
1.9137500000000001 0.436539 -0.486008 0.008602 0.001424 0.006464 0.005030 -0.003475 -0.049969 
1.9150000000000000 0.386902 -0.500702 0.008689 0.000833 0.007279 0.004394 -0.006170 -0.049168 
1.9162500000000000 0.340393 -0.509766 0.008457 0.000057 0.007232 0.003812 -0.009224 -0.047987 
1.9175000000000000 0.298615 -0.514710 0.008013 -0.000731 0.007861 0.003164 -0.011087 -0.047005 
1.9187500000000000 0.258881 -0.518585 0.007854 -0.001204 0.008399 0.002555 -0.013229 -0.045984 
1.9199999999999999 0.219421 -0.517639 0.007516 -0.001706 0.008541 0.001705 -0.014961 -0.044466 
1.9212499999999999 0.183533 -0.515411 0.007400 -0.002247 0.009031 0.000817 -0.016714 -0.043106 
1.9225000000000001 0.150482 -0.512817 0.006920 -0.002740 0.008532 0.000010 -0.018168 -0.041069 
1.9237500000000001 0.116455 -0.509949 0.006440 -0.003376 0.008622 -0.000811 -0.019739 -0.038982 
1.9250000000000000 0.086090 -0.503479 0.005827 -0.003687 0.008538 -0.001542 -0.021652 -0.036884 
1.9262500000000000 0.057770 -0.497894 0.005575 -0.004049 0.007989 -0.002309 -0.023514 -0.034401 
1.9275000000000000 0.031982 -0.491974 0.005154 -0.004314 0.008070 -0.003295 -0.025120 -0.032379 
1.9287500000000000 0.005371 -0.484192 0.004889 -0.004617 0.007821 -0.003975 -0.026718 -0.030083 
1.9299999999999999 -0.017090 -0.476074 0.004427 -0.004967 0.007114 -0.004572 -0.028694 -0.028389 
1.9312499999999999 -0.040558 -0.466919 0.003982 -0.004992 0.006924 -0.004990 -0.030201 -0.026550 
1.9325000000000001 -0.062958 -0.457398 0.003627 -0.005299 0.006566 -0.005699 -0.032013 -0.025345 
1.9337500000000001 -0.084076 -0.446136 0.003288 -0.005288 0.005845 -0.006176 -0.032896 -0.023510 
1.9350000000000001 -0.105270 -0.436066 0.002748 -0.005575 0.005471 -0.006499 -0.033779 -0.022177 
1.9362500000000000 -0.124039 -0.426254 0.002592 -0.005803 0.004761 -0.007128 -0.034115 -0.020844 
1.9375000000000000 -0.143082 -0.414703 0.002116 -0.005800 0.003846 -0.007287 -0.034454 -0.019411 
1.9387500000000000 -0.161270 -0.404373 0.001940 -0.005889 0.003268 -0.007609 -0.034985 -0.017443 
1.9399999999999999 -0.180084 -0.391846 0.001329 -0.006077 0.002740 -0.008022 -0.035175 -0.015247 
1.9412499999999999 -0.196320 -0.380096 0.001060 -0.006095 0.001973 -0.008170 -0.035654 -0.013887 
1.9424999999999999 -0.212128 -0.368011 0.000500 -0.006086 0.001321 -0.008335 -0.036621 -0.011366 
1.9437500000000001 -0.229538 -0.353195 0.000075 -0.006378 0.000578 -0.008521 -0.037474 -0.009586 
1.9450000000000001 -0.245407 -0.340805 -0.000460 -0.005912 -0.000099 -0.008712 -0.038420 -0.008047 
1.9462500000000000 -0.261047 -0.327057 -0.000605 -0.006227 -0.000853 -0.008748 -0.039099 -0.006674 
1.9475000000000000 -0.275055 -0.312653 -0.001106 -0.006084 -0.001608 -0.008493 -0.040222 -0.005562 
1.9487500000000000 -0.290283 -0.298279 -0.001523 -0.005930 -0.002152 -0.008170 -0.041182 -0.004768 
1.9500000000000000 -0.303207 -0.283066 -0.002011 -0.006011 -0.002506 -0.008019 -0.042437 -0.003988 
1.9512499999999999 -0.317596 -0.267990 -0.002352 -0.005629 -0.003849 -0.008109 -0.043264 -0.003973 
1.9524999999999999 -0.331314 -0.251709 -0.002801 -0.005770 -0.004315 -0.007711 -0.043735 -0.003408 
1.9537500000000001 -0.343353 -0.234558 -0.003247 -0.005548 -0.005187 -0.007310 -0.044104 -0.002495 
1.9550000000000001 -0.355377 -0.216583 -0.003670 -0.005522 -0.005776 -0.006827 -0.044773 -0.001648 
1.9562500000000000 -0.367355 -0.198212 -0.004087 -0.005083 -0.006540 -0.006266 -0.045137 -0.000637 
1.9575000000000000 -0.381180 -0.178696 -0.004654 -0.004842 -0.007145 -0.005729 -0.046618 0.000277 
1.9587500000000000 -0.393249 -0.156952 -0.005138 -0.004621 -0.007524 -0.005094 -0.047369 0.001854 
1.9600000000000000 -0.404205 -0.136139 -0.005272 -0.004377 -0.007959 -0.004415 -0.048466 0.003094 
1.9612499999999999 -0.415985 -0.114410 -0.005874 -0.004034 -0.008647 -0.003621 -0.050190 0.004223 
1.9624999999999999 -0.425598 -0.091858 -0.005916 -0.003704 -0.008819 -0.002680 -0.051876 0.005615 
1.9637500000000001 -0.436707 -0.067017 -0.006326 -0.003470 -0.009198 -0.002265 -0.053875 0.007153 
1.9650000000000001 -0.446747 -0.040710 -0.006577 -0.002913 -0.009249 -0.001107 -0.055340 0.007816 
1.9662500000000001 -0.454865 -0.011841 -0.007148 -0.002481 -0.009493 -0.000505 -0.057198 0.008812 
1.9675000000000000 -0.462097 0.016418 -0.007589 -0.001979 -0.009450 0.000647 -0.059101 0.010113 
1.9687500000000000 -0.469391 0.049652 -0.007913 -0.001576 -0.009284 0.001491 -0.061008 0.011040 
1.9700000000000000 -0.476654 0.082626 -0.008425 -0.001121 -0.009339 0.002215 -0.062113 0.012405 
1.9712499999999999 -0.480194 0.121506 -0.008640 -0.000514 -0.009074 0.003197 -0.063530 0.014530 
1.9724999999999999 -0.484100 0.157028 -0.008959 0.000391 -0.008835 0.003732 -0.064785 0.016701 
1.9737499999999999 -0.484878 0.198700 -0.009342 0.001368 -0.008420 0.004741 -0.065929 0.019272 
1.9750000000000001 -0.483765 0.243652 -0.009684 0.002058 -0.007847 0.005617 -0.067432 0.022099 
1.9762500000000001 -0.478516 0.290375 -0.009454 0.003333 -0.007359 0.006269 -0.069004 0.025002 
1.9775000000000000 -0.469177 0.341431 -0.009664 0.003919 -0.006997 0.007169 -0.071091 0.027679 
1.9787500000000000 -0.457214 0.392883 -0.009673 0.005196 -0.006335 0.007711 -0.072689 0.030670 
1.9800000000000000 -0.434326 0.451904 -0.009483 0.005834 -0.005282 0.008168 -0.074341 0.033775 
1.9812500000000000 -0.408386 0.513855 -0.009305 0.007505 -0.004529 0.008755 -0.076065 0.036320 
1.9824999999999999 -0.368897 0.577576 -0.009005 0.008388 -0.003811 0.009398 -0.076805 0.039093 
1.9837499999999999 -0.323547 0.639771 -0.008638 0.009879 -0.003164 0.009364 -0.077602 0.041805 
1.9850000000000001 -0.257965 0.706421 -0.007485 0.010939 -0.002136 0.009638 -0.078304 0.044964 
1.9862500000000001 -0.187500 0.768372 -0.006246 0.013207 -0.001201 0.009580 -0.078426 0.048336 
1.9875000000000000 -0.090820 0.825867 -0.005175 0.014051 -0.000393 0.009477 -0.077991 0.051571 
1.9887500000000000 0.013611 0.859924 -0.003006 0.015203 0.000568 0.009629 -0.077709 0.055412 
1.9900000000000000 0.138489 0.886292 -0.000703 0.016670 0.001342 0.009530 -0.076988 0.059517 
1.9912500000000000 0.274902 0.894775 0.001592 0.017056 0.002064 0.009181 -0.076309 0.063583 
1.9924999999999999 0.411560 0.860290 0.004616 0.017113 0.003220 0.009214 -0.075878 0.067837 
1.9937499999999999 0.547302 0.804016 0.006961 0.015876 0.003929 0.008521 -0.075226 0.071575 
1.9950000000000001 0.675598 0.707275 0.009130 0.014544 0.004455 0.008558 -0.074490 0.075401 
1.9962500000000001 0.773926 0.595276 0.011651 0.012774 0.005069 0.008007 -0.073196 0.079605 
1.9975000000000001 0.855713 0.463928 0.013158 0.010747 0.005692 0.007732 -0.072723 0.082657 
1.9987500000000000 0.894409 0.327271 0.014383 0.008641 0.006449 0.007154 -0.071571 0.085732 
2.0000000000000000 0.908020 0.193237 0.015413 0.005887 0.007152 0.006475 -0.069599 0.089046 
2.0012500000000002 0.893311 0.062134 0.015192 0.004005 0.007771 0.006543 -0.067413 0.091541 
2.0024999999999999 0.862549 -0.046204 0.015025 0.001440 0.008296 0.005345 -0.064774 0.094166 
2.0037500000000001 0.817139 -0.142395 0.014519 0.000006 0.009201 0.004851 -0.061756 0.097263 
2.0049999999999999 0.762329 -0.224854 0.013806 -0.001642 0.009332 0.004002 -0.058823 0.099724 
2.0062500000000001 0.703217 -0.291138 0.012727 -0.003306 0.009869 0.003414 -0.056313 0.102589 
2.0074999999999998 0.645264 -0.345886 0.011708 -0.004458 0.010121 0.002208 -0.053322 0.105183 
2.0087500000000000 0.583679 -0.387207 0.010860 -0.005746 0.010560 0.001195 -0.050289 0.107636 
2.0099999999999998 0.526245 -0.419647 0.009891 -0.006063 0.010527 0.000002 -0.047428 0.110241 
2.0112500000000000 0.472778 -0.445068 0.008517 -0.006816 0.010932 -0.001140 -0.045048 0.112267 
2.0125000000000002 0.419586 -0.462463 0.007865 -0.007205 0.010738 -0.001738 -0.042461 0.114197 
2.0137499999999999 0.370743 -0.475693 0.006621 -0.007451 0.010476 -0.002967 -0.040058 0.115288 
2.0150000000000001 0.324143 -0.487701 0.005625 -0.007613 0.009949 -0.004091 -0.036858 0.116390 
2.0162499999999999 0.281601 -0.490616 0.005025 -0.007617 0.009189 -0.004931 -0.035439 0.116890 
2.0175000000000001 0.240845 -0.492905 0.004383 -0.008351 0.008747 -0.005795 -0.032116 0.116764 
2.0187499999999998 0.204453 -0.492371 0.003639 -0.008082 0.008285 -0.006760 -0.029293 0.116646 
2.0200000000000000 0.168381 -0.490677 0.002897 -0.008162 0.007698 -0.007459 -0.026623 0.116814 
2.0212500000000002 0.134460 -0.489288 0.002194 -0.007936 0.006872 -0.007821 -0.023441 0.117508 
2.0225000000000000 0.104523 -0.483231 0.001585 -0.008100 0.006054 -0.008387 -0.020302 0.117634 
2.0237500000000002 0.075745 -0.477737 0.000907 -0.007915 0.005390 -0.009368 -0.018433 0.117725 
2.0249999999999999 0.047241 -0.471802 0.000428 -0.007831 0.004325 -0.009621 -0.016212 0.118179 
2.0262500000000001 0.021332 -0.462585 -0.000213 -0.007839 0.003625 -0.010283 -0.014397 0.118988 
2.0274999999999999 -0.001465 -0.454254 -0.000810 -0.007577 0.002339 -0.010209 -0.012733 0.118988 
2.0287500000000001 -0.026123 -0.446472 -0.001389 -0.007304 0.001578 -0.010571 -0.011665 0.119507 
2.0299999999999998 -0.047760 -0.436798 -0.001683 -0.006933 0.000441 -0.010682 -0.010490 0.119377 
2.0312500000000000 -0.069946 -0.428223 -0.002289 -0.006814 -0.000624 -0.010542 -0.009712 0.119263 
2.0325000000000002 -0.089203 -0.416901 -0.002629 -0.006406 -0.001276 -0.010217 -0.008904 0.119240 
2.0337499999999999 -0.110229 -0.405670 -0.002835 -0.006176 -0.002553 -0.010044 -0.008446 0.119408 
2.0350000000000001 -0.128387 -0.395904 -0.003369 -0.005804 -0.003047 -0.009762 -0.007622 0.119049 
2.0362499999999999 -0.145081 -0.384705 -0.003795 -0.005510 -0.004426 -0.009401 -0.007355 0.118904 
2.0375000000000001 -0.161957 -0.374634 -0.004079 -0.005332 -0.005013 -0.009147 -0.005730 0.119430 
2.0387499999999998 -0.178070 -0.362518 -0.004616 -0.005150 -0.005509 -0.008435 -0.004448 0.120155 
2.0400000000000000 -0.193451 -0.350525 -0.004588 -0.004838 -0.006241 -0.007902 -0.003540 0.121147 
2.0412499999999998 -0.208618 -0.338867 -0.005017 -0.004498 -0.007014 -0.007277 -0.002792 0.122284 
2.0425000000000000 -0.223419 -0.326263 -0.005119 -0.004224 -0.007633 -0.006684 -0.002251 0.123795 
2.0437500000000002 -0.237885 -0.314117 -0.005556 -0.003535 -0.008057 -0.005856 -0.001434 0.125557 
2.0449999999999999 -0.250641 -0.300781 -0.005783 -0.003155 -0.008556 -0.005276 -0.000778 0.126762 
2.0462500000000001 -0.264008 -0.285583 -0.005879 -0.002780 -0.008941 -0.005029 -0.000374 0.128502 
2.0474999999999999 -0.276459 -0.273529 -0.006210 -0.002431 -0.009446 -0.003654 0.000755 0.130005 
2.0487500000000001 -0.289123 -0.258087 -0.006281 -0.002051 -0.009894 -0.002988 0.001717 0.132027 
2.0499999999999998 -0.300781 -0.243500 -0.006363 -0.001601 -0.009930 -0.002061 0.003090 0.133385 
2.0512500000000000 -0.313171 -0.227325 -0.006536 -0.001336 -0.010140 -0.000974 0.004829 0.134728 
2.0525000000000002 -0.324799 -0.212189 -0.006525 -0.000733 -0.010213 -0.000631 0.006554 0.136566 
2.0537500000000000 -0.335998 -0.194794 -0.006688 -0.000520 -0.010248 0.000778 0.008804 0.138504 
2.0550000000000002 -0.346924 -0.179321 -0.006859 -0.000026 -0.010129 0.001480 0.011971 0.141098 
2.0562499999999999 -0.357575 -0.159332 -0.006770 0.000418 -0.010147 0.002712 0.014618 0.143150 
2.0575000000000001 -0.366638 -0.141296 -0.007076 0.001010 -0.010300 0.003460 0.017647 0.145531 
2.0587499999999999 -0.377136 -0.121979 -0.007073 0.001549 -0.010072 0.004404 0.020325 0.148270 
2.0600000000000001 -0.387543 -0.100861 -0.007061 0.002198 -0.009365 0.005515 0.023453 0.150345 
2.0612499999999998 -0.396149 -0.079544 -0.007038 0.002753 -0.008782 0.006105 0.026154 0.152756 
2.0625000000000000 -0.404160 -0.055908 -0.006775 0.003219 -0.008218 0.006938 0.029724 0.154388 
2.0637500000000002 -0.412231 -0.032913 -0.006781 0.003719 -0.007601 0.007352 0.033478 0.154831 
2.0649999999999999 -0.419556 -0.007111 -0.006557 0.004026 -0.006682 0.008272 0.037247 0.156006 
2.0662500000000001 -0.427048 0.019913 -0.006444 0.005109 -0.006033 0.008751 0.041222 0.156471 
2.0674999999999999 -0.433319 0.048569 -0.006126 0.005554 -0.005493 0.009298 0.045464 0.156891 
2.0687500000000001 -0.437424 0.077759 -0.005875 0.006089 -0.004395 0.009646 0.050819 0.156891 
2.0699999999999998 -0.440796 0.111252 -0.005344 0.006711 -0.003709 0.010201 0.056442 0.157013 
2.0712500000000000 -0.442078 0.143463 -0.005136 0.007193 -0.002625 0.010086 0.061966 0.156204 
2.0724999999999998 -0.442719 0.179077 -0.004483 0.008018 -0.001545 0.010530 0.067017 0.156265 
2.0737500000000000 -0.439453 0.219147 -0.004053 0.008454 -0.000666 0.010880 0.072266 0.155930 
2.0750000000000002 -0.433227 0.260254 -0.003435 0.009524 0.000563 0.010898 0.078354 0.154602 
2.0762499999999999 -0.424835 0.304596 -0.002695 0.009572 0.001358 0.010841 0.083267 0.153305 
2.0775000000000001 -0.413940 0.352448 -0.001835 0.010311 0.002615 0.010444 0.088608 0.151886 
2.0787499999999999 -0.392609 0.401062 -0.000899 0.010824 0.003498 0.010340 0.093048 0.149979 
2.0800000000000001 -0.370682 0.454025 -0.000101 0.011023 0.004494 0.009875 0.097664 0.147339 
2.0812499999999998 -0.340576 0.510529 0.000713 0.011440 0.005515 0.009262 0.102463 0.144638 
2.0825000000000000 -0.293396 0.561096 0.002212 0.011788 0.006005 0.008946 0.106812 0.140915 
2.0837500000000002 -0.245026 0.619965 0.003396 0.012404 0.007004 0.007945 0.111130 0.137100 
2.0850000000000000 -0.179504 0.673279 0.005258 0.012210 0.007758 0.007343 0.115601 0.133331 
2.0862500000000002 -0.101501 0.721008 0.007044 0.012501 0.008320 0.006580 0.119400 0.129242 
2.0874999999999999 -0.009155 0.760132 0.008741 0.012239 0.008943 0.005497 0.124130 0.124618 
2.0887500000000001 0.098450 0.785339 0.010749 0.010927 0.009297 0.004703 0.127937 0.120110 
2.0899999999999999 0.218689 0.788330 0.012937 0.009620 0.009301 0.004100 0.131706 0.115646 
2.0912500000000001 0.338989 0.772827 0.015018 0.007738 0.009406 0.003095 0.134476 0.111740 
2.0924999999999998 0.464417 0.734314 0.016077 0.005596 0.009813 0.002579 0.137123 0.107750 
2.0937500000000000 0.579773 0.658325 0.016172 0.003303 0.009558 0.002052 0.139008 0.103005 
2.0950000000000002 0.677490 0.564514 0.016665 0.000597 0.010019 0.001096 0.140732 0.097572 
2.0962499999999999 0.754150 0.452301 0.016408 -0.002360 0.010078 0.000591 0.142082 0.092896 
2.0975000000000001 0.800232 0.331604 0.015487 -0.004139 0.010312 -0.000317 0.142586 0.088539 
2.0987499999999999 0.823059 0.206604 0.014053 -0.006431 0.010638 -0.001205 0.143043 0.083755 
2.1000000000000001 0.818970 0.088745 0.013080 -0.008068 0.010641 -0.001925 0.143494 0.078903 
2.1012499999999998 0.793579 -0.020752 0.011594 -0.008727 0.010590 -0.003278 0.144272 0.073853 
2.1025000000000000 0.756592 -0.113037 0.010034 -0.009688 0.010432 -0.004256 0.144714 0.069641 
2.1037499999999998 0.710083 -0.191650 0.008510 -0.011039 0.010059 -0.005497 0.144836 0.065109 
2.1050000000000000 0.658020 -0.261719 0.006868 -0.011006 0.009920 -0.006015 0.145371 0.061218 
2.1062500000000002 0.602814 -0.311188 0.005279 -0.011463 0.009038 -0.007358 0.145180 0.057259 
2.1074999999999999 0.547638 -0.352661 0.003770 -0.011597 0.008266 -0.008808 0.145195 0.053833 
2.1087500000000001 0.493668 -0.384705 0.002659 -0.011637 0.007646 -0.009678 0.144791 0.050720 
2.1099999999999999 0.439056 -0.409287 0.001050 -0.010881 0.006571 -0.010346 0.143868 0.047691 
2.1112500000000001 0.390076 -0.427445 0.000253 -0.010862 0.005320 -0.010909 0.142860 0.044769 
2.1124999999999998 0.342178 -0.440033 -0.000778 -0.009885 0.003794 -0.011841 0.142082 0.042053 
2.1137500000000000 0.297592 -0.449783 -0.001181 -0.009660 0.002478 -0.011566 0.140595 0.038696 
2.1150000000000002 0.256775 -0.454147 -0.001738 -0.009030 0.001316 -0.011632 0.139191 0.036232 
2.1162500000000000 0.218124 -0.457230 -0.002546 -0.008797 0.000135 -0.011319 0.138176 0.033050 
2.1175000000000002 0.181610 -0.456375 -0.003057 -0.007956 -0.000752 -0.011270 0.137634 0.031372 
2.1187499999999999 0.148453 -0.454071 -0.003214 -0.007899 -0.001693 -0.011039 0.136658 0.028603 
2.1200000000000001 0.116196 -0.451508 -0.003895 -0.007592 -0.002935 -0.010513 0.136780 0.026695 
2.1212499999999999 0.086716 -0.445282 -0.004483 -0.006981 -0.003639 -0.010301 0.136612 0.023903 
2.1225000000000001 0.057739 -0.439041 -0.004631 -0.006670 -0.004446 -0.010079 0.136139 0.022553 
2.1237499999999998 0.032364 -0.432709 -0.005055 -0.006194 -0.005403 -0.009338 0.135902 0.020790 
2.1250000000000000 0.008057 -0.425171 -0.005647 -0.005572 -0.005989 -0.008943 0.135330 0.018913 
2.1262500000000002 -0.015137 -0.417236 -0.006101 -0.005142 -0.006756 -0.007946 0.134766 0.018021 
2.1274999999999999 -0.037643 -0.408600 -0.006090 -0.004524 -0.007307 -0.007636 0.134529 0.016480 
2.1287500000000001 -0.057510 -0.398560 -0.006302 -0.003870 -0.008108 -0.006636 0.134094 0.014984 
2.1299999999999999 -0.076889 -0.389359 -0.006229 -0.003636 -0.008784 -0.005810 0.133110 0.013260 
2.1312500000000001 -0.096191 -0.377304 -0.006584 -0.003028 -0.008832 -0.005446 0.132500 0.010956 
2.1324999999999998 -0.114548 -0.368271 -0.006450 -0.002495 -0.009316 -0.004564 0.132103 0.008942 
2.1337500000000000 -0.130554 -0.357208 -0.006799 -0.002449 -0.009851 -0.004123 0.131561 0.006027 
2.1349999999999998 -0.146729 -0.346802 -0.006809 -0.002004 -0.010183 -0.003074 0.131645 0.004211 
2.1362500000000000 -0.162048 -0.335236 -0.006979 -0.001521 -0.010143 -0.002275 0.131958 0.001915 
2.1375000000000002 -0.176971 -0.323456 -0.007248 -0.000926 -0.010630 -0.001141 0.132889 -0.000504 
2.1387499999999999 -0.191284 -0.310883 -0.007243 -0.000236 -0.010482 -0.000450 0.131813 -0.002357 
2.1400000000000001 -0.204712 -0.298218 -0.007357 -0.000071 -0.010548 0.000669 0.131813 -0.004723 
2.1412499999999999 -0.218109 -0.285736 -0.007319 0.000653 -0.010437 0.001572 0.131867 -0.006760 
2.1425000000000001 -0.231903 -0.272583 -0.007425 0.001363 -0.010292 0.002699 0.131569 -0.009224 
2.1437499999999998 -0.242828 -0.260590 -0.006945 0.001657 -0.010122 0.003775 0.131180 -0.011147 
2.1450000000000000 -0.255005 -0.245483 -0.007007 0.002157 -0.009641 0.004306 0.129669 -0.013336 
2.1462500000000002 -0.266724 -0.231445 -0.006854 0.002634 -0.009357 0.005051 0.128571 -0.016167 
2.1475000000000000 -0.277924 -0.216888 -0.006751 0.002947 -0.008911 0.005873 0.127617 -0.018517 
2.1487500000000002 -0.287842 -0.201111 -0.006569 0.003412 -0.008225 0.006994 0.126595 -0.021751 
2.1499999999999999 -0.299225 -0.185455 -0.006388 0.003965 -0.007620 0.007631 0.124733 -0.025116 
2.1512500000000001 -0.309082 -0.169403 -0.006117 0.004258 -0.007077 0.008420 0.123695 -0.027855 
