!
! C:\Users\rflab\Downloads\Lab5_KD_ZW\80.S2P
!
! Touchstone 1.1 file saved by VNA.EXE V1.65 (www.ke5fx.com/gpib/readme.htm)
! 11/11/2024 11:43:10 PM
!
!    Source: HEWLETT PACKARD,8753D,0,6.14
!  Min freq: 1.900000E+009 Hz
!  Max freq: 2.900000E+009 Hz
!    Points: 801
!    Params: S11 S21 S12 S22
!
!!!!!
# GHZ S RI R 50
1.8999999999999999 0.962769 0.264771 0.005733 0.010632 0.002166 0.006087 0.023430 -0.057257 
1.9012500000000001 0.957825 0.133667 0.007163 0.009212 0.002550 0.005969 0.021011 -0.057526 
1.9025000000000001 0.932800 0.008667 0.007935 0.007903 0.003093 0.005738 0.018862 -0.057568 
1.9037500000000001 0.889160 -0.098267 0.008960 0.006701 0.003385 0.005581 0.016655 -0.057861 
1.9050000000000000 0.839935 -0.187439 0.009072 0.004882 0.003936 0.005237 0.014542 -0.057192 
1.9062500000000000 0.781982 -0.259369 0.009277 0.003789 0.004468 0.005257 0.012068 -0.056860 
1.9075000000000000 0.723724 -0.323883 0.009129 0.002780 0.004873 0.005036 0.010086 -0.055920 
1.9087499999999999 0.660614 -0.374756 0.008950 0.001886 0.005333 0.004359 0.007372 -0.054537 
1.9099999999999999 0.601288 -0.411346 0.008543 0.000587 0.006059 0.004116 0.005093 -0.053707 
1.9112499999999999 0.544800 -0.444305 0.008198 0.000179 0.006114 0.003280 0.001751 -0.052483 
1.9125000000000001 0.488342 -0.467834 0.008152 -0.000613 0.006419 0.002765 -0.000950 -0.051298 
1.9137500000000001 0.434967 -0.486999 0.007508 -0.001269 0.006606 0.002052 -0.003700 -0.050640 
1.9150000000000000 0.388443 -0.499954 0.006988 -0.001624 0.006772 0.001724 -0.006868 -0.049149 
1.9162500000000000 0.340118 -0.508972 0.006916 -0.002374 0.006948 0.001193 -0.009211 -0.048290 
1.9175000000000000 0.299011 -0.514313 0.006632 -0.002792 0.007346 0.000931 -0.011225 -0.047205 
1.9187500000000000 0.257263 -0.516754 0.006062 -0.003276 0.007533 -0.000161 -0.013126 -0.045683 
1.9199999999999999 0.219666 -0.518158 0.005581 -0.003557 0.007634 -0.001001 -0.014874 -0.044748 
1.9212499999999999 0.183929 -0.513825 0.005238 -0.003748 0.007026 -0.001815 -0.016840 -0.043150 
1.9225000000000001 0.150269 -0.513061 0.004852 -0.004214 0.006919 -0.002051 -0.018282 -0.040907 
1.9237500000000001 0.116882 -0.510101 0.004364 -0.004243 0.006588 -0.002815 -0.020210 -0.038975 
1.9250000000000000 0.087250 -0.502991 0.003914 -0.004616 0.006355 -0.003607 -0.021614 -0.037136 
1.9262500000000000 0.057800 -0.497711 0.003392 -0.004628 0.005855 -0.004071 -0.023415 -0.034378 
1.9275000000000000 0.032593 -0.491547 0.002986 -0.004730 0.005808 -0.004619 -0.025249 -0.032291 
1.9287500000000000 0.004913 -0.484314 0.002718 -0.005013 0.005068 -0.004971 -0.027382 -0.030048 
1.9299999999999999 -0.017212 -0.475250 0.002212 -0.005217 0.004719 -0.005807 -0.028851 -0.028046 
1.9312499999999999 -0.040833 -0.467133 0.001711 -0.005017 0.004256 -0.005974 -0.030445 -0.026329 
1.9325000000000001 -0.063812 -0.456329 0.001595 -0.005106 0.003732 -0.005927 -0.031994 -0.024811 
1.9337500000000001 -0.085297 -0.445343 0.001193 -0.005305 0.003060 -0.006684 -0.033037 -0.023426 
1.9350000000000001 -0.106232 -0.434845 0.000822 -0.005224 0.002289 -0.006620 -0.033993 -0.021826 
1.9362500000000000 -0.124618 -0.425354 0.000518 -0.005228 0.001959 -0.006754 -0.034126 -0.020674 
1.9375000000000000 -0.143906 -0.415085 0.000404 -0.005156 0.001060 -0.007143 -0.035122 -0.018528 
1.9387500000000000 -0.161346 -0.403854 -0.000183 -0.005209 0.000692 -0.006950 -0.034990 -0.017536 
1.9399999999999999 -0.179871 -0.391724 -0.000518 -0.005008 0.000192 -0.007113 -0.035608 -0.015001 
1.9412499999999999 -0.195953 -0.379257 -0.000962 -0.005209 -0.000322 -0.007121 -0.035912 -0.013336 
1.9424999999999999 -0.212357 -0.367737 -0.001157 -0.005123 -0.001202 -0.007078 -0.036488 -0.010855 
1.9437500000000001 -0.229889 -0.353287 -0.001521 -0.005070 -0.001730 -0.006840 -0.037207 -0.009569 
1.9450000000000001 -0.245254 -0.339661 -0.001993 -0.004977 -0.002332 -0.007120 -0.038027 -0.008081 
1.9462500000000000 -0.260849 -0.326279 -0.002048 -0.004731 -0.002838 -0.006666 -0.039154 -0.006411 
1.9475000000000000 -0.274994 -0.312439 -0.002567 -0.004612 -0.003370 -0.006448 -0.040281 -0.005049 
1.9487500000000000 -0.289841 -0.297546 -0.002766 -0.004758 -0.003910 -0.006035 -0.041523 -0.004395 
1.9500000000000000 -0.302750 -0.282700 -0.003223 -0.004149 -0.004593 -0.005953 -0.042156 -0.003485 
1.9512499999999999 -0.317657 -0.267639 -0.003383 -0.003987 -0.004990 -0.005281 -0.043108 -0.003473 
1.9524999999999999 -0.331360 -0.250687 -0.003682 -0.003907 -0.005437 -0.005312 -0.043648 -0.003353 
1.9537500000000001 -0.344284 -0.234177 -0.004023 -0.003733 -0.005971 -0.004286 -0.043680 -0.002373 
1.9550000000000001 -0.355728 -0.215759 -0.004195 -0.003437 -0.006584 -0.004018 -0.044415 -0.001326 
1.9562500000000000 -0.367416 -0.198456 -0.004522 -0.003177 -0.006911 -0.003504 -0.044863 -0.000566 
1.9575000000000000 -0.381195 -0.178635 -0.004869 -0.002948 -0.006983 -0.002911 -0.046110 0.000639 
1.9587500000000000 -0.392670 -0.157028 -0.005131 -0.002539 -0.007224 -0.002084 -0.046833 0.002092 
1.9600000000000000 -0.404327 -0.136108 -0.005201 -0.002363 -0.007492 -0.001605 -0.048149 0.002941 
1.9612499999999999 -0.416046 -0.114319 -0.005517 -0.001924 -0.007443 -0.000896 -0.049656 0.004368 
1.9624999999999999 -0.425812 -0.091431 -0.005753 -0.001480 -0.007883 -0.000205 -0.051720 0.005779 
1.9637500000000001 -0.436737 -0.067322 -0.005925 -0.001022 -0.007833 0.000582 -0.053448 0.006905 
1.9650000000000001 -0.446411 -0.040100 -0.006164 -0.000747 -0.007821 0.001307 -0.055134 0.007786 
1.9662500000000001 -0.454712 -0.012024 -0.006315 -0.000336 -0.007893 0.002029 -0.057034 0.008675 
1.9675000000000000 -0.462769 0.016724 -0.006448 0.000128 -0.007638 0.002835 -0.058487 0.009697 
1.9687500000000000 -0.469696 0.050293 -0.006510 0.000776 -0.007199 0.003409 -0.060352 0.011028 
1.9700000000000000 -0.475388 0.083069 -0.007157 0.001189 -0.006979 0.003980 -0.061478 0.012333 
1.9712499999999999 -0.480331 0.120758 -0.006955 0.001792 -0.006600 0.004427 -0.062794 0.014259 
1.9724999999999999 -0.484482 0.157486 -0.007026 0.002522 -0.006023 0.005236 -0.064438 0.016274 
1.9737499999999999 -0.483597 0.199738 -0.007312 0.003106 -0.005345 0.005700 -0.065849 0.019035 
1.9750000000000001 -0.483688 0.246124 -0.007262 0.004044 -0.005079 0.006481 -0.067211 0.021263 
1.9762500000000001 -0.479156 0.292602 -0.007099 0.004605 -0.004310 0.006825 -0.068993 0.024513 
1.9775000000000000 -0.469544 0.342285 -0.006963 0.005706 -0.004017 0.007414 -0.070831 0.027493 
1.9787500000000000 -0.456360 0.395447 -0.006581 0.006451 -0.003164 0.007560 -0.072651 0.030403 
1.9800000000000000 -0.434631 0.451294 -0.006047 0.007499 -0.002559 0.007831 -0.073994 0.033382 
1.9812500000000000 -0.405090 0.515320 -0.005507 0.008021 -0.001503 0.008053 -0.075859 0.036171 
1.9824999999999999 -0.369507 0.577454 -0.005082 0.008973 -0.000845 0.008085 -0.076782 0.038975 
1.9837499999999999 -0.323059 0.638916 -0.004337 0.010052 0.000025 0.008268 -0.077518 0.041569 
1.9850000000000001 -0.261108 0.708099 -0.003408 0.011089 0.000635 0.008019 -0.078049 0.044872 
1.9862500000000001 -0.183899 0.767334 -0.001935 0.012074 0.001495 0.008080 -0.078438 0.048286 
1.9875000000000000 -0.091431 0.820129 -0.000497 0.012309 0.002113 0.008100 -0.077976 0.051151 
1.9887500000000000 0.015808 0.862183 0.001409 0.013229 0.002836 0.007534 -0.078152 0.055279 
1.9900000000000000 0.142761 0.884277 0.002947 0.013420 0.003714 0.007150 -0.077438 0.059109 
1.9912500000000000 0.272461 0.894043 0.005568 0.013515 0.003786 0.006930 -0.076439 0.062923 
1.9924999999999999 0.414917 0.860169 0.007727 0.012688 0.005011 0.006733 -0.076103 0.067425 
1.9937499999999999 0.554810 0.799927 0.010136 0.011404 0.005253 0.006159 -0.075531 0.071556 
1.9950000000000001 0.674622 0.708984 0.011506 0.010303 0.005547 0.005648 -0.075054 0.075310 
1.9962500000000001 0.779907 0.592651 0.012707 0.007455 0.006022 0.005393 -0.073963 0.079212 
1.9975000000000001 0.859192 0.465759 0.013864 0.005111 0.006405 0.004587 -0.073338 0.082821 
1.9987500000000000 0.891907 0.323547 0.013840 0.003048 0.007038 0.004313 -0.071686 0.085583 
2.0000000000000000 0.905579 0.191162 0.013336 0.001263 0.007303 0.003931 -0.069695 0.088806 
2.0012500000000002 0.888367 0.064758 0.013633 -0.000816 0.007827 0.003298 -0.067570 0.091423 
2.0024999999999999 0.860169 -0.050293 0.012412 -0.002419 0.007922 0.002473 -0.065392 0.093857 
2.0037500000000001 0.814697 -0.143189 0.011542 -0.003900 0.008431 0.001908 -0.062366 0.097118 
2.0049999999999999 0.762024 -0.223816 0.010695 -0.004816 0.008563 0.001029 -0.059334 0.099983 
2.0062500000000001 0.701477 -0.292358 0.009282 -0.005766 0.008786 0.000407 -0.056709 0.102684 
2.0074999999999998 0.643036 -0.346252 0.008522 -0.006786 0.008851 -0.000711 -0.053638 0.105171 
2.0087500000000000 0.584534 -0.387848 0.007384 -0.006987 0.008775 -0.001529 -0.050648 0.107773 
2.0099999999999998 0.526550 -0.419525 0.006264 -0.007162 0.008803 -0.002388 -0.047642 0.110451 
2.0112500000000000 0.470001 -0.443726 0.005147 -0.007349 0.008675 -0.003891 -0.045216 0.112610 
2.0125000000000002 0.419006 -0.463013 0.004431 -0.007611 0.007997 -0.004171 -0.042595 0.114056 
2.0137499999999999 0.369522 -0.476471 0.003449 -0.007760 0.007621 -0.005077 -0.039963 0.115795 
2.0150000000000001 0.323059 -0.486008 0.002777 -0.007498 0.007026 -0.005720 -0.037487 0.116211 
2.0162499999999999 0.281067 -0.490158 0.002188 -0.007394 0.006529 -0.006532 -0.035069 0.117199 
2.0175000000000001 0.240280 -0.492600 0.001788 -0.007599 0.005347 -0.006958 -0.031727 0.117184 
2.0187499999999998 0.203812 -0.493011 0.001004 -0.007220 0.004965 -0.007352 -0.029209 0.117409 
2.0200000000000000 0.168671 -0.489197 0.000222 -0.007340 0.004112 -0.007843 -0.026272 0.117676 
2.0212500000000002 0.133514 -0.487228 0.000142 -0.007048 0.003541 -0.008222 -0.023338 0.117958 
2.0225000000000000 0.104034 -0.482986 -0.000666 -0.006867 0.002813 -0.008529 -0.020462 0.118431 
2.0237500000000002 0.074600 -0.477615 -0.001183 -0.006744 0.001768 -0.008882 -0.018131 0.117901 
2.0249999999999999 0.047119 -0.471008 -0.001620 -0.006489 0.001293 -0.008844 -0.016129 0.118706 
2.0262500000000001 0.022400 -0.463745 -0.002250 -0.006234 0.000256 -0.009185 -0.014175 0.119499 
2.0274999999999999 -0.002045 -0.454102 -0.002416 -0.005803 -0.000502 -0.008892 -0.012398 0.119606 
2.0287500000000001 -0.026123 -0.446136 -0.002783 -0.005448 -0.001746 -0.008848 -0.011169 0.119927 
2.0299999999999998 -0.048431 -0.436523 -0.003103 -0.005337 -0.002075 -0.008329 -0.010117 0.120026 
2.0312500000000000 -0.070679 -0.427032 -0.003370 -0.004918 -0.003045 -0.008572 -0.009193 0.119598 
2.0325000000000002 -0.089142 -0.416901 -0.003779 -0.004745 -0.003863 -0.007811 -0.008354 0.119347 
2.0337499999999999 -0.108643 -0.406311 -0.003798 -0.004214 -0.004345 -0.007197 -0.008171 0.119278 
2.0350000000000001 -0.128113 -0.395355 -0.004001 -0.004130 -0.005064 -0.007019 -0.006851 0.118858 
2.0362499999999999 -0.145966 -0.384888 -0.004410 -0.003735 -0.005245 -0.006898 -0.005898 0.119347 
2.0375000000000001 -0.161865 -0.374146 -0.004311 -0.003425 -0.005946 -0.005974 -0.004822 0.119728 
2.0387499999999998 -0.177338 -0.362976 -0.004727 -0.003113 -0.006496 -0.005149 -0.004227 0.119705 
2.0400000000000000 -0.194031 -0.350830 -0.005020 -0.002469 -0.007149 -0.004987 -0.002853 0.121941 
2.0412499999999998 -0.208801 -0.339020 -0.005410 -0.002306 -0.007273 -0.004347 -0.001839 0.121903 
2.0425000000000000 -0.223450 -0.325287 -0.005199 -0.001958 -0.007701 -0.003448 -0.001534 0.123688 
2.0437500000000002 -0.238251 -0.313446 -0.005355 -0.001517 -0.007894 -0.002837 -0.001183 0.125313 
2.0449999999999999 -0.251343 -0.300171 -0.005359 -0.001009 -0.008088 -0.002281 -0.000549 0.126648 
2.0462500000000001 -0.263214 -0.285950 -0.005533 -0.000820 -0.008451 -0.001464 0.000221 0.128250 
2.0474999999999999 -0.276184 -0.273590 -0.005517 -0.000441 -0.008586 -0.000924 0.000778 0.130089 
2.0487500000000001 -0.289063 -0.257721 -0.005523 -0.000160 -0.008637 0.000175 0.002068 0.131706 
2.0499999999999998 -0.301483 -0.242767 -0.005635 0.000289 -0.008502 0.000867 0.003418 0.133057 
2.0512500000000000 -0.312836 -0.226868 -0.005533 0.000675 -0.008465 0.001627 0.005440 0.134796 
2.0525000000000002 -0.325073 -0.212372 -0.005647 0.001030 -0.008482 0.002160 0.006874 0.136284 
2.0537500000000000 -0.335419 -0.194611 -0.005697 0.001462 -0.008141 0.002890 0.009323 0.138550 
2.0550000000000002 -0.347229 -0.178558 -0.005500 0.001868 -0.007741 0.003885 0.011826 0.140457 
2.0562499999999999 -0.357239 -0.159210 -0.005455 0.002084 -0.007854 0.004618 0.014366 0.142204 
2.0575000000000001 -0.366547 -0.141022 -0.005278 0.002655 -0.007036 0.005283 0.017662 0.145279 
2.0587499999999999 -0.377533 -0.122009 -0.005421 0.003122 -0.006589 0.005922 0.019989 0.147354 
2.0600000000000001 -0.387329 -0.100464 -0.005135 0.003633 -0.005973 0.006344 0.023285 0.149796 
2.0612499999999998 -0.396698 -0.079208 -0.004989 0.003982 -0.005396 0.006526 0.026413 0.151718 
2.0625000000000000 -0.403732 -0.055756 -0.004689 0.004210 -0.004866 0.007225 0.030014 0.153824 
2.0637500000000002 -0.412109 -0.033081 -0.004567 0.004565 -0.003824 0.008007 0.033066 0.154526 
2.0649999999999999 -0.419861 -0.007309 -0.004412 0.005288 -0.003485 0.008073 0.036774 0.155609 
2.0662500000000001 -0.425888 0.021042 -0.003746 0.005461 -0.002725 0.008372 0.040573 0.156212 
2.0674999999999999 -0.431992 0.048386 -0.003602 0.005847 -0.001734 0.008621 0.045502 0.156548 
2.0687500000000001 -0.437256 0.077621 -0.003048 0.006419 -0.001334 0.009205 0.050232 0.156464 
2.0699999999999998 -0.441086 0.110565 -0.002468 0.006821 -0.000196 0.009286 0.055901 0.156448 
2.0712500000000000 -0.440887 0.143127 -0.002252 0.007335 0.000743 0.009078 0.061310 0.155945 
2.0724999999999998 -0.442108 0.179871 -0.001731 0.007589 0.001449 0.009087 0.066101 0.155624 
2.0737500000000000 -0.439484 0.219788 -0.001201 0.007705 0.002239 0.008862 0.071976 0.155533 
2.0750000000000002 -0.432617 0.260529 -0.000332 0.008256 0.003344 0.008611 0.077713 0.154541 
2.0762499999999999 -0.424988 0.304932 0.000246 0.008387 0.003839 0.008430 0.082581 0.153320 
2.0775000000000001 -0.412445 0.352264 0.001128 0.008742 0.004709 0.007771 0.087570 0.151810 
2.0787499999999999 -0.394653 0.401550 0.002030 0.008945 0.005364 0.007696 0.092346 0.149902 
2.0800000000000001 -0.368195 0.455551 0.002764 0.008932 0.005847 0.006989 0.096855 0.147652 
2.0812499999999998 -0.338165 0.509521 0.003940 0.008945 0.006617 0.006407 0.101746 0.143906 
2.0825000000000000 -0.294525 0.561279 0.004827 0.009154 0.007401 0.005620 0.105652 0.140991 
2.0837500000000002 -0.245606 0.618378 0.006004 0.008868 0.007514 0.004742 0.110367 0.137131 
2.0850000000000000 -0.176727 0.671753 0.007261 0.008057 0.008151 0.003787 0.114990 0.133759 
2.0862500000000002 -0.100586 0.718445 0.008580 0.008006 0.008122 0.003109 0.118591 0.129532 
2.0874999999999999 -0.008423 0.758545 0.010268 0.007742 0.008268 0.002074 0.123749 0.124710 
2.0887500000000001 0.102966 0.782227 0.011529 0.006092 0.008532 0.001411 0.127304 0.120880 
2.0899999999999999 0.221314 0.788635 0.013030 0.004667 0.008253 0.000944 0.131310 0.116097 
2.0912500000000001 0.340332 0.770386 0.013060 0.002471 0.008559 0.000028 0.134171 0.112381 
2.0924999999999998 0.464661 0.730347 0.013766 0.000521 0.008248 -0.000511 0.137001 0.108154 
2.0937500000000000 0.578857 0.656067 0.013771 -0.001912 0.008255 -0.001023 0.138664 0.103745 
2.0950000000000002 0.677734 0.560791 0.012937 -0.003975 0.008204 -0.001703 0.140587 0.098755 
2.0962499999999999 0.757385 0.448914 0.012702 -0.005955 0.008454 -0.002415 0.141953 0.094063 
2.0975000000000001 0.797516 0.325806 0.011189 -0.007523 0.008047 -0.002768 0.143288 0.089912 
2.0987499999999999 0.819824 0.204285 0.009630 -0.008513 0.008028 -0.003756 0.143280 0.084808 
2.1000000000000001 0.816711 0.086853 0.007937 -0.009110 0.007762 -0.004504 0.143814 0.080383 
2.1012499999999998 0.793701 -0.023438 0.006422 -0.010211 0.007562 -0.005225 0.144318 0.074417 
2.1025000000000000 0.754944 -0.113403 0.005439 -0.010755 0.006788 -0.005703 0.145111 0.070526 
2.1037499999999998 0.708191 -0.193115 0.003766 -0.010530 0.006811 -0.006807 0.145233 0.065598 
2.1050000000000000 0.655762 -0.260498 0.002504 -0.010767 0.005936 -0.007395 0.145599 0.061890 
2.1062500000000002 0.601379 -0.311890 0.001347 -0.010246 0.005567 -0.008336 0.145859 0.057457 
2.1074999999999999 0.545776 -0.351563 -0.000036 -0.009873 0.004539 -0.008807 0.145676 0.054275 
2.1087500000000001 0.492340 -0.384232 -0.000756 -0.009583 0.003706 -0.009148 0.144928 0.050369 
2.1099999999999999 0.438263 -0.407791 -0.001672 -0.008919 0.002392 -0.009593 0.144493 0.048042 
2.1112500000000001 0.390106 -0.425949 -0.002298 -0.008549 0.001112 -0.010108 0.143677 0.045181 
2.1124999999999998 0.341278 -0.438858 -0.003097 -0.007674 0.000132 -0.010037 0.142403 0.042191 
2.1137500000000000 0.296936 -0.449249 -0.003297 -0.007095 -0.000622 -0.009522 0.141663 0.039352 
2.1150000000000002 0.255875 -0.453110 -0.003429 -0.006507 -0.001844 -0.009367 0.139961 0.035942 
2.1162500000000000 0.217621 -0.456436 -0.003942 -0.006011 -0.003074 -0.009207 0.139992 0.033264 
2.1175000000000002 0.181625 -0.455475 -0.004444 -0.005707 -0.003151 -0.008639 0.138283 0.031113 
2.1187499999999999 0.147888 -0.453171 -0.004736 -0.005396 -0.004347 -0.008301 0.137886 0.028343 
2.1200000000000001 0.115875 -0.450424 -0.004737 -0.004946 -0.005019 -0.008006 0.137741 0.025856 
2.1212499999999999 0.086609 -0.444748 -0.005506 -0.004824 -0.005332 -0.007116 0.136871 0.023674 
2.1225000000000001 0.057907 -0.438446 -0.005425 -0.004089 -0.006082 -0.006780 0.136810 0.022201 
2.1237499999999998 0.032959 -0.431885 -0.005669 -0.003587 -0.006855 -0.006121 0.136505 0.020218 
2.1250000000000000 0.008118 -0.423874 -0.005558 -0.003418 -0.007193 -0.005438 0.135872 0.018242 
2.1262500000000002 -0.015762 -0.414993 -0.005904 -0.002482 -0.007425 -0.004674 0.135605 0.017189 
2.1274999999999999 -0.036728 -0.406921 -0.005913 -0.001997 -0.007930 -0.003955 0.134865 0.015694 
2.1287500000000001 -0.058685 -0.396912 -0.005828 -0.001476 -0.007843 -0.003447 0.134483 0.013847 
2.1299999999999999 -0.076904 -0.389435 -0.005917 -0.001425 -0.008153 -0.002912 0.133560 0.012543 
2.1312500000000001 -0.096420 -0.377091 -0.005781 -0.000898 -0.008178 -0.002209 0.132774 0.010170 
2.1324999999999998 -0.114227 -0.367569 -0.006022 -0.000568 -0.008318 -0.001575 0.132156 0.008591 
2.1337500000000000 -0.130371 -0.356354 -0.005718 -0.000464 -0.008435 -0.000731 0.131561 0.005669 
2.1349999999999998 -0.145935 -0.346314 -0.005726 0.000002 -0.008310 0.000298 0.131836 0.003883 
2.1362500000000000 -0.161804 -0.334900 -0.006026 0.000557 -0.008782 0.000649 0.131836 0.000794 
2.1375000000000002 -0.176758 -0.323029 -0.005983 0.000709 -0.008487 0.001684 0.132355 -0.001122 
2.1387499999999999 -0.191071 -0.310761 -0.006058 0.001238 -0.008161 0.002327 0.131928 -0.003181 
2.1400000000000001 -0.204681 -0.297699 -0.005819 0.001697 -0.007843 0.003192 0.131401 -0.005562 
2.1412499999999999 -0.217682 -0.285248 -0.005607 0.002018 -0.007816 0.003766 0.131210 -0.007042 
2.1425000000000001 -0.231506 -0.272217 -0.005238 0.002734 -0.007405 0.004479 0.130814 -0.009636 
2.1437499999999998 -0.242950 -0.259735 -0.005167 0.002878 -0.007181 0.004934 0.130066 -0.011772 
2.1450000000000000 -0.254486 -0.244995 -0.004946 0.003294 -0.006565 0.005691 0.129059 -0.013939 
2.1462500000000002 -0.266144 -0.231049 -0.004580 0.003633 -0.005801 0.006496 0.127953 -0.016541 
2.1475000000000000 -0.277618 -0.216858 -0.004460 0.003793 -0.005314 0.006964 0.126808 -0.019005 
2.1487500000000002 -0.287811 -0.200897 -0.004183 0.004194 -0.004923 0.007130 0.125824 -0.022232 
2.1499999999999999 -0.298920 -0.184998 -0.003954 0.004417 -0.004239 0.007791 0.123894 -0.025276 
2.1512500000000001 -0.308563 -0.169037 -0.003889 0.005049 -0.003528 0.008244 0.123100 -0.028008 
