!
! C:\Users\rflab\Downloads\Lab5_KD_ZW\90.S2P
!
! Touchstone 1.1 file saved by VNA.EXE V1.65 (www.ke5fx.com/gpib/readme.htm)
! 11/11/2024 11:44:07 PM
!
!    Source: HEWLETT PACKARD,8753D,0,6.14
!  Min freq: 1.900000E+009 Hz
!  Max freq: 2.900000E+009 Hz
!    Points: 801
!    Params: S11 S21 S12 S22
!
!!!!!
# GHZ S RI R 50
1.8999999999999999 0.958374 0.267029 0.008443 0.006845 0.003537 0.004259 0.023899 -0.058262 
1.9012500000000001 0.954712 0.129089 0.008986 0.005314 0.003969 0.003835 0.021187 -0.058565 
1.9025000000000001 0.928833 0.007996 0.009254 0.004114 0.004413 0.003651 0.019096 -0.058781 
1.9037500000000001 0.888733 -0.093689 0.009254 0.002995 0.004714 0.003518 0.016453 -0.059162 
1.9050000000000000 0.842560 -0.186005 0.008832 0.001647 0.005081 0.003109 0.014399 -0.058849 
1.9062500000000000 0.783630 -0.258575 0.008710 0.000537 0.005300 0.002891 0.011574 -0.057949 
1.9075000000000000 0.722015 -0.320740 0.008506 -0.000609 0.005791 0.002459 0.009714 -0.057081 
1.9087499999999999 0.661408 -0.370422 0.007679 -0.001161 0.006118 0.001782 0.006910 -0.055943 
1.9099999999999999 0.599762 -0.412109 0.007223 -0.002204 0.006189 0.001273 0.004501 -0.055059 
1.9112499999999999 0.544769 -0.444580 0.006922 -0.002747 0.006055 0.000972 0.001183 -0.053673 
1.9125000000000001 0.489777 -0.467560 0.006597 -0.003080 0.006280 0.000135 -0.001450 -0.052547 
1.9137500000000001 0.437210 -0.486435 0.005715 -0.003201 0.006171 -0.000236 -0.004789 -0.051628 
1.9150000000000000 0.388489 -0.499603 0.005284 -0.003593 0.006113 -0.000944 -0.007542 -0.050680 
1.9162500000000000 0.340027 -0.509369 0.004874 -0.003897 0.006181 -0.001512 -0.010073 -0.049473 
1.9175000000000000 0.298920 -0.514465 0.004212 -0.004369 0.006121 -0.002050 -0.012156 -0.048424 
1.9187500000000000 0.257690 -0.518005 0.004052 -0.004143 0.005916 -0.002612 -0.014229 -0.047522 
1.9199999999999999 0.220306 -0.517304 0.003266 -0.004585 0.005345 -0.003073 -0.015669 -0.045731 
1.9212499999999999 0.184143 -0.516205 0.002732 -0.004673 0.005346 -0.003474 -0.017683 -0.044264 
1.9225000000000001 0.151215 -0.513580 0.002623 -0.004747 0.004883 -0.004146 -0.019421 -0.041985 
1.9237500000000001 0.117371 -0.509247 0.002077 -0.005026 0.004533 -0.004441 -0.020828 -0.040180 
1.9250000000000000 0.088440 -0.503723 0.001828 -0.004993 0.004185 -0.004942 -0.022343 -0.037609 
1.9262500000000000 0.058991 -0.498779 0.001226 -0.005092 0.003562 -0.005066 -0.024380 -0.034962 
1.9275000000000000 0.032318 -0.491760 0.001071 -0.005037 0.003096 -0.005331 -0.025936 -0.032722 
1.9287500000000000 0.006592 -0.484314 0.000594 -0.004974 0.002724 -0.005611 -0.027748 -0.030594 
1.9299999999999999 -0.016296 -0.476593 0.000137 -0.004838 0.002368 -0.005722 -0.029427 -0.028229 
1.9312499999999999 -0.038483 -0.467133 -0.000189 -0.004568 0.001625 -0.005954 -0.031029 -0.026596 
1.9325000000000001 -0.063263 -0.456909 -0.000285 -0.004343 0.001041 -0.006022 -0.032619 -0.025005 
1.9337500000000001 -0.083115 -0.446976 -0.000682 -0.004463 0.000670 -0.006263 -0.033560 -0.023451 
1.9350000000000001 -0.104797 -0.436523 -0.000983 -0.004324 -0.000013 -0.006301 -0.034170 -0.021643 
1.9362500000000000 -0.123306 -0.426621 -0.000995 -0.004393 -0.000574 -0.006165 -0.034363 -0.020449 
1.9375000000000000 -0.142960 -0.416153 -0.001420 -0.004063 -0.000947 -0.006310 -0.034925 -0.018831 
1.9387500000000000 -0.160904 -0.404007 -0.001655 -0.004023 -0.001742 -0.005979 -0.035404 -0.017031 
1.9399999999999999 -0.179077 -0.392441 -0.002145 -0.003975 -0.002150 -0.005682 -0.035814 -0.015152 
1.9412499999999999 -0.195999 -0.380554 -0.002365 -0.003856 -0.002556 -0.005844 -0.036085 -0.012796 
1.9424999999999999 -0.211624 -0.368240 -0.002489 -0.003715 -0.002829 -0.005464 -0.036152 -0.010624 
1.9437500000000001 -0.228424 -0.354431 -0.002632 -0.003615 -0.003474 -0.004987 -0.037138 -0.009123 
1.9450000000000001 -0.244995 -0.340897 -0.002931 -0.003343 -0.003723 -0.004970 -0.037846 -0.007875 
1.9462500000000000 -0.260025 -0.326996 -0.003136 -0.003085 -0.004363 -0.004427 -0.038675 -0.005871 
1.9475000000000000 -0.274155 -0.312897 -0.003399 -0.002754 -0.004562 -0.004235 -0.039385 -0.005178 
1.9487500000000000 -0.289627 -0.298508 -0.003409 -0.002643 -0.004951 -0.003747 -0.040819 -0.004448 
1.9500000000000000 -0.302460 -0.283020 -0.003670 -0.002499 -0.005252 -0.003290 -0.041368 -0.003626 
1.9512499999999999 -0.317261 -0.268143 -0.003926 -0.002464 -0.005422 -0.002829 -0.042057 -0.003445 
1.9524999999999999 -0.330872 -0.251389 -0.004098 -0.002068 -0.005748 -0.002397 -0.042639 -0.002935 
1.9537500000000001 -0.343628 -0.234863 -0.004378 -0.001713 -0.005785 -0.001926 -0.042618 -0.002054 
1.9550000000000001 -0.355972 -0.217514 -0.004224 -0.001460 -0.006156 -0.001326 -0.043364 -0.001196 
1.9562500000000000 -0.367203 -0.198593 -0.004612 -0.001142 -0.006306 -0.000657 -0.043697 -0.000511 
1.9575000000000000 -0.380646 -0.179382 -0.004736 -0.000866 -0.006302 -0.000127 -0.044809 0.000647 
1.9587500000000000 -0.391846 -0.157806 -0.004835 -0.000530 -0.006491 0.000518 -0.045677 0.002348 
1.9600000000000000 -0.403748 -0.136932 -0.005107 -0.000196 -0.006661 0.000935 -0.047115 0.002975 
1.9612499999999999 -0.414978 -0.114471 -0.004914 0.000257 -0.006515 0.001493 -0.048866 0.004150 
1.9624999999999999 -0.424713 -0.093201 -0.004927 0.000536 -0.006321 0.001989 -0.050632 0.005554 
1.9637500000000001 -0.436462 -0.068359 -0.004866 0.000735 -0.006162 0.002571 -0.052464 0.006466 
1.9650000000000001 -0.445587 -0.041321 -0.005064 0.001062 -0.005705 0.003292 -0.054321 0.007431 
1.9662500000000001 -0.454620 -0.013245 -0.005093 0.001450 -0.005468 0.003518 -0.056347 0.007984 
1.9675000000000000 -0.461670 0.014862 -0.005193 0.001931 -0.005059 0.004167 -0.058140 0.009098 
1.9687500000000000 -0.468842 0.047791 -0.005298 0.002446 -0.004780 0.004831 -0.060421 0.010216 
1.9700000000000000 -0.476028 0.081848 -0.005291 0.002849 -0.004164 0.005351 -0.061392 0.011429 
1.9712499999999999 -0.480698 0.118713 -0.005195 0.003482 -0.003980 0.005498 -0.062859 0.013241 
1.9724999999999999 -0.483673 0.155487 -0.004969 0.003959 -0.003313 0.005902 -0.063908 0.015217 
1.9737499999999999 -0.484482 0.197494 -0.004699 0.004310 -0.002892 0.006354 -0.065437 0.017719 
1.9750000000000001 -0.482376 0.242218 -0.004478 0.005139 -0.002576 0.006320 -0.067032 0.020374 
1.9762500000000001 -0.477966 0.290741 -0.004205 0.005924 -0.001872 0.007029 -0.068974 0.023403 
1.9775000000000000 -0.469971 0.338928 -0.003704 0.006337 -0.000931 0.006984 -0.071087 0.026203 
1.9787500000000000 -0.455689 0.392456 -0.003526 0.006775 -0.000203 0.007000 -0.073151 0.028992 
1.9800000000000000 -0.435059 0.450134 -0.002933 0.007268 0.000578 0.007366 -0.074589 0.032127 
1.9812500000000000 -0.406433 0.513061 -0.002539 0.008252 0.000837 0.007015 -0.076485 0.034885 
1.9824999999999999 -0.370361 0.575806 -0.001428 0.008770 0.001689 0.006777 -0.077461 0.037552 
1.9837499999999999 -0.322510 0.638672 -0.000807 0.009549 0.002076 0.006166 -0.078659 0.039932 
1.9850000000000001 -0.260376 0.706146 0.000616 0.009531 0.002884 0.006213 -0.079090 0.043312 
1.9862500000000001 -0.187195 0.765015 0.001638 0.009838 0.003218 0.006368 -0.079693 0.046730 
1.9875000000000000 -0.094971 0.820252 0.003274 0.010368 0.003922 0.005713 -0.079479 0.049995 
1.9887500000000000 0.013550 0.857300 0.004760 0.010402 0.004192 0.005181 -0.079185 0.053635 
1.9900000000000000 0.139465 0.884216 0.006460 0.009797 0.004780 0.005036 -0.078785 0.057835 
1.9912500000000000 0.269836 0.889465 0.007664 0.009005 0.005319 0.004289 -0.078217 0.061626 
1.9924999999999999 0.413452 0.859863 0.009566 0.007549 0.005479 0.003736 -0.077908 0.066128 
1.9937499999999999 0.543152 0.799622 0.010576 0.006352 0.006068 0.003182 -0.077438 0.070301 
1.9950000000000001 0.675171 0.712769 0.011327 0.004328 0.006097 0.002789 -0.076836 0.074100 
1.9962500000000001 0.775879 0.593689 0.012358 0.002282 0.006289 0.002425 -0.075947 0.077805 
1.9975000000000001 0.848206 0.463318 0.011856 0.000400 0.006333 0.001987 -0.075474 0.081154 
1.9987500000000000 0.894470 0.322510 0.011638 -0.001165 0.006480 0.001357 -0.074226 0.084309 
2.0000000000000000 0.903564 0.193054 0.010991 -0.002840 0.006705 0.001092 -0.072075 0.087898 
2.0012500000000002 0.892883 0.067749 0.010575 -0.004399 0.007005 0.000551 -0.069748 0.090256 
2.0024999999999999 0.862000 -0.046204 0.009352 -0.004685 0.007046 -0.000394 -0.067650 0.093571 
2.0037500000000001 0.817810 -0.138306 0.008175 -0.005995 0.007114 -0.000960 -0.064983 0.096794 
2.0049999999999999 0.760864 -0.223023 0.007360 -0.006948 0.007254 -0.001505 -0.061508 0.098770 
2.0062500000000001 0.702484 -0.291016 0.005977 -0.007163 0.006727 -0.002136 -0.058590 0.101986 
2.0074999999999998 0.644287 -0.347809 0.004673 -0.007081 0.006784 -0.002979 -0.055809 0.105049 
2.0087500000000000 0.583679 -0.387116 0.003831 -0.007233 0.006291 -0.003865 -0.052769 0.107475 
2.0099999999999998 0.525696 -0.419495 0.002752 -0.007659 0.006315 -0.004276 -0.049911 0.109978 
2.0112500000000000 0.470947 -0.444031 0.002084 -0.007669 0.005942 -0.004784 -0.047405 0.111618 
2.0125000000000002 0.419586 -0.461395 0.001152 -0.007360 0.005683 -0.005609 -0.044544 0.113930 
2.0137499999999999 0.371109 -0.475769 0.001030 -0.006976 0.004881 -0.006351 -0.041565 0.115139 
2.0150000000000001 0.323761 -0.484955 0.000199 -0.006788 0.004125 -0.006394 -0.039249 0.116219 
2.0162499999999999 0.280472 -0.490951 -0.000525 -0.006509 0.003311 -0.006964 -0.036644 0.116470 
2.0175000000000001 0.239456 -0.492096 -0.000745 -0.006559 0.002655 -0.007202 -0.033703 0.117313 
2.0187499999999998 0.202896 -0.492432 -0.001011 -0.006134 0.001815 -0.007368 -0.030666 0.117165 
2.0200000000000000 0.167038 -0.490494 -0.001726 -0.005789 0.001296 -0.007544 -0.027889 0.117046 
2.0212500000000002 0.134659 -0.487366 -0.002142 -0.005447 0.000687 -0.007440 -0.024731 0.117981 
2.0225000000000000 0.104752 -0.482971 -0.002218 -0.005171 -0.000110 -0.007528 -0.021526 0.117931 
2.0237500000000002 0.075745 -0.476563 -0.002755 -0.005101 -0.000956 -0.007511 -0.019146 0.117641 
2.0249999999999999 0.047485 -0.470856 -0.002981 -0.004709 -0.001138 -0.007271 -0.017258 0.118271 
2.0262500000000001 0.021698 -0.462463 -0.003332 -0.004152 -0.002066 -0.007493 -0.014992 0.118790 
2.0274999999999999 -0.001923 -0.454315 -0.003500 -0.003881 -0.003077 -0.006785 -0.013115 0.118797 
2.0287500000000001 -0.026550 -0.445221 -0.003588 -0.003384 -0.003853 -0.006547 -0.012161 0.119225 
2.0299999999999998 -0.048492 -0.436493 -0.003684 -0.003135 -0.004079 -0.006299 -0.010902 0.119110 
2.0312500000000000 -0.069397 -0.426605 -0.003904 -0.003062 -0.004524 -0.005869 -0.009956 0.118622 
2.0325000000000002 -0.089844 -0.416992 -0.004395 -0.002442 -0.005087 -0.005157 -0.008560 0.118317 
2.0337499999999999 -0.109070 -0.405609 -0.004281 -0.002427 -0.005551 -0.004548 -0.008316 0.118271 
2.0350000000000001 -0.128357 -0.395691 -0.004401 -0.001919 -0.005864 -0.004190 -0.006805 0.118225 
2.0362499999999999 -0.145447 -0.384277 -0.004621 -0.001846 -0.006267 -0.003595 -0.006531 0.117577 
2.0375000000000001 -0.161713 -0.373444 -0.004658 -0.001544 -0.006195 -0.003139 -0.005096 0.118347 
2.0387499999999998 -0.177948 -0.362976 -0.004742 -0.000990 -0.006613 -0.002573 -0.004097 0.118897 
2.0400000000000000 -0.193573 -0.350677 -0.004967 -0.000749 -0.006737 -0.001818 -0.002953 0.120468 
2.0412499999999998 -0.208008 -0.338989 -0.004692 -0.000369 -0.007013 -0.001599 -0.001961 0.120987 
2.0425000000000000 -0.223267 -0.325592 -0.004598 0.000002 -0.007119 -0.000985 -0.001633 0.122528 
2.0437500000000002 -0.237793 -0.313934 -0.004773 0.000093 -0.007329 -0.000096 -0.000877 0.123741 
2.0449999999999999 -0.252106 -0.299408 -0.004598 0.000663 -0.007239 0.000432 -0.000717 0.125374 
2.0462500000000001 -0.264038 -0.285583 -0.004516 0.000763 -0.007202 0.000930 0.000015 0.127129 
2.0474999999999999 -0.276672 -0.272583 -0.004487 0.001091 -0.007031 0.001771 0.000588 0.128769 
2.0487500000000001 -0.289215 -0.257050 -0.004179 0.001221 -0.006996 0.002222 0.001244 0.130409 
2.0499999999999998 -0.301148 -0.242340 -0.004422 0.001729 -0.006485 0.002891 0.002769 0.131599 
2.0512500000000000 -0.313507 -0.227203 -0.004230 0.002045 -0.006609 0.003786 0.004822 0.133385 
2.0525000000000002 -0.325378 -0.211273 -0.004186 0.002353 -0.006026 0.004207 0.006088 0.134941 
2.0537500000000000 -0.335419 -0.193939 -0.004021 0.002456 -0.005580 0.004823 0.008224 0.136971 
2.0550000000000002 -0.346558 -0.177673 -0.003791 0.002874 -0.005371 0.005566 0.011177 0.139221 
2.0562499999999999 -0.357971 -0.159821 -0.003816 0.003325 -0.004946 0.005433 0.013695 0.141037 
2.0575000000000001 -0.366791 -0.140778 -0.003567 0.003798 -0.004051 0.006143 0.016808 0.143280 
2.0587499999999999 -0.377808 -0.121704 -0.003340 0.003784 -0.003716 0.006451 0.019455 0.145996 
2.0600000000000001 -0.387024 -0.100006 -0.003026 0.004393 -0.002955 0.006966 0.022568 0.148376 
2.0612499999999998 -0.395950 -0.079285 -0.002687 0.004416 -0.002408 0.006793 0.025803 0.150818 
2.0625000000000000 -0.404037 -0.055328 -0.002616 0.004619 -0.001894 0.007066 0.028641 0.152054 
2.0637500000000002 -0.412094 -0.032089 -0.002177 0.005146 -0.001074 0.007201 0.032211 0.153381 
2.0649999999999999 -0.418899 -0.006165 -0.001796 0.005251 -0.000505 0.007429 0.036011 0.154892 
2.0662500000000001 -0.426956 0.021454 -0.001541 0.005242 0.000088 0.007210 0.039955 0.155594 
2.0674999999999999 -0.431946 0.048721 -0.001051 0.005704 0.001106 0.007331 0.044029 0.156418 
2.0687500000000001 -0.436722 0.077850 -0.000836 0.005579 0.001610 0.007123 0.049087 0.156670 
2.0699999999999998 -0.440109 0.112106 -0.000306 0.006155 0.002532 0.007438 0.054298 0.156929 
2.0712500000000000 -0.441711 0.144409 0.000041 0.006234 0.003036 0.006815 0.059906 0.156403 
2.0724999999999998 -0.441956 0.180969 0.000882 0.006524 0.003346 0.006608 0.065018 0.155945 
2.0737500000000000 -0.439423 0.220581 0.001489 0.006439 0.004270 0.006056 0.069855 0.156204 
2.0750000000000002 -0.432404 0.260864 0.001873 0.006703 0.004848 0.005565 0.075333 0.155426 
2.0762499999999999 -0.424072 0.305084 0.002941 0.006876 0.005362 0.005416 0.080353 0.153946 
2.0775000000000001 -0.411072 0.353668 0.003102 0.006392 0.005718 0.004659 0.085556 0.152756 
2.0787499999999999 -0.393494 0.401337 0.004176 0.006471 0.006307 0.004217 0.090164 0.151092 
2.0800000000000001 -0.368744 0.454056 0.004563 0.005917 0.006612 0.003518 0.094498 0.148819 
2.0812499999999998 -0.334442 0.510467 0.005565 0.006277 0.006907 0.003031 0.098923 0.145874 
2.0825000000000000 -0.294647 0.563446 0.006144 0.005559 0.007089 0.002150 0.103897 0.143219 
2.0837500000000002 -0.244629 0.619385 0.006822 0.005387 0.007545 0.001811 0.108078 0.138809 
2.0850000000000000 -0.174530 0.671173 0.008015 0.004251 0.007197 0.000803 0.112656 0.135513 
2.0862500000000002 -0.097931 0.720337 0.008407 0.003802 0.007251 0.000327 0.117203 0.131241 
2.0874999999999999 -0.005005 0.757568 0.009881 0.002391 0.007039 -0.000803 0.121735 0.127060 
2.0887500000000001 0.101440 0.782349 0.010508 0.001253 0.006987 -0.000890 0.125168 0.122742 
2.0899999999999999 0.219910 0.783203 0.010795 -0.000437 0.006908 -0.001697 0.129631 0.118088 
2.0912500000000001 0.343140 0.770752 0.011183 -0.002129 0.006367 -0.002177 0.132553 0.114258 
2.0924999999999998 0.468750 0.727417 0.010734 -0.003224 0.006087 -0.002724 0.135109 0.110672 
2.0937500000000000 0.588806 0.653320 0.010098 -0.005547 0.006070 -0.003079 0.136971 0.105820 
2.0950000000000002 0.673035 0.560730 0.009307 -0.006809 0.005854 -0.003505 0.139092 0.100769 
2.0962499999999999 0.754639 0.446838 0.007445 -0.007861 0.005752 -0.003853 0.140579 0.096313 
2.0975000000000001 0.797516 0.325928 0.006275 -0.008616 0.005646 -0.004291 0.141747 0.091537 
2.0987499999999999 0.813843 0.198792 0.005183 -0.008834 0.005418 -0.005048 0.142365 0.086777 
2.1000000000000001 0.812195 0.084290 0.003998 -0.009432 0.004795 -0.005456 0.143311 0.081467 
2.1012499999999998 0.790833 -0.021973 0.002695 -0.009484 0.004439 -0.005919 0.143265 0.076141 
2.1025000000000000 0.753113 -0.118042 0.000908 -0.009607 0.003700 -0.006194 0.143967 0.072006 
2.1037499999999998 0.705750 -0.193298 -0.000078 -0.008927 0.003504 -0.006700 0.144592 0.067368 
2.1050000000000000 0.652588 -0.261963 -0.000627 -0.008919 0.002641 -0.007287 0.144806 0.063187 
2.1062500000000002 0.599945 -0.311615 -0.001981 -0.008480 0.002092 -0.007558 0.144638 0.059044 
2.1074999999999999 0.544586 -0.351898 -0.002661 -0.007875 0.001280 -0.007847 0.144875 0.055572 
2.1087500000000001 0.490402 -0.384720 -0.003106 -0.006988 0.000156 -0.008257 0.144043 0.052017 
2.1099999999999999 0.436905 -0.408386 -0.004000 -0.006337 -0.000703 -0.008312 0.143837 0.048996 
2.1112500000000001 0.389099 -0.426132 -0.004115 -0.005710 -0.001610 -0.007889 0.143021 0.046372 
2.1124999999999998 0.340179 -0.438339 -0.004416 -0.005076 -0.002644 -0.007585 0.141678 0.042725 
2.1137500000000000 0.296921 -0.448914 -0.004561 -0.004709 -0.003174 -0.007122 0.140785 0.039413 
2.1150000000000002 0.255844 -0.453064 -0.004787 -0.004246 -0.003670 -0.006769 0.139854 0.037353 
2.1162500000000000 0.217224 -0.455749 -0.004895 -0.003607 -0.004601 -0.006279 0.138886 0.034058 
2.1175000000000002 0.180496 -0.455124 -0.004940 -0.003165 -0.004858 -0.005770 0.137657 0.031616 
2.1187499999999999 0.148071 -0.452591 -0.004892 -0.002716 -0.005582 -0.005137 0.137077 0.028725 
2.1200000000000001 0.115418 -0.450089 -0.005122 -0.002298 -0.005685 -0.004835 0.136879 0.026375 
2.1212499999999999 0.086349 -0.444107 -0.005269 -0.002059 -0.006005 -0.003696 0.136063 0.023552 
2.1225000000000001 0.057968 -0.438278 -0.005201 -0.001694 -0.006559 -0.003252 0.135811 0.022079 
2.1237499999999998 0.033035 -0.431335 -0.005077 -0.000742 -0.006588 -0.002784 0.135597 0.019928 
2.1250000000000000 0.008102 -0.422546 -0.005126 -0.000695 -0.006564 -0.002175 0.134804 0.018242 
2.1262500000000002 -0.015701 -0.415939 -0.004984 -0.000446 -0.006740 -0.001458 0.134399 0.016907 
2.1274999999999999 -0.037827 -0.406937 -0.005063 -0.000011 -0.006839 -0.001027 0.133964 0.015236 
2.1287500000000001 -0.057617 -0.396728 -0.005012 0.000273 -0.007020 -0.000202 0.133537 0.013603 
2.1299999999999999 -0.076904 -0.388580 -0.004539 0.000397 -0.006717 0.000252 0.132835 0.011902 
2.1312500000000001 -0.096191 -0.376663 -0.004478 0.000859 -0.007014 0.000539 0.132217 0.009239 
2.1324999999999998 -0.114212 -0.367447 -0.004438 0.001153 -0.006560 0.001136 0.131378 0.007393 
2.1337500000000000 -0.130035 -0.356476 -0.004625 0.001276 -0.006305 0.001839 0.130600 0.005157 
2.1349999999999998 -0.145935 -0.346374 -0.004388 0.001479 -0.006448 0.002459 0.130669 0.002884 
2.1362500000000000 -0.161560 -0.334656 -0.004378 0.001842 -0.006338 0.002780 0.131134 0.000526 
2.1375000000000002 -0.176453 -0.322754 -0.004314 0.002294 -0.005915 0.003359 0.131844 -0.001747 
2.1387499999999999 -0.190826 -0.310852 -0.004195 0.002659 -0.005658 0.004045 0.131020 -0.003632 
2.1400000000000001 -0.204376 -0.297669 -0.003925 0.002863 -0.005314 0.004445 0.131111 -0.006325 
2.1412499999999999 -0.217560 -0.285309 -0.003680 0.003193 -0.005281 0.004599 0.130623 -0.007973 
2.1425000000000001 -0.231232 -0.271728 -0.003220 0.003316 -0.004666 0.005257 0.130302 -0.010033 
2.1437499999999998 -0.242432 -0.259979 -0.002957 0.003516 -0.004052 0.005297 0.129837 -0.012154 
2.1450000000000000 -0.254242 -0.245117 -0.002786 0.003842 -0.003618 0.005902 0.128586 -0.014183 
2.1462500000000002 -0.266083 -0.230804 -0.002517 0.003870 -0.002799 0.006310 0.127556 -0.016876 
2.1475000000000000 -0.277313 -0.216553 -0.002383 0.003878 -0.002437 0.006729 0.126640 -0.019264 
2.1487500000000002 -0.287048 -0.201019 -0.001983 0.004281 -0.001621 0.006596 0.125786 -0.022339 
2.1499999999999999 -0.298370 -0.185120 -0.001869 0.004446 -0.001331 0.006882 0.124298 -0.025452 
2.1512500000000001 -0.308258 -0.169067 -0.001658 0.004654 -0.000538 0.007007 0.123177 -0.028198 
