# Hz S RI R 50
7.00000000000000e+07	-5.00063970838120e-03 5.62716882238171e-04
7.00060006000600e+07	-5.00063959871849e-03 5.62668647290988e-04
7.00120012001200e+07	-5.00063948908395e-03 5.62620420611333e-04
7.00180018001800e+07	-5.00063937947758e-03 5.62572202196510e-04
7.00240024002400e+07	-5.00063926989937e-03 5.62523992046671e-04
7.00300030003000e+07	-5.00063916034948e-03 5.62475790157985e-04
7.00360036003600e+07	-5.00063905082761e-03 5.62427596528327e-04
7.00420042004200e+07	-5.00063894133384e-03 5.62379411158419e-04
7.00480048004800e+07	-5.00063883186832e-03 5.62331234042727e-04
7.00540054005400e+07	-5.00063872243089e-03 5.62283065179129e-04
7.00600060006000e+07	-5.00063861302155e-03 5.62234904568347e-04
7.00660066006600e+07	-5.00063850364032e-03 5.62186752205420e-04
7.00720072007200e+07	-5.00063839428726e-03 5.62138608088227e-04
7.00780078007800e+07	-5.00063828496222e-03 5.62090472218061e-04
7.00840084008400e+07	-5.00063817566528e-03 5.62042344589962e-04
7.00900090009000e+07	-5.00063806639638e-03 5.61994225201814e-04
7.00960096009600e+07	-5.00063795715563e-03 5.61946114052067e-04
7.01020102010200e+07	-5.00063784794278e-03 5.61898011139744e-04
7.01080108010800e+07	-5.00063773875802e-03 5.61849916458751e-04
7.01140114011400e+07	-5.00063762960143e-03 5.61801830013226e-04
7.01200120012000e+07	-5.00063752047273e-03 5.61753751796509e-04
7.01260126012600e+07	-5.00063741137213e-03 5.61705681805918e-04
7.01320132013200e+07	-5.00063730229948e-03 5.61657620043320e-04
7.01380138013800e+07	-5.00063719325479e-03 5.61609566503194e-04
7.01440144014400e+07	-5.00063708423820e-03 5.61561521185134e-04
7.01500150015000e+07	-5.00063697524942e-03 5.61513484086462e-04
7.01560156015600e+07	-5.00063686628867e-03 5.61465455205639e-04
7.01620162016200e+07	-5.00063675735588e-03 5.61417434538280e-04
7.01680168016800e+07	-5.00063664845111e-03 5.61369422083985e-04
7.01740174017400e+07	-5.00063653957416e-03 5.61321417842351e-04
7.01800180018000e+07	-5.00063643072524e-03 5.61273421807862e-04
7.01860186018600e+07	-5.00063632190413e-03 5.61225433981824e-04
7.01920192019200e+07	-5.00063621311105e-03 5.61177454359287e-04
7.01980198019800e+07	-5.00063610434572e-03 5.61129482939288e-04
7.02040204020400e+07	-5.00063599560834e-03 5.61081519720857e-04
7.02100210021000e+07	-5.00063588689899e-03 5.61033564698483e-04
7.02160216021600e+07	-5.00063577821739e-03 5.60985617873474e-04
7.02220222022200e+07	-5.00063566956359e-03 5.60937679244297e-04
7.02280228022800e+07	-5.00063556093776e-03 5.60889748804305e-04
7.02340234023400e+07	-5.00063545233960e-03 5.60841826556514e-04
7.02400240024000e+07	-5.00063534376939e-03 5.60793912495413e-04
7.02460246024600e+07	-5.00063523522701e-03 5.60746006620042e-04
7.02520252025200e+07	-5.00063512671243e-03 5.60698108928872e-04
7.02580258025800e+07	-5.00063501822567e-03 5.60650219418101e-04
7.02640264026400e+07	-5.00063490976666e-03 5.60602338088473e-04
7.02700270027000e+07	-5.00063480133546e-03 5.60554464935622e-04
7.02760276027600e+07	-5.00063469293208e-03 5.60506599956313e-04
7.02820282028200e+07	-5.00063458455637e-03 5.60458743151866e-04
7.02880288028800e+07	-5.00063447620847e-03 5.60410894518480e-04
7.02940294029400e+07	-5.00063436788825e-03 5.60363054053495e-04
7.03000300030001e+07	-5.00063425959584e-03 5.60315221755956e-04
7.03060306030601e+07	-5.00063415133111e-03 5.60267397623772e-04
7.03120312031201e+07	-5.00063404309412e-03 5.60219581652579e-04
7.03180318031801e+07	-5.00063393488488e-03 5.60171773842560e-04
7.03240324032401e+07	-5.00063382670324e-03 5.60123974191627e-04
7.03300330033001e+07	-5.00063371854941e-03 5.60076182695987e-04
7.03360336033601e+07	-5.00063361042319e-03 5.60028399356962e-04
7.03420342034201e+07	-5.00063350232464e-03 5.59980624169054e-04
7.03480348034801e+07	-5.00063339425369e-03 5.59932857129610e-04
7.03540354035401e+07	-5.00063328621056e-03 5.59885098240522e-04
7.03600360036001e+07	-5.00063317819497e-03 5.59837347495160e-04
7.03660366036601e+07	-5.00063307020697e-03 5.59789604895417e-04
7.03720372037201e+07	-5.00063296224664e-03 5.59741870438074e-04
7.03780378037801e+07	-5.00063285431386e-03 5.59694144118774e-04
7.03840384038401e+07	-5.00063274640874e-03 5.59646425937710e-04
7.03900390039001e+07	-5.00063263853129e-03 5.59598715893936e-04
7.03960396039601e+07	-5.00063253068131e-03 5.59551013981394e-04
7.04020402040201e+07	-5.00063242285893e-03 5.59503320201983e-04
7.04080408040801e+07	-5.00063231506423e-03 5.59455634551350e-04
7.04140414041401e+07	-5.00063220729699e-03 5.59407957026280e-04
7.04200420042001e+07	-5.00063209955727e-03 5.59360287627537e-04
7.04260426042601e+07	-5.00063199184509e-03 5.59312626353044e-04
7.04320432043201e+07	-5.00063188416052e-03 5.59264973197884e-04
7.04380438043801e+07	-5.00063177650347e-03 5.59217328163392e-04
7.04440444044401e+07	-5.00063166887382e-03 5.59169691246354e-04
7.04500450045001e+07	-5.00063156127177e-03 5.59122062440720e-04
7.04560456045601e+07	-5.00063145369704e-03 5.59074441749530e-04
7.04620462046201e+07	-5.00063134614998e-03 5.59026829170145e-04
7.04680468046801e+07	-5.00063123863045e-03 5.58979224697649e-04
7.04740474047401e+07	-5.00063113113817e-03 5.58931628332815e-04
7.04800480048001e+07	-5.00063102367336e-03 5.58884040073571e-04
7.04860486048601e+07	-5.00063091623629e-03 5.58836459913868e-04
7.04920492049201e+07	-5.00063080882625e-03 5.58788887855048e-04
7.04980498049801e+07	-5.00063070144382e-03 5.58741323897316e-04
7.05040504050401e+07	-5.00063059408892e-03 5.58693768032352e-04
7.05100510051001e+07	-5.00063048676127e-03 5.58646220263205e-04
7.05160516051601e+07	-5.00063037946108e-03 5.58598680587240e-04
7.05220522052201e+07	-5.00063027218828e-03 5.58551148998412e-04
7.05280528052801e+07	-5.00063016494280e-03 5.58503625498635e-04
7.05340534053401e+07	-5.00063005772479e-03 5.58456110084709e-04
7.05400540054001e+07	-5.00062995053416e-03 5.58408602755138e-04
7.05460546054601e+07	-5.00062984337071e-03 5.58361103507860e-04
7.05520552055201e+07	-5.00062973623472e-03 5.58313612339107e-04
7.05580558055801e+07	-5.00062962912605e-03 5.58266129247954e-04
7.05640564056401e+07	-5.00062952204470e-03 5.58218654232909e-04
7.05700570057001e+07	-5.00062941499068e-03 5.58171187289071e-04
7.05760576057601e+07	-5.00062930796397e-03 5.58123728420064e-04
7.05820582058201e+07	-5.00062920096451e-03 5.58076277618145e-04
7.05880588058801e+07	-5.00062909399244e-03 5.58028834884667e-04
7.05940594059401e+07	-5.00062898704755e-03 5.57981400217005e-04
7.06000600060001e+07	-5.00062888012998e-03 5.57933973610259e-04
7.06060606060601e+07	-5.00062877323952e-03 5.57886555065785e-04
7.06120612061201e+07	-5.00062866637651e-03 5.57839144581528e-04
7.06180618061801e+07	-5.00062855954069e-03 5.57791742153158e-04
7.06240624062401e+07	-5.00062845273204e-03 5.57744347780897e-04
7.06300630063001e+07	-5.00062834595064e-03 5.57696961460986e-04
7.06360636063601e+07	-5.00062823919643e-03 5.57649583190236e-04
7.06420642064201e+07	-5.00062813246946e-03 5.57602212969438e-04
7.06480648064801e+07	-5.00062802576966e-03 5.57554850797108e-04
7.06540654065401e+07	-5.00062791909705e-03 5.57507496666650e-04
7.06600660066001e+07	-5.00062781245162e-03 5.57460150580561e-04
7.06660666066601e+07	-5.00062770583336e-03 5.57412812535656e-04
7.06720672067201e+07	-5.00062759924228e-03 5.57365482527043e-04
7.06780678067801e+07	-5.00062749267831e-03 5.57318160557225e-04
7.06840684068401e+07	-5.00062738614151e-03 5.57270846621310e-04
7.06900690069001e+07	-5.00062727963176e-03 5.57223540717255e-04
7.06960696069601e+07	-5.00062717314911e-03 5.57176242844717e-04
7.07020702070201e+07	-5.00062706669370e-03 5.57128952999948e-04
7.07080708070801e+07	-5.00062696026534e-03 5.57081671179767e-04
7.07140714071401e+07	-5.00062685386409e-03 5.57034397385540e-04
7.07200720072001e+07	-5.00062674748994e-03 5.56987131613521e-04
7.07260726072601e+07	-5.00062664114276e-03 5.56939873860530e-04
7.07320732073201e+07	-5.00062653482275e-03 5.56892624127937e-04
7.07380738073801e+07	-5.00062642852978e-03 5.56845382410290e-04
7.07440744074401e+07	-5.00062632226385e-03 5.56798148704982e-04
7.07500750075001e+07	-5.00062621602489e-03 5.56750923013384e-04
7.07560756075601e+07	-5.00062610981303e-03 5.56703705331753e-04
7.07620762076201e+07	-5.00062600362821e-03 5.56656495657481e-04
7.07680768076801e+07	-5.00062589747028e-03 5.56609293990238e-04
7.07740774077401e+07	-5.00062579133946e-03 5.56562100326281e-04
7.07800780078001e+07	-5.00062568523568e-03 5.56514914662439e-04
7.07860786078601e+07	-5.00062557915872e-03 5.56467737000655e-04
7.07920792079201e+07	-5.00062547310894e-03 5.56420567334348e-04
7.07980798079801e+07	-5.00062536708592e-03 5.56373405665462e-04
7.08040804080401e+07	-5.00062526108993e-03 5.56326251990829e-04
7.08100810081001e+07	-5.00062515512083e-03 5.56279106305006e-04
7.08160816081601e+07	-5.00062504917885e-03 5.56231968611645e-04
7.08220822082201e+07	-5.00062494326361e-03 5.56184838906442e-04
7.08280828082801e+07	-5.00062483737542e-03 5.56137717183955e-04
7.08340834083401e+07	-5.00062473151404e-03 5.56090603447273e-04
7.08400840084001e+07	-5.00062462567964e-03 5.56043497690385e-04
7.08460846084601e+07	-5.00062451987205e-03 5.55996399914108e-04
7.08520852085201e+07	-5.00062441409137e-03 5.55949310114708e-04
7.08580858085801e+07	-5.00062430833751e-03 5.55902228289590e-04
7.08640864086401e+07	-5.00062420261068e-03 5.55855154440139e-04
7.08700870087001e+07	-5.00062409691053e-03 5.55808088562623e-04
7.08760876087601e+07	-5.00062399123729e-03 5.55761030651608e-04
7.08820882088201e+07	-5.00062388559093e-03 5.55713980710755e-04
7.08880888088802e+07	-5.00062377997133e-03 5.55666938733491e-04
7.08940894089402e+07	-5.00062367437863e-03 5.55619904718933e-04
7.09000900090002e+07	-5.00062356881261e-03 5.55572878667331e-04
7.09060906090602e+07	-5.00062346327348e-03 5.55525860573253e-04
7.09120912091202e+07	-5.00062335776118e-03 5.55478850436954e-04
7.09180918091802e+07	-5.00062325227556e-03 5.55431848256981e-04
7.09240924092402e+07	-5.00062314681676e-03 5.55384854029042e-04
7.09300930093002e+07	-5.00062304138472e-03 5.55337867751686e-04
7.09360936093602e+07	-5.00062293597957e-03 5.55290889425170e-04
7.09420942094202e+07	-5.00062283060097e-03 5.55243919045771e-04
7.09480948094802e+07	-5.00062272524912e-03 5.55196956608631e-04
7.09540954095402e+07	-5.00062261992402e-03 5.55150002117985e-04
7.09600960096002e+07	-5.00062251462575e-03 5.55103055567273e-04
7.09660966096602e+07	-5.00062240935409e-03 5.55056116953343e-04
7.09720972097202e+07	-5.00062230410917e-03 5.55009186280434e-04
7.09780978097802e+07	-5.00062219889088e-03 5.54962263540848e-04
7.09840984098402e+07	-5.00062209369933e-03 5.54915348732573e-04
7.09900990099002e+07	-5.00062198853440e-03 5.54868441857576e-04
7.09960996099602e+07	-5.00062188339630e-03 5.54821542909869e-04
7.10021002100202e+07	-5.00062177828466e-03 5.54774651889713e-04
7.10081008100802e+07	-5.00062167319978e-03 5.54727768795668e-04
7.10141014101402e+07	-5.00062156814144e-03 5.54680893624019e-04
7.10201020102002e+07	-5.00062146310985e-03 5.54634026372190e-04
7.10261026102602e+07	-5.00062135810466e-03 5.54587167041584e-04
7.10321032103202e+07	-5.00062125312630e-03 5.54540315626215e-04
7.10381038103802e+07	-5.00062114817455e-03 5.54493472124644e-04
7.10441044104402e+07	-5.00062104324919e-03 5.54446636538278e-04
7.10501050105002e+07	-5.00062093835052e-03 5.54399808861701e-04
7.10561056105602e+07	-5.00062083347854e-03 5.54352989094045e-04
7.10621062106202e+07	-5.00062072863295e-03 5.54306177233875e-04
7.10681068106802e+07	-5.00062062381412e-03 5.54259373277484e-04
7.10741074107402e+07	-5.00062051902169e-03 5.54212577225142e-04
7.10801080108002e+07	-5.00062041425579e-03 5.54165789074280e-04
7.10861086108602e+07	-5.00062030951651e-03 5.54119008820623e-04
7.10921092109202e+07	-5.00062020480356e-03 5.54072236465014e-04
7.10981098109802e+07	-5.00062010011729e-03 5.54025472004315e-04
7.11041104110402e+07	-5.00061999545749e-03 5.53978715434823e-04
7.11101110111002e+07	-5.00061989082423e-03 5.53931966757951e-04
7.11161116111602e+07	-5.00061978621745e-03 5.53885225969426e-04
7.11221122112202e+07	-5.00061968163706e-03 5.53838493069527e-04
7.11281128112802e+07	-5.00061957708314e-03 5.53791768052846e-04
7.11341134113402e+07	-5.00061947255570e-03 5.53745050918525e-04
7.11401140114002e+07	-5.00061936805479e-03 5.53698341665706e-04
7.11461146114602e+07	-5.00061926358022e-03 5.53651640292396e-04
7.11521152115202e+07	-5.00061915913218e-03 5.53604946795462e-04
7.11581158115802e+07	-5.00061905471040e-03 5.53558261174051e-04
7.11641164116402e+07	-5.00061895031509e-03 5.53511583426169e-04
7.11701170117002e+07	-5.00061884594633e-03 5.53464913546984e-04
7.11761176117602e+07	-5.00061874160382e-03 5.53418251539051e-04
7.11821182118202e+07	-5.00061863728771e-03 5.53371597398108e-04
7.11881188118802e+07	-5.00061853299808e-03 5.53324951119323e-04
7.11941194119402e+07	-5.00061842873470e-03 5.53278312706959e-04
7.12001200120002e+07	-5.00061832449772e-03 5.53231682153913e-04
7.12061206120602e+07	-5.00061822028707e-03 5.53185059459335e-04
7.12121212121202e+07	-5.00061811610282e-03 5.53138444622942e-04
7.12181218121802e+07	-5.00061801194490e-03 5.53091837641612e-04
7.12241224122402e+07	-5.00061790781323e-03 5.53045238512792e-04
7.12301230123002e+07	-5.00061780370790e-03 5.52998647236202e-04
7.12361236123602e+07	-5.00061769962896e-03 5.52952063806447e-04
7.12421242124202e+07	-5.00061759557622e-03 5.52905488226091e-04
7.12481248124802e+07	-5.00061749154994e-03 5.52858920489742e-04
7.12541254125402e+07	-5.00061738754964e-03 5.52812360595416e-04
7.12601260126002e+07	-5.00061728357595e-03 5.52765808544545e-04
7.12661266126602e+07	-5.00061717962823e-03 5.52719264333440e-04
7.12721272127202e+07	-5.00061707570699e-03 5.52672727956712e-04
7.12781278127802e+07	-5.00061697181186e-03 5.52626199416930e-04
7.12841284128402e+07	-5.00061686794299e-03 5.52579678710408e-04
7.12901290129002e+07	-5.00061676410030e-03 5.52533165834033e-04
7.12961296129602e+07	-5.00061666028388e-03 5.52486660788100e-04
7.13021302130202e+07	-5.00061655649371e-03 5.52440163570064e-04
7.13081308130802e+07	-5.00061645272973e-03 5.52393674175677e-04
7.13141314131402e+07	-5.00061634899187e-03 5.52347192605803e-04
7.13201320132002e+07	-5.00061624528027e-03 5.52300718857333e-04
7.13261326132602e+07	-5.00061614159471e-03 5.52254252927155e-04
7.13321332133202e+07	-5.00061603793555e-03 5.52207794815569e-04
7.13381338133802e+07	-5.00061593430229e-03 5.52161344520035e-04
7.13441344134402e+07	-5.00061583069536e-03 5.52114902035738e-04
7.13501350135002e+07	-5.00061572711456e-03 5.52068467364685e-04
7.13561356135602e+07	-5.00061562355979e-03 5.52022040504339e-04
7.13621362136202e+07	-5.00061552003122e-03 5.51975621448749e-04
7.13681368136802e+07	-5.00061541652875e-03 5.51929210200493e-04
7.13741374137402e+07	-5.00061531305234e-03 5.51882806756467e-04
7.13801380138002e+07	-5.00061520960204e-03 5.51836411111861e-04
7.13861386138602e+07	-5.00061510617786e-03 5.51790023268684e-04
7.13921392139202e+07	-5.00061500277980e-03 5.51743643222129e-04
7.13981398139802e+07	-5.00061489940771e-03 5.51697270973072e-04
7.14041404140402e+07	-5.00061479606174e-03 5.51650906516706e-04
7.14101410141002e+07	-5.00061469274181e-03 5.51604549852202e-04
7.14161416141602e+07	-5.00061458944785e-03 5.51558200979301e-04
7.14221422142202e+07	-5.00061448617995e-03 5.51511859893768e-04
7.14281428142802e+07	-5.00061438293816e-03 5.51465526590795e-04
7.14341434143402e+07	-5.00061427972234e-03 5.51419201074675e-04
7.14401440144002e+07	-5.00061417653258e-03 5.51372883340035e-04
7.14461446144602e+07	-5.00061407336878e-03 5.51326573386051e-04
7.14521452145202e+07	-5.00061397023089e-03 5.51280271210763e-04
7.14581458145802e+07	-5.00061386711905e-03 5.51233976810507e-04
7.14641464146402e+07	-5.00061376403325e-03 5.51187690183892e-04
7.14701470147002e+07	-5.00061366097328e-03 5.51141411331802e-04
7.14761476147602e+07	-5.00061355793943e-03 5.51095140247731e-04
7.14821482148203e+07	-5.00061345493135e-03 5.51048876932567e-04
7.14881488148803e+07	-5.00061335194924e-03 5.51002621384920e-04
7.14941494149403e+07	-5.00061324899310e-03 5.50956373599425e-04
7.15001500150003e+07	-5.00061314606287e-03 5.50910133577536e-04
7.15061506150603e+07	-5.00061304315861e-03 5.50863901317870e-04
7.15121512151203e+07	-5.00061294028012e-03 5.50817676813924e-04
7.15181518151803e+07	-5.00061283742775e-03 5.50771460068861e-04
7.15241524152403e+07	-5.00061273460106e-03 5.50725251078456e-04
7.15301530153003e+07	-5.00061263180042e-03 5.50679049838483e-04
7.15361536153603e+07	-5.00061252902540e-03 5.50632856350971e-04
7.15421542154203e+07	-5.00061242627650e-03 5.50586670612831e-04
7.15481548154803e+07	-5.00061232355336e-03 5.50540492619841e-04
7.15541554155403e+07	-5.00061222085598e-03 5.50494322372327e-04
7.15601560156003e+07	-5.00061211818444e-03 5.50448159870043e-04
7.15661566156603e+07	-5.00061201553880e-03 5.50402005105359e-04
7.15721572157203e+07	-5.00061191291893e-03 5.50355858080876e-04
7.15781578157803e+07	-5.00061181032488e-03 5.50309718793509e-04
7.15841584158403e+07	-5.00061170775674e-03 5.50263587241313e-04
7.15901590159003e+07	-5.00061160521416e-03 5.50217463422912e-04
7.15961596159603e+07	-5.00061150269754e-03 5.50171347336929e-04
7.16021602160203e+07	-5.00061140020662e-03 5.50125238978010e-04
7.16081608160803e+07	-5.00061129774146e-03 5.50079138347055e-04
7.16141614161403e+07	-5.00061119530214e-03 5.50033045442690e-04
7.16201620162003e+07	-5.00061109288858e-03 5.49986960260129e-04
7.16261626162603e+07	-5.00061099050063e-03 5.49940882800274e-04
7.16321632163203e+07	-5.00061088813838e-03 5.49894813060049e-04
7.16381638163803e+07	-5.00061078580197e-03 5.49848751036945e-04
7.16441644164403e+07	-5.00061068349117e-03 5.49802696730158e-04
7.16501650165003e+07	-5.00061058120622e-03 5.49756650134910e-04
7.16561656165603e+07	-5.00061047894687e-03 5.49710611254377e-04
7.16621662166203e+07	-5.00061037671336e-03 5.49664580084349e-04
7.16681668166803e+07	-5.00061027450534e-03 5.49618556619478e-04
7.16741674167403e+07	-5.00061017232300e-03 5.49572540862376e-04
7.16801680168003e+07	-5.00061007016643e-03 5.49526532808835e-04
7.16861686168603e+07	-5.00060996803534e-03 5.49480532456350e-04
7.16921692169203e+07	-5.00060986593008e-03 5.49434539807536e-04
7.16981698169803e+07	-5.00060976385037e-03 5.49388554854206e-04
7.17041704170403e+07	-5.00060966179628e-03 5.49342577597839e-04
7.17101710171003e+07	-5.00060955976788e-03 5.49296608037638e-04
7.17161716171603e+07	-5.00060945776490e-03 5.49250646166557e-04
7.17221722172203e+07	-5.00060935578774e-03 5.49204691988349e-04
7.17281728172803e+07	-5.00060925383600e-03 5.49158745499379e-04
7.17341734173403e+07	-5.00060915191001e-03 5.49112806695443e-04
7.17401740174003e+07	-5.00060905000951e-03 5.49066875578025e-04
7.17461746174603e+07	-5.00060894813463e-03 5.49020952142351e-04
7.17521752175203e+07	-5.00060884628516e-03 5.48975036387066e-04
7.17581758175803e+07	-5.00060874446145e-03 5.48929128312513e-04
7.17641764176403e+07	-5.00060864266314e-03 5.48883227914495e-04
7.17701770177003e+07	-5.00060854089046e-03 5.48837335190516e-04
7.17761776177603e+07	-5.00060843914319e-03 5.48791450141494e-04
7.17821782178203e+07	-5.00060833742140e-03 5.48745572762663e-04
7.17881788178803e+07	-5.00060823572523e-03 5.48699703052098e-04
7.17941794179403e+07	-5.00060813405447e-03 5.48653841012425e-04
7.18001800180003e+07	-5.00060803240939e-03 5.48607986636605e-04
7.18061806180603e+07	-5.00060793078966e-03 5.48562139922716e-04
7.18121812181203e+07	-5.00060782919534e-03 5.48516300873384e-04
7.18181818181803e+07	-5.00060772762657e-03 5.48470469481005e-04
7.18241824182403e+07	-5.00060762608320e-03 5.48424645747639e-04
7.18301830183003e+07	-5.00060752456531e-03 5.48378829671365e-04
7.18361836183603e+07	-5.00060742307284e-03 5.48333021248560e-04
7.18421842184203e+07	-5.00060732160584e-03 5.48287220477306e-04
7.18481848184803e+07	-5.00060722016425e-03 5.48241427356823e-04
7.18541854185403e+07	-5.00060711874807e-03 5.48195641884625e-04
7.18601860186003e+07	-5.00060701735724e-03 5.48149864056523e-04
7.18661866186603e+07	-5.00060691599187e-03 5.48104093876287e-04
