Freq.	-V(reflectedwaveover20)/V(minusincidentwaveover20)
8.00000000000000e+08	4.92226407426994e-01,-8.61443511036802e-01
8.00040004000400e+08	4.90420702197951e-01,-8.62483304176994e-01
8.00080008000800e+08	4.88612822223745e-01,-8.63519312291483e-01
8.00120012001200e+08	4.86802775439370e-01,-8.64551530830278e-01
8.00160016001600e+08	4.84990569789322e-01,-8.65579955259980e-01
8.00200020002000e+08	4.83176213227590e-01,-8.66604581063881e-01
8.00240024002400e+08	4.81359713717648e-01,-8.67625403741940e-01
8.00280028002800e+08	4.79541079232345e-01,-8.68642418810811e-01
8.00320032003201e+08	4.77720317753945e-01,-8.69655621803882e-01
8.00360036003601e+08	4.75897437274063e-01,-8.70665008271258e-01
8.00400040004001e+08	4.74072445793624e-01,-8.71670573779828e-01
8.00440044004401e+08	4.72245351322820e-01,-8.72672313913216e-01
8.00480048004801e+08	4.70416161881111e-01,-8.73670224271905e-01
8.00520052005201e+08	4.68584885497153e-01,-8.74664300473136e-01
8.00560056005601e+08	4.66751530208794e-01,-8.75654538151030e-01
8.00600060006001e+08	4.64916104063007e-01,-8.76640932956531e-01
8.00640064006401e+08	4.63078615115855e-01,-8.77623480557471e-01
8.00680068006801e+08	4.61239071432500e-01,-8.78602176638562e-01
8.00720072007201e+08	4.59397481087118e-01,-8.79577016901464e-01
8.00760076007601e+08	4.57553852162884e-01,-8.80547997064720e-01
8.00800080008001e+08	4.55708192751935e-01,-8.81515112863860e-01
8.00840084008401e+08	4.53860510955366e-01,-8.82478360051367e-01
8.00880088008801e+08	4.52010814883106e-01,-8.83437734396707e-01
8.00920092009202e+08	4.50159112653989e-01,-8.84393231686369e-01
8.00960096009602e+08	4.48305412395646e-01,-8.85344847723862e-01
8.01000100010002e+08	4.46449722244491e-01,-8.86292578329714e-01
8.01040104010402e+08	4.44592050345682e-01,-8.87236419341544e-01
8.01080108010802e+08	4.42732404853108e-01,-8.88176366614025e-01
8.01120112011202e+08	4.40870793929322e-01,-8.89112416018968e-01
8.01160116011602e+08	4.39007225745539e-01,-8.90044563445267e-01
8.01200120012002e+08	4.37141708481519e-01,-8.90972804798946e-01
8.01240124012402e+08	4.35274250325671e-01,-8.91897136003207e-01
8.01280128012802e+08	4.33404859474881e-01,-8.92817552998412e-01
8.01320132013202e+08	4.31533544134571e-01,-8.93734051742098e-01
8.01360136013602e+08	4.29660312518570e-01,-8.94646628209033e-01
8.01400140014002e+08	4.27785172849181e-01,-8.95555278391181e-01
8.01440144014402e+08	4.25908133357091e-01,-8.96459998297785e-01
8.01480148014802e+08	4.24029202281296e-01,-8.97360783955289e-01
8.01520152015203e+08	4.22148387869161e-01,-8.98257631407472e-01
8.01560156015603e+08	4.20265698376305e-01,-8.99150536715378e-01
8.01600160016003e+08	4.18381142066595e-01,-9.00039495957376e-01
8.01640164016403e+08	4.16494727212106e-01,-9.00924505229141e-01
8.01680168016803e+08	4.14606462093096e-01,-9.01805560643733e-01
8.01720172017203e+08	4.12716354997921e-01,-9.02682658331510e-01
8.01760176017603e+08	4.10824414223078e-01,-9.03555794440293e-01
8.01800180018003e+08	4.08930648073097e-01,-9.04424965135230e-01
8.01840184018403e+08	4.07035064860541e-01,-9.05290166598924e-01
8.01880188018803e+08	4.05137672905965e-01,-9.06151395031378e-01
8.01920192019203e+08	4.03238480537872e-01,-9.07008646650075e-01
8.01960196019603e+08	4.01337496092721e-01,-9.07861917689949e-01
8.02000200020003e+08	3.99434727914762e-01,-9.08711204403407e-01
8.02040204020403e+08	3.97530184356171e-01,-9.09556503060360e-01
8.02080208020803e+08	3.95623873776864e-01,-9.10397809948225e-01
8.02120212021204e+08	3.93715804544593e-01,-9.11235121371961e-01
8.02160216021604e+08	3.91805985034790e-01,-9.12068433654068e-01
8.02200220022004e+08	3.89894423630593e-01,-9.12897743134601e-01
8.02240224022404e+08	3.87981128722796e-01,-9.13723046171202e-01
8.02280228022804e+08	3.86066108709859e-01,-9.14544339139119e-01
8.02320232023204e+08	3.84149371997749e-01,-9.15361618431182e-01
8.02360236023604e+08	3.82230927000061e-01,-9.16174880457869e-01
8.02400240024004e+08	3.80310782137832e-01,-9.16984121647305e-01
8.02440244024404e+08	3.78388945839604e-01,-9.17789338445242e-01
8.02480248024804e+08	3.76465426541380e-01,-9.18590527315158e-01
8.02520252025204e+08	3.74540232686504e-01,-9.19387684738155e-01
8.02560256025604e+08	3.72613372725709e-01,-9.20180807213084e-01
8.02600260026004e+08	3.70684855117069e-01,-9.20969891256499e-01
8.02640264026404e+08	3.68754688325953e-01,-9.21754933402713e-01
8.02680268026804e+08	3.66822880824944e-01,-9.22535930203772e-01
8.02720272027205e+08	3.64889441093867e-01,-9.23312878229480e-01
8.02760276027605e+08	3.62954377619699e-01,-9.24085774067435e-01
8.02800280028005e+08	3.61017698896586e-01,-9.24854614323018e-01
8.02840284028405e+08	3.59079413425743e-01,-9.25619395619447e-01
8.02880288028805e+08	3.57139529715478e-01,-9.26380114597738e-01
8.02920292029205e+08	3.55198056281088e-01,-9.27136767916754e-01
8.02960296029605e+08	3.53255001644928e-01,-9.27889352253235e-01
8.03000300030005e+08	3.51310374336246e-01,-9.28637864301779e-01
8.03040304030405e+08	3.49364182891211e-01,-9.29382300774837e-01
8.03080308030805e+08	3.47416435852877e-01,-9.30122658402814e-01
8.03120312031205e+08	3.45467141771134e-01,-9.30858933933979e-01
8.03160316031605e+08	3.43516309202700e-01,-9.31591124134578e-01
8.03200320032005e+08	3.41563946711016e-01,-9.32319225788747e-01
8.03240324032405e+08	3.39610062866278e-01,-9.33043235698619e-01
8.03280328032805e+08	3.37654666245350e-01,-9.33763150684272e-01
8.03320332033206e+08	3.35697765431739e-01,-9.34478967583773e-01
8.03360336033606e+08	3.33739369015627e-01,-9.35190683253208e-01
8.03400340034006e+08	3.31779485593726e-01,-9.35898294566675e-01
8.03440344034406e+08	3.29818123769268e-01,-9.36601798416247e-01
8.03480348034806e+08	3.27855292152005e-01,-9.37301191712097e-01
8.03520352035206e+08	3.25890999358180e-01,-9.37996471382430e-01
8.03560356035606e+08	3.23925254010390e-01,-9.38687634373497e-01
8.03600360036006e+08	3.21958064737686e-01,-9.39374677649654e-01
8.03640364036406e+08	3.19989440175434e-01,-9.40057598193352e-01
8.03680368036806e+08	3.18019388965330e-01,-9.40736393005126e-01
8.03720372037206e+08	3.16047919755312e-01,-9.41411059103662e-01
8.03760376037606e+08	3.14075041199583e-01,-9.42081593525753e-01
8.03800380038006e+08	3.12100761958533e-01,-9.42747993326363e-01
8.03840384038406e+08	3.10125090698694e-01,-9.43410255578578e-01
8.03880388038806e+08	3.08148036092752e-01,-9.44068377373702e-01
8.03920392039207e+08	3.06169606819435e-01,-9.44722355821187e-01
8.03960396039607e+08	3.04189811563526e-01,-9.45372188048697e-01
8.04000400040007e+08	3.02208659015851e-01,-9.46017871202111e-01
8.04040404040407e+08	3.00226157873140e-01,-9.46659402445521e-01
8.04080408040807e+08	2.98242316838145e-01,-9.47296778961279e-01
8.04120412041207e+08	2.96257144619378e-01,-9.47929997949939e-01
8.04160416041607e+08	2.94270649931325e-01,-9.48559056630360e-01
8.04200420042007e+08	2.92282841494214e-01,-9.49183952239648e-01
8.04240424042407e+08	2.90293728034093e-01,-9.49804682033206e-01
8.04280428042807e+08	2.88303318282719e-01,-9.50421243284735e-01
8.04320432043207e+08	2.86311620977562e-01,-9.51033633286222e-01
8.04360436043607e+08	2.84318644861708e-01,-9.51641849347990e-01
8.04400440044007e+08	2.82324398683950e-01,-9.52245888798709e-01
8.04440444044407e+08	2.80328891198605e-01,-9.52845748985381e-01
8.04480448044807e+08	2.78332131165544e-01,-9.53441427273348e-01
8.04520452045208e+08	2.76334127350170e-01,-9.54032921046354e-01
8.04560456045608e+08	2.74334888523334e-01,-9.54620227706502e-01
8.04600460046008e+08	2.72334423461293e-01,-9.55203344674274e-01
8.04640464046408e+08	2.70332740945729e-01,-9.55782269388561e-01
8.04680468046808e+08	2.68329849763672e-01,-9.56356999306687e-01
8.04720472047208e+08	2.66325758707475e-01,-9.56927531904374e-01
8.04760476047608e+08	2.64320476574721e-01,-9.57493864675798e-01
8.04800480048008e+08	2.62314012168283e-01,-9.58055995133569e-01
8.04840484048408e+08	2.60306374296238e-01,-9.58613920808794e-01
8.04880488048808e+08	2.58297571771752e-01,-9.59167639250969e-01
8.04920492049208e+08	2.56287613413166e-01,-9.59717148028138e-01
8.04960496049608e+08	2.54276508043909e-01,-9.60262444726811e-01
8.05000500050008e+08	2.52264264492402e-01,-9.60803526951983e-01
8.05040504050408e+08	2.50250891592124e-01,-9.61340392327196e-01
8.05080508050808e+08	2.48236398181507e-01,-9.61873038494493e-01
8.05120512051208e+08	2.46220793103877e-01,-9.62401463114440e-01
8.05160516051609e+08	2.44204085207505e-01,-9.62925663866163e-01
8.05200520052009e+08	2.42186283345429e-01,-9.63445638447326e-01
8.05240524052409e+08	2.40167396375592e-01,-9.63961384574175e-01
8.05280528052809e+08	2.38147433160621e-01,-9.64472899981502e-01
8.05320532053209e+08	2.36126402567948e-01,-9.64980182422709e-01
8.05360536053609e+08	2.34104313469641e-01,-9.65483229669772e-01
8.05400540054009e+08	2.32081174742442e-01,-9.65982039513254e-01
8.05440544054409e+08	2.30056995267700e-01,-9.66476609762371e-01
8.05480548054809e+08	2.28031783931397e-01,-9.66966938244957e-01
8.05520552055209e+08	2.26005549623948e-01,-9.67453022807430e-01
8.05560556055609e+08	2.23978301240363e-01,-9.67934861314898e-01
8.05600560056009e+08	2.21950047680063e-01,-9.68412451651107e-01
8.05640564056409e+08	2.19920797846857e-01,-9.68885791718425e-01
8.05680568056809e+08	2.17890560649009e-01,-9.69354879437958e-01
8.05720572057209e+08	2.15859344999057e-01,-9.69819712749414e-01
8.05760576057610e+08	2.13827159813882e-01,-9.70280289611251e-01
8.05800580058010e+08	2.11794014014632e-01,-9.70736608000592e-01
8.05840584058410e+08	2.09759916526650e-01,-9.71188665913289e-01
8.05880588058810e+08	2.07724876279463e-01,-9.71636461363860e-01
8.05920592059210e+08	2.05688902206767e-01,-9.72079992385600e-01
8.05960596059610e+08	2.03652003246343e-01,-9.72519257030492e-01
8.06000600060010e+08	2.01614188340037e-01,-9.72954253369282e-01
8.06040604060410e+08	1.99575466433748e-01,-9.73384979491454e-01
8.06080608060810e+08	1.97535846477337e-01,-9.73811433505276e-01
8.06120612061210e+08	1.95495337424622e-01,-9.74233613537739e-01
8.06160616061610e+08	1.93453948233297e-01,-9.74651517734615e-01
8.06200620062010e+08	1.91411687865024e-01,-9.75065144260510e-01
8.06240624062410e+08	1.89368565285173e-01,-9.75474491298742e-01
8.06280628062810e+08	1.87324589462981e-01,-9.75879557051480e-01
8.06320632063210e+08	1.85279769371403e-01,-9.76280339739682e-01
8.06360636063611e+08	1.83234113987131e-01,-9.76676837603115e-01
8.06400640064011e+08	1.81187632290498e-01,-9.77069048900370e-01
8.06440644064411e+08	1.79140333265505e-01,-9.77456971908863e-01
8.06480648064811e+08	1.77092225899704e-01,-9.77840604924860e-01
8.06520652065211e+08	1.75043319184243e-01,-9.78219946263454e-01
8.06560656065611e+08	1.72993622113767e-01,-9.78594994258613e-01
8.06600660066011e+08	1.70943143686389e-01,-9.78965747263128e-01
8.06640664066411e+08	1.68891892903674e-01,-9.79332203648699e-01
8.06680668066811e+08	1.66839878770554e-01,-9.79694361805843e-01
8.06720672067211e+08	1.64787110295333e-01,-9.80052220144014e-01
8.06760676067611e+08	1.62733596489627e-01,-9.80405777091504e-01
8.06800680068011e+08	1.60679346368344e-01,-9.80755031095547e-01
8.06840684068411e+08	1.58624368949615e-01,-9.81099980622235e-01
8.06880688068811e+08	1.56568673254776e-01,-9.81440624156601e-01
8.06920692069211e+08	1.54512268308310e-01,-9.81776960202568e-01
8.06960696069612e+08	1.52455163137819e-01,-9.82108987282997e-01
8.07000700070012e+08	1.50397366773993e-01,-9.82436703939656e-01
8.07040704070412e+08	1.48338888250568e-01,-9.82760108733289e-01
8.07080708070812e+08	1.46279736604252e-01,-9.83079200243509e-01
8.07120712071212e+08	1.44219920874704e-01,-9.83393977068933e-01
8.07160716071612e+08	1.42159450104584e-01,-9.83704437827142e-01
8.07200720072012e+08	1.40098333339286e-01,-9.84010581154590e-01
8.07240724072412e+08	1.38036579627201e-01,-9.84312405706797e-01
8.07280728072812e+08	1.35974198019417e-01,-9.84609910158201e-01
8.07320732073212e+08	1.33911197569838e-01,-9.84903093202230e-01
8.07360736073612e+08	1.31847587335030e-01,-9.85191953551268e-01
8.07400740074012e+08	1.29783376374312e-01,-9.85476489936749e-01
8.07440744074412e+08	1.27718573749556e-01,-9.85756701109003e-01
8.07480748074812e+08	1.25653188525297e-01,-9.86032585837441e-01
8.07520752075212e+08	1.23587229768666e-01,-9.86304142910472e-01
8.07560756075613e+08	1.21520706549193e-01,-9.86571371135462e-01
8.07600760076013e+08	1.19453627939011e-01,-9.86834269338845e-01
8.07640764076413e+08	1.17386003012630e-01,-9.87092836366054e-01
8.07680768076813e+08	1.15317840846982e-01,-9.87347071081540e-01
8.07720772077213e+08	1.13249150521345e-01,-9.87596972368796e-01
8.07760776077613e+08	1.11179941117346e-01,-9.87842539130341e-01
8.07800780078013e+08	1.09110221718872e-01,-9.88083770287761e-01
8.07840784078413e+08	1.07040001412026e-01,-9.88320664781619e-01
8.07880788078813e+08	1.04969289285163e-01,-9.88553221571602e-01
8.07920792079213e+08	1.02898094428807e-01,-9.88781439636435e-01
8.07960796079613e+08	1.00826425935543e-01,-9.89005317973864e-01
8.08000800080013e+08	9.87542929000867e-02,-9.89224855600736e-01
8.08040804080413e+08	9.66817044191574e-02,-9.89440051552939e-01
8.08080808080813e+08	9.46086695915170e-02,-9.89650904885445e-01
8.08120812081213e+08	9.25351975178536e-02,-9.89857414672300e-01
8.08160816081614e+08	9.04612973008229e-02,-9.90059580006635e-01
8.08200820082014e+08	8.83869780448969e-02,-9.90257400000657e-01
8.08240824082414e+08	8.63122488564567e-02,-9.90450873785666e-01
8.08280828082814e+08	8.42371188436125e-02,-9.90640000512032e-01
8.08320832083214e+08	8.21615971163365e-02,-9.90824779349273e-01
8.08360836083614e+08	8.00856927862162e-02,-9.91005209485947e-01
8.08400840084014e+08	7.80094149665866e-02,-9.91181290129732e-01
8.08440844084414e+08	7.59327727724021e-02,-9.91353020507445e-01
8.08480848084814e+08	7.38557753202115e-02,-9.91520399864955e-01
8.08520852085214e+08	7.17784317281448e-02,-9.91683427467298e-01
8.08560856085614e+08	6.97007511158321e-02,-9.91842102598577e-01
8.08600860086014e+08	6.76227426043902e-02,-9.91996424562039e-01
8.08640864086414e+08	6.55444153163893e-02,-9.92146392680064e-01
8.08680868086814e+08	6.34657783757782e-02,-9.92292006294134e-01
8.08720872087214e+08	6.13868409079301e-02,-9.92433264764907e-01
8.08760876087615e+08	5.93076120394382e-02,-9.92570167472098e-01
8.08800880088015e+08	5.72281008982395e-02,-9.92702713814583e-01
8.08840884088415e+08	5.51483166134897e-02,-9.92830903210402e-01
8.08880888088815e+08	5.30682683155651e-02,-9.92954735096707e-01
8.08920892089215e+08	5.09879651359558e-02,-9.93074208929778e-01
8.08960896089615e+08	4.89074162073739e-02,-9.93189324185110e-01
8.09000900090015e+08	4.68266306634515e-02,-9.93300080357218e-01
8.09040904090415e+08	4.47456176390492e-02,-9.93406476959913e-01
8.09080908090815e+08	4.26643862698467e-02,-9.93508513526031e-01
8.09120912091215e+08	4.05829456926057e-02,-9.93606189607630e-01
8.09160916091615e+08	3.85013050449536e-02,-9.93699504775905e-01
8.09200920092015e+08	3.64194734654198e-02,-9.93788458621204e-01
8.09240924092415e+08	3.43374600933511e-02,-9.93873050753029e-01
8.09280928092815e+08	3.22552740688829e-02,-9.93953280800028e-01
8.09320932093215e+08	3.01729245329340e-02,-9.94029148410042e-01
8.09360936093616e+08	2.80904206271582e-02,-9.94100653250069e-01
8.09400940094016e+08	2.60077714938351e-02,-9.94167795006250e-01
8.09440944094416e+08	2.39249862759464e-02,-9.94230573383917e-01
8.09480948094816e+08	2.18420741170139e-02,-9.94288988107566e-01
8.09520952095216e+08	1.97590441611224e-02,-9.94343038920815e-01
8.09560956095616e+08	1.76759055529009e-02,-9.94392725586511e-01
8.09600960096016e+08	1.55926674374161e-02,-9.94438047886618e-01
8.09640964096416e+08	1.35093389602548e-02,-9.94479005622348e-01
8.09680968096816e+08	1.14259292672978e-02,-9.94515598614001e-01
8.09720972097216e+08	9.34244750484725e-03,-9.94547826701105e-01
8.09760976097616e+08	7.25890281949003e-03,-9.94575689742341e-01
8.09800980098016e+08	5.17530435809293e-03,-9.94599187615546e-01
8.09840984098416e+08	3.09166126775256e-03,-9.94618320217753e-01
8.09880988098816e+08	1.00798269581372e-03,-9.94633087465189e-01
8.09920992099216e+08	-1.07572221031463e-03,-9.94643489293215e-01
8.09960996099617e+08	-3.15944430303669e-03,-9.94649525656393e-01
8.10001000100017e+08	-5.24317443471522e-03,-9.94651196528458e-01
8.10041004100417e+08	-7.32690345764888e-03,-9.94648501902329e-01
8.10081008100817e+08	-9.41062222419015e-03,-9.94641441790074e-01
8.10121012101217e+08	-1.14943215866810e-02,-9.94630016222966e-01
8.10161016101617e+08	-1.35779923976115e-02,-9.94614225251437e-01
8.10201020102017e+08	-1.56616255095549e-02,-9.94594068945094e-01
8.10241024102417e+08	-1.77452117752788e-02,-9.94569547392717e-01
8.10281028102817e+08	-1.98287420476986e-02,-9.94540660702306e-01
8.10321032103217e+08	-2.19122071800877e-02,-9.94507409000934e-01
8.10361036103617e+08	-2.39955980258676e-02,-9.94469792434985e-01
8.10401040104017e+08	-2.60789054389435e-02,-9.94427811169871e-01
8.10441044104417e+08	-2.81621202734345e-02,-9.94381465390303e-01
8.10481048104817e+08	-3.02452333839817e-02,-9.94330755300085e-01
8.10521052105217e+08	-3.23282356255958e-02,-9.94275681122228e-01
8.10561056105618e+08	-3.44111178538736e-02,-9.94216243098868e-01
8.10601060106018e+08	-3.64938709248293e-02,-9.94152441491376e-01
8.10641064106418e+08	-3.85764856951204e-02,-9.94084276580249e-01
8.10681068106818e+08	-4.06589530219963e-02,-9.94011748665134e-01
8.10721072107218e+08	-4.27412637633510e-02,-9.93934858064883e-01
8.10761076107618e+08	-4.48234087777457e-02,-9.93853605117500e-01
8.10801080108018e+08	-4.69053789245141e-02,-9.93767990180154e-01
8.10841084108418e+08	-4.89871650637255e-02,-9.93678013629157e-01
8.10881088108818e+08	-5.10687580563182e-02,-9.93583675859962e-01
8.10921092109218e+08	-5.31501487639839e-02,-9.93484977287248e-01
8.10961096109618e+08	-5.52313280493872e-02,-9.93381918344785e-01
8.11001100110018e+08	-5.73122867760980e-02,-9.93274499485516e-01
8.11041104110418e+08	-5.93930158086703e-02,-9.93162721181529e-01
8.11081108110818e+08	-6.14735060125974e-02,-9.93046583924116e-01
8.11121112111218e+08	-6.35537482545620e-02,-9.92926088223601e-01
8.11161116111619e+08	-6.56337334021743e-02,-9.92801234609585e-01
8.11201120112019e+08	-6.77134523243310e-02,-9.92672023630704e-01
8.11241124112419e+08	-6.97928958909887e-02,-9.92538455854798e-01
8.11281128112819e+08	-7.18720549733678e-02,-9.92400531868829e-01
8.11321132113219e+08	-7.39509204439299e-02,-9.92258252278875e-01
8.11361136113619e+08	-7.60294831764295e-02,-9.92111617710176e-01
8.11401140114019e+08	-7.81077340459581e-02,-9.91960628807058e-01
8.11441144114419e+08	-8.01856639289887e-02,-9.91805286233017e-01
8.11481148114819e+08	-8.22632637033699e-02,-9.91645590670662e-01
8.11521152115219e+08	-8.43405242484443e-02,-9.91481542821714e-01
8.11561156115619e+08	-8.64174364450076e-02,-9.91313143407027e-01
8.11601160116019e+08	-8.84939911754323e-02,-9.91140393166540e-01
8.11641164116419e+08	-9.05701793236353e-02,-9.90963292859333e-01
8.11681168116819e+08	-9.26459917751710e-02,-9.90781843263571e-01
8.11721172117219e+08	-9.47214194172122e-02,-9.90596045176537e-01
8.11761176117620e+08	-9.67964531386750e-02,-9.90405899414597e-01
8.11801180118020e+08	-9.88710838301238e-02,-9.90211406813265e-01
8.11841184118420e+08	-1.00945302384029e-01,-9.90012568227056e-01
8.11881188118820e+08	-1.03019099694515e-01,-9.89809384529702e-01
8.11921192119220e+08	-1.05092466657698e-01,-9.89601856613899e-01
8.11961196119620e+08	-1.07165394171519e-01,-9.89389985391486e-01
8.12001200120020e+08	-1.09237873135852e-01,-9.89173771793376e-01
8.12041204120420e+08	-1.11309894452565e-01,-9.88953216769551e-01
8.12081208120820e+08	-1.13381449025539e-01,-9.88728321289052e-01
8.12121212121220e+08	-1.15452527760723e-01,-9.88499086339984e-01
8.12161216121620e+08	-1.17523121566106e-01,-9.88265512929541e-01
8.12201220122020e+08	-1.19593221351861e-01,-9.88027602083959e-01
8.12241224122420e+08	-1.21662818030301e-01,-9.87785354848515e-01
8.12281228122820e+08	-1.23731902515999e-01,-9.87538772287542e-01
8.12321232123220e+08	-1.25800465725750e-01,-9.87287855484394e-01
8.12361236123621e+08	-1.27868498578611e-01,-9.87032605541538e-01
