# Hz S RI R 50
8.00000000000000e+08	4.92425372056430e-01 -8.61788196835026e-01
8.00040004000400e+08	4.90618944315816e-01 -8.62828406117125e-01
8.00080008000800e+08	4.88810340959390e-01 -8.63864828858853e-01
8.00120012001200e+08	4.86999569925302e-01 -8.64897460508382e-01
8.00160016001600e+08	4.85186639161249e-01 -8.65926296530512e-01
8.00200020002000e+08	4.83371556624373e-01 -8.66951332406707e-01
8.00240024002400e+08	4.81554330281351e-01 -8.67972563635131e-01
8.00280028002800e+08	4.79734968108223e-01 -8.68989985730641e-01
8.00320032003201e+08	4.77913478090461e-01 -8.70003594224845e-01
8.00360036003601e+08	4.76089868222852e-01 -8.71013384666049e-01
8.00400040004001e+08	4.74264146509551e-01 -8.72019352619383e-01
8.00440044004401e+08	4.72436320963934e-01 -8.73021493666685e-01
8.00480048004801e+08	4.70606399608674e-01 -8.74019803406681e-01
8.00520052005201e+08	4.68774390475658e-01 -8.75014277454863e-01
8.00560056005601e+08	4.66940301605943e-01 -8.76004911443601e-01
8.00600060006001e+08	4.65104141049695e-01 -8.76991701022078e-01
8.00640064006401e+08	4.63265916866263e-01 -8.77974641856429e-01
8.00680068006801e+08	4.61425637123986e-01 -8.78953729629604e-01
8.00720072007201e+08	4.59583309900284e-01 -8.79928960041550e-01
8.00760076007601e+08	4.57738943281574e-01 -8.80900328809097e-01
8.00800080008001e+08	4.55892545363233e-01 -8.81867831666066e-01
8.00840084008401e+08	4.54044124249591e-01 -8.82831464363238e-01
8.00880088008801e+08	4.52193688053832e-01 -8.83791222668386e-01
8.00920092009202e+08	4.50341244898052e-01 -8.84747102366319e-01
8.00960096009602e+08	4.48486802913085e-01 -8.85699099258833e-01
8.01000100010002e+08	4.46630370238651e-01 -8.86647209164814e-01
8.01040104010402e+08	4.44771955023157e-01 -8.87591427920203e-01
8.01080108010802e+08	4.42911565423755e-01 -8.88531751378014e-01
8.01120112011202e+08	4.41049209606270e-01 -8.89468175408408e-01
8.01160116011602e+08	4.39184895745163e-01 -8.90400695898613e-01
8.01200120012002e+08	4.37318632023490e-01 -8.91329308753030e-01
8.01240124012402e+08	4.35450426632944e-01 -8.92254009893228e-01
8.01280128012802e+08	4.33580287773673e-01 -8.93174795257931e-01
8.01320132013202e+08	4.31708223654406e-01 -8.94091660803075e-01
8.01360136013602e+08	4.29834242492234e-01 -8.95004602501793e-01
8.01400140014002e+08	4.27958352512777e-01 -8.95913616344463e-01
8.01440144014402e+08	4.26080561949986e-01 -8.96818698338709e-01
8.01480148014802e+08	4.24200879046198e-01 -8.97719844509410e-01
8.01520152015203e+08	4.22319312052034e-01 -8.98617050898729e-01
8.01560156015603e+08	4.20435869226465e-01 -8.99510313566165e-01
8.01600160016003e+08	4.18550558836617e-01 -9.00399628588484e-01
8.01640164016403e+08	4.16663389157915e-01 -9.01284992059821e-01
8.01680168016803e+08	4.14774368473906e-01 -9.02166400091660e-01
8.01720172017203e+08	4.12883505076282e-01 -9.03043848812825e-01
8.01760176017603e+08	4.10990807264850e-01 -9.03917334369584e-01
8.01800180018003e+08	4.09096283347470e-01 -9.04786852925550e-01
8.01840184018403e+08	4.07199941640013e-01 -9.05652400661786e-01
8.01880188018803e+08	4.05301790466401e-01 -9.06513973776798e-01
8.01920192019203e+08	4.03401838158453e-01 -9.07371568486539e-01
8.01960196019603e+08	4.01500093055973e-01 -9.08225181024439e-01
8.02000200020003e+08	3.99596563506525e-01 -9.09074807641391e-01
8.02040204020403e+08	3.97691257865650e-01 -9.09920444605818e-01
8.02080208020803e+08	3.95784184496610e-01 -9.10762088203655e-01
8.02120212021204e+08	3.93875351770504e-01 -9.11599734738379e-01
8.02160216021604e+08	3.91964768066125e-01 -9.12433380531019e-01
8.02200220022004e+08	3.90052441769949e-01 -9.13263021920152e-01
8.02240224022404e+08	3.88138381276156e-01 -9.14088655261981e-01
8.02280228022804e+08	3.86222594986527e-01 -9.14910276930273e-01
8.02320232023204e+08	3.84305091310438e-01 -9.15727883316442e-01
8.02360236023604e+08	3.82385878664818e-01 -9.16541470829506e-01
8.02400240024004e+08	3.80464965474093e-01 -9.17351035896168e-01
8.02440244024404e+08	3.78542360170180e-01 -9.18156574960760e-01
8.02480248024804e+08	3.76618071192453e-01 -9.18958084485338e-01
8.02520252025204e+08	3.74692106987638e-01 -9.19755560949594e-01
8.02560256025604e+08	3.72764476009843e-01 -9.20549000850972e-01
8.02600260026004e+08	3.70835186720555e-01 -9.21338400704648e-01
8.02640264026404e+08	3.68904247588508e-01 -9.22123757043531e-01
8.02680268026804e+08	3.66971667089670e-01 -9.22905066418281e-01
8.02720272027205e+08	3.65037453707291e-01 -9.23682325397347e-01
8.02760276027605e+08	3.63101615931729e-01 -9.24455530566950e-01
8.02800280028005e+08	3.61164162260508e-01 -9.25224678531095e-01
8.02840284028405e+08	3.59225101198288e-01 -9.25989765911676e-01
8.02880288028805e+08	3.57284441256749e-01 -9.26750789348337e-01
8.02920292029205e+08	3.55342190954625e-01 -9.27507745498627e-01
8.02960296029605e+08	3.53398358817653e-01 -9.28260631037931e-01
8.03000300030005e+08	3.51452953378516e-01 -9.29009442659534e-01
8.03040304030405e+08	3.49505983176803e-01 -9.29754177074576e-01
8.03080308030805e+08	3.47557456758971e-01 -9.30494831012139e-01
8.03120312031205e+08	3.45607382678349e-01 -9.31231401219198e-01
8.03160316031605e+08	3.43655769495070e-01 -9.31963884460700e-01
8.03200320032005e+08	3.41702625776010e-01 -9.32692277519495e-01
8.03240324032405e+08	3.39747960094788e-01 -9.33416577196428e-01
8.03280328032805e+08	3.37791781031706e-01 -9.34136780310308e-01
8.03320332033206e+08	3.35834097173726e-01 -9.34852883697949e-01
8.03360336033606e+08	3.33874917114442e-01 -9.35564884214157e-01
8.03400340034006e+08	3.31914249454013e-01 -9.36272778731780e-01
8.03440344034406e+08	3.29952102799114e-01 -9.36976564141645e-01
8.03480348034806e+08	3.27988485762960e-01 -9.37676237352703e-01
8.03520352035206e+08	3.26023406965228e-01 -9.38371795291912e-01
8.03560356035606e+08	3.24056875031977e-01 -9.39063234904310e-01
8.03600360036006e+08	3.22088898595711e-01 -9.39750553153032e-01
8.03640364036406e+08	3.20119486295236e-01 -9.40433747019311e-01
8.03680368036806e+08	3.18148646775727e-01 -9.41112813502493e-01
8.03720372037206e+08	3.16176388688583e-01 -9.41787749620071e-01
8.03760376037606e+08	3.14202720691471e-01 -9.42458552407646e-01
8.03800380038006e+08	3.12227651448232e-01 -9.43125218918992e-01
8.03840384038406e+08	3.10251189628895e-01 -9.43787746226044e-01
8.03880388038806e+08	3.08273343909590e-01 -9.44446131418917e-01
8.03920392039207e+08	3.06294122972539e-01 -9.45100371605921e-01
8.03960396039607e+08	3.04313535505996e-01 -9.45750463913564e-01
8.04000400040007e+08	3.02331590204267e-01 -9.46396405486586e-01
8.04040404040407e+08	3.00348295767577e-01 -9.47038193487945e-01
8.04080408040807e+08	2.98363660902106e-01 -9.47675825098828e-01
8.04120412041207e+08	2.96377694319942e-01 -9.48309297518733e-01
8.04160416041607e+08	2.94390404738997e-01 -9.48938607965354e-01
8.04200420042007e+08	2.92401800883000e-01 -9.49563753674704e-01
8.04240424042407e+08	2.90411891481492e-01 -9.50184731901083e-01
8.04280428042807e+08	2.88420685269751e-01 -9.50801539917115e-01
8.04320432043207e+08	2.86428190988697e-01 -9.51414175013671e-01
8.04360436043607e+08	2.84434417384980e-01 -9.52022634500041e-01
8.04400440044007e+08	2.82439373210845e-01 -9.52626915703788e-01
8.04440444044407e+08	2.80443067224133e-01 -9.53227015970867e-01
8.04480448044807e+08	2.78445508188224e-01 -9.53822932665563e-01
8.04520452045208e+08	2.76446704872032e-01 -9.54414663170572e-01
8.04560456045608e+08	2.74446666049892e-01 -9.55002204886940e-01
8.04600460046008e+08	2.72445400501613e-01 -9.55585555234141e-01
8.04640464046408e+08	2.70442917012370e-01 -9.56164711650023e-01
8.04680468046808e+08	2.68439224372720e-01 -9.56739671590898e-01
8.04720472047208e+08	2.66434331378519e-01 -9.57310432531467e-01
8.04760476047608e+08	2.64428246830910e-01 -9.57876991964926e-01
8.04800480048008e+08	2.62420979536264e-01 -9.58439347402870e-01
8.04840484048408e+08	2.60412538306170e-01 -9.58997496375407e-01
8.04880488048808e+08	2.58402931957354e-01 -9.59551436431073e-01
8.04920492049208e+08	2.56392169311670e-01 -9.60101165136926e-01
8.04960496049608e+08	2.54380259196067e-01 -9.60646680078500e-01
8.05000500050008e+08	2.52367210442552e-01 -9.61187978859867e-01
8.05040504050408e+08	2.50353031888070e-01 -9.61725059103567e-01
8.05080508050808e+08	2.48337732374650e-01 -9.62257918450736e-01
8.05120512051208e+08	2.46321320749123e-01 -9.62786554560984e-01
8.05160516051609e+08	2.44303805863317e-01 -9.63310965112512e-01
8.05200520052009e+08	2.42285196573824e-01 -9.63831147802071e-01
8.05240524052409e+08	2.40265501742099e-01 -9.64347100344966e-01
8.05280528052809e+08	2.38244730234368e-01 -9.64858820475119e-01
8.05320532053209e+08	2.36222890921567e-01 -9.65366305944997e-01
8.05360536053609e+08	2.34199992679324e-01 -9.65869554525689e-01
8.05400540054009e+08	2.32176044387975e-01 -9.66368564006906e-01
8.05440544054409e+08	2.30151054932390e-01 -9.66863332196955e-01
8.05480548054809e+08	2.28125033202090e-01 -9.67353856922788e-01
8.05520552055209e+08	2.26097988091100e-01 -9.67840136030001e-01
8.05560556055609e+08	2.24069928497964e-01 -9.68322167382823e-01
8.05600560056009e+08	2.22040863325638e-01 -9.68799948864129e-01
8.05640564056409e+08	2.20010801481550e-01 -9.69273478375491e-01
8.05680568056809e+08	2.17979751877503e-01 -9.69742753837160e-01
8.05720572057209e+08	2.15947723429621e-01 -9.70207773188032e-01
8.05760576057610e+08	2.13914725058317e-01 -9.70668534385718e-01
8.05800580058010e+08	2.11880765688352e-01 -9.71125035406562e-01
8.05840584058410e+08	2.09845854248607e-01 -9.71577274245585e-01
8.05880588058810e+08	2.07809999672206e-01 -9.72025248916529e-01
8.05920592059210e+08	2.05773210896416e-01 -9.72468957451893e-01
8.05960596059610e+08	2.03735496862605e-01 -9.72908397902887e-01
8.06000600060010e+08	2.01696866516195e-01 -9.73343568339483e-01
8.06040604060410e+08	1.99657328806670e-01 -9.73774466850399e-01
8.06080608060810e+08	1.97616892687453e-01 -9.74201091543132e-01
8.06120612061210e+08	1.95575567115968e-01 -9.74623440543935e-01
8.06160616061610e+08	1.93533361053493e-01 -9.75041511997839e-01
8.06200620062010e+08	1.91490283465272e-01 -9.75455304068707e-01
8.06240624062410e+08	1.89446343320275e-01 -9.75864814939138e-01
8.06280628062810e+08	1.87401549591307e-01 -9.76270042810565e-01
8.06320632063210e+08	1.85355911254932e-01 -9.76670985903242e-01
8.06360636063611e+08	1.83309437291451e-01 -9.77067642456247e-01
8.06400640064011e+08	1.81262136684771e-01 -9.77460010727453e-01
8.06440644064411e+08	1.79214018422501e-01 -9.77848088993595e-01
8.06480648064811e+08	1.77165091495769e-01 -9.78231875550238e-01
8.06520652065211e+08	1.75115364899362e-01 -9.78611368711833e-01
8.06560656065611e+08	1.73064847631491e-01 -9.78986566811652e-01
8.06600660066011e+08	1.71013548693884e-01 -9.79357468201835e-01
8.06640664066411e+08	1.68961477091710e-01 -9.79724071253432e-01
8.06680668066811e+08	1.66908641833518e-01 -9.80086374356319e-01
8.06720672067211e+08	1.64855051931198e-01 -9.80444375919301e-01
8.06760676067611e+08	1.62800716399992e-01 -9.80798074370052e-01
8.06800680068011e+08	1.60745644258401e-01 -9.81147468155172e-01
8.06840684068411e+08	1.58689844528201e-01 -9.81492555740168e-01
8.06880688068811e+08	1.56633326234292e-01 -9.81833335609422e-01
8.06920692069211e+08	1.54576098404795e-01 -9.82169806266284e-01
8.06960696069612e+08	1.52518170070940e-01 -9.82501966233031e-01
8.07000700070012e+08	1.50459550267007e-01 -9.82829814050824e-01
8.07040704070412e+08	1.48400248030340e-01 -9.83153348279821e-01
8.07080708070812e+08	1.46340272401316e-01 -9.83472567499118e-01
8.07120712071212e+08	1.44279632423183e-01 -9.83787470306736e-01
8.07160716071612e+08	1.42218337142198e-01 -9.84098055319686e-01
8.07200720072012e+08	1.40156395607404e-01 -9.84404321173897e-01
8.07240724072412e+08	1.38093816870830e-01 -9.84706266524365e-01
8.07280728072812e+08	1.36030609987148e-01 -9.85003890044963e-01
8.07320732073212e+08	1.33966784013898e-01 -9.85297190428603e-01
8.07360736073612e+08	1.31902348011314e-01 -9.85586166387192e-01
8.07400740074012e+08	1.29837311042279e-01 -9.85870816651598e-01
8.07440744074412e+08	1.27771682172338e-01 -9.86151139971689e-01
8.07480748074812e+08	1.25705470469634e-01 -9.86427135116368e-01
8.07520752075212e+08	1.23638685004941e-01 -9.86698800873568e-01
8.07560756075613e+08	1.21571334851417e-01 -9.86966136050172e-01
8.07600760076013e+08	1.19503429084828e-01 -9.87229139472146e-01
8.07640764076413e+08	1.17434976783309e-01 -9.87487809984455e-01
8.07680768076813e+08	1.15365987027435e-01 -9.87742146451100e-01
8.07720772077213e+08	1.13296468900118e-01 -9.87992147755126e-01
8.07760776077613e+08	1.11226431486621e-01 -9.88237812798613e-01
8.07800780078013e+08	1.09155883874438e-01 -9.88479140502689e-01
8.07840784078413e+08	1.07084835153378e-01 -9.88716129807551e-01
8.07880788078813e+08	1.05013294415383e-01 -9.88948779672425e-01
8.07920792079213e+08	1.02941270754620e-01 -9.89177089075629e-01
8.07960796079613e+08	1.00868773267332e-01 -9.89401057014522e-01
8.08000800080013e+08	9.87958110518596e-02 -9.89620682505544e-01
8.08040804080413e+08	9.67223932085704e-02 -9.89835964584201e-01
8.08080808080813e+08	9.46485288398830e-02 -9.90046902305098e-01
8.08120812081213e+08	9.25742270501220e-02 -9.90253494741906e-01
8.08160816081614e+08	9.04994969455711e-02 -9.90455740987376e-01
8.08200820082014e+08	8.84243476343907e-02 -9.90653640153397e-01
8.08240824082414e+08	8.63487882265533e-02 -9.90847191370876e-01
8.08280828082814e+08	8.42728278338422e-02 -9.91036393789860e-01
8.08320832083214e+08	8.21964755698587e-02 -9.91221246579524e-01
8.08360836083614e+08	8.01197405498625e-02 -9.91401748928118e-01
8.08400840084014e+08	7.80426318908478e-02 -9.91577900043014e-01
8.08440844084414e+08	7.59651587113918e-02 -9.91749699150695e-01
8.08480848084814e+08	7.38873301317059e-02 -9.91917145496739e-01
8.08520852085214e+08	7.18091552735560e-02 -9.92080238345871e-01
8.08560856085614e+08	6.97306432602373e-02 -9.92238976981924e-01
8.08600860086014e+08	6.76518032165243e-02 -9.92393360707872e-01
8.08640864086414e+08	6.55726442686318e-02 -9.92543388845811e-01
8.08680868086814e+08	6.34931755441864e-02 -9.92689060736988e-01
8.08720872087214e+08	6.14134061721426e-02 -9.92830375741731e-01
8.08760876087615e+08	5.93333452828196e-02 -9.92967333239578e-01
8.08800880088015e+08	5.72530020077894e-02 -9.93099932629145e-01
8.08840884088415e+08	5.51723854798429e-02 -9.93228173328221e-01
8.08880888088815e+08	5.30915048330483e-02 -9.93352054773762e-01
8.08920892089215e+08	5.10103692025335e-02 -9.93471576421818e-01
8.08960896089615e+08	4.89289877246312e-02 -9.93586737747637e-01
8.09000900090015e+08	4.68473695367064e-02 -9.93697538245606e-01
8.09040904090415e+08	4.47655237772098e-02 -9.93803977429275e-01
8.09080908090815e+08	4.26834595855222e-02 -9.93906054831335e-01
8.09120912091215e+08	4.06011861020428e-02 -9.94003770003644e-01
8.09160916091615e+08	3.85187124680467e-02 -9.94097122517216e-01
8.09200920092015e+08	3.64360478257418e-02 -9.94186111962251e-01
8.09240924092415e+08	3.43532013181363e-02 -9.94270737948099e-01
8.09280928092815e+08	3.22701820890262e-02 -9.94351000103260e-01
8.09320932093215e+08	3.01869992829764e-02 -9.94426898075420e-01
8.09360936093616e+08	2.81036620452904e-02 -9.94498431531435e-01
8.09400940094016e+08	2.60201795219600e-02 -9.94565600157367e-01
8.09440944094416e+08	2.39365608595743e-02 -9.94628403658383e-01
8.09480948094816e+08	2.18528152053182e-02 -9.94686841758865e-01
8.09520952095216e+08	1.97689517069642e-02 -9.94740914202358e-01
8.09560956095616e+08	1.76849795128024e-02 -9.94790620751615e-01
8.09600960096016e+08	1.56009077715580e-02 -9.94835961188505e-01
8.09640964096416e+08	1.35167456324649e-02 -9.94876935314150e-01
8.09680968096816e+08	1.14325022450491e-02 -9.94913542948759e-01
8.09720972097216e+08	9.34818675931627e-03 -9.94945783931839e-01
8.09760976097616e+08	7.26380832550143e-03 -9.94973658121998e-01
8.09800980098016e+08	5.17937609413402e-03 -9.94997165397026e-01
8.09840984098416e+08	3.09489921597852e-03 -9.95016305653921e-01
8.09880988098816e+08	1.01038684201234e-03 -9.95031078808845e-01
8.09920992099216e+08	-1.07415187664516e-03 -9.95041484797182e-01
8.09960996099617e+08	-3.15870778878462e-03 -9.95047523573425e-01
8.10001000100017e+08	-5.24327174306527e-03 -9.95049195111341e-01
8.10041004100417e+08	-7.32783458815026e-03 -9.95046499403819e-01
8.10081008100817e+08	-9.41238717271519e-03 -9.95039436462948e-01
8.10121012101217e+08	-1.14969203454588e-02 -9.95028006319991e-01
8.10161016101617e+08	-1.35814249551864e-02 -9.95012209025425e-01
8.10201020102017e+08	-1.56658918508102e-02 -9.94992044648880e-01
8.10241024102417e+08	-1.77503118814429e-02 -9.94967513279169e-01
8.10281028102817e+08	-1.98346758963417e-02 -9.94938615024326e-01
8.10321032103217e+08	-2.19189747451126e-02 -9.94905350011482e-01
8.10361036103617e+08	-2.40031992775079e-02 -9.94867718387091e-01
8.10401040104017e+08	-2.60873403437681e-02 -9.94825720316628e-01
8.10441044104417e+08	-2.81713887943818e-02 -9.94779355984850e-01
8.10481048104817e+08	-3.02553354802817e-02 -9.94728625595686e-01
8.10521052105217e+08	-3.23391712528712e-02 -9.94673529372186e-01
8.10561056105618e+08	-3.44228869640175e-02 -9.94614067556652e-01
8.10601060106018e+08	-3.65064734661325e-02 -9.94550240410498e-01
8.10641064106418e+08	-3.85899216122055e-02 -9.94482048214340e-01
8.10681068106818e+08	-4.06732222557870e-02 -9.94409491267987e-01
8.10721072107218e+08	-4.27563662511446e-02 -9.94332569890383e-01
8.10761076107618e+08	-4.48393444531716e-02 -9.94251284419674e-01
8.10801080108018e+08	-4.69221477175440e-02 -9.94165635213170e-01
8.10841084108418e+08	-4.90047669006640e-02 -9.94075622647346e-01
8.10881088108818e+08	-5.10871928598100e-02 -9.93981247117809e-01
8.10921092109218e+08	-5.31694164530285e-02 -9.93882509039393e-01
8.10961096109618e+08	-5.52514285393138e-02 -9.93779408846054e-01
8.11001100110018e+08	-5.73332199785839e-02 -9.93671946990908e-01
8.11041104110418e+08	-5.94147816317105e-02 -9.93560123946261e-01
8.11081108110818e+08	-6.14961043605718e-02 -9.93443940203555e-01
8.11121112111218e+08	-6.35771790281543e-02 -9.93323396273359e-01
8.11161116111619e+08	-6.56579964984577e-02 -9.93198492685443e-01
8.11201120112019e+08	-6.77385476366694e-02 -9.93069229988714e-01
8.11241124112419e+08	-6.98188233091200e-02 -9.92935608751212e-01
8.11281128112819e+08	-7.18988143833873e-02 -9.92797629560118e-01
8.11321132113219e+08	-7.39785117282468e-02 -9.92655293021788e-01
8.11361136113619e+08	-7.60579062138137e-02 -9.92508599761696e-01
8.11401140114019e+08	-7.81369887115282e-02 -9.92357550424425e-01
8.11441144114419e+08	-8.02157500942070e-02 -9.92202145673741e-01
8.11481148114819e+08	-8.22941812360505e-02 -9.92042386192522e-01
8.11521152115219e+08	-8.43722730127368e-02 -9.91878272682782e-01
8.11561156115619e+08	-8.64500163014290e-02 -9.91709805865645e-01
8.11601160116019e+08	-8.85274019808363e-02 -9.91536986481361e-01
8.11641164116419e+08	-9.06044209312333e-02 -9.91359815289304e-01
8.11681168116819e+08	-9.26810640345175e-02 -9.91178293067960e-01
8.11721172117219e+08	-9.47573221742191e-02 -9.90992420614930e-01
8.11761176117620e+08	-9.68331862355884e-02 -9.90802198746918e-01
8.11801180118020e+08	-9.89086471055860e-02 -9.90607628299731e-01
8.11841184118420e+08	-1.00983695672978e-01 -9.90408710128289e-01
8.11881188118820e+08	-1.03058322828295e-01 -9.90205445106615e-01
8.11921192119220e+08	-1.05132519463966e-01 -9.89997834127812e-01
8.11961196119620e+08	-1.07206276474331e-01 -9.89785878104033e-01
8.12001200120020e+08	-1.09279584755573e-01 -9.89569577966620e-01
8.12041204120420e+08	-1.11352435205963e-01 -9.89348934665883e-01
8.12081208120820e+08	-1.13424818725698e-01 -9.89123949171300e-01
8.12121212121220e+08	-1.15496726217120e-01 -9.88894622471332e-01
8.12161216121620e+08	-1.17568148584543e-01 -9.88660955573618e-01
8.12201220122020e+08	-1.19639076734544e-01 -9.88422949504753e-01
8.12241224122420e+08	-1.21709501575777e-01 -9.88180605310460e-01
8.12281228122820e+08	-1.23779414019157e-01 -9.87933924055516e-01
8.12321232123220e+08	-1.25848804977863e-01 -9.87682906823692e-01
8.12361236123621e+08	-1.27917665367328e-01 -9.87427554717879e-01
8.12401240124021e+08	-1.29985986105355e-01 -9.87167868859946e-01
