Freq.	V(reflectedwaveover20)/V(minusincidentwaveover20)
8.00000000000000e+08	5.02253994754725e-01,-8.61787426136649e-01
8.00040004000400e+08	5.00447991996918e-01,-8.62826918360110e-01
8.00080008000800e+08	4.98639816580990e-01,-8.63862625865554e-01
8.00120012001200e+08	4.96829476437290e-01,-8.64894544113410e-01
8.00160016001600e+08	4.95016979505691e-01,-8.65922668580757e-01
8.00200020002000e+08	4.93202333735415e-01,-8.66946994761314e-01
8.00240024002400e+08	4.91385547085164e-01,-8.67967518165349e-01
8.00280028002800e+08	4.89566627523024e-01,-8.68984234319945e-01
8.00320032003201e+08	4.87745583026368e-01,-8.69997138768707e-01
8.00360036003601e+08	4.85922421581875e-01,-8.71006227072136e-01
8.00400040004001e+08	4.84097151185547e-01,-8.72011494807299e-01
8.00440044004401e+08	4.82269779842561e-01,-8.73012937568203e-01
8.00480048004801e+08	4.80440315567320e-01,-8.74010550965343e-01
8.00520052005201e+08	4.78608766383419e-01,-8.75004330626275e-01
8.00560056005601e+08	4.76775140323541e-01,-8.75994272195169e-01
8.00600060006001e+08	4.74939445429467e-01,-8.76980371333261e-01
8.00640064006401e+08	4.73101689752098e-01,-8.77962623718254e-01
8.00680068006801e+08	4.71261881351240e-01,-8.78941025045104e-01
8.00720072007201e+08	4.69420028295761e-01,-8.79915571025398e-01
8.00760076007601e+08	4.67576138663545e-01,-8.80886257387782e-01
8.00800080008001e+08	4.65730220541224e-01,-8.81853079877685e-01
8.00840084008401e+08	4.63882282024456e-01,-8.82816034257555e-01
8.00880088008801e+08	4.62032331217703e-01,-8.83775116306732e-01
8.00920092009202e+08	4.60180376234274e-01,-8.84730321821641e-01
8.00960096009602e+08	4.58326425196118e-01,-8.85681646615616e-01
8.01000100010002e+08	4.56470486234097e-01,-8.86629086519042e-01
8.01040104010402e+08	4.54612567487698e-01,-8.87572637379311e-01
8.01080108010802e+08	4.52752677105027e-01,-8.88512295060847e-01
8.01120112011202e+08	4.50890823242892e-01,-8.89448055445192e-01
8.01160116011602e+08	4.49027014066781e-01,-8.90379914430936e-01
8.01200120012002e+08	4.47161257750458e-01,-8.91307867933811e-01
8.01240124012402e+08	4.45293562476501e-01,-8.92231911886609e-01
8.01280128012802e+08	4.43423936435949e-01,-8.93152042239292e-01
8.01320132013202e+08	4.41552387828089e-01,-8.94068254958949e-01
8.01360136013602e+08	4.39678924860850e-01,-8.94980546029908e-01
8.01400140014002e+08	4.37803555750379e-01,-8.95888911453617e-01
8.01440144014402e+08	4.35926288721280e-01,-8.96793347248814e-01
8.01480148014802e+08	4.34047132006413e-01,-8.97693849451410e-01
8.01520152015203e+08	4.32166093846947e-01,-8.98590414114567e-01
8.01560156015603e+08	4.30283182492286e-01,-8.99483037308634e-01
8.01600160016003e+08	4.28398406199930e-01,-9.00371715121360e-01
8.01640164016403e+08	4.26511773235686e-01,-9.01256443657746e-01
8.01680168016803e+08	4.24623291873492e-01,-9.02137219040085e-01
8.01720172017203e+08	4.22732970395198e-01,-9.03014037408014e-01
8.01760176017603e+08	4.20840817091034e-01,-9.03886894918470e-01
8.01800180018003e+08	4.18946840258815e-01,-9.04755787745896e-01
8.01840184018403e+08	4.17051048204744e-01,-9.05620712081906e-01
8.01880188018803e+08	4.15153449242736e-01,-9.06481664135699e-01
8.01920192019203e+08	4.13254051694742e-01,-9.07338640133744e-01
8.01960196019603e+08	4.11352863890477e-01,-9.08191636319987e-01
8.02000200020003e+08	4.09449894167567e-01,-9.09040648955902e-01
8.02040204020403e+08	4.07545150871408e-01,-9.09885674320274e-01
8.02080208020803e+08	4.05638642355287e-01,-9.10726708709548e-01
8.02120212021204e+08	4.03730376979947e-01,-9.11563748437421e-01
8.02160216021604e+08	4.01820363114108e-01,-9.12396789835370e-01
8.02200220022004e+08	3.99908609133960e-01,-9.13225829252164e-01
8.02240224022404e+08	3.97995123423394e-01,-9.14050863054306e-01
8.02280228022804e+08	3.96079914373917e-01,-9.14871887625700e-01
8.02320232023204e+08	3.94162990384477e-01,-9.15688899367925e-01
8.02360236023604e+08	3.92244359861548e-01,-9.16501894700144e-01
8.02400240024004e+08	3.90324031219139e-01,-9.17310870059034e-01
8.02440244024404e+08	3.88402012878702e-01,-9.18115821898963e-01
8.02480248024804e+08	3.86478313269083e-01,-9.18916746691989e-01
8.02520252025204e+08	3.84552940826316e-01,-9.19713640927707e-01
8.02560256025604e+08	3.82625903994047e-01,-9.20506501113482e-01
8.02600260026004e+08	3.80697211222972e-01,-9.21295323774265e-01
8.02640264026404e+08	3.78766870971189e-01,-9.22080105452773e-01
8.02680268026804e+08	3.76834891703910e-01,-9.22860842709431e-01
8.02720272027205e+08	3.74901281893611e-01,-9.23637532122351e-01
8.02760276027605e+08	3.72966050019847e-01,-9.24410170287381e-01
8.02800280028005e+08	3.71029204569174e-01,-9.25178753818259e-01
8.02840284028405e+08	3.69090754035498e-01,-9.25943279346276e-01
8.02880288028805e+08	3.67150706919425e-01,-9.26703743520713e-01
8.02920292029205e+08	3.65209071728816e-01,-9.27460143008552e-01
8.02960296029605e+08	3.63265856978280e-01,-9.28212474494565e-01
8.03000300030005e+08	3.61321071189539e-01,-9.28960734681463e-01
8.03040304030405e+08	3.59374722891040e-01,-9.29704920289640e-01
8.03080308030805e+08	3.57426820618143e-01,-9.30445028057544e-01
8.03120312031205e+08	3.55477372913009e-01,-9.31181054741313e-01
8.03160316031605e+08	3.53526388324453e-01,-9.31912997115103e-01
8.03200320032005e+08	3.51573875408206e-01,-9.32640851970924e-01
8.03240324032405e+08	3.49619842726520e-01,-9.33364616118690e-01
8.03280328032805e+08	3.47664298848520e-01,-9.34084286386294e-01
8.03320332033206e+08	3.45707252349672e-01,-9.34799859619531e-01
8.03360336033606e+08	3.43748711812148e-01,-9.35511332682102e-01
8.03400340034006e+08	3.41788685824783e-01,-9.36218702455758e-01
8.03440344034406e+08	3.39827182982778e-01,-9.36921965840269e-01
8.03480348034806e+08	3.37864211887757e-01,-9.37621119753260e-01
8.03520352035206e+08	3.35899781147842e-01,-9.38316161130514e-01
8.03560356035606e+08	3.33933899377558e-01,-9.39007086925782e-01
8.03600360036006e+08	3.31966575197840e-01,-9.39693894110846e-01
8.03640364036406e+08	3.29997817235810e-01,-9.40376579675537e-01
8.03680368036806e+08	3.28027634124863e-01,-9.41055140627748e-01
8.03720372037206e+08	3.26056034504835e-01,-9.41729573993511e-01
8.03760376037606e+08	3.24083027021517e-01,-9.42399876816837e-01
8.03800380038006e+08	3.22108620326993e-01,-9.43066046159904e-01
8.03840384038406e+08	3.20132823079482e-01,-9.43728079103089e-01
8.03880388038806e+08	3.18155643943212e-01,-9.44385972744725e-01
8.03920392039207e+08	3.16177091588531e-01,-9.45039724201464e-01
8.03960396039607e+08	3.14197174691813e-01,-9.45689330607933e-01
8.04000400040007e+08	3.12215901935314e-01,-9.46334789117081e-01
8.04040404040407e+08	3.10233282007399e-01,-9.46976096899991e-01
8.04080408040807e+08	3.08249323602016e-01,-9.47613251145839e-01
8.04120412041207e+08	3.06264035419374e-01,-9.48246249062209e-01
8.04160416041607e+08	3.04277426165179e-01,-9.48875087874667e-01
8.04200420042007e+08	3.02289504551088e-01,-9.49499764827169e-01
8.04240424042407e+08	3.00300279294462e-01,-9.50120277181914e-01
8.04280428042807e+08	2.98309759118401e-01,-9.50736622219215e-01
8.04320432043207e+08	2.96317952751602e-01,-9.51348797237814e-01
8.04360436043607e+08	2.94324868928435e-01,-9.51956799554630e-01
8.04400440044007e+08	2.92330516388949e-01,-9.52560626504874e-01
8.04440444044407e+08	2.90334903878482e-01,-9.53160275442083e-01
8.04480448044807e+08	2.88338040148230e-01,-9.53755743738155e-01
8.04520452045208e+08	2.86339933954645e-01,-9.54347028783151e-01
8.04560456045608e+08	2.84340594059705e-01,-9.54934127985683e-01
8.04600460046008e+08	2.82340029230712e-01,-9.55517038772508e-01
8.04640464046408e+08	2.80338248240462e-01,-9.56095758588930e-01
8.04680468046808e+08	2.78335259866870e-01,-9.56670284898409e-01
8.04720472047208e+08	2.76331072893455e-01,-9.57240615182963e-01
8.04760476047608e+08	2.74325696108613e-01,-9.57806746942884e-01
8.04800480048008e+08	2.72319138306196e-01,-9.58368677696992e-01
8.04840484048408e+08	2.70311408285252e-01,-9.58926404982344e-01
8.04880488048808e+08	2.68302514849647e-01,-9.59479926354562e-01
8.04920492049208e+08	2.66292466808792e-01,-9.60029239387639e-01
8.04960496049608e+08	2.64281272976858e-01,-9.60574341674089e-01
8.05000500050008e+08	2.62268942173046e-01,-9.61115230824703e-01
8.05040504050408e+08	2.60255483221609e-01,-9.61651904468962e-01
8.05080508050808e+08	2.58240904951754e-01,-9.62184360254609e-01
8.05120512051208e+08	2.56225216197545e-01,-9.62712595848119e-01
8.05160516051609e+08	2.54208425797902e-01,-9.63236608934183e-01
8.05200520052009e+08	2.52190542596540e-01,-9.63756397216157e-01
8.05240524052409e+08	2.50171575442105e-01,-9.64271958415965e-01
8.05280528052809e+08	2.48151533187798e-01,-9.64783290273899e-01
8.05320532053209e+08	2.46130424691705e-01,-9.65290390548914e-01
8.05360536053609e+08	2.44108258816379e-01,-9.65793257018485e-01
8.05400540054009e+08	2.42085044429246e-01,-9.66291887478554e-01
8.05440544054409e+08	2.40060790402035e-01,-9.66786279743752e-01
8.05480548054809e+08	2.38035505611327e-01,-9.67276431647186e-01
8.05520552055209e+08	2.36009198937995e-01,-9.67762341040630e-01
8.05560556055609e+08	2.33981879267530e-01,-9.68244005794380e-01
8.05600560056009e+08	2.31953555489676e-01,-9.68721423797400e-01
8.05640564056409e+08	2.29924236498845e-01,-9.69194592957213e-01
8.05680568056809e+08	2.27893931193493e-01,-9.69663511199927e-01
8.05720572057209e+08	2.25862648476653e-01,-9.70128176470391e-01
8.05760576057610e+08	2.23830397255504e-01,-9.70588586732073e-01
8.05800580058010e+08	2.21797186441560e-01,-9.71044739966991e-01
8.05840584058410e+08	2.19763024950377e-01,-9.71496634175908e-01
8.05880588058810e+08	2.17727921701860e-01,-9.71944267378170e-01
8.05920592059210e+08	2.15691885619895e-01,-9.72387637611906e-01
8.05960596059610e+08	2.13654925632534e-01,-9.72826742933851e-01
8.06000600060010e+08	2.11617050671837e-01,-9.73261581419457e-01
8.06040604060410e+08	2.09578269673891e-01,-9.73692151162874e-01
8.06080608060810e+08	2.07538591578755e-01,-9.74118450276953e-01
8.06120612061210e+08	2.05498025330327e-01,-9.74540476893267e-01
8.06160616061610e+08	2.03456579876548e-01,-9.74958229162139e-01
8.06200620062010e+08	2.01414264169064e-01,-9.75371705252515e-01
8.06240624062410e+08	1.99371087163495e-01,-9.75780903352247e-01
8.06280628062810e+08	1.97327057819050e-01,-9.76185821667780e-01
8.06320632063210e+08	1.95282185098806e-01,-9.76586458424450e-01
8.06360636063611e+08	1.93236477969410e-01,-9.76982811866254e-01
8.06400640064011e+08	1.91189945401314e-01,-9.77374880256063e-01
8.06440644064411e+08	1.89142596368435e-01,-9.77762661875323e-01
8.06480648064811e+08	1.87094439848350e-01,-9.78146155024567e-01
8.06520652065211e+08	1.85045484822235e-01,-9.78525358022854e-01
8.06560656065611e+08	1.82995740274618e-01,-9.78900269208214e-01
8.06600660066011e+08	1.80945215193456e-01,-9.79270886937340e-01
8.06640664066411e+08	1.78893918570392e-01,-9.79637209585915e-01
8.06680668066811e+08	1.76841859400214e-01,-9.79999235548306e-01
8.06720672067211e+08	1.74789046681017e-01,-9.80356963237800e-01
8.06760676067611e+08	1.72735489414369e-01,-9.80710391086440e-01
8.06800680068011e+08	1.70681196604977e-01,-9.81059517545144e-01
8.06840684068411e+08	1.68626177260859e-01,-9.81404341083680e-01
8.06880688068811e+08	1.66570440393124e-01,-9.81744860190749e-01
8.06920692069211e+08	1.64513995016081e-01,-9.82081073373828e-01
8.06960696069612e+08	1.62456850147150e-01,-9.82412979159242e-01
8.07000700070012e+08	1.60399014806662e-01,-9.82740576092226e-01
8.07040704070412e+08	1.58340498018195e-01,-9.83063862736978e-01
8.07080708070812e+08	1.56281308808252e-01,-9.83382837676424e-01
8.07120712071212e+08	1.54221456206197e-01,-9.83697499512562e-01
8.07160716071612e+08	1.52160949244228e-01,-9.84007846866156e-01
8.07200720072012e+08	1.50099796957687e-01,-9.84313878376963e-01
8.07240724072412e+08	1.48038008384532e-01,-9.84615592703544e-01
8.07280728072812e+08	1.45975592565442e-01,-9.84912988523539e-01
8.07320732073212e+08	1.43912558544106e-01,-9.85206064533431e-01
8.07360736073612e+08	1.41848915366711e-01,-9.85494819448555e-01
8.07400740074012e+08	1.39784672082180e-01,-9.85779252003271e-01
8.07440744074412e+08	1.37719837741998e-01,-9.86059360950913e-01
8.07480748074812e+08	1.35654421400389e-01,-9.86335145063728e-01
8.07520752075212e+08	1.33588432113929e-01,-9.86606603132837e-01
8.07560756075613e+08	1.31521878941846e-01,-9.86873733968450e-01
8.07600760076013e+08	1.29454770945783e-01,-9.87136536399676e-01
8.07640764076413e+08	1.27387117189831e-01,-9.87395009274543e-01
8.07680768076813e+08	1.25318926740526e-01,-9.87649151460149e-01
8.07720772077213e+08	1.23250208666562e-01,-9.87898961842528e-01
8.07760776077613e+08	1.21180972039222e-01,-9.88144439326717e-01
8.07800780078013e+08	1.19111225931754e-01,-9.88385582836637e-01
8.07840784078413e+08	1.17040979419951e-01,-9.88622391315366e-01
8.07880788078813e+08	1.14970241581550e-01,-9.88854863724887e-01
8.07920792079213e+08	1.12899021496512e-01,-9.89082999046136e-01
8.07960796079613e+08	1.10827328247058e-01,-9.89306796279166e-01
8.08000800080013e+08	1.08755170917232e-01,-9.89526254442993e-01
8.08040804080413e+08	1.06682558593266e-01,-9.89741372575669e-01
8.08080808080813e+08	1.04609500363325e-01,-9.89952149734152e-01
8.08120812081213e+08	1.02536005317616e-01,-9.90158584994632e-01
8.08160816081614e+08	1.00462082548178e-01,-9.90360677452149e-01
8.08200820082014e+08	9.83877411489343e-02,-9.90558426220782e-01
8.08240824082414e+08	9.63129902155897e-02,-9.90751830433785e-01
8.08280828082814e+08	9.42378388457811e-02,-9.90940889243330e-01
8.08320832083214e+08	9.21622961387911e-02,-9.91125601820678e-01
8.08360836083614e+08	9.00863711956804e-02,-9.91305967356141e-01
8.08400840084014e+08	8.80100731190569e-02,-9.91481985058987e-01
8.08440844084414e+08	8.59334110133976e-02,-9.91653654157664e-01
8.08480848084814e+08	8.38563939845297e-02,-9.91820973899630e-01
8.08520852085214e+08	8.17790311399126e-02,-9.91983943551413e-01
8.08560856085614e+08	7.97013315886036e-02,-9.92142562398610e-01
8.08600860086014e+08	7.76233044410626e-02,-9.92296829745810e-01
8.08640864086414e+08	7.55449588092345e-02,-9.92446744916757e-01
8.08680868086814e+08	7.34663038064242e-02,-9.92592307254232e-01
8.08720872087214e+08	7.13873485472401e-02,-9.92733516120137e-01
8.08760876087615e+08	6.93081021476486e-02,-9.92870370895341e-01
8.08800880088015e+08	6.72285737250130e-02,-9.93002870979904e-01
8.08840884088415e+08	6.51487723976582e-02,-9.93131015792975e-01
8.08880888088815e+08	6.30687072853305e-02,-9.93254804772669e-01
8.08920892089215e+08	6.09883875089381e-02,-9.93374237376310e-01
8.08960896089615e+08	5.89078221903883e-02,-9.93489313080298e-01
8.09000900090015e+08	5.68270204526812e-02,-9.93600031380055e-01
8.09040904090415e+08	5.47459914199076e-02,-9.93706391790137e-01
8.09080908090815e+08	5.26647442171779e-02,-9.93808393844219e-01
8.09120912091215e+08	5.05832879704473e-02,-9.93906037095050e-01
8.09160916091615e+08	4.85016318066503e-02,-9.93999321114541e-01
8.09200920092015e+08	4.64197848536156e-02,-9.94088245493556e-01
8.09240924092415e+08	4.43377562400390e-02,-9.94172809842231e-01
8.09280928092815e+08	4.22555550952989e-02,-9.94253013789682e-01
8.09320932093215e+08	4.01731905495825e-02,-9.94328856984264e-01
8.09360936093616e+08	3.80906717338668e-02,-9.94400339093385e-01
8.09400940094016e+08	3.60080077797518e-02,-9.94467459803467e-01
8.09440944094416e+08	3.39252078194150e-02,-9.94530218820171e-01
8.09480948094816e+08	3.18422809856158e-02,-9.94588615868235e-01
8.09520952095216e+08	2.97592364119622e-02,-9.94642650691494e-01
8.09560956095616e+08	2.76760832321611e-02,-9.94692323052868e-01
8.09600960096016e+08	2.55928305806079e-02,-9.94737632734555e-01
8.09640964096416e+08	2.35094875922156e-02,-9.94778579537628e-01
8.09680968096816e+08	2.14260634020834e-02,-9.94815163282543e-01
8.09720972097216e+08	1.93425671458344e-02,-9.94847383808590e-01
8.09760976097616e+08	1.72590079593571e-02,-9.94875240974409e-01
8.09800980098016e+08	1.51753949787915e-02,-9.94898734657687e-01
8.09840984098416e+08	1.30917373405229e-02,-9.94917864755193e-01
8.09880988098816e+08	1.10080441812247e-02,-9.94932631182919e-01
8.09920992099216e+08	8.92432463748281e-03,-9.94943033875831e-01
8.09960996099617e+08	6.84058784633523e-03,-9.94949072788175e-01
8.10001000100017e+08	4.75684294463023e-03,-9.94950747893199e-01
8.10041004100417e+08	2.67309906940000e-03,-9.94948059183318e-01
8.10081008100817e+08	5.89365357550957e-04,-9.94941006670130e-01
8.10121012101217e+08	-1.49434905389195e-03,-9.94929590384266e-01
8.10161016101617e+08	-3.57803502820546e-03,-9.94913810375487e-01
8.10201020102017e+08	-5.66168342853571e-03,-9.94893666712790e-01
8.10241024102417e+08	-7.74528511838680e-03,-9.94869159484140e-01
8.10281028102817e+08	-9.82883096133255e-03,-9.94840288796677e-01
8.10321032103217e+08	-1.19123118213739e-02,-9.94807054776760e-01
8.10361036103617e+08	-1.39957185625020e-02,-9.94769457569744e-01
8.10401040104017e+08	-1.60790420494153e-02,-9.94727497340164e-01
8.10441044104417e+08	-1.81622731468339e-02,-9.94681174271643e-01
8.10481048104817e+08	-2.02454027200001e-02,-9.94630488566977e-01
8.10521052105217e+08	-2.23284216346831e-02,-9.94575440448047e-01
8.10561056105618e+08	-2.44113207570251e-02,-9.94516030155845e-01
8.10601060106018e+08	-2.64940909537595e-02,-9.94452257950444e-01
8.10641064106418e+08	-2.85767230921712e-02,-9.94384124111138e-01
8.10681068106818e+08	-3.06592080399625e-02,-9.94311628936248e-01
8.10721072107218e+08	-3.27415366659399e-02,-9.94234772743190e-01
8.10761076107618e+08	-3.48236998390215e-02,-9.94153555868624e-01
8.10801080108018e+08	-3.69056884293381e-02,-9.94067978668129e-01
8.10841084108418e+08	-3.89874933073751e-02,-9.93978041516570e-01
8.10881088108818e+08	-4.10691053448158e-02,-9.93883744807799e-01
8.10921092109218e+08	-4.31505154138546e-02,-9.93785088954857e-01
8.10961096109618e+08	-4.52317143877972e-02,-9.93682074389806e-01
8.11001100110018e+08	-4.73126931407148e-02,-9.93574701563853e-01
8.11041104110418e+08	-4.93934425476561e-02,-9.93462970947340e-01
8.11081108110818e+08	-5.14739534848230e-02,-9.93346883029594e-01
8.11121112111218e+08	-5.35542168293727e-02,-9.93226438319235e-01
8.11161116111619e+08	-5.56342234593915e-02,-9.93101637343743e-01
8.11201120112019e+08	-5.77139642543339e-02,-9.92972480649812e-01
8.11241124112419e+08	-5.97934300947463e-02,-9.92838968803232e-01
8.11281128112819e+08	-6.18726118622132e-02,-9.92701102388881e-01
8.11321132113219e+08	-6.39515004398030e-02,-9.92558882010721e-01
8.11361136113619e+08	-6.60300867116950e-02,-9.92412308291618e-01
8.11401140114019e+08	-6.81083615634135e-02,-9.92261381873868e-01
8.11441144114419e+08	-7.01863158819958e-02,-9.92106103418481e-01
8.11481148114819e+08	-7.22639405556627e-02,-9.91946473605871e-01
8.11521152115219e+08	-7.43412264742132e-02,-9.91782493135160e-01
8.11561156115619e+08	-7.64181645288890e-02,-9.91614162724887e-01
8.11601160116019e+08	-7.84947456124906e-02,-9.91441483112402e-01
8.11641164116419e+08	-8.05709606192595e-02,-9.91264455054218e-01
8.11681168116819e+08	-8.26468004452155e-02,-9.91083079325939e-01
8.11721172117219e+08	-8.47222559878968e-02,-9.90897356722167e-01
8.11761176117620e+08	-8.67973181465282e-02,-9.90707288056524e-01
8.11801180118020e+08	-8.88719778221062e-02,-9.90512874161794e-01
8.11841184118420e+08	-9.09462259174097e-02,-9.90314115889652e-01
8.11881188118820e+08	-9.30200533368715e-02,-9.90111014110913e-01
8.11921192119220e+08	-9.50934509869623e-02,-9.89903569715444e-01
8.11961196119620e+08	-9.71664097759285e-02,-9.89691783612076e-01
8.12001200120020e+08	-9.92389206138136e-02,-9.89475656728673e-01
8.12041204120420e+08	-1.01310974412897e-01,-9.89255190012179e-01
8.12081208120820e+08	-1.03382562087256e-01,-9.89030384428475e-01
8.12121212121220e+08	-1.05453674553089e-01,-9.88801240962576e-01
8.12161216121620e+08	-1.07524302728548e-01,-9.88567760618366e-01
8.12201220122020e+08	-1.09594437534135e-01,-9.88329944418849e-01
8.12241224122420e+08	-1.11664069892364e-01,-9.88087793405993e-01
8.12281228122820e+08	-1.13733190727810e-01,-9.87841308640717e-01
8.12321232123220e+08	-1.15801790967599e-01,-9.87590491202959e-01
8.12361236123621e+08	-1.17869861540970e-01,-9.87335342191700e-01
