Freq.	-V(reflectedwaveover20)/V(minusincidentwaveover20)
7.00000000000000e+07	-8.66548065367190e-01,4.97186795781140e-01
7.00060006000600e+07	-8.66391820694560e-01,4.97457185254579e-01
7.00120012001200e+07	-8.66235491257362e-01,4.97727525563667e-01
7.00180018001800e+07	-8.66079077071019e-01,4.97997816681901e-01
7.00240024002400e+07	-8.65922578151105e-01,4.98268058582758e-01
7.00300030003000e+07	-8.65765994512952e-01,4.98538251239781e-01
7.00360036003600e+07	-8.65609326172145e-01,4.98808394626492e-01
7.00420042004200e+07	-8.65452573144170e-01,4.99078488716375e-01
7.00480048004800e+07	-8.65295735444515e-01,4.99348533483026e-01
7.00540054005400e+07	-8.65138813088710e-01,4.99618528899915e-01
7.00600060006000e+07	-8.64981806092274e-01,4.99888474940601e-01
7.00660066006600e+07	-8.64824714470741e-01,5.00158371578619e-01
7.00720072007200e+07	-8.64667538239619e-01,5.00428218787546e-01
7.00780078007800e+07	-8.64510277414580e-01,5.00698016540897e-01
7.00840084008400e+07	-8.64352932010988e-01,5.00967764812263e-01
7.00900090009000e+07	-8.64195502044507e-01,5.01237463575178e-01
7.00960096009600e+07	-8.64037987530729e-01,5.01507112803219e-01
7.01020102010200e+07	-8.63880388485239e-01,5.01776712469951e-01
7.01080108010800e+07	-8.63722704923572e-01,5.02046262548967e-01
7.01140114011400e+07	-8.63564936861332e-01,5.02315763013834e-01
7.01200120012000e+07	-8.63407084314164e-01,5.02585213838152e-01
7.01260126012600e+07	-8.63249147297688e-01,5.02854614995504e-01
7.01320132013200e+07	-8.63091125827458e-01,5.03123966459471e-01
7.01380138013800e+07	-8.62933019919163e-01,5.03393268203688e-01
7.01440144014400e+07	-8.62774829588429e-01,5.03662520201734e-01
7.01500150015000e+07	-8.62616554850878e-01,5.03931722427216e-01
7.01560156015600e+07	-8.62458195722224e-01,5.04200874853786e-01
7.01620162016200e+07	-8.62299752218056e-01,5.04469977455004e-01
7.01680168016800e+07	-8.62141224354090e-01,5.04739030204581e-01
7.01740174017400e+07	-8.61982612146032e-01,5.05008033076053e-01
7.01800180018000e+07	-8.61823915609523e-01,5.05276986043132e-01
7.01860186018600e+07	-8.61665134760205e-01,5.05545889079417e-01
7.01920192019200e+07	-8.61506269613891e-01,5.05814742158558e-01
7.01980198019800e+07	-8.61347320186271e-01,5.06083545254220e-01
7.02040204020400e+07	-8.61188286493019e-01,5.06352298340048e-01
7.02100210021000e+07	-8.61029168549888e-01,5.06621001389698e-01
7.02160216021600e+07	-8.60869966372639e-01,5.06889654376837e-01
7.02220222022200e+07	-8.60710679976960e-01,5.07158257275162e-01
7.02280228022800e+07	-8.60551309378599e-01,5.07426810058292e-01
7.02340234023400e+07	-8.60391854593420e-01,5.07695312699954e-01
7.02400240024000e+07	-8.60232315637127e-01,5.07963765173816e-01
7.02460246024600e+07	-8.60072692525449e-01,5.08232167453572e-01
7.02520252025200e+07	-8.59912985274249e-01,5.08500519512902e-01
7.02580258025800e+07	-8.59753193899287e-01,5.08768821325536e-01
7.02640264026400e+07	-8.59593318416374e-01,5.09037072865141e-01
7.02700270027000e+07	-8.59433358841314e-01,5.09305274105460e-01
7.02760276027600e+07	-8.59273315189953e-01,5.09573425020187e-01
7.02820282028200e+07	-8.59113187478049e-01,5.09841525583037e-01
7.02880288028800e+07	-8.58952975721524e-01,5.10109575767763e-01
7.02940294029400e+07	-8.58792679936152e-01,5.10377575548084e-01
7.03000300030001e+07	-8.58632300137794e-01,5.10645524897707e-01
7.03060306030601e+07	-8.58471836342350e-01,5.10913423790385e-01
7.03120312031201e+07	-8.58311288565661e-01,5.11181272199883e-01
7.03180318031801e+07	-8.58150656823607e-01,5.11449070099923e-01
7.03240324032401e+07	-8.57989941132046e-01,5.11716817464278e-01
7.03300330033001e+07	-8.57829141506919e-01,5.11984514266702e-01
7.03360336033601e+07	-8.57668257964099e-01,5.12252160480959e-01
7.03420342034201e+07	-8.57507290519545e-01,5.12519756080822e-01
7.03480348034801e+07	-8.57346239189033e-01,5.12787301040054e-01
7.03540354035401e+07	-8.57185103988674e-01,5.13054795332443e-01
7.03600360036001e+07	-8.57023884934264e-01,5.13322238931758e-01
7.03660366036601e+07	-8.56862582041765e-01,5.13589631811803e-01
7.03720372037201e+07	-8.56701195327187e-01,5.13856973946400e-01
7.03780378037801e+07	-8.56539724806412e-01,5.14124265309280e-01
7.03840384038401e+07	-8.56378170495441e-01,5.14391505874296e-01
7.03900390039001e+07	-8.56216532410297e-01,5.14658695615240e-01
7.03960396039601e+07	-8.56054810566890e-01,5.14925834505939e-01
7.04020402040201e+07	-8.55893004981230e-01,5.15192922520224e-01
7.04080408040801e+07	-8.55731115669328e-01,5.15459959631867e-01
7.04140414041401e+07	-8.55569142647179e-01,5.15726945814742e-01
7.04200420042001e+07	-8.55407085930820e-01,5.15993881042681e-01
7.04260426042601e+07	-8.55244945536208e-01,5.16260765289515e-01
7.04320432043201e+07	-8.55082721479451e-01,5.16527598529062e-01
7.04380438043801e+07	-8.54920413776566e-01,5.16794380735238e-01
7.04440444044401e+07	-8.54758022443529e-01,5.17061111881829e-01
7.04500450045001e+07	-8.54595547496510e-01,5.17327791942700e-01
7.04560456045601e+07	-8.54432988951551e-01,5.17594420891782e-01
7.04620462046201e+07	-8.54270346824628e-01,5.17860998702878e-01
7.04680468046801e+07	-8.54107621131886e-01,5.18127525349870e-01
7.04740474047401e+07	-8.53944811889428e-01,5.18394000806674e-01
7.04800480048001e+07	-8.53781919113354e-01,5.18660425047154e-01
7.04860486048601e+07	-8.53618942819711e-01,5.18926798045153e-01
7.04920492049201e+07	-8.53455883024703e-01,5.19193119774655e-01
7.04980498049801e+07	-8.53292739744330e-01,5.19459390209490e-01
7.05040504050401e+07	-8.53129512994784e-01,5.19725609323580e-01
7.05100510051001e+07	-8.52966202792263e-01,5.19991777090874e-01
7.05160516051601e+07	-8.52802809152760e-01,5.20257893485236e-01
7.05220522052201e+07	-8.52639332092606e-01,5.20523958480613e-01
7.05280528052801e+07	-8.52475771627808e-01,5.20789972050906e-01
7.05340534053401e+07	-8.52312127774648e-01,5.21055934170049e-01
7.05400540054001e+07	-8.52148400549220e-01,5.21321844812022e-01
7.05460546054601e+07	-8.51984589967748e-01,5.21587703950715e-01
7.05520552055201e+07	-8.51820696046400e-01,5.21853511560082e-01
7.05580558055801e+07	-8.51656718801395e-01,5.22119267614085e-01
7.05640564056401e+07	-8.51492658249012e-01,5.22384972086683e-01
7.05700570057001e+07	-8.51328514405333e-01,5.22650624951823e-01
7.05760576057601e+07	-8.51164287286676e-01,5.22916226183472e-01
7.05820582058201e+07	-8.50999976909273e-01,5.23181775755608e-01
7.05880588058801e+07	-8.50835583289297e-01,5.23447273642197e-01
7.05940594059401e+07	-8.50671106443043e-01,5.23712719817232e-01
7.06000600060001e+07	-8.50506546386818e-01,5.23978114254681e-01
7.06060606060601e+07	-8.50341903136832e-01,5.24243456928581e-01
7.06120612061201e+07	-8.50177176709330e-01,5.24508747812856e-01
7.06180618061801e+07	-8.50012367120669e-01,5.24773986881578e-01
7.06240624062401e+07	-8.49847474387087e-01,5.25039174108688e-01
7.06300630063001e+07	-8.49682498524870e-01,5.25304309468240e-01
7.06360636063601e+07	-8.49517439550347e-01,5.25569392934252e-01
7.06420642064201e+07	-8.49352297479907e-01,5.25834424480734e-01
7.06480648064801e+07	-8.49187072329759e-01,5.26099404081703e-01
7.06540654065401e+07	-8.49021764116230e-01,5.26364331711201e-01
7.06600660066001e+07	-8.48856372855774e-01,5.26629207343267e-01
7.06660666066601e+07	-8.48690898564623e-01,5.26894030951948e-01
7.06720672067201e+07	-8.48525341259228e-01,5.27158802511263e-01
7.06780678067801e+07	-8.48359700955848e-01,5.27423521995315e-01
7.06840684068401e+07	-8.48193977670967e-01,5.27688189378095e-01
7.06900690069001e+07	-8.48028171420871e-01,5.27952804633737e-01
7.06960696069601e+07	-8.47862282221988e-01,5.28217367736256e-01
7.07020702070201e+07	-8.47696310090728e-01,5.28481878659745e-01
7.07080708070801e+07	-8.47530255043427e-01,5.28746337378282e-01
7.07140714071401e+07	-8.47364117096615e-01,5.29010743865943e-01
7.07200720072001e+07	-8.47197896266527e-01,5.29275098096804e-01
7.07260726072601e+07	-8.47031592569807e-01,5.29539400045017e-01
7.07320732073201e+07	-8.46865206022705e-01,5.29803649684601e-01
7.07380738073801e+07	-8.46698736641806e-01,5.30067846989730e-01
7.07440744074401e+07	-8.46532184443465e-01,5.30331991934451e-01
7.07500750075001e+07	-8.46365549444239e-01,5.30596084492934e-01
7.07560756075601e+07	-8.46198831660519e-01,5.30860124639248e-01
7.07620762076201e+07	-8.46032031108725e-01,5.31124112347553e-01
7.07680768076801e+07	-8.45865147805457e-01,5.31388047591977e-01
7.07740774077401e+07	-8.45698181767165e-01,5.31651930346633e-01
7.07800780078001e+07	-8.45531133010378e-01,5.31915760585648e-01
7.07860786078601e+07	-8.45364001551515e-01,5.32179538283230e-01
7.07920792079201e+07	-8.45196787407180e-01,5.32443263413465e-01
7.07980798079801e+07	-8.45029490593861e-01,5.32706935950559e-01
7.08040804080401e+07	-8.44862111128082e-01,5.32970555868616e-01
7.08100810081001e+07	-8.44694649026465e-01,5.33234123141844e-01
7.08160816081601e+07	-8.44527104305394e-01,5.33497637744412e-01
7.08220822082201e+07	-8.44359476981595e-01,5.33761099650479e-01
7.08280828082801e+07	-8.44191767071534e-01,5.34024508834238e-01
7.08340834083401e+07	-8.44023974591794e-01,5.34287865269847e-01
7.08400840084001e+07	-8.43856099559004e-01,5.34551168931561e-01
7.08460846084601e+07	-8.43688141989704e-01,5.34814419793515e-01
7.08520852085201e+07	-8.43520101900474e-01,5.35077617829955e-01
7.08580858085801e+07	-8.43351979308005e-01,5.35340763015039e-01
7.08640864086401e+07	-8.43183774228828e-01,5.35603855323017e-01
7.08700870087001e+07	-8.43015486679564e-01,5.35866894728102e-01
7.08760876087601e+07	-8.42847116676915e-01,5.36129881204510e-01
7.08820882088201e+07	-8.42678664237445e-01,5.36392814726475e-01
7.08880888088802e+07	-8.42510129377823e-01,5.36655695268227e-01
7.08940894089402e+07	-8.42341512114708e-01,5.36918522803983e-01
7.09000900090002e+07	-8.42172812464766e-01,5.37181297308044e-01
7.09060906090602e+07	-8.42004030444613e-01,5.37444018754606e-01
7.09120912091202e+07	-8.41835166070990e-01,5.37706687117937e-01
7.09180918091802e+07	-8.41666219360534e-01,5.37969302372305e-01
7.09240924092402e+07	-8.41497190330015e-01,5.38231864491942e-01
7.09300930093002e+07	-8.41328078996029e-01,5.38494373451163e-01
7.09360936093602e+07	-8.41158885375374e-01,5.38756829224250e-01
7.09420942094202e+07	-8.40989609484694e-01,5.39019231785421e-01
7.09480948094802e+07	-8.40820251340836e-01,5.39281581109016e-01
7.09540954095402e+07	-8.40650810960309e-01,5.39543877169293e-01
7.09600960096002e+07	-8.40481288360077e-01,5.39806119940587e-01
7.09660966096602e+07	-8.40311683556804e-01,5.40068309397159e-01
7.09720972097202e+07	-8.40141996567218e-01,5.40330445513341e-01
7.09780978097802e+07	-8.39972227408091e-01,5.40592528263423e-01
7.09840984098402e+07	-8.39802376096233e-01,5.40854557621751e-01
7.09900990099002e+07	-8.39632442648406e-01,5.41116533562625e-01
7.09960996099602e+07	-8.39462427081404e-01,5.41378456060357e-01
7.10021002100202e+07	-8.39292329412008e-01,5.41640325089340e-01
7.10081008100802e+07	-8.39122149657042e-01,5.41902140623833e-01
7.10141014101402e+07	-8.38951887833280e-01,5.42163902638243e-01
7.10201020102002e+07	-8.38781543957620e-01,5.42425611106887e-01
7.10261026102602e+07	-8.38611118046814e-01,5.42687266004140e-01
7.10321032103202e+07	-8.38440610117705e-01,5.42948867304348e-01
7.10381038103802e+07	-8.38270020187209e-01,5.43210414981860e-01
7.10441044104402e+07	-8.38099348272101e-01,5.43471909011069e-01
7.10501050105002e+07	-8.37928594389269e-01,5.43733349366346e-01
7.10561056105602e+07	-8.37757758555581e-01,5.43994736022068e-01
7.10621062106202e+07	-8.37586840787898e-01,5.44256068952591e-01
7.10681068106802e+07	-8.37415841103156e-01,5.44517348132363e-01
7.10741074107402e+07	-8.37244759518170e-01,5.44778573535741e-01
7.10801080108002e+07	-8.37073596049898e-01,5.45039745137154e-01
7.10861086108602e+07	-8.36902350715237e-01,5.45300862910974e-01
7.10921092109202e+07	-8.36731023531097e-01,5.45561926831636e-01
7.10981098109802e+07	-8.36559614514423e-01,5.45822936873554e-01
7.11041104110402e+07	-8.36388123682130e-01,5.46083893011140e-01
7.11101110111002e+07	-8.36216551051104e-01,5.46344795218847e-01
7.11161116111602e+07	-8.36044896638372e-01,5.46605643471075e-01
7.11221122112202e+07	-8.35873160460853e-01,5.46866437742305e-01
7.11281128112802e+07	-8.35701342535528e-01,5.47127178006928e-01
7.11341134113402e+07	-8.35529442879358e-01,5.47387864239426e-01
7.11401140114002e+07	-8.35357461509329e-01,5.47648496414238e-01
7.11461146114602e+07	-8.35185398442400e-01,5.47909074505836e-01
7.11521152115202e+07	-8.35013253695653e-01,5.48169598488708e-01
7.11581158115802e+07	-8.34841027285972e-01,5.48430068337263e-01
7.11641164116402e+07	-8.34668719230446e-01,5.48690484026030e-01
7.11701170117002e+07	-8.34496329546071e-01,5.48950845529479e-01
7.11761176117602e+07	-8.34323858249905e-01,5.49211152822085e-01
7.11821182118202e+07	-8.34151305358909e-01,5.49471405878351e-01
7.11881188118802e+07	-8.33978670890208e-01,5.49731604672727e-01
7.11941194119402e+07	-8.33805954860807e-01,5.49991749179804e-01
7.12001200120002e+07	-8.33633157287824e-01,5.50251839374041e-01
7.12061206120602e+07	-8.33460278188174e-01,5.50511875229917e-01
7.12121212121202e+07	-8.33287317579130e-01,5.50771856721991e-01
7.12181218121802e+07	-8.33114275477635e-01,5.51031783824785e-01
7.12241224122402e+07	-8.32941151900874e-01,5.51291656512826e-01
7.12301230123002e+07	-8.32767946865845e-01,5.51551474760670e-01
7.12361236123602e+07	-8.32594660389786e-01,5.51811238542812e-01
7.12421242124202e+07	-8.32421292489669e-01,5.52070947833808e-01
7.12481248124802e+07	-8.32247843182678e-01,5.52330602608238e-01
7.12541254125402e+07	-8.32074312486023e-01,5.52590202840618e-01
7.12601260126002e+07	-8.31900700416713e-01,5.52849748505558e-01
7.12661266126602e+07	-8.31727006991908e-01,5.53109239577580e-01
7.12721272127202e+07	-8.31553232228855e-01,5.53368676031253e-01
7.12781278127802e+07	-8.31379376144682e-01,5.53628057841194e-01
7.12841284128402e+07	-8.31205438756519e-01,5.53887384981963e-01
7.12901290129002e+07	-8.31031420081563e-01,5.54146657428161e-01
7.12961296129602e+07	-8.30857320137009e-01,5.54405875154356e-01
7.13021302130202e+07	-8.30683138940066e-01,5.54665038135164e-01
7.13081308130802e+07	-8.30508876507868e-01,5.54924146345192e-01
7.13141314131402e+07	-8.30334532857674e-01,5.55183199759037e-01
7.13201320132002e+07	-8.30160108006743e-01,5.55442198351329e-01
7.13261326132602e+07	-8.29985601972233e-01,5.55701142096685e-01
7.13321332133202e+07	-8.29811014771398e-01,5.55960030969732e-01
7.13381338133802e+07	-8.29636346421494e-01,5.56218864945056e-01
7.13441344134402e+07	-8.29461596939739e-01,5.56477643997392e-01
7.13501350135002e+07	-8.29286766343445e-01,5.56736368101288e-01
7.13561356135602e+07	-8.29111854649767e-01,5.56995037231435e-01
7.13621362136202e+07	-8.28936861876143e-01,5.57253651362483e-01
7.13681368136802e+07	-8.28761788039697e-01,5.57512210469070e-01
7.13741374137402e+07	-8.28586633157801e-01,5.57770714525892e-01
7.13801380138002e+07	-8.28411397247735e-01,5.58029163507591e-01
7.13861386138602e+07	-8.28236080326798e-01,5.58287557388861e-01
7.13921392139202e+07	-8.28060682412309e-01,5.58545896144361e-01
7.13981398139802e+07	-8.27885203521536e-01,5.58804179748791e-01
7.14041404140402e+07	-8.27709643671970e-01,5.59062408176844e-01
7.14101410141002e+07	-8.27534002880764e-01,5.59320581403207e-01
7.14161416141602e+07	-8.27358281165329e-01,5.59578699402583e-01
7.14221422142202e+07	-8.27182478542993e-01,5.59836762149685e-01
7.14281428142802e+07	-8.27006595031159e-01,5.60094769619231e-01
7.14341434143402e+07	-8.26830630647201e-01,5.60352721785921e-01
7.14401440144002e+07	-8.26654585408445e-01,5.60610618624485e-01
7.14461446144602e+07	-8.26478459332274e-01,5.60868460109648e-01
7.14521452145202e+07	-8.26302252436104e-01,5.61126246216145e-01
7.14581458145802e+07	-8.26125964737348e-01,5.61383976918736e-01
7.14641464146402e+07	-8.25949596253400e-01,5.61641652192138e-01
7.14701470147002e+07	-8.25773147001646e-01,5.61899272011119e-01
7.14761476147602e+07	-8.25596616999599e-01,5.62156836350440e-01
7.14821482148203e+07	-8.25420006264549e-01,5.62414345184860e-01
7.14881488148803e+07	-8.25243314814042e-01,5.62671798489105e-01
7.14941494149403e+07	-8.25066542665480e-01,5.62929196238009e-01
7.15001500150003e+07	-8.24889689836349e-01,5.63186538406320e-01
7.15061506150603e+07	-8.24712756344048e-01,5.63443824968802e-01
7.15121512151203e+07	-8.24535742206124e-01,5.63701055900288e-01
7.15181518151803e+07	-8.24358647439999e-01,5.63958231175532e-01
7.15241524152403e+07	-8.24181472063164e-01,5.64215350769378e-01
7.15301530153003e+07	-8.24004216093155e-01,5.64472414656585e-01
7.15361536153603e+07	-8.23826879547367e-01,5.64729422811986e-01
7.15421542154203e+07	-8.23649462443457e-01,5.64986375210379e-01
7.15481548154803e+07	-8.23471964798882e-01,5.65243271826625e-01
7.15541554155403e+07	-8.23294386631039e-01,5.65500112635509e-01
7.15601560156003e+07	-8.23116727957638e-01,5.65756897611891e-01
7.15661566156603e+07	-8.22938988796203e-01,5.66013626730590e-01
7.15721572157203e+07	-8.22761169164161e-01,5.66270299966457e-01
7.15781578157803e+07	-8.22583269079156e-01,5.66526917294355e-01
7.15841584158403e+07	-8.22405288558735e-01,5.66783478689121e-01
7.15901590159003e+07	-8.22227227620471e-01,5.67039984125611e-01
7.15961596159603e+07	-8.22049086281955e-01,5.67296433578721e-01
7.16021602160203e+07	-8.21870864560691e-01,5.67552827023290e-01
7.16081608160803e+07	-8.21692562474433e-01,5.67809164434210e-01
7.16141614161403e+07	-8.21514180040574e-01,5.68065445786358e-01
7.16201620162003e+07	-8.21335717276955e-01,5.68321671054631e-01
7.16261626162603e+07	-8.21157174201038e-01,5.68577840213899e-01
7.16321632163203e+07	-8.20978550830513e-01,5.68833953239079e-01
7.16381638163803e+07	-8.20799847182946e-01,5.69090010105070e-01
7.16441644164403e+07	-8.20621063276030e-01,5.69346010786761e-01
7.16501650165003e+07	-8.20442199127447e-01,5.69601955259122e-01
7.16561656165603e+07	-8.20263254754795e-01,5.69857843497027e-01
7.16621662166203e+07	-8.20084230175754e-01,5.70113675475434e-01
7.16681668166803e+07	-8.19905125408031e-01,5.70369451169236e-01
7.16741674167403e+07	-8.19725940469232e-01,5.70625170553393e-01
7.16801680168003e+07	-8.19546675377133e-01,5.70880833602858e-01
7.16861686168603e+07	-8.19367330149349e-01,5.71136440292541e-01
7.16921692169203e+07	-8.19187904803633e-01,5.71391990597467e-01
7.16981698169803e+07	-8.19008399357671e-01,5.71647484492530e-01
7.17041704170403e+07	-8.18828813829264e-01,5.71902921952724e-01
7.17101710171003e+07	-8.18649148236036e-01,5.72158302952981e-01
7.17161716171603e+07	-8.18469402595753e-01,5.72413627468329e-01
7.17221722172203e+07	-8.18289576926161e-01,5.72668895473735e-01
7.17281728172803e+07	-8.18109671244974e-01,5.72924106944158e-01
7.17341734173403e+07	-8.17929685570059e-01,5.73179261854618e-01
7.17401740174003e+07	-8.17749619919088e-01,5.73434360180109e-01
7.17461746174603e+07	-8.17569474309883e-01,5.73689401895638e-01
7.17521752175203e+07	-8.17389248760156e-01,5.73944386976211e-01
7.17581758175803e+07	-8.17208943287765e-01,5.74199315396847e-01
7.17641764176403e+07	-8.17028557910490e-01,5.74454187132547e-01
7.17701770177003e+07	-8.16848092646150e-01,5.74709002158370e-01
7.17761776177603e+07	-8.16667547512517e-01,5.74963760449319e-01
7.17821782178203e+07	-8.16486922527443e-01,5.75218461980417e-01
7.17881788178803e+07	-8.16306217708715e-01,5.75473106726760e-01
7.17941794179403e+07	-8.16125433074224e-01,5.75727694663366e-01
7.18001800180003e+07	-8.15944568641794e-01,5.75982225765292e-01
7.18061806180603e+07	-8.15763624429296e-01,5.76236700007595e-01
7.18121812181203e+07	-8.15582600454529e-01,5.76491117365317e-01
7.18181818181803e+07	-8.15401496735412e-01,5.76745477813582e-01
7.18241824182403e+07	-8.15220313289817e-01,5.76999781327408e-01
7.18301830183003e+07	-8.15039050135602e-01,5.77254027881946e-01
7.18361836183603e+07	-8.14857707290653e-01,5.77508217452230e-01
7.18421842184203e+07	-8.14676284772937e-01,5.77762350013360e-01
7.18481848184803e+07	-8.14494782600285e-01,5.78016425540443e-01
7.18541854185403e+07	-8.14313200790655e-01,5.78270444008594e-01
7.18601860186003e+07	-8.14131539361901e-01,5.78524405392914e-01
