# Hz S RI R 50
8.00000000000000e+08	-5.00000488785014e-03 4.91380290632760e-05
8.00040004000400e+08	-5.00000488736050e-03 4.91355619918098e-05
8.00080008000800e+08	-5.00000488687072e-03 4.91330951665487e-05
8.00120012001200e+08	-5.00000488638109e-03 4.91306285783608e-05
8.00160016001600e+08	-5.00000488589139e-03 4.91281622272092e-05
8.00200020002000e+08	-5.00000488540189e-03 4.91256961403418e-05
8.00240024002400e+08	-5.00000488491247e-03 4.91232302904369e-05
8.00280028002800e+08	-5.00000488442312e-03 4.91207646956474e-05
8.00320032003201e+08	-5.00000488393391e-03 4.91182993286517e-05
8.00360036003601e+08	-5.00000488344463e-03 4.91158342257927e-05
8.00400040004001e+08	-5.00000488295556e-03 4.91133693415587e-05
8.00440044004401e+08	-5.00000488246642e-03 4.91109047395775e-05
8.00480048004801e+08	-5.00000488197750e-03 4.91084403743374e-05
8.00520052005201e+08	-5.00000488148850e-03 4.91059762548967e-05
8.00560056005601e+08	-5.00000488099971e-03 4.91035123630285e-05
8.00600060006001e+08	-5.00000488051100e-03 4.91010487441707e-05
8.00640064006401e+08	-5.00000488002221e-03 4.90985853346220e-05
8.00680068006801e+08	-5.00000487953364e-03 4.90961221980099e-05
8.00720072007201e+08	-5.00000487904500e-03 4.90936592979181e-05
8.00760076007601e+08	-5.00000487855664e-03 4.90911966524996e-05
8.00800080008001e+08	-5.00000487806820e-03 4.90887342526225e-05
8.00840084008401e+08	-5.00000487757985e-03 4.90862720891552e-05
8.00880088008801e+08	-5.00000487709163e-03 4.90838101802508e-05
8.00920092009202e+08	-5.00000487660341e-03 4.90813484894926e-05
8.00960096009602e+08	-5.00000487611533e-03 4.90788870714137e-05
8.01000100010002e+08	-5.00000487562725e-03 4.90764258895974e-05
8.01040104010402e+08	-5.00000487513925e-03 4.90739649531020e-05
8.01080108010802e+08	-5.00000487465138e-03 4.90715042709856e-05
8.01120112011202e+08	-5.00000487416359e-03 4.90690438159266e-05
8.01160116011602e+08	-5.00000487367580e-03 4.90665836151732e-05
8.01200120012002e+08	-5.00000487318821e-03 4.90641236777836e-05
8.01240124012402e+08	-5.00000487270056e-03 4.90616639673412e-05
8.01280128012802e+08	-5.00000487221305e-03 4.90592045110942e-05
8.01320132013202e+08	-5.00000487172554e-03 4.90567452817210e-05
8.01360136013602e+08	-5.00000487123817e-03 4.90542863155648e-05
8.01400140014002e+08	-5.00000487075080e-03 4.90518275853039e-05
8.01440144014402e+08	-5.00000487026364e-03 4.90493690999967e-05
8.01480148014802e+08	-5.00000486977641e-03 4.90469108596065e-05
8.01520152015203e+08	-5.00000486928947e-03 4.90444528822864e-05
8.01560156015603e+08	-5.00000486880224e-03 4.90419951225252e-05
8.01600160016003e+08	-5.00000486831543e-03 4.90395376257608e-05
8.01640164016403e+08	-5.00000486782849e-03 4.90370803646718e-05
8.01680168016803e+08	-5.00000486734169e-03 4.90346233392215e-05
8.01720172017203e+08	-5.00000486685510e-03 4.90321665766582e-05
8.01760176017603e+08	-5.00000486636837e-03 4.90297100405654e-05
8.01800180018003e+08	-5.00000486588178e-03 4.90272537581913e-05
8.01840184018403e+08	-5.00000486539532e-03 4.90247977385943e-05
8.01880188018803e+08	-5.00000486490887e-03 4.90223419544530e-05
8.01920192019203e+08	-5.00000486442249e-03 4.90198864148256e-05
8.01960196019603e+08	-5.00000486393619e-03 4.90174310923908e-05
8.02000200020003e+08	-5.00000486344995e-03 4.90149760416817e-05
8.02040204020403e+08	-5.00000486296379e-03 4.90125212262818e-05
8.02080208020803e+08	-5.00000486247783e-03 4.90100666643446e-05
8.02120212021204e+08	-5.00000486199180e-03 4.90076123376434e-05
8.02160216021604e+08	-5.00000486150585e-03 4.90051582461419e-05
8.02200220022004e+08	-5.00000486101997e-03 4.90027044170883e-05
8.02240224022404e+08	-5.00000486053423e-03 4.90002508231612e-05
8.02280228022804e+08	-5.00000486004849e-03 4.89977974825140e-05
8.02320232023204e+08	-5.00000485956282e-03 4.89953443769202e-05
8.02360236023604e+08	-5.00000485907728e-03 4.89928915245333e-05
8.02400240024004e+08	-5.00000485859183e-03 4.89904389071268e-05
8.02440244024404e+08	-5.00000485810651e-03 4.89879865428541e-05
8.02480248024804e+08	-5.00000485762098e-03 4.89855343952989e-05
8.02520252025204e+08	-5.00000485713581e-03 4.89830825098995e-05
8.02560256025604e+08	-5.00000485665063e-03 4.89806308866194e-05
8.02600260026004e+08	-5.00000485616552e-03 4.89781794981373e-05
8.02640264026404e+08	-5.00000485568042e-03 4.89757283444166e-05
8.02680268026804e+08	-5.00000485519546e-03 4.89732774436110e-05
8.02720272027205e+08	-5.00000485471057e-03 4.89708267683990e-05
8.02760276027605e+08	-5.00000485422567e-03 4.89683763369341e-05
8.02800280028005e+08	-5.00000485374092e-03 4.89659261764647e-05
8.02840284028405e+08	-5.00000485325610e-03 4.89634762323846e-05
8.02880288028805e+08	-5.00000485277177e-03 4.89610265501323e-05
8.02920292029205e+08	-5.00000485228723e-03 4.89585771114814e-05
8.02960296029605e+08	-5.00000485180269e-03 4.89561279163954e-05
8.03000300030005e+08	-5.00000485131830e-03 4.89536789466482e-05
8.03040304030405e+08	-5.00000485083404e-03 4.89512302294881e-05
8.03080308030805e+08	-5.00000485034965e-03 4.89487817557838e-05
8.03120312031205e+08	-5.00000484986553e-03 4.89463335345938e-05
8.03160316031605e+08	-5.00000484938135e-03 4.89438855385970e-05
8.03200320032005e+08	-5.00000484889738e-03 4.89414377950419e-05
8.03240324032405e+08	-5.00000484841333e-03 4.89389902947970e-05
8.03280328032805e+08	-5.00000484792950e-03 4.89365430469211e-05
8.03320332033206e+08	-5.00000484744567e-03 4.89340960422828e-05
8.03360336033606e+08	-5.00000484696198e-03 4.89316492808458e-05
8.03400340034006e+08	-5.00000484647815e-03 4.89292027443838e-05
8.03440344034406e+08	-5.00000484599467e-03 4.89267564783353e-05
8.03480348034806e+08	-5.00000484551106e-03 4.89243104371893e-05
8.03520352035206e+08	-5.00000484502765e-03 4.89218646300043e-05
8.03560356035606e+08	-5.00000484454417e-03 4.89194190749340e-05
8.03600360036006e+08	-5.00000484406091e-03 4.89169737628471e-05
8.03640364036406e+08	-5.00000484357772e-03 4.89145287028023e-05
8.03680368036806e+08	-5.00000484309445e-03 4.89120838856684e-05
8.03720372037206e+08	-5.00000484261140e-03 4.89096393023141e-05
8.03760376037606e+08	-5.00000484212842e-03 4.89071949617981e-05
8.03800380038006e+08	-5.00000484164537e-03 4.89047508640842e-05
8.03840384038406e+08	-5.00000484116246e-03 4.89023070091361e-05
8.03880388038806e+08	-5.00000484067969e-03 4.88998633969175e-05
8.03920392039207e+08	-5.00000484019699e-03 4.88974200273923e-05
8.03960396039607e+08	-5.00000483971436e-03 4.88949769096192e-05
8.04000400040007e+08	-5.00000483923166e-03 4.88925340253720e-05
8.04040404040407e+08	-5.00000483874918e-03 4.88900913837095e-05
8.04080408040807e+08	-5.00000483826676e-03 4.88876490027853e-05
8.04120412041207e+08	-5.00000483778442e-03 4.88852068370885e-05
8.04160416041607e+08	-5.00000483730207e-03 4.88827649229628e-05
8.04200420042007e+08	-5.00000483681973e-03 4.88803232603719e-05
8.04240424042407e+08	-5.00000483633766e-03 4.88778818401848e-05
8.04280428042807e+08	-5.00000483585561e-03 4.88754406350803e-05
8.04320432043207e+08	-5.00000483537354e-03 4.88729997086870e-05
8.04360436043607e+08	-5.00000483489163e-03 4.88705590063990e-05
8.04400440044007e+08	-5.00000483440977e-03 4.88681185554650e-05
8.04440444044407e+08	-5.00000483392793e-03 4.88656783376590e-05
8.04480448044807e+08	-5.00000483344622e-03 4.88632383711348e-05
8.04520452045208e+08	-5.00000483296458e-03 4.88607986285713e-05
8.04560456045608e+08	-5.00000483248295e-03 4.88583591372174e-05
8.04600460046008e+08	-5.00000483200152e-03 4.88559198788469e-05
8.04640464046408e+08	-5.00000483152003e-03 4.88534808807086e-05
8.04680468046808e+08	-5.00000483103867e-03 4.88510421154816e-05
8.04720472047208e+08	-5.00000483055725e-03 4.88486036104147e-05
8.04760476047608e+08	-5.00000483007604e-03 4.88461653290919e-05
8.04800480048008e+08	-5.00000482959496e-03 4.88437272987621e-05
8.04840484048408e+08	-5.00000482911383e-03 4.88412894921042e-05
8.04880488048808e+08	-5.00000482863290e-03 4.88388519363672e-05
8.04920492049208e+08	-5.00000482815190e-03 4.88364146224199e-05
8.04960496049608e+08	-5.00000482767104e-03 4.88339775593213e-05
8.05000500050008e+08	-5.00000482719025e-03 4.88315407197505e-05
8.05040504050408e+08	-5.00000482670953e-03 4.88291041491462e-05
8.05080508050808e+08	-5.00000482622882e-03 4.88266677929028e-05
8.05120512051208e+08	-5.00000482574824e-03 4.88242316964588e-05
8.05160516051609e+08	-5.00000482526774e-03 4.88217958324935e-05
8.05200520052009e+08	-5.00000482478731e-03 4.88193602100658e-05
8.05240524052409e+08	-5.00000482430694e-03 4.88169248382346e-05
8.05280528052809e+08	-5.00000482382665e-03 4.88144896896791e-05
8.05320532053209e+08	-5.00000482334643e-03 4.88120547916483e-05
8.05360536053609e+08	-5.00000482286621e-03 4.88096201441060e-05
8.05400540054009e+08	-5.00000482238620e-03 4.88071857288264e-05
8.05440544054409e+08	-5.00000482190612e-03 4.88047515639635e-05
8.05480548054809e+08	-5.00000482142618e-03 4.88023176403864e-05
8.05520552055209e+08	-5.00000482094632e-03 4.87998839489641e-05
8.05560556055609e+08	-5.00000482046659e-03 4.87974504896607e-05
8.05600560056009e+08	-5.00000481998686e-03 4.87950172897252e-05
8.05640564056409e+08	-5.00000481950714e-03 4.87925843309317e-05
8.05680568056809e+08	-5.00000481902763e-03 4.87901515950544e-05
8.05720572057209e+08	-5.00000481854805e-03 4.87877191093422e-05
8.05760576057610e+08	-5.00000481806867e-03 4.87852868828542e-05
8.05800580058010e+08	-5.00000481758937e-03 4.87828548791746e-05
8.05840584058410e+08	-5.00000481711007e-03 4.87804231164576e-05
8.05880588058810e+08	-5.00000481663084e-03 4.87779916037620e-05
8.05920592059210e+08	-5.00000481615161e-03 4.87755603228623e-05
8.05960596059610e+08	-5.00000481567259e-03 4.87731292828174e-05
8.06000600060010e+08	-5.00000481519364e-03 4.87706984835914e-05
8.06040604060410e+08	-5.00000481471469e-03 4.87682679251486e-05
8.06080608060810e+08	-5.00000481423575e-03 4.87658376074531e-05
8.06120612061210e+08	-5.00000481375694e-03 4.87634075304691e-05
8.06160616061610e+08	-5.00000481327828e-03 4.87609777123505e-05
8.06200620062010e+08	-5.00000481279962e-03 4.87585481075869e-05
8.06240624062410e+08	-5.00000481232088e-03 4.87561187525222e-05
8.06280628062810e+08	-5.00000481184250e-03 4.87536896471205e-05
8.06320632063210e+08	-5.00000481136405e-03 4.87512607822512e-05
8.06360636063611e+08	-5.00000481088567e-03 4.87488321396886e-05
8.06400640064011e+08	-5.00000481040743e-03 4.87464037466816e-05
8.06440644064411e+08	-5.00000480992912e-03 4.87439755940996e-05
8.06480648064811e+08	-5.00000480945095e-03 4.87415477000967e-05
8.06520652065211e+08	-5.00000480897292e-03 4.87391200282574e-05
8.06560656065611e+08	-5.00000480849489e-03 4.87366925967356e-05
8.06600660066011e+08	-5.00000480801694e-03 4.87342654145907e-05
8.06640664066411e+08	-5.00000480753912e-03 4.87318384545021e-05
8.06680668066811e+08	-5.00000480706131e-03 4.87294117437188e-05
8.06720672067211e+08	-5.00000480658350e-03 4.87269852731103e-05
8.06760676067611e+08	-5.00000480610589e-03 4.87245590517355e-05
8.06800680068011e+08	-5.00000480562829e-03 4.87221330704640e-05
8.06840684068411e+08	-5.00000480515076e-03 4.87197073110701e-05
8.06880688068811e+08	-5.00000480467330e-03 4.87172818098980e-05
8.06920692069211e+08	-5.00000480419591e-03 4.87148565487219e-05
8.06960696069612e+08	-5.00000480371866e-03 4.87124315093163e-05
8.07000700070012e+08	-5.00000480324148e-03 4.87100067280254e-05
8.07040704070412e+08	-5.00000480276437e-03 4.87075821866235e-05
8.07080708070812e+08	-5.00000480228727e-03 4.87051578668851e-05
8.07120712071212e+08	-5.00000480181023e-03 4.87027337960593e-05
8.07160716071612e+08	-5.00000480133320e-03 4.87003099559206e-05
8.07200720072012e+08	-5.00000480085644e-03 4.86978863919082e-05
8.07240724072412e+08	-5.00000480037969e-03 4.86954630312267e-05
8.07280728072812e+08	-5.00000479990286e-03 4.86930399284102e-05
8.07320732073212e+08	-5.00000479942618e-03 4.86906170652332e-05
8.07360736073612e+08	-5.00000479894957e-03 4.86881944234702e-05
8.07400740074012e+08	-5.00000479847303e-03 4.86857720212755e-05
8.07440744074412e+08	-5.00000479799656e-03 4.86833498768033e-05
8.07480748074812e+08	-5.00000479752016e-03 4.86809279809231e-05
8.07520752075212e+08	-5.00000479704390e-03 4.86785062972195e-05
8.07560756075613e+08	-5.00000479656764e-03 4.86760848711317e-05
8.07600760076013e+08	-5.00000479609160e-03 4.86736636753393e-05
8.07640764076413e+08	-5.00000479561541e-03 4.86712427189015e-05
8.07680768076813e+08	-5.00000479513937e-03 4.86688220017829e-05
8.07720772077213e+08	-5.00000479466353e-03 4.86664015239479e-05
8.07760776077613e+08	-5.00000479418756e-03 4.86639812853610e-05
8.07800780078013e+08	-5.00000479371180e-03 4.86615612950815e-05
8.07840784078413e+08	-5.00000479323604e-03 4.86591415348840e-05
8.07880788078813e+08	-5.00000479276027e-03 4.86567220229229e-05
8.07920792079213e+08	-5.00000479228465e-03 4.86543027409728e-05
8.07960796079613e+08	-5.00000479180924e-03 4.86518836980930e-05
8.08000800080013e+08	-5.00000479133377e-03 4.86494648942481e-05
8.08040804080413e+08	-5.00000479085829e-03 4.86470463384976e-05
8.08080808080813e+08	-5.00000479038302e-03 4.86446280126160e-05
8.08120812081213e+08	-5.00000478990776e-03 4.86422099256628e-05
8.08160816081614e+08	-5.00000478943263e-03 4.86397920866975e-05
8.08200820082014e+08	-5.00000478895744e-03 4.86373744593048e-05
8.08240824082414e+08	-5.00000478848231e-03 4.86349570889239e-05
8.08280828082814e+08	-5.00000478800754e-03 4.86325399755195e-05
8.08320832083214e+08	-5.00000478753255e-03 4.86301230917712e-05
8.08360836083614e+08	-5.00000478705771e-03 4.86277064467385e-05
8.08400840084014e+08	-5.00000478658294e-03 4.86252900312910e-05
8.08440844084414e+08	-5.00000478610838e-03 4.86228738453933e-05
8.08480848084814e+08	-5.00000478563361e-03 4.86204579072000e-05
8.08520852085214e+08	-5.00000478515905e-03 4.86180422075805e-05
8.08560856085614e+08	-5.00000478468463e-03 4.86156267555945e-05
8.08600860086014e+08	-5.00000478421014e-03 4.86132115421115e-05
8.08640864086414e+08	-5.00000478373594e-03 4.86107965670963e-05
8.08680868086814e+08	-5.00000478326166e-03 4.86083818123234e-05
8.08720872087214e+08	-5.00000478278746e-03 4.86059673141374e-05
8.08760876087615e+08	-5.00000478231325e-03 4.86035530361230e-05
8.08800880088015e+08	-5.00000478183919e-03 4.86011390055298e-05
8.08840884088415e+08	-5.00000478136527e-03 4.85987252223223e-05
8.08880888088815e+08	-5.00000478089142e-03 4.85963116591804e-05
8.08920892089215e+08	-5.00000478041749e-03 4.85938983524485e-05
8.08960896089615e+08	-5.00000477994385e-03 4.85914852839014e-05
8.09000900090015e+08	-5.00000477947014e-03 4.85890724535037e-05
8.09040904090415e+08	-5.00000477899643e-03 4.85866598521252e-05
8.09080908090815e+08	-5.00000477852287e-03 4.85842474888255e-05
8.09120912091215e+08	-5.00000477804937e-03 4.85818353635692e-05
8.09160916091615e+08	-5.00000477757601e-03 4.85794234854161e-05
8.09200920092015e+08	-5.00000477710252e-03 4.85770118361409e-05
8.09240924092415e+08	-5.00000477662930e-03 4.85746004157083e-05
8.09280928092815e+08	-5.00000477615609e-03 4.85721892422730e-05
8.09320932093215e+08	-5.00000477568288e-03 4.85697783157997e-05
8.09360936093616e+08	-5.00000477521001e-03 4.85673676362531e-05
8.09400940094016e+08	-5.00000477473687e-03 4.85649571672181e-05
8.09440944094416e+08	-5.00000477426394e-03 4.85625469450393e-05
8.09480948094816e+08	-5.00000477379115e-03 4.85601369605864e-05
8.09520952095216e+08	-5.00000477331836e-03 4.85577272229193e-05
8.09560956095616e+08	-5.00000477284557e-03 4.85553177047177e-05
8.09600960096016e+08	-5.00000477237292e-03 4.85529084423263e-05
8.09640964096416e+08	-5.00000477190042e-03 4.85504993993301e-05
8.09680968096816e+08	-5.00000477142784e-03 4.85480906302635e-05
8.09720972097216e+08	-5.00000477095540e-03 4.85456820714267e-05
8.09760976097616e+08	-5.00000477048297e-03 4.85432737409744e-05
8.09800980098016e+08	-5.00000477001074e-03 4.85408656570612e-05
8.09840984098416e+08	-5.00000476953852e-03 4.85384578105571e-05
8.09880988098816e+08	-5.00000476906630e-03 4.85360502105218e-05
8.09920992099216e+08	-5.00000476859422e-03 4.85336428296353e-05
8.09960996099617e+08	-5.00000476812227e-03 4.85312357133371e-05
8.10001000100017e+08	-5.00000476765033e-03 4.85288288161174e-05
8.10041004100417e+08	-5.00000476717840e-03 4.85264221561310e-05
8.10081008100817e+08	-5.00000476670660e-03 4.85240157333426e-05
8.10121012101217e+08	-5.00000476623480e-03 4.85216095568121e-05
8.10161016101617e+08	-5.00000476576314e-03 4.85192036083144e-05
8.10201020102017e+08	-5.00000476529155e-03 4.85167978969094e-05
8.10241024102417e+08	-5.00000476481997e-03 4.85143924316569e-05
8.10281028102817e+08	-5.00000476434852e-03 4.85119871852369e-05
8.10321032103217e+08	-5.00000476387721e-03 4.85095822121840e-05
8.10361036103617e+08	-5.00000476340592e-03 4.85071774306087e-05
8.10401040104017e+08	-5.00000476293461e-03 4.85047729132354e-05
8.10441044104417e+08	-5.00000476246352e-03 4.85023686327441e-05
8.10481048104817e+08	-5.00000476199236e-03 4.84999645709099e-05
8.10521052105217e+08	-5.00000476152141e-03 4.84975607640776e-05
8.10561056105618e+08	-5.00000476105032e-03 4.84951571758322e-05
8.10601060106018e+08	-5.00000476057937e-03 4.84927538334235e-05
8.10641064106418e+08	-5.00000476010863e-03 4.84903507368166e-05
8.10681068106818e+08	-5.00000475963783e-03 4.84879478677864e-05
8.10721072107218e+08	-5.00000475916709e-03 4.84855452444878e-05
8.10761076107618e+08	-5.00000475869649e-03 4.84831428577909e-05
8.10801080108018e+08	-5.00000475822604e-03 4.84807406985657e-05
8.10841084108418e+08	-5.00000475775544e-03 4.84783387667771e-05
8.10881088108818e+08	-5.00000475728499e-03 4.84759370896751e-05
8.10921092109218e+08	-5.00000475681468e-03 4.84735356399397e-05
8.10961096109618e+08	-5.00000475634437e-03 4.84711344266309e-05
8.11001100110018e+08	-5.00000475587420e-03 4.84687334588087e-05
8.11041104110418e+08	-5.00000475540409e-03 4.84663327182482e-05
8.11081108110818e+08	-5.00000475493393e-03 4.84639322049144e-05
8.11121112111218e+08	-5.00000475446404e-03 4.84615319460572e-05
8.11161116111619e+08	-5.00000475399408e-03 4.84591319234518e-05
8.11201120112019e+08	-5.00000475352426e-03 4.84567321279682e-05
8.11241124112419e+08	-5.00000475305458e-03 4.84543325686665e-05
8.11281128112819e+08	-5.00000475258484e-03 4.84519332546067e-05
8.11321132113219e+08	-5.00000475211523e-03 4.84495341675638e-05
8.11361136113619e+08	-5.00000475164556e-03 4.84471353075031e-05
8.11401140114019e+08	-5.00000475117603e-03 4.84447367016745e-05
8.11441144114419e+08	-5.00000475070663e-03 4.84423383318530e-05
8.11481148114819e+08	-5.00000475023738e-03 4.84399401980039e-05
8.11521152115219e+08	-5.00000474976799e-03 4.84375422909973e-05
8.11561156115619e+08	-5.00000474929867e-03 4.84351446198932e-05
8.11601160116019e+08	-5.00000474882963e-03 4.84327471846568e-05
8.11641164116419e+08	-5.00000474836045e-03 4.84303499852532e-05
8.11681168116819e+08	-5.00000474789148e-03 4.84279530216474e-05
8.11721172117219e+08	-5.00000474742244e-03 4.84255562938047e-05
8.11761176117620e+08	-5.00000474695355e-03 4.84231598016903e-05
8.11801180118020e+08	-5.00000474648479e-03 4.84207635543641e-05
8.11841184118420e+08	-5.00000474601611e-03 4.84183675426964e-05
8.11881188118820e+08	-5.00000474554749e-03 4.84159717575574e-05
8.11921192119220e+08	-5.00000474507881e-03 4.84135761989124e-05
8.11961196119620e+08	-5.00000474461019e-03 4.84111809031062e-05
8.12001200120020e+08	-5.00000474414172e-03 4.84087858155343e-05
8.12041204120420e+08	-5.00000474367332e-03 4.84063909816368e-05
8.12081208120820e+08	-5.00000474320499e-03 4.84039963649989e-05
8.12121212121220e+08	-5.00000474273687e-03 4.84016020110607e-05
8.12161216121620e+08	-5.00000474226854e-03 4.83992078652177e-05
8.12201220122020e+08	-5.00000474180042e-03 4.83968139729098e-05
8.12241224122420e+08	-5.00000474133245e-03 4.83944203159124e-05
8.12281228122820e+08	-5.00000474086440e-03 4.83920268760008e-05
8.12321232123220e+08	-5.00000474039642e-03 4.83896336895200e-05
8.12361236123621e+08	-5.00000473992859e-03 4.83872407200555e-05
8.12401240124021e+08	-5.00000473946082e-03 4.83848479948574e-05
8.12441244124421e+08	-5.00000473899313e-03 4.83824555229859e-05
