!
! C:\Users\rflab\Downloads\Lab5_KD_ZW\Q2\728 MHz\0.S2P
!
! Touchstone 1.1 file saved by VNA.EXE V1.65 (www.ke5fx.com/gpib/readme.htm)
! 11/18/2024 9:08:40 PM
!
!    Source: HEWLETT PACKARD,8753D,0,6.14
!  Min freq: 7.000000E+008 Hz
!  Max freq: 1.000000E+009 Hz
!    Points: 801
!    Params: S11 S21 S12 S22
!
!!!!!
# GHZ S MA R 50
0.7000000000000000 0.817403 -165.624450 0.025198 -145.129852 0.023593 -163.287890 0.536732 -53.615510 
0.7003750000000000 0.821800 -165.887385 0.024915 -146.534999 0.023200 -164.746949 0.536810 -53.670162 
0.7007500000000000 0.823843 -166.019354 0.024549 -148.117764 0.022959 -166.762069 0.537488 -53.852323 
0.7011250000000000 0.828235 -166.251517 0.024212 -149.493728 0.022592 -167.830073 0.537214 -53.859199 
0.7015000000000000 0.831830 -166.515387 0.024010 -150.514817 0.022229 -169.489368 0.537085 -54.038447 
0.7018750000000000 0.835936 -166.724744 0.023707 -152.125743 0.021970 -171.258941 0.536633 -54.116117 
0.7022500000000000 0.838298 -166.895633 0.023422 -153.745854 0.021639 -173.051628 0.537206 -54.248541 
0.7026250000000001 0.842704 -167.148459 0.023080 -155.249989 0.021317 -174.467441 0.536370 -54.316800 
0.7030000000000000 0.845743 -167.420065 0.022889 -156.536840 0.021047 -175.805990 0.536191 -54.455503 
0.7033750000000000 0.848273 -167.563754 0.022537 -158.487625 0.020743 -177.459757 0.537075 -54.558826 
0.7037500000000000 0.853310 -167.705449 0.022288 -159.752133 0.020511 -178.918322 0.537078 -54.670854 
0.7041250000000000 0.854746 -167.918961 0.022016 -160.984269 0.020186 179.279942 0.536462 -54.791959 
0.7045000000000000 0.858212 -168.085107 0.021737 -162.447434 0.019901 178.121592 0.537127 -54.917576 
0.7048750000000000 0.860808 -168.270985 0.021673 -163.897728 0.019635 176.650371 0.537153 -55.026916 
0.7052500000000000 0.864370 -168.489323 0.021395 -164.728529 0.019366 175.175190 0.537289 -55.108490 
0.7056250000000000 0.866915 -168.614119 0.021186 -166.351585 0.019179 173.865869 0.536531 -55.321954 
0.7060000000000000 0.869946 -168.867446 0.020977 -167.885957 0.018994 172.791849 0.536505 -55.383374 
0.7063750000000000 0.871686 -168.930825 0.020675 -168.966843 0.018665 171.534943 0.536347 -55.419285 
0.7067500000000000 0.873579 -169.195667 0.020478 -170.670595 0.018443 169.949290 0.536050 -55.626880 
0.7071250000000000 0.876132 -169.365635 0.020298 -171.818121 0.018152 168.262641 0.536117 -55.714708 
0.7075000000000000 0.878186 -169.407007 0.019980 -173.121929 0.018125 167.285131 0.536381 -55.789151 
0.7078750000000000 0.880472 -169.519658 0.019875 -173.967969 0.017731 166.005609 0.535776 -55.954206 
0.7082500000000001 0.883536 -169.665063 0.019717 -176.178368 0.017631 164.539918 0.535340 -56.052661 
0.7086250000000000 0.883553 -169.769848 0.019456 -176.740408 0.017422 163.331704 0.535827 -56.174175 
0.7090000000000000 0.887871 -169.980154 0.019441 -178.473636 0.017296 162.177446 0.535546 -56.283675 
0.7093750000000000 0.887613 -170.029223 0.019098 -179.690992 0.016954 160.989204 0.535438 -56.460284 
0.7097500000000000 0.889157 -170.214388 0.019061 178.916314 0.016886 159.751479 0.534583 -56.462341 
0.7101250000000000 0.892552 -170.311592 0.018817 178.120830 0.016834 158.351671 0.534299 -56.567699 
0.7105000000000000 0.891913 -170.555082 0.018788 176.359253 0.016527 156.932511 0.535047 -56.636229 
0.7108750000000000 0.896382 -170.717261 0.018553 175.184998 0.016447 155.408396 0.534832 -56.921996 
0.7112500000000001 0.896886 -170.762034 0.018316 174.019576 0.016256 154.120446 0.534509 -56.993140 
0.7116250000000000 0.897671 -170.793860 0.018096 172.477977 0.016195 152.836657 0.534667 -57.105413 
0.7120000000000000 0.899787 -171.059705 0.017965 171.024208 0.015919 151.765380 0.534597 -57.213488 
0.7123750000000000 0.902046 -171.070507 0.018047 169.658598 0.015786 150.556738 0.533661 -57.394115 
0.7127500000000000 0.904089 -171.169145 0.017624 168.558122 0.015655 149.290940 0.533253 -57.646000 
0.7131250000000000 0.904503 -171.380528 0.017513 167.562907 0.015684 148.129219 0.532618 -57.521006 
0.7135000000000000 0.905455 -171.604448 0.017441 166.449326 0.015402 146.447683 0.532731 -57.734728 
0.7138750000000000 0.906167 -171.669601 0.017278 164.714918 0.015374 145.733754 0.533017 -57.796763 
0.7142500000000001 0.908624 -171.754505 0.017228 163.313511 0.015202 143.923739 0.532058 -57.855969 
0.7146250000000000 0.908545 -171.924877 0.016979 161.995528 0.015030 142.236459 0.531969 -58.032245 
0.7150000000000000 0.911223 -172.022411 0.016792 160.780892 0.014969 141.268078 0.531780 -58.139608 
0.7153750000000000 0.911898 -172.051584 0.016722 159.198040 0.014720 139.882866 0.531385 -58.233194 
0.7157500000000000 0.912708 -172.329397 0.016445 157.736433 0.014744 138.511107 0.531733 -58.441831 
0.7161250000000000 0.915362 -172.355625 0.016365 156.560280 0.014466 137.286881 0.530532 -58.470445 
0.7165000000000000 0.915266 -172.516701 0.016098 155.243107 0.014334 135.900311 0.531144 -58.684514 
0.7168750000000000 0.917125 -172.658844 0.016030 154.010444 0.014221 134.555762 0.530358 -58.690780 
0.7172500000000001 0.919511 -172.846677 0.015889 152.875898 0.014126 133.343651 0.531053 -58.840302 
0.7176250000000000 0.919193 -172.943881 0.015774 151.640709 0.014048 131.739008 0.529659 -58.930375 
0.7180000000000000 0.921586 -172.977589 0.015500 150.505223 0.013905 130.779467 0.529674 -59.100782 
0.7183750000000000 0.922828 -173.128330 0.015460 148.824701 0.013631 129.748592 0.529120 -59.130319 
0.7187500000000000 0.925044 -173.095366 0.015468 147.804218 0.013624 128.500081 0.528273 -59.206535 
0.7191250000000000 0.924907 -173.261890 0.015230 146.984099 0.013530 126.961983 0.528440 -59.325083 
0.7195000000000000 0.926687 -173.392679 0.015120 145.531126 0.013381 125.612923 0.527950 -59.447471 
0.7198750000000000 0.928138 -173.471320 0.015193 144.161301 0.013073 123.920757 0.527717 -59.555627 
0.7202500000000000 0.928706 -173.664800 0.014986 142.958741 0.013059 123.431866 0.528516 -59.702360 
0.7206250000000000 0.929482 -173.575465 0.014852 141.583228 0.012987 121.727540 0.527376 -59.756688 
0.7210000000000000 0.931625 -173.680947 0.014652 140.713476 0.012960 120.287692 0.527044 -59.977352 
0.7213750000000000 0.931805 -173.855842 0.014724 139.151160 0.012852 119.601178 0.526733 -59.996131 
0.7217500000000000 0.932902 -173.930954 0.014482 137.873270 0.012635 118.709344 0.526519 -60.216403 
0.7221250000000000 0.933931 -174.046852 0.014337 137.210361 0.012583 117.327337 0.527477 -60.188103 
0.7225000000000000 0.934930 -174.000587 0.014238 135.827707 0.012429 115.905438 0.526108 -60.355291 
0.7228750000000001 0.935080 -174.129391 0.014146 134.826564 0.012315 114.878189 0.526160 -60.331785 
0.7232500000000000 0.937032 -174.246701 0.014040 133.230197 0.012311 113.343706 0.525186 -60.539232 
0.7236250000000000 0.937931 -174.259727 0.013886 132.504646 0.012134 112.291833 0.525991 -60.600240 
0.7240000000000000 0.938076 -174.283101 0.013827 131.110082 0.012116 110.834491 0.524828 -60.696868 
0.7243750000000000 0.937303 -174.458324 0.013824 129.969803 0.011896 110.182666 0.525226 -60.755590 
0.7247500000000000 0.938011 -174.514955 0.013734 128.921701 0.011886 109.094242 0.524473 -60.957696 
0.7251250000000000 0.940785 -174.583457 0.013621 128.010087 0.011786 107.328722 0.523973 -61.049439 
0.7255000000000000 0.939119 -174.629924 0.013483 126.408314 0.011655 106.536911 0.523455 -61.193595 
0.7258750000000001 0.942066 -174.747429 0.013457 124.903027 0.011640 105.593337 0.523156 -61.267100 
0.7262500000000000 0.942442 -174.824048 0.013431 124.018424 0.011512 103.976381 0.523903 -61.319487 
0.7266250000000000 0.942394 -174.939284 0.013393 123.660646 0.011557 102.357777 0.523569 -61.337561 
0.7270000000000000 0.942849 -174.964069 0.013029 121.950263 0.011416 101.668526 0.523001 -61.627010 
0.7273750000000000 0.943966 -174.996080 0.013048 120.987449 0.011161 99.911843 0.522565 -61.673414 
0.7277500000000000 0.944172 -175.153310 0.012922 119.325285 0.011088 99.230225 0.522526 -61.766103 
0.7281250000000000 0.945053 -175.180122 0.012889 118.093306 0.011135 98.198459 0.522205 -61.845973 
0.7285000000000000 0.946543 -175.209972 0.012773 117.101713 0.011107 97.454207 0.521197 -61.946455 
0.7288750000000001 0.945948 -175.377583 0.012816 116.484977 0.010942 95.597052 0.521033 -62.066088 
0.7292500000000000 0.946179 -175.297132 0.012683 114.332347 0.010840 94.991575 0.521010 -62.178620 
0.7296250000000000 0.947170 -175.472451 0.012699 113.184181 0.010652 93.503063 0.520509 -62.225503 
0.7300000000000000 0.949003 -175.521877 0.012523 112.328875 0.010799 92.252286 0.521269 -62.326296 
0.7303750000000000 0.948292 -175.696045 0.012452 110.996711 0.010636 91.094346 0.521030 -62.369312 
0.7307500000000000 0.949672 -175.669077 0.012408 109.214816 0.010418 90.579573 0.519891 -62.588107 
0.7311250000000000 0.951831 -175.804181 0.012318 108.009215 0.010317 89.247927 0.520023 -62.618402 
0.7315000000000000 0.951790 -175.737684 0.012124 107.010283 0.010334 87.567061 0.520146 -62.731356 
0.7318750000000001 0.952038 -175.937675 0.012112 105.752674 0.010303 86.167934 0.519705 -62.774396 
0.7322500000000000 0.953239 -176.009002 0.011993 104.654512 0.010221 85.386859 0.519166 -63.001154 
0.7326250000000000 0.953778 -175.967151 0.011923 103.130308 0.010190 84.088246 0.518114 -63.021411 
0.7330000000000000 0.953861 -176.107154 0.011915 102.379827 0.009994 83.581623 0.519269 -63.105153 
0.7333750000000000 0.955870 -176.170351 0.011846 100.870279 0.010027 81.852555 0.519099 -63.261715 
0.7337500000000000 0.955176 -176.134539 0.011741 99.748086 0.009947 79.987249 0.518210 -63.389681 
0.7341250000000000 0.957506 -176.239130 0.011663 98.342776 0.009882 79.034906 0.518401 -63.490758 
0.7345000000000000 0.958097 -176.314606 0.011637 96.316600 0.009787 77.658610 0.517639 -63.592054 
0.7348749999999999 0.957925 -176.248092 0.011488 96.678993 0.009865 76.427897 0.517736 -63.661506 
0.7352500000000000 0.958331 -176.439827 0.011423 94.359450 0.009665 75.461189 0.517642 -63.697801 
0.7356250000000000 0.959253 -176.494389 0.011230 93.486038 0.009631 75.561958 0.516926 -63.843385 
0.7360000000000000 0.960037 -176.446160 0.011241 92.188025 0.009455 73.856540 0.516813 -63.969069 
0.7363750000000000 0.960479 -176.491573 0.011245 91.722899 0.009596 73.210219 0.516878 -64.077936 
0.7367500000000000 0.959692 -176.667562 0.011252 89.951439 0.009342 71.559502 0.517320 -64.131800 
0.7371250000000000 0.959107 -176.639963 0.010985 88.873286 0.009237 70.378009 0.516642 -64.279547 
0.7375000000000000 0.960738 -176.598271 0.010997 88.054350 0.009248 69.461591 0.516734 -64.352041 
0.7378750000000000 0.963294 -176.610942 0.010770 85.879136 0.009303 67.557248 0.516247 -64.386234 
0.7382500000000000 0.961713 -176.601723 0.010732 85.175045 0.009133 66.542947 0.516217 -64.613542 
0.7386250000000000 0.962299 -176.884071 0.010667 83.501136 0.009188 65.681551 0.516398 -64.769141 
0.7390000000000000 0.961998 -176.748384 0.010672 83.336377 0.009180 65.429196 0.516296 -64.801222 
0.7393750000000000 0.961998 -176.748384 0.010543 81.495366 0.009099 63.836447 0.515674 -64.892366 
0.7397500000000000 0.963010 -176.842731 0.010434 81.411105 0.008918 62.621135 0.516009 -64.980853 
0.7401250000000000 0.964284 -176.919546 0.010397 80.155804 0.008875 61.705501 0.514968 -65.076643 
0.7405000000000001 0.964264 -176.941275 0.010302 78.057115 0.008850 61.019459 0.515133 -65.279620 
0.7408750000000000 0.963940 -176.962043 0.010211 79.239982 0.008769 59.628287 0.515045 -65.349819 
0.7412500000000000 0.963250 -177.123454 0.010155 76.578463 0.008803 57.466921 0.515333 -65.442877 
0.7416250000000000 0.965195 -177.063955 0.010014 75.283516 0.008688 55.839841 0.515122 -65.551550 
0.7420000000000000 0.964006 -177.096654 0.009997 75.296914 0.008660 55.056830 0.514888 -65.666497 
0.7423750000000000 0.964177 -177.184325 0.009904 73.022003 0.008529 54.276891 0.514501 -65.729025 
0.7427500000000000 0.964420 -177.112425 0.009861 72.103867 0.008431 53.108712 0.515149 -65.891730 
0.7431250000000000 0.965935 -177.276444 0.009910 71.193673 0.008457 52.451694 0.514493 -66.063742 
0.7435000000000001 0.965169 -177.317808 0.009823 70.478818 0.008280 50.536230 0.513440 -66.059987 
0.7438750000000000 0.966698 -177.394481 0.009734 69.121688 0.008335 49.721872 0.514149 -66.217761 
0.7442500000000000 0.965819 -177.344990 0.009578 69.210915 0.008352 48.902694 0.513717 -66.352693 
0.7446250000000000 0.966460 -177.466281 0.009635 66.088760 0.008283 47.629353 0.514141 -66.499536 
0.7450000000000000 0.966814 -177.402037 0.009653 65.731732 0.008202 46.783217 0.513551 -66.522888 
0.7453750000000000 0.967833 -177.509662 0.009647 64.668643 0.008205 45.579249 0.513790 -66.701307 
0.7457500000000000 0.967501 -177.631812 0.009488 63.950069 0.008073 43.789064 0.513565 -66.794253 
0.7461250000000000 0.968413 -177.637658 0.009446 62.387206 0.008046 43.688882 0.513397 -66.838083 
0.7465000000000001 0.969745 -177.655341 0.009456 61.447189 0.007981 41.863808 0.513305 -67.044736 
0.7468750000000000 0.970459 -177.682313 0.009372 60.187143 0.007893 41.178761 0.513319 -67.163697 
0.7472500000000000 0.970385 -177.793939 0.009348 59.783115 0.007932 40.101045 0.512853 -67.278640 
0.7476250000000000 0.971368 -177.785364 0.009258 58.263938 0.007867 38.678248 0.512843 -67.440722 
0.7480000000000000 0.971100 -177.820792 0.009168 57.178648 0.007894 37.381420 0.512997 -67.488424 
0.7483750000000000 0.971362 -177.889830 0.009268 55.287878 0.007834 36.667623 0.512270 -67.676305 
0.7487500000000000 0.971396 -177.933134 0.009114 55.041130 0.007727 35.465336 0.512686 -67.805924 
0.7491250000000000 0.973111 -177.828893 0.009034 53.843222 0.007698 33.768810 0.511596 -67.833652 
0.7495000000000001 0.973465 -177.847658 0.008979 52.274460 0.007727 33.136971 0.511662 -68.024712 
0.7498750000000000 0.973856 -178.006627 0.009006 51.135994 0.007586 33.064785 0.511609 -68.121800 
0.7502500000000000 0.972182 -178.049983 0.008795 49.549664 0.007618 31.728264 0.511399 -68.263350 
0.7506250000000000 0.974078 -177.942419 0.008883 49.857738 0.007368 30.278856 0.511175 -68.382157 
0.7510000000000000 0.975299 -178.045455 0.008842 48.064695 0.007480 28.913049 0.512075 -68.499143 
0.7513750000000000 0.975377 -178.016911 0.008817 47.020696 0.007420 28.612228 0.510770 -68.665833 
0.7517500000000000 0.975382 -178.113781 0.008784 46.614470 0.007294 27.488123 0.510885 -68.821444 
0.7521250000000000 0.975776 -178.064342 0.008816 44.958365 0.007336 25.762272 0.511496 -68.862603 
0.7525000000000000 0.974530 -178.108541 0.008637 43.275133 0.007301 24.948165 0.510400 -69.038977 
0.7528750000000000 0.974624 -178.158984 0.008596 41.939968 0.007188 23.696199 0.510279 -69.151186 
0.7532500000000000 0.975337 -178.196203 0.008448 41.276888 0.007331 22.622158 0.509903 -69.281809 
0.7536250000000000 0.974469 -178.219729 0.008498 40.644883 0.007145 21.555018 0.510144 -69.394612 
0.7540000000000000 0.974992 -178.156090 0.008389 39.513272 0.007113 20.773613 0.509517 -69.602608 
0.7543750000000000 0.975140 -178.220955 0.008559 37.387008 0.007169 18.748299 0.509576 -69.663635 
0.7547500000000000 0.975850 -178.265272 0.008366 37.405510 0.007059 18.311336 0.509752 -69.828158 
0.7551250000000001 0.976194 -178.308891 0.008234 36.373524 0.007045 16.678446 0.509695 -69.935418 
0.7555000000000000 0.975884 -178.319108 0.008159 35.549745 0.007080 15.079811 0.509410 -70.033316 
0.7558750000000000 0.975326 -178.336082 0.008209 33.862673 0.006996 15.112288 0.508976 -70.117860 
0.7562500000000000 0.974524 -178.352662 0.008165 32.737838 0.006848 14.323621 0.508161 -70.271183 
0.7566250000000000 0.977418 -178.429127 0.008047 32.339701 0.006830 12.798236 0.508691 -70.431269 
0.7570000000000000 0.976706 -178.517525 0.008145 31.175459 0.006988 11.297660 0.507366 -70.564558 
0.7573750000000000 0.976750 -178.556987 0.008035 29.554260 0.006904 10.140256 0.507531 -70.688003 
0.7577500000000000 0.975244 -178.511714 0.008115 28.084367 0.006808 8.555768 0.507862 -70.821416 
0.7581250000000001 0.978131 -178.612670 0.007931 28.915078 0.006808 7.890602 0.507555 -70.889604 
0.7585000000000000 0.978827 -178.702999 0.007995 27.639487 0.006731 6.810851 0.506933 -71.051307 
0.7588750000000000 0.977938 -178.637435 0.007771 25.492669 0.006680 5.731347 0.507065 -71.231365 
0.7592500000000000 0.979291 -178.767907 0.007835 23.502599 0.006721 4.847364 0.506202 -71.325828 
0.7596250000000000 0.978675 -178.785001 0.007798 24.075976 0.006653 3.706454 0.506102 -71.522442 
0.7600000000000000 0.977881 -178.784016 0.007786 21.955841 0.006479 3.257254 0.505833 -71.712623 
0.7603750000000000 0.978714 -178.845806 0.007673 21.780914 0.006502 0.386560 0.504889 -71.772032 
0.7607500000000000 0.977928 -178.823418 0.007797 20.479760 0.006541 0.689169 0.505519 -71.853812 
0.7611250000000001 0.980150 -178.933143 0.007706 20.014911 0.006504 -0.130222 0.504955 -71.960353 
0.7615000000000000 0.978848 -178.999614 0.007639 18.972206 0.006378 -2.603243 0.504541 -72.207270 
0.7618750000000000 0.978555 -178.959998 0.007738 16.621463 0.006343 -2.833046 0.504648 -72.305757 
0.7622500000000000 0.980670 -179.030006 0.007589 15.630878 0.006410 -3.858163 0.503878 -72.478088 
0.7626250000000000 0.982083 -178.999349 0.007700 15.170479 0.006378 -4.734472 0.503707 -72.562940 
0.7630000000000000 0.983199 -179.160561 0.007655 14.509759 0.006261 -6.075133 0.503461 -72.710615 
0.7633750000000000 0.981447 -179.091355 0.007566 13.240105 0.006180 -6.563281 0.503080 -72.839010 
0.7637500000000000 0.981787 -179.191415 0.007611 11.352166 0.006248 -7.304814 0.502788 -72.970653 
0.7641250000000001 0.982717 -179.135237 0.007398 10.836293 0.006242 -9.352953 0.502549 -73.107801 
0.7645000000000000 0.981934 -179.095367 0.007497 9.138205 0.006088 -9.945587 0.502125 -73.231383 
0.7648750000000000 0.982029 -179.202298 0.007566 8.849668 0.006121 -10.407842 0.502471 -73.439412 
0.7652500000000000 0.982094 -179.184546 0.007397 7.586349 0.006038 -12.006110 0.500705 -73.506796 
0.7656250000000000 0.983789 -179.246386 0.007454 5.392205 0.006057 -12.713991 0.500818 -73.772616 
0.7660000000000000 0.981521 -179.287403 0.007439 4.735581 0.006019 -13.845234 0.501160 -73.813060 
0.7663750000000000 0.982371 -179.309380 0.007395 3.315911 0.005970 -15.342823 0.500742 -73.915507 
0.7667500000000000 0.983993 -179.452684 0.007393 1.936794 0.005967 -14.954126 0.499282 -74.118583 
0.7671250000000000 0.982597 -179.405637 0.007342 1.929668 0.006037 -17.631408 0.499602 -74.194498 
0.7675000000000000 0.982836 -179.434248 0.007231 1.893351 0.005941 -17.185574 0.499498 -74.340219 
0.7678750000000000 0.983633 -179.413374 0.007216 -0.141985 0.005970 -19.170834 0.498949 -74.500837 
0.7682500000000000 0.984361 -179.442230 0.007139 -1.379824 0.005826 -19.404914 0.498669 -74.564674 
0.7686250000000000 0.983755 -179.413447 0.007253 -2.074181 0.005974 -20.661752 0.498380 -74.831965 
0.7690000000000000 0.983811 -179.445473 0.007130 -3.823250 0.005861 -22.229023 0.497743 -74.793871 
0.7693750000000000 0.983799 -179.523672 0.007058 -3.598306 0.005868 -23.943815 0.498038 -75.032170 
0.7697500000000001 0.984596 -179.499194 0.006965 -5.346245 0.005789 -24.926935 0.497393 -75.092362 
0.7701250000000000 0.984331 -179.662489 0.006922 -6.278515 0.005776 -25.026898 0.496755 -75.302123 
0.7705000000000000 0.981821 -179.747111 0.007068 -7.351081 0.005761 -26.253273 0.495509 -75.406592 
0.7708750000000000 0.984139 -179.761920 0.006987 -8.105770 0.005628 -26.613893 0.496034 -75.509775 
0.7712500000000000 0.983471 -179.719088 0.006985 -10.651737 0.005644 -29.727467 0.495417 -75.688126 
0.7716250000000000 0.983468 -179.768870 0.007002 -10.444448 0.005643 -29.029683 0.495229 -75.788211 
0.7720000000000000 0.984988 -179.875737 0.006940 -12.613990 0.005551 -31.299262 0.494279 -75.993785 
0.7723750000000000 0.984804 -179.904122 0.006962 -12.695027 0.005581 -31.451149 0.494509 -76.018644 
