!
! C:\Users\rflab\Downloads\Lab5_KD_ZW\Q2\728 MHz\100.S2P
!
! Touchstone 1.1 file saved by VNA.EXE V1.65 (www.ke5fx.com/gpib/readme.htm)
! 11/18/2024 9:15:28 PM
!
!    Source: HEWLETT PACKARD,8753D,0,6.14
!  Min freq: 7.000000E+008 Hz
!  Max freq: 1.000000E+009 Hz
!    Points: 801
!    Params: S11 S21 S12 S22
!
!!!!!
# GHZ S MA R 50
0.7000000000000000 0.814645 -165.517098 0.007385 -138.151382 0.006936 -155.988318 0.533428 -53.732588 
0.7003750000000000 0.819657 -165.783709 0.007181 -140.907617 0.006754 -159.181186 0.532342 -53.797546 
0.7007500000000000 0.823369 -165.976119 0.007148 -141.328848 0.006699 -160.239184 0.533709 -53.896758 
0.7011250000000000 0.826485 -166.213133 0.007004 -143.297829 0.006564 -162.672049 0.532692 -53.918571 
0.7015000000000000 0.830843 -166.438455 0.006966 -145.223243 0.006510 -163.610694 0.532801 -54.125845 
0.7018750000000000 0.832774 -166.677729 0.006833 -146.193491 0.006316 -165.412973 0.532535 -54.137504 
0.7022500000000000 0.836998 -166.909243 0.006865 -148.098397 0.006339 -167.881157 0.532850 -54.230772 
0.7026250000000001 0.839916 -167.028164 0.006745 -149.853191 0.006265 -168.818346 0.531642 -54.270778 
0.7030000000000000 0.843169 -167.215218 0.006699 -151.329653 0.006070 -171.064931 0.531703 -54.453535 
0.7033750000000000 0.846332 -167.450129 0.006594 -153.375653 0.006039 -171.902208 0.531849 -54.476843 
0.7037500000000000 0.850406 -167.599649 0.006361 -154.162923 0.006021 -172.523203 0.531647 -54.529994 
0.7041250000000000 0.852657 -167.888918 0.006316 -155.998858 0.005812 -174.533818 0.531850 -54.714942 
0.7045000000000000 0.856793 -167.981639 0.006393 -157.420894 0.005865 -177.623655 0.532133 -54.837047 
0.7048750000000000 0.858958 -168.224567 0.006308 -159.619852 0.005727 -178.184611 0.531718 -54.837718 
0.7052500000000000 0.861349 -168.377949 0.006201 -160.377886 0.005636 -179.876377 0.532106 -54.995601 
0.7056250000000000 0.864681 -168.489397 0.006176 -161.330026 0.005591 -179.738578 0.531321 -55.105033 
0.7060000000000000 0.867644 -168.722478 0.006052 -163.549823 0.005457 177.072215 0.531695 -55.145112 
0.7063750000000000 0.869872 -168.788622 0.006004 -164.240856 0.005331 175.970976 0.531034 -55.195726 
0.7067500000000000 0.872111 -169.017998 0.006025 -166.842570 0.005313 173.990316 0.530458 -55.349042 
0.7071250000000000 0.874872 -169.199624 0.005775 -166.556436 0.005268 172.745354 0.530737 -55.293799 
0.7075000000000000 0.876803 -169.369807 0.005870 -168.436291 0.005223 171.217851 0.530924 -55.455859 
0.7078750000000000 0.879375 -169.425535 0.005628 -171.396860 0.005134 169.716572 0.530892 -55.577302 
0.7082500000000001 0.880070 -169.486527 0.005634 -171.342873 0.005090 168.044714 0.530349 -55.744826 
0.7086250000000000 0.881374 -169.683799 0.005551 -173.398124 0.005071 166.670015 0.530447 -55.787897 
0.7090000000000000 0.884925 -169.834061 0.005595 -173.808898 0.005047 165.350661 0.529762 -55.897075 
0.7093750000000000 0.886100 -169.947896 0.005493 -175.062681 0.004886 164.987172 0.530108 -56.089464 
0.7097500000000000 0.886733 -170.171358 0.005471 -178.781337 0.004838 161.807924 0.528918 -56.002782 
0.7101250000000000 0.889844 -170.281830 0.005388 -177.857228 0.004792 162.246538 0.529642 -56.099333 
0.7105000000000000 0.891493 -170.431269 0.005394 179.070601 0.004680 161.340742 0.529579 -56.233931 
0.7108750000000000 0.894050 -170.518388 0.005286 177.412340 0.004749 158.852412 0.530020 -56.388623 
0.7112500000000001 0.895458 -170.691767 0.005281 177.583148 0.004656 157.154671 0.529581 -56.472017 
0.7116250000000000 0.895310 -170.749584 0.005210 175.293833 0.004663 155.886717 0.529737 -56.578163 
0.7120000000000000 0.898042 -170.990934 0.005114 174.081032 0.004654 153.454644 0.529793 -56.677001 
0.7123750000000000 0.899641 -171.018885 0.005177 172.681890 0.004554 153.966147 0.528710 -56.801582 
0.7127500000000000 0.901394 -171.134674 0.005093 172.438143 0.004419 151.334517 0.529225 -56.976136 
0.7131250000000000 0.903387 -171.279736 0.004831 169.165313 0.004485 150.125920 0.528691 -56.883238 
0.7135000000000000 0.902058 -171.396201 0.005034 169.082289 0.004374 149.445152 0.528962 -57.111247 
0.7138750000000000 0.905688 -171.505126 0.004858 166.640325 0.004517 146.428201 0.528971 -57.115821 
0.7142500000000001 0.908190 -171.622126 0.004793 165.412104 0.004335 145.953356 0.528331 -57.204922 
0.7146250000000000 0.906464 -171.808791 0.004723 163.079946 0.004233 145.407715 0.527611 -57.363338 
0.7150000000000000 0.909485 -171.917748 0.004761 163.760575 0.004168 143.431296 0.527911 -57.478508 
0.7153750000000000 0.911531 -171.912757 0.004721 161.649240 0.004132 140.628714 0.527761 -57.534905 
0.7157500000000000 0.911405 -172.163462 0.004654 159.221683 0.004095 140.874671 0.528181 -57.716694 
0.7161250000000000 0.913138 -172.244147 0.004494 158.240358 0.004030 138.285113 0.527332 -57.670210 
0.7165000000000000 0.914248 -172.415720 0.004501 157.424732 0.003967 138.094947 0.528037 -57.859478 
0.7168750000000000 0.915169 -172.504339 0.004539 156.569469 0.003865 135.324865 0.528006 -57.939506 
0.7172500000000001 0.918322 -172.645428 0.004536 153.412050 0.003948 134.061737 0.528126 -58.006196 
0.7176250000000000 0.918278 -172.756421 0.004444 152.922197 0.003926 133.439937 0.527861 -58.202832 
0.7180000000000000 0.920116 -172.912696 0.004249 150.638736 0.003760 133.882489 0.527677 -58.209929 
0.7183750000000000 0.921011 -172.988481 0.004216 150.348355 0.003701 131.602743 0.526921 -58.311198 
0.7187500000000000 0.922927 -173.014565 0.004247 149.909586 0.003783 129.006905 0.526897 -58.340753 
0.7191250000000000 0.923456 -173.121583 0.004254 147.945769 0.003702 127.830808 0.527489 -58.489350 
0.7195000000000000 0.924864 -173.284420 0.004163 146.579793 0.003681 125.113616 0.527653 -58.593524 
0.7198750000000000 0.926904 -173.375241 0.004166 144.547524 0.003624 124.580246 0.527132 -58.737580 
0.7202500000000000 0.927099 -173.501937 0.004242 143.557736 0.003604 123.761556 0.527217 -58.843998 
0.7206250000000000 0.927038 -173.501509 0.004168 143.252019 0.003516 124.280100 0.526748 -58.979879 
0.7210000000000000 0.929906 -173.612464 0.004005 140.649881 0.003424 121.892476 0.527083 -59.067529 
0.7213750000000000 0.931148 -173.775939 0.003993 140.930369 0.003510 119.094677 0.526790 -59.114226 
0.7217500000000000 0.931489 -173.861299 0.003916 140.119382 0.003490 118.249326 0.526502 -59.296536 
0.7221250000000000 0.932739 -173.918580 0.003849 137.607409 0.003400 117.861648 0.527999 -59.308288 
0.7225000000000000 0.933615 -173.909237 0.003812 135.960366 0.003363 116.035484 0.526645 -59.498598 
0.7228750000000001 0.933061 -173.980989 0.003850 135.631057 0.003356 115.418285 0.526047 -59.491148 
0.7232500000000000 0.935689 -174.095654 0.003833 133.541924 0.003378 113.349918 0.525645 -59.677476 
0.7236250000000000 0.936911 -174.208441 0.003856 133.870213 0.003138 112.650333 0.526673 -59.742840 
0.7240000000000000 0.937867 -174.150644 0.003707 131.519237 0.003238 112.705037 0.526225 -59.925817 
0.7243750000000000 0.938356 -174.337244 0.003662 128.502810 0.003187 108.664698 0.526642 -59.986620 
0.7247500000000000 0.937452 -174.365500 0.003584 129.255617 0.003166 108.198211 0.526060 -60.076601 
0.7251250000000000 0.940315 -174.453712 0.003659 128.320465 0.003068 108.032955 0.525785 -60.208916 
0.7255000000000000 0.937119 -174.535963 0.003565 126.882541 0.003142 105.690064 0.526297 -60.359379 
0.7258750000000001 0.940736 -174.575704 0.003564 125.475086 0.003131 101.878097 0.525897 -60.537196 
0.7262500000000000 0.941309 -174.601407 0.003494 124.264846 0.003142 102.420116 0.525621 -60.543122 
0.7266250000000000 0.941420 -174.728892 0.003487 124.186026 0.003038 102.494420 0.525790 -60.503847 
0.7270000000000000 0.941348 -174.776983 0.003465 123.722875 0.003034 99.385335 0.526273 -60.735632 
0.7273750000000000 0.942796 -174.874414 0.003352 120.206703 0.003031 99.945721 0.525816 -60.913425 
0.7277500000000000 0.943305 -174.903242 0.003517 120.701340 0.002887 97.439567 0.525591 -60.964464 
0.7281250000000000 0.944524 -175.077087 0.003389 119.822120 0.002974 97.478839 0.525433 -61.126081 
0.7285000000000000 0.945284 -175.103330 0.003456 116.755938 0.002916 96.606378 0.524740 -61.228910 
0.7288750000000001 0.944688 -175.222832 0.003387 113.623837 0.002817 94.070067 0.524432 -61.290286 
0.7292500000000000 0.943928 -175.196669 0.003309 115.212437 0.002913 94.534841 0.524449 -61.488787 
0.7296250000000000 0.946539 -175.302631 0.003213 111.879954 0.002729 93.724014 0.524783 -61.512392 
0.7300000000000000 0.947573 -175.444767 0.003236 110.340652 0.002809 90.717406 0.524773 -61.640568 
0.7303750000000000 0.947576 -175.489206 0.003156 108.487658 0.002749 90.104341 0.524930 -61.763312 
0.7307500000000000 0.949762 -175.503302 0.003136 107.434839 0.002713 90.438114 0.524179 -61.866880 
0.7311250000000000 0.949719 -175.680370 0.003223 106.470869 0.002707 87.068915 0.524804 -61.993957 
0.7315000000000000 0.950806 -175.692692 0.003072 106.699668 0.002684 85.306938 0.524706 -62.127850 
0.7318750000000001 0.950523 -175.772574 0.003085 106.506251 0.002604 88.323638 0.524588 -62.173778 
0.7322500000000000 0.952500 -175.807136 0.003093 104.329729 0.002738 83.459225 0.524114 -62.372601 
0.7326250000000000 0.952921 -175.915691 0.003083 102.825381 0.002627 82.140468 0.523777 -62.515263 
0.7330000000000000 0.954013 -175.975496 0.003153 103.417382 0.002539 81.285547 0.523342 -62.599676 
0.7333750000000000 0.953683 -175.996156 0.003024 100.063845 0.002579 80.349607 0.523435 -62.740261 
0.7337500000000000 0.954075 -176.027199 0.002958 99.996876 0.002504 80.057907 0.523679 -62.892907 
0.7341250000000000 0.955583 -176.099506 0.003049 96.943303 0.002487 79.446303 0.523233 -63.010510 
0.7345000000000000 0.956869 -176.152377 0.002955 96.314661 0.002511 76.220394 0.523667 -63.057151 
0.7348749999999999 0.955322 -176.113119 0.002848 96.132538 0.002461 77.083799 0.523483 -63.178015 
0.7352500000000000 0.957822 -176.342816 0.002846 95.700561 0.002505 77.611636 0.522974 -63.325801 
0.7356250000000000 0.959184 -176.384549 0.002860 92.075493 0.002389 75.298649 0.522441 -63.442438 
0.7360000000000000 0.958999 -176.329039 0.002713 92.173279 0.002528 72.918522 0.523004 -63.641273 
0.7363750000000000 0.958358 -176.414333 0.002876 93.945839 0.002373 73.251966 0.522829 -63.702673 
0.7367500000000000 0.959251 -176.556471 0.002838 87.520682 0.002369 69.890312 0.522698 -63.814937 
0.7371250000000000 0.958195 -176.512452 0.002859 86.514575 0.002314 69.296085 0.522053 -63.959212 
0.7375000000000000 0.959595 -176.400706 0.002763 86.960583 0.002280 64.465058 0.521916 -64.097196 
0.7378750000000000 0.961804 -176.452696 0.002748 90.554177 0.002331 68.239943 0.521896 -64.271039 
0.7382500000000000 0.960536 -176.495430 0.002763 84.266036 0.002295 64.459629 0.522270 -64.487569 
0.7386250000000000 0.961725 -176.714679 0.002627 82.183902 0.002179 67.359644 0.521564 -64.587971 
0.7390000000000000 0.962165 -176.639729 0.002637 83.901508 0.002316 63.640666 0.521152 -64.573869 
0.7393750000000000 0.960738 -176.598271 0.002518 81.356967 0.002266 58.440688 0.520928 -64.759032 
0.7397500000000000 0.961965 -176.719142 0.002616 80.443681 0.002072 61.206967 0.520850 -64.840332 
0.7401250000000000 0.962960 -176.638871 0.002481 81.337346 0.002103 62.047509 0.521046 -65.031965 
0.7405000000000001 0.960992 -176.843383 0.002525 78.875214 0.002098 60.782188 0.520104 -65.135630 
0.7408750000000000 0.961808 -176.820573 0.002514 77.652445 0.002100 57.764004 0.520175 -65.335441 
0.7412500000000000 0.962063 -177.010711 0.002578 76.022243 0.002092 54.352632 0.520497 -65.362818 
0.7416250000000000 0.964395 -176.865427 0.002372 73.955316 0.002063 54.859086 0.519514 -65.494489 
0.7420000000000000 0.963450 -176.895068 0.002508 76.240566 0.002194 56.299566 0.519431 -65.612325 
0.7423750000000000 0.962192 -177.003832 0.002410 72.129561 0.002019 52.726812 0.519497 -65.759663 
0.7427500000000000 0.965397 -177.042806 0.002351 73.966032 0.002055 52.232606 0.519153 -65.860711 
0.7431250000000000 0.964522 -177.065534 0.002353 71.823965 0.002161 48.628215 0.518701 -66.063527 
0.7435000000000001 0.964025 -177.220200 0.002434 72.443587 0.002103 50.134137 0.517821 -66.083114 
0.7438750000000000 0.964823 -177.291447 0.002375 68.166019 0.002092 48.788885 0.518029 -66.248279 
0.7442500000000000 0.964324 -177.228324 0.002307 68.802672 0.002028 49.458618 0.518222 -66.401339 
0.7446250000000000 0.966443 -177.328593 0.002298 66.268668 0.001987 44.020334 0.518099 -66.516911 
0.7450000000000000 0.967209 -177.287275 0.002195 65.541885 0.001998 47.177973 0.517564 -66.730432 
0.7453750000000000 0.966377 -177.335654 0.002285 64.004461 0.001940 43.697774 0.517600 -66.772576 
0.7457500000000000 0.967183 -177.399408 0.002219 62.541611 0.002005 41.393917 0.517224 -66.912831 
0.7461250000000000 0.968085 -177.499463 0.002188 62.269094 0.001890 42.323744 0.517172 -67.038919 
0.7465000000000001 0.969230 -177.520478 0.002124 60.493200 0.001888 41.511874 0.517394 -67.232740 
0.7468750000000000 0.969289 -177.524238 0.002200 60.140725 0.001819 41.694370 0.516015 -67.370485 
0.7472500000000000 0.968670 -177.620218 0.002189 56.822199 0.001917 41.068258 0.516078 -67.406457 
0.7476250000000000 0.970182 -177.555383 0.002180 57.047873 0.001861 37.689220 0.515646 -67.628725 
0.7480000000000000 0.968035 -177.654812 0.002134 55.121013 0.001853 34.871847 0.515748 -67.699349 
0.7483750000000000 0.970579 -177.686205 0.002145 52.623813 0.001991 38.707485 0.515663 -67.874941 
0.7487500000000000 0.970420 -177.739925 0.002286 54.639431 0.001889 32.874902 0.514152 -67.964299 
0.7491250000000000 0.971831 -177.642369 0.002157 53.287824 0.001911 33.589936 0.514473 -68.030077 
0.7495000000000001 0.971157 -177.734432 0.002188 52.541988 0.001733 31.246890 0.514182 -68.247842 
0.7498750000000000 0.971590 -177.818290 0.002020 49.229598 0.001809 34.735967 0.513301 -68.421254 
0.7502500000000000 0.973601 -177.923439 0.002132 48.089468 0.001755 28.660771 0.512987 -68.491650 
0.7506250000000000 0.972123 -177.844686 0.002145 49.983210 0.001667 29.589402 0.512314 -68.627033 
0.7510000000000000 0.973100 -177.943945 0.002175 45.961546 0.001767 28.580543 0.513217 -68.724971 
0.7513750000000000 0.973087 -177.771297 0.002061 45.979751 0.001711 24.563227 0.511741 -68.876879 
0.7517500000000000 0.972796 -177.842581 0.001934 44.907586 0.001804 18.996476 0.512229 -69.029640 
0.7521250000000000 0.972105 -177.873444 0.002045 44.168788 0.001843 23.161134 0.512022 -69.166966 
0.7525000000000000 0.972209 -178.003249 0.002023 44.684843 0.001767 24.966233 0.510778 -69.322554 
0.7528750000000000 0.973137 -177.983579 0.001989 41.980324 0.001591 21.901082 0.511023 -69.453566 
0.7532500000000000 0.973583 -178.056384 0.001931 43.326858 0.001723 18.063989 0.510173 -69.542233 
0.7536250000000000 0.973595 -178.034845 0.002042 36.877929 0.001696 19.516448 0.509852 -69.678768 
0.7540000000000000 0.974085 -178.032242 0.001961 40.883137 0.001563 19.687343 0.508611 -69.729638 
0.7543750000000000 0.974422 -178.083196 0.002099 35.185064 0.001682 15.851684 0.509501 -69.865308 
0.7547500000000000 0.974243 -178.075661 0.001929 36.230989 0.001623 16.580729 0.509775 -70.040927 
0.7551250000000001 0.974520 -178.126474 0.001837 34.224184 0.001504 20.519374 0.508167 -70.198270 
0.7555000000000000 0.975091 -178.199335 0.002021 33.497911 0.001595 12.612614 0.508090 -70.242701 
0.7558750000000000 0.975305 -178.142332 0.001886 31.789679 0.001621 10.261140 0.507943 -70.401290 
0.7562500000000000 0.974355 -178.205157 0.001883 30.224851 0.001625 10.611910 0.507652 -70.524810 
0.7566250000000000 0.975383 -178.224984 0.001985 31.369081 0.001654 8.966077 0.507091 -70.663252 
0.7570000000000000 0.975516 -178.322061 0.001840 31.718888 0.001595 8.764064 0.505747 -70.836897 
0.7573750000000000 0.975459 -178.314789 0.001909 33.755578 0.001528 11.444542 0.505997 -70.934518 
0.7577500000000000 0.974800 -178.414139 0.001810 28.876092 0.001594 8.756423 0.505522 -70.952521 
0.7581250000000001 0.975401 -178.433051 0.001695 27.022800 0.001558 7.154101 0.505582 -71.177887 
0.7585000000000000 0.976755 -178.546250 0.001883 22.898568 0.001463 5.227401 0.504650 -71.295514 
0.7588750000000000 0.975370 -178.501147 0.001796 27.316789 0.001467 0.926860 0.504732 -71.452212 
0.7592500000000000 0.977177 -178.557618 0.001862 21.127826 0.001538 2.323362 0.503515 -71.537603 
0.7596250000000000 0.977350 -178.582927 0.001740 20.923963 0.001510 0.443337 0.502724 -71.654147 
0.7600000000000000 0.977228 -178.582750 0.001763 17.020975 0.001421 1.016553 0.502468 -71.809345 
0.7603750000000000 0.977989 -178.662543 0.001829 22.642555 0.001536 -4.023983 0.502487 -71.813745 
0.7607500000000000 0.977800 -178.676594 0.001755 17.465226 0.001464 0.818721 0.502150 -71.998901 
0.7611250000000001 0.978778 -178.674343 0.001682 17.753030 0.001433 -4.337821 0.502059 -72.087095 
0.7615000000000000 0.976346 -178.810763 0.001783 18.250809 0.001376 -4.360630 0.501377 -72.226758 
0.7618750000000000 0.978128 -178.777170 0.001800 20.254467 0.001438 -5.831357 0.500717 -72.440784 
0.7622500000000000 0.979828 -178.804280 0.001823 10.373558 0.001454 -6.995092 0.500360 -72.442517 
0.7626250000000000 0.980617 -178.815944 0.001662 17.151983 0.001429 -8.123338 0.499591 -72.653075 
0.7630000000000000 0.980013 -178.982959 0.001709 9.569432 0.001477 -10.133453 0.499379 -72.660183 
0.7633750000000000 0.979919 -178.893628 0.001620 12.187096 0.001365 -10.520713 0.499478 -72.883629 
0.7637500000000000 0.981485 -178.959539 0.001745 10.167610 0.001413 -10.991349 0.498326 -73.004330 
0.7641250000000001 0.980535 -178.876488 0.001676 7.326956 0.001374 -12.615885 0.498405 -73.179446 
0.7645000000000000 0.980157 -178.911740 0.001541 10.493337 0.001202 -14.169275 0.498339 -73.144148 
0.7648750000000000 0.980077 -178.972319 0.001696 7.316107 0.001405 -11.987449 0.497980 -73.329678 
0.7652500000000000 0.982087 -178.988668 0.001529 5.194833 0.001340 -15.397006 0.496639 -73.404620 
0.7656250000000000 0.982122 -179.077734 0.001637 5.114557 0.001389 -14.159693 0.497151 -73.601929 
0.7660000000000000 0.980459 -179.133246 0.001606 2.440400 0.001324 -17.115057 0.496771 -73.713755 
0.7663750000000000 0.981071 -179.126657 0.001634 4.740734 0.001249 -25.733761 0.495097 -73.848433 
0.7667500000000000 0.981282 -179.265845 0.001736 2.551921 0.001479 -14.013839 0.495084 -73.892089 
0.7671250000000000 0.983156 -179.089378 0.001585 0.786241 0.001330 -16.395332 0.495392 -73.972184 
0.7675000000000000 0.981122 -179.165914 0.001698 -1.146487 0.001432 -18.156567 0.494152 -74.166389 
0.7678750000000000 0.982025 -179.220102 0.001724 -4.267273 0.001263 -20.944705 0.493961 -74.244715 
0.7682500000000000 0.982869 -179.267030 0.001557 -1.596804 0.001454 -23.643639 0.494724 -74.361431 
0.7686250000000000 0.982694 -179.227751 0.001610 -6.988449 0.001232 -25.771921 0.492884 -74.574068 
0.7690000000000000 0.982679 -179.295361 0.001710 -3.018245 0.001235 -22.524564 0.493269 -74.612126 
0.7693750000000000 0.982249 -179.309294 0.001723 -5.175224 0.001285 -29.706313 0.492293 -74.798144 
0.7697500000000001 0.982977 -179.331153 0.001590 -7.898888 0.001298 -26.872089 0.492077 -74.769186 
0.7701250000000000 0.983571 -179.420448 0.001679 -11.719099 0.001223 -25.830481 0.492428 -74.971606 
0.7705000000000000 0.979953 -179.525371 0.001760 -12.589640 0.001280 -28.990061 0.490645 -75.018992 
0.7708750000000000 0.981788 -179.497762 0.001627 -12.121444 0.001280 -28.906384 0.490325 -75.270957 
0.7712500000000000 0.981421 -179.504701 0.001475 -12.628728 0.001260 -30.586437 0.490498 -75.320486 
0.7716250000000000 0.982649 -179.455495 0.001489 -16.704073 0.001292 -37.013720 0.489647 -75.489993 
0.7720000000000000 0.983235 -179.637216 0.001425 -15.559382 0.001202 -33.907590 0.490044 -75.538843 
0.7723750000000000 0.981213 -179.718442 0.001569 -16.993945 0.001295 -36.371508 0.489648 -75.604328 
