!
! C:\Users\rflab\Downloads\Lab5_KD_ZW\Q2\728 MHz\120.S2P
!
! Touchstone 1.1 file saved by VNA.EXE V1.65 (www.ke5fx.com/gpib/readme.htm)
! 11/18/2024 9:16:32 PM
!
!    Source: HEWLETT PACKARD,8753D,0,6.14
!  Min freq: 7.000000E+008 Hz
!  Max freq: 1.000000E+009 Hz
!    Points: 801
!    Params: S11 S21 S12 S22
!
!!!!!
# GHZ S MA R 50
0.7000000000000000 0.814310 -165.471085 0.006722 -114.196056 0.006173 -131.991164 0.533402 -53.653291 
0.7003750000000000 0.818772 -165.732754 0.006572 -115.105543 0.006149 -134.670121 0.532967 -53.700308 
0.7007500000000000 0.822644 -165.915300 0.006623 -117.157216 0.006156 -136.296179 0.533042 -53.783548 
0.7011250000000000 0.826304 -166.140307 0.006431 -119.482481 0.005986 -137.524595 0.532914 -53.891333 
0.7015000000000000 0.829430 -166.375863 0.006322 -121.293550 0.005949 -138.977807 0.532319 -54.007162 
0.7018750000000000 0.833073 -166.609254 0.006261 -123.260407 0.005836 -140.849591 0.531892 -54.087429 
0.7022500000000000 0.836038 -166.786543 0.006182 -124.336000 0.005710 -142.682276 0.532584 -54.141349 
0.7026250000000001 0.840286 -166.974190 0.006187 -125.907256 0.005635 -144.540091 0.531731 -54.184419 
0.7030000000000000 0.842948 -167.169256 0.006002 -125.983205 0.005516 -146.347021 0.531101 -54.374681 
0.7033750000000000 0.846908 -167.408045 0.005902 -129.180304 0.005397 -147.975294 0.532136 -54.422218 
0.7037500000000000 0.850166 -167.558194 0.005796 -130.515395 0.005366 -150.229860 0.532806 -54.473772 
0.7041250000000000 0.853142 -167.757517 0.005803 -131.368839 0.005244 -150.502617 0.531460 -54.620665 
0.7045000000000000 0.857347 -167.964498 0.005653 -133.779961 0.005250 -153.050971 0.531434 -54.687225 
0.7048750000000000 0.859293 -168.137755 0.005547 -135.069654 0.005165 -154.653320 0.531973 -54.832953 
0.7052500000000000 0.861625 -168.249093 0.005579 -136.149780 0.005091 -157.005073 0.531724 -54.882438 
0.7056250000000000 0.864240 -168.450408 0.005478 -139.090891 0.005101 -158.184170 0.531443 -55.045983 
0.7060000000000000 0.867165 -168.716169 0.005351 -139.032116 0.004905 -159.036473 0.531460 -55.135469 
0.7063750000000000 0.869272 -168.739771 0.005304 -140.867161 0.004741 -160.918133 0.531243 -55.163296 
0.7067500000000000 0.870768 -168.988574 0.005409 -142.283599 0.004829 -162.388107 0.530151 -55.257913 
0.7071250000000000 0.874775 -169.190269 0.005280 -144.145331 0.004758 -163.583724 0.530857 -55.286722 
0.7075000000000000 0.875230 -169.269155 0.005225 -145.277395 0.004491 -165.458456 0.531157 -55.425187 
0.7078750000000000 0.878055 -169.409455 0.005118 -148.031955 0.004594 -165.904628 0.530703 -55.531353 
0.7082500000000001 0.881424 -169.490751 0.005129 -148.325496 0.004445 -168.411608 0.530431 -55.690966 
0.7086250000000000 0.881036 -169.671722 0.004933 -150.127692 0.004539 -169.751953 0.530737 -55.765333 
0.7090000000000000 0.885585 -169.797577 0.005053 -149.949646 0.004345 -170.704604 0.529641 -55.816405 
0.7093750000000000 0.886709 -169.906804 0.004864 -152.510423 0.004496 -172.584442 0.530128 -56.003483 
0.7097500000000000 0.886649 -170.110372 0.004904 -154.649716 0.004339 -173.498160 0.530305 -56.016387 
0.7101250000000000 0.889525 -170.146653 0.004760 -155.660784 0.004355 -174.218239 0.529509 -56.026017 
0.7105000000000000 0.890601 -170.393724 0.004759 -158.401690 0.004316 -176.963593 0.529513 -56.149658 
0.7108750000000000 0.893468 -170.480411 0.004705 -157.494935 0.004295 -178.699131 0.530223 -56.224873 
0.7112500000000001 0.894996 -170.678998 0.004615 -160.878856 0.004235 -179.064563 0.529546 -56.441809 
0.7116250000000000 0.894905 -170.666163 0.004688 -161.049912 0.004134 178.175511 0.529812 -56.536019 
0.7120000000000000 0.898566 -170.929245 0.004430 -161.683023 0.004159 177.190733 0.529084 -56.547332 
0.7123750000000000 0.899945 -171.045554 0.004545 -165.920743 0.004011 176.807138 0.528818 -56.777633 
0.7127500000000000 0.901288 -171.102210 0.004462 -166.397341 0.004036 174.474637 0.529077 -56.934151 
0.7131250000000000 0.902320 -171.261496 0.004376 -167.918105 0.003873 173.379787 0.529180 -56.862546 
0.7135000000000000 0.902925 -171.369270 0.004418 -168.827098 0.003976 171.672606 0.528515 -56.985285 
0.7138750000000000 0.903950 -171.457377 0.004336 -169.865358 0.003828 170.943691 0.529161 -57.077942 
0.7142500000000001 0.907524 -171.643195 0.004430 -172.142894 0.003775 168.357195 0.528877 -57.168230 
0.7146250000000000 0.907114 -171.740683 0.004140 -171.435954 0.003788 167.040529 0.528518 -57.265174 
0.7150000000000000 0.908950 -171.854662 0.003977 -173.940479 0.003691 166.273396 0.528955 -57.350571 
0.7153750000000000 0.911757 -171.976755 0.004228 -173.885643 0.003625 164.733148 0.528850 -57.515878 
0.7157500000000000 0.911522 -172.110253 0.004141 -177.435787 0.003594 163.499353 0.528632 -57.614550 
0.7161250000000000 0.912661 -172.294198 0.004064 -177.461390 0.003633 161.063260 0.527924 -57.667760 
0.7165000000000000 0.913869 -172.362366 0.004031 179.854287 0.003538 160.772082 0.528184 -57.803019 
0.7168750000000000 0.915656 -172.477540 0.003984 178.010764 0.003579 157.646037 0.528103 -57.953903 
0.7172500000000001 0.916416 -172.614655 0.003866 176.680430 0.003512 156.957197 0.528610 -57.847709 
0.7176250000000000 0.918387 -172.703536 0.003919 178.089459 0.003451 155.754744 0.527755 -58.102086 
0.7180000000000000 0.918928 -172.861294 0.003877 176.636648 0.003338 154.531371 0.528013 -58.201366 
0.7183750000000000 0.921494 -172.930999 0.003829 173.126757 0.003453 153.353555 0.527663 -58.275270 
0.7187500000000000 0.923735 -172.948237 0.003712 171.033110 0.003257 153.161084 0.527382 -58.400530 
0.7191250000000000 0.922496 -173.141115 0.003677 171.280946 0.003281 150.492120 0.527498 -58.443313 
0.7195000000000000 0.925399 -173.261686 0.003576 167.573112 0.003238 148.377437 0.527351 -58.577346 
0.7198750000000000 0.926311 -173.298762 0.003623 166.709173 0.003239 148.917987 0.527419 -58.647908 
0.7202500000000000 0.927340 -173.404946 0.003592 166.229416 0.003100 146.960799 0.527968 -58.773271 
0.7206250000000000 0.927532 -173.467033 0.003512 165.405219 0.003190 145.796192 0.526828 -58.907607 
0.7210000000000000 0.929098 -173.584159 0.003488 162.632186 0.002999 144.907605 0.527538 -59.023736 
0.7213750000000000 0.929833 -173.755746 0.003590 162.182993 0.003133 143.232150 0.527491 -59.090248 
0.7217500000000000 0.933561 -173.765708 0.003353 161.885185 0.003041 140.670614 0.526461 -59.317060 
0.7221250000000000 0.933075 -173.901932 0.003341 161.770653 0.003030 139.203377 0.527940 -59.254355 
0.7225000000000000 0.933396 -173.858819 0.003442 158.176108 0.002873 140.019693 0.526608 -59.492364 
0.7228750000000001 0.933522 -173.927465 0.003560 157.357408 0.003047 138.602536 0.527350 -59.551439 
0.7232500000000000 0.935509 -174.056933 0.003382 158.238724 0.002812 135.206112 0.526201 -59.685919 
0.7236250000000000 0.936051 -174.135505 0.003442 155.451438 0.002924 137.183941 0.527345 -59.670291 
0.7240000000000000 0.937021 -174.179113 0.003375 154.920263 0.002802 132.728953 0.526572 -59.821003 
0.7243750000000000 0.937281 -174.281982 0.003243 151.583144 0.002791 131.587194 0.526645 -59.933077 
0.7247500000000000 0.936541 -174.360001 0.003190 152.675561 0.002782 133.315826 0.526827 -60.124614 
0.7251250000000000 0.938302 -174.370623 0.003111 149.518646 0.002748 129.034417 0.526205 -60.189173 
0.7255000000000000 0.938042 -174.417757 0.003272 149.500587 0.002799 129.081307 0.526368 -60.325574 
0.7258750000000001 0.941352 -174.534486 0.003163 146.602763 0.002658 129.645642 0.525758 -60.456014 
0.7262500000000000 0.941744 -174.637474 0.003045 144.295696 0.002663 127.883085 0.526630 -60.490684 
0.7266250000000000 0.941461 -174.661973 0.002980 144.875042 0.002626 126.344009 0.526470 -60.568613 
0.7270000000000000 0.941282 -174.739308 0.003046 143.801979 0.002442 123.791682 0.526258 -60.738529 
0.7273750000000000 0.944133 -174.840782 0.002931 145.676537 0.002480 122.590756 0.525802 -60.847854 
0.7277500000000000 0.942344 -174.931564 0.003006 141.104554 0.002579 122.897519 0.525768 -60.929573 
0.7281250000000000 0.944365 -175.016786 0.002964 141.224328 0.002488 118.532039 0.525770 -61.100761 
0.7285000000000000 0.944947 -175.038435 0.002958 140.538550 0.002402 119.377426 0.524379 -61.245303 
0.7288750000000001 0.945652 -175.146069 0.002976 141.666037 0.002477 118.258734 0.524487 -61.369583 
0.7292500000000000 0.945744 -175.124276 0.003006 137.524997 0.002438 115.967298 0.524714 -61.470383 
0.7296250000000000 0.947420 -175.240343 0.002748 136.712267 0.002405 114.154213 0.524491 -61.529227 
0.7300000000000000 0.946757 -175.322248 0.002817 136.325367 0.002431 112.631104 0.525021 -61.583307 
0.7303750000000000 0.946872 -175.419158 0.002626 135.228079 0.002404 114.376224 0.525260 -61.703305 
0.7307500000000000 0.948502 -175.530601 0.002732 134.345893 0.002299 112.623525 0.524218 -61.929668 
0.7311250000000000 0.950145 -175.538345 0.002731 128.685600 0.002398 108.861052 0.524348 -61.959878 
0.7315000000000000 0.949817 -175.651277 0.002686 130.404648 0.002340 109.205615 0.524614 -62.111225 
0.7318750000000001 0.951186 -175.731286 0.002724 128.240870 0.002242 109.303133 0.524878 -62.156589 
0.7322500000000000 0.952171 -175.776222 0.002589 123.259165 0.002174 105.901811 0.524199 -62.433950 
0.7326250000000000 0.951818 -175.815173 0.002658 126.862702 0.002189 106.598216 0.523910 -62.451305 
0.7330000000000000 0.953787 -176.011299 0.002683 125.349141 0.002234 102.659132 0.524228 -62.616001 
0.7333750000000000 0.954708 -175.956400 0.002551 122.294590 0.002182 106.742411 0.523973 -62.808142 
0.7337500000000000 0.953851 -175.904980 0.002513 122.284596 0.002119 104.527985 0.523352 -62.882106 
0.7341250000000000 0.955845 -176.030900 0.002430 119.292667 0.002170 98.760280 0.523342 -63.009105 
0.7345000000000000 0.954239 -176.097678 0.002478 120.648913 0.002119 99.119435 0.523718 -63.119903 
0.7348749999999999 0.954921 -176.089459 0.002523 116.756342 0.002166 97.566932 0.522881 -63.219599 
0.7352500000000000 0.958655 -176.196117 0.002420 115.593165 0.002170 99.264170 0.522509 -63.360125 
0.7356250000000000 0.958272 -176.322594 0.002402 113.725131 0.001970 92.914007 0.522605 -63.466367 
0.7360000000000000 0.958071 -176.226716 0.002430 112.809666 0.002128 97.727001 0.523534 -63.591783 
0.7363750000000000 0.960563 -176.353266 0.002343 110.506580 0.002013 93.184536 0.521887 -63.707643 
0.7367500000000000 0.958503 -176.451431 0.002359 111.983124 0.002056 93.214665 0.522118 -63.921700 
0.7371250000000000 0.958819 -176.441639 0.002321 111.974079 0.001899 94.006181 0.521998 -63.948782 
0.7375000000000000 0.958133 -176.395207 0.002356 105.389393 0.001880 89.992735 0.522325 -64.096677 
0.7378750000000000 0.961092 -176.373505 0.002427 108.356649 0.002047 91.791995 0.521410 -64.204325 
0.7382500000000000 0.960317 -176.531110 0.002353 109.609293 0.001965 88.028650 0.521675 -64.352344 
0.7386250000000000 0.962075 -176.606645 0.002105 103.665513 0.001870 85.598212 0.521888 -64.567769 
0.7390000000000000 0.962774 -176.580003 0.002343 103.853821 0.001896 86.196707 0.520671 -64.559902 
0.7393750000000000 0.960788 -176.671371 0.002351 105.243908 0.001941 81.511007 0.520452 -64.767763 
0.7397500000000000 0.962512 -176.597269 0.002043 107.115512 0.001924 85.650038 0.521369 -64.837431 
0.7401250000000000 0.963451 -176.636950 0.002311 104.057751 0.001730 85.624313 0.520996 -64.940527 
0.7405000000000001 0.962966 -176.758932 0.002068 103.269462 0.001840 81.832628 0.519610 -65.125206 
0.7408750000000000 0.963078 -176.770218 0.002261 99.866583 0.001673 83.501061 0.520280 -65.277910 
0.7412500000000000 0.960729 -176.930009 0.002132 100.331498 0.001816 79.398371 0.520112 -65.398849 
0.7416250000000000 0.963399 -176.818559 0.002119 97.769521 0.001850 81.620791 0.519487 -65.493094 
0.7420000000000000 0.963748 -176.837883 0.002148 95.028010 0.001727 78.495360 0.519615 -65.551310 
0.7423750000000000 0.961759 -176.940582 0.001909 94.307346 0.001715 75.481819 0.519659 -65.752925 
0.7427500000000000 0.963357 -176.931119 0.002132 98.123308 0.001809 75.802591 0.519330 -65.825218 
0.7431250000000000 0.964996 -176.943595 0.001999 93.614276 0.001847 74.446790 0.519017 -65.968417 
0.7435000000000001 0.964570 -177.152803 0.001888 91.798614 0.001731 70.113963 0.518054 -66.083431 
0.7438750000000000 0.965817 -177.196360 0.001983 91.711715 0.001683 72.318245 0.518137 -66.246184 
0.7442500000000000 0.964725 -177.185927 0.001979 91.822464 0.001619 68.133574 0.518157 -66.409271 
0.7446250000000000 0.966980 -177.268529 0.001999 88.708068 0.001736 69.184746 0.518429 -66.602563 
0.7450000000000000 0.966621 -177.184206 0.002037 88.695774 0.001723 72.210771 0.517217 -66.640276 
0.7453750000000000 0.965296 -177.310909 0.001809 87.212080 0.001709 67.443148 0.517965 -66.789883 
0.7457500000000000 0.966282 -177.378868 0.001833 83.778346 0.001527 63.959106 0.517196 -66.860002 
0.7461250000000000 0.966906 -177.442108 0.001807 89.652320 0.001592 66.013992 0.516675 -67.030263 
0.7465000000000001 0.968600 -177.464654 0.001906 84.027375 0.001583 62.505056 0.516722 -67.183088 
0.7468750000000000 0.967558 -177.469157 0.001885 84.617223 0.001666 65.052466 0.516292 -67.331940 
0.7472500000000000 0.967833 -177.509662 0.001835 83.060557 0.001579 59.296671 0.515761 -67.402820 
0.7476250000000000 0.968788 -177.541022 0.001874 81.871441 0.001529 62.042112 0.515894 -67.588708 
0.7480000000000000 0.968741 -177.605941 0.001785 82.255687 0.001533 58.725246 0.515640 -67.639416 
0.7483750000000000 0.970067 -177.630864 0.001863 80.178961 0.001638 58.399877 0.515129 -67.795819 
0.7487500000000000 0.970747 -177.708238 0.001771 80.098348 0.001520 61.115191 0.514775 -67.974045 
0.7491250000000000 0.971706 -177.645669 0.001784 74.462162 0.001537 55.194395 0.514341 -68.075491 
0.7495000000000001 0.972291 -177.683083 0.001677 77.816207 0.001439 50.175582 0.513496 -68.228311 
0.7498750000000000 0.971621 -177.771534 0.001844 74.484617 0.001420 52.581593 0.513338 -68.309277 
0.7502500000000000 0.972354 -177.866790 0.001592 73.259669 0.001491 60.129591 0.513360 -68.478782 
0.7506250000000000 0.972618 -177.741436 0.001775 74.136003 0.001425 50.752735 0.511952 -68.636846 
0.7510000000000000 0.974025 -177.830933 0.001565 68.318536 0.001391 54.242601 0.512722 -68.772983 
0.7513750000000000 0.972670 -177.755948 0.001673 67.729333 0.001413 50.478576 0.511742 -68.829280 
0.7517500000000000 0.972277 -177.891817 0.001617 69.145353 0.001398 52.817452 0.511622 -69.025549 
0.7521250000000000 0.972698 -177.806383 0.001589 67.235988 0.001332 55.183561 0.512009 -69.075033 
0.7525000000000000 0.973224 -177.940613 0.001689 64.102224 0.001461 43.571716 0.510842 -69.332579 
0.7528750000000000 0.973729 -177.912932 0.001713 66.962668 0.001387 45.087069 0.510241 -69.395026 
0.7532500000000000 0.973442 -177.984211 0.001758 63.115261 0.001338 44.469467 0.510602 -69.530932 
0.7536250000000000 0.973267 -177.969468 0.001437 58.392178 0.001508 46.236709 0.509531 -69.588543 
0.7540000000000000 0.973209 -177.965749 0.001612 65.671035 0.001471 42.812298 0.508686 -69.806042 
0.7543750000000000 0.974102 -178.003538 0.001434 62.653340 0.001301 42.470444 0.509092 -69.841120 
0.7547500000000000 0.974647 -178.011835 0.001501 57.660758 0.001436 36.243093 0.508946 -70.036263 
0.7551250000000001 0.973247 -178.109642 0.001344 58.621280 0.001380 38.412445 0.508187 -70.191800 
0.7555000000000000 0.975486 -178.146264 0.001628 58.805296 0.001313 36.906316 0.508377 -70.254328 
0.7558750000000000 0.974782 -178.094672 0.001497 54.282995 0.001299 34.355786 0.507465 -70.429616 
0.7562500000000000 0.974292 -178.097305 0.001529 52.933573 0.001285 27.272082 0.507002 -70.546380 
0.7566250000000000 0.974851 -178.191713 0.001457 53.774396 0.001237 38.143111 0.507036 -70.639160 
0.7570000000000000 0.974567 -178.266578 0.001425 50.405468 0.001289 33.116746 0.505413 -70.798123 
0.7573750000000000 0.975839 -178.286765 0.001469 52.385200 0.001267 32.863185 0.506260 -70.911903 
0.7577500000000000 0.973747 -178.319011 0.001384 53.125160 0.001255 32.213126 0.505551 -70.953653 
0.7581250000000001 0.976476 -178.355956 0.001422 50.949250 0.001290 31.590156 0.505162 -71.114083 
0.7585000000000000 0.976007 -178.444776 0.001434 51.799959 0.001209 32.938591 0.504502 -71.172677 
0.7588750000000000 0.974686 -178.396008 0.001507 46.981110 0.001268 32.052198 0.504365 -71.445559 
0.7592500000000000 0.976824 -178.528446 0.001370 48.313044 0.001217 27.487789 0.503380 -71.517820 
0.7596250000000000 0.976747 -178.564145 0.001494 45.281309 0.001278 30.305683 0.502946 -71.589238 
0.7600000000000000 0.976570 -178.549557 0.001619 46.933788 0.001209 30.041693 0.502312 -71.752184 
0.7603750000000000 0.977948 -178.612410 0.001393 46.862154 0.001156 23.292492 0.502305 -71.843547 
0.7607500000000000 0.977695 -178.633518 0.001408 40.173974 0.001115 23.842454 0.501327 -71.972036 
0.7611250000000001 0.978063 -178.630456 0.001429 42.126457 0.001248 22.001671 0.502014 -71.990208 
0.7615000000000000 0.976696 -178.689424 0.001331 41.189789 0.001153 23.682284 0.501338 -72.217991 
0.7618750000000000 0.977744 -178.826774 0.001265 42.501821 0.001134 14.453365 0.500890 -72.355464 
0.7622500000000000 0.979707 -178.800563 0.001454 41.289347 0.001172 13.457549 0.500284 -72.447066 
0.7626250000000000 0.980629 -178.783856 0.001438 41.397692 0.001188 14.750874 0.499797 -72.554146 
0.7630000000000000 0.979826 -178.807849 0.001231 37.483668 0.001160 16.933018 0.499921 -72.719843 
0.7633750000000000 0.979458 -178.814542 0.001282 36.563020 0.001064 12.610952 0.499638 -72.812367 
0.7637500000000000 0.980478 -178.865720 0.001447 30.051611 0.001078 15.031795 0.498745 -72.931039 
0.7641250000000001 0.979858 -178.893559 0.001238 34.780794 0.001073 8.841751 0.498456 -73.111590 
0.7645000000000000 0.980374 -178.812083 0.001431 32.310484 0.001181 10.014013 0.498019 -73.217358 
0.7648750000000000 0.981438 -178.916723 0.001298 31.185689 0.001106 9.951110 0.497711 -73.335079 
0.7652500000000000 0.981065 -178.937702 0.001336 28.230657 0.000996 5.487794 0.496096 -73.430054 
0.7656250000000000 0.981895 -179.016967 0.001326 30.860422 0.001083 4.489844 0.496640 -73.540516 
0.7660000000000000 0.979758 -179.018393 0.001208 27.404595 0.000999 15.924262 0.496365 -73.799115 
0.7663750000000000 0.980355 -179.065370 0.001335 30.716704 0.001105 8.864820 0.495824 -73.799322 
0.7667500000000000 0.981203 -179.091129 0.001299 21.370940 0.001040 2.354913 0.494559 -73.937079 
0.7671250000000000 0.981287 -179.009229 0.001330 20.074590 0.001078 2.820793 0.494382 -74.008445 
0.7675000000000000 0.980959 -179.087338 0.001220 28.318751 0.001146 4.089439 0.494541 -74.124056 
0.7678750000000000 0.981936 -179.088246 0.001122 20.941395 0.001078 5.950142 0.493776 -74.242363 
0.7682500000000000 0.982637 -179.209911 0.001430 21.968636 0.000955 8.389507 0.494081 -74.325854 
0.7686250000000000 0.980710 -179.108503 0.001134 19.638018 0.001090 5.555917 0.493323 -74.496184 
0.7690000000000000 0.981114 -179.197990 0.001253 14.605970 0.001003 -2.600088 0.492507 -74.572997 
0.7693750000000000 0.980803 -179.222697 0.001051 17.845072 0.001117 7.024110 0.492151 -74.723692 
0.7697500000000001 0.981467 -179.255293 0.001134 11.941402 0.001073 -3.424416 0.491204 -74.804195 
0.7701250000000000 0.982918 -179.323996 0.001156 14.366580 0.000936 -0.584035 0.491339 -75.033279 
0.7705000000000000 0.982111 -179.391100 0.001232 9.506541 0.001000 -1.465474 0.490049 -74.989288 
0.7708750000000000 0.981614 -179.440670 0.001120 10.362410 0.000992 -7.097273 0.490384 -75.202722 
0.7712500000000000 0.982469 -179.437597 0.001136 6.461695 0.001009 1.333398 0.490251 -75.346120 
0.7716250000000000 0.982654 -179.427026 0.001186 11.424606 0.000954 -6.257980 0.490251 -75.430896 
0.7720000000000000 0.982817 -179.558779 0.001220 7.058007 0.001066 -10.702913 0.490052 -75.520676 
