!
! C:\Users\rflab\Downloads\Lab5_KD_ZW\Q2\728 MHz\140.S2P
!
! Touchstone 1.1 file saved by VNA.EXE V1.65 (www.ke5fx.com/gpib/readme.htm)
! 11/18/2024 9:17:32 PM
!
!    Source: HEWLETT PACKARD,8753D,0,6.14
!  Min freq: 7.000000E+008 Hz
!  Max freq: 1.000000E+009 Hz
!    Points: 801
!    Params: S11 S21 S12 S22
!
!!!!!
# GHZ S MA R 50
0.7000000000000000 0.813787 -165.510376 0.008299 -93.560934 0.007683 -112.276847 0.534380 -53.588197 
0.7003750000000000 0.818461 -165.731627 0.008152 -95.663238 0.007662 -113.396633 0.534300 -53.577793 
0.7007500000000000 0.822303 -165.922499 0.008132 -96.525333 0.007527 -115.621894 0.534658 -53.768492 
0.7011250000000000 0.825843 -166.093163 0.007961 -97.419572 0.007380 -117.018678 0.534056 -53.790168 
0.7015000000000000 0.829389 -166.405537 0.007879 -101.054222 0.007207 -118.635575 0.534242 -53.918247 
0.7018750000000000 0.832542 -166.617814 0.007595 -100.881720 0.007138 -119.885878 0.532894 -54.011466 
0.7022500000000000 0.836363 -166.783186 0.007702 -103.027053 0.007063 -122.609730 0.533228 -54.118489 
0.7026250000000001 0.839518 -166.923581 0.007456 -105.246761 0.006971 -124.304241 0.532905 -54.121708 
0.7030000000000000 0.842966 -167.182311 0.007338 -107.146799 0.006869 -126.645571 0.532851 -54.303635 
0.7033750000000000 0.845783 -167.446077 0.007455 -108.489420 0.006703 -126.981583 0.533972 -54.321474 
0.7037500000000000 0.849305 -167.553818 0.007204 -110.387812 0.006684 -129.008997 0.533970 -54.462321 
0.7041250000000000 0.851713 -167.774476 0.007087 -110.471222 0.006570 -131.430816 0.533797 -54.561705 
0.7045000000000000 0.856178 -167.939479 0.007028 -113.836175 0.006334 -131.899683 0.533339 -54.687559 
0.7048750000000000 0.857828 -168.167192 0.006871 -114.824017 0.006302 -133.865765 0.533250 -54.769170 
0.7052500000000000 0.859633 -168.287965 0.006905 -115.805938 0.006150 -134.739270 0.533272 -54.891130 
0.7056250000000000 0.864095 -168.477358 0.006664 -117.417685 0.006142 -135.934244 0.532916 -54.968464 
0.7060000000000000 0.866639 -168.643377 0.006687 -119.799107 0.006099 -139.451663 0.532728 -55.054493 
0.7063750000000000 0.868769 -168.741380 0.006687 -120.842544 0.005946 -141.551163 0.532230 -55.137168 
0.7067500000000000 0.871790 -169.042510 0.006588 -123.247259 0.005821 -142.217639 0.532505 -55.249815 
0.7071250000000000 0.873420 -169.165131 0.006361 -123.169520 0.005741 -142.620881 0.533028 -55.312735 
0.7075000000000000 0.876397 -169.230823 0.006453 -124.069351 0.005784 -144.774235 0.532518 -55.438377 
0.7078750000000000 0.878501 -169.362250 0.006311 -125.664509 0.005575 -145.535138 0.531766 -55.562096 
0.7082500000000001 0.879425 -169.494908 0.006201 -127.715003 0.005511 -146.991927 0.532064 -55.695602 
0.7086250000000000 0.881571 -169.657896 0.006050 -128.853766 0.005562 -148.746468 0.532726 -55.771921 
0.7090000000000000 0.885722 -169.815222 0.005996 -130.381372 0.005395 -149.727528 0.531337 -55.880956 
0.7093750000000000 0.885475 -169.904626 0.005871 -132.834329 0.005254 -151.795384 0.531357 -55.977724 
0.7097500000000000 0.886331 -170.090755 0.005899 -133.309924 0.005248 -153.141583 0.531337 -56.027906 
0.7101250000000000 0.889259 -170.199551 0.005893 -134.721343 0.005157 -154.374373 0.531261 -56.034252 
0.7105000000000000 0.890935 -170.337639 0.005791 -136.247684 0.005061 -156.036963 0.530968 -56.175677 
0.7108750000000000 0.893068 -170.444334 0.005765 -137.631626 0.005024 -156.739295 0.531399 -56.396627 
0.7112500000000001 0.894111 -170.614194 0.005497 -137.890134 0.004993 -158.135088 0.531180 -56.444144 
0.7116250000000000 0.894363 -170.660456 0.005563 -141.993650 0.004953 -159.886833 0.530938 -56.561118 
0.7120000000000000 0.897631 -170.907876 0.005598 -142.475147 0.004986 -160.951616 0.531459 -56.661247 
0.7123750000000000 0.898210 -170.972925 0.005426 -143.569138 0.004896 -162.577904 0.530395 -56.818305 
0.7127500000000000 0.901418 -171.024954 0.005312 -144.750524 0.004895 -164.353987 0.530448 -57.014830 
0.7131250000000000 0.901754 -171.189265 0.005393 -146.295883 0.004707 -166.579672 0.530042 -56.931183 
0.7135000000000000 0.902100 -171.404443 0.005332 -149.198804 0.004879 -168.694460 0.529388 -57.070283 
0.7138750000000000 0.903229 -171.423095 0.005207 -147.950130 0.004708 -168.736728 0.530635 -57.153504 
0.7142500000000001 0.907094 -171.615827 0.005241 -150.565152 0.004568 -168.901790 0.529958 -57.212239 
0.7146250000000000 0.907228 -171.691095 0.005317 -153.669331 0.004561 -170.447085 0.529961 -57.388871 
0.7150000000000000 0.907327 -171.836104 0.005004 -153.431283 0.004510 -172.805100 0.529255 -57.465456 
0.7153750000000000 0.909952 -171.956860 0.005071 -155.983629 0.004377 -174.276365 0.529533 -57.590346 
0.7157500000000000 0.911142 -172.114697 0.004942 -155.722341 0.004426 -175.597270 0.529996 -57.696317 
0.7161250000000000 0.913306 -172.280359 0.005027 -157.566802 0.004286 -178.336024 0.528337 -57.770449 
0.7165000000000000 0.913579 -172.325169 0.004825 -160.317046 0.004316 -177.954931 0.528867 -57.927674 
0.7168750000000000 0.915390 -172.486901 0.004729 -161.390585 0.004307 179.955593 0.528944 -57.995317 
0.7172500000000001 0.916713 -172.590137 0.004838 -159.827293 0.004022 177.734098 0.528899 -58.046835 
0.7176250000000000 0.918896 -172.665396 0.004561 -163.720986 0.004099 178.166791 0.529253 -58.241853 
0.7180000000000000 0.919950 -172.873100 0.004648 -164.463144 0.004210 174.781189 0.528403 -58.258741 
0.7183750000000000 0.919716 -172.959406 0.004506 -166.409341 0.003957 174.509587 0.528082 -58.416142 
0.7187500000000000 0.923265 -172.906459 0.004479 -165.934172 0.003944 173.470469 0.528027 -58.501834 
0.7191250000000000 0.923184 -173.134808 0.004471 -166.424646 0.004004 171.137880 0.527690 -58.599802 
0.7195000000000000 0.925085 -173.232743 0.004399 -169.219333 0.003838 169.763587 0.527535 -58.729288 
0.7198750000000000 0.925734 -173.344012 0.004422 -171.008424 0.003910 169.680777 0.527515 -58.848080 
0.7202500000000000 0.927240 -173.392835 0.004411 -171.577343 0.003812 167.419886 0.528116 -58.887473 
0.7206250000000000 0.927737 -173.422953 0.004275 -173.621344 0.003751 165.406402 0.526968 -58.940074 
0.7210000000000000 0.929341 -173.551767 0.004343 -175.078077 0.003763 165.347356 0.527680 -59.133423 
0.7213750000000000 0.930310 -173.694675 0.004181 -174.585221 0.003670 163.190937 0.527327 -59.230157 
0.7217500000000000 0.931517 -173.672662 0.004195 -177.247046 0.003683 162.965723 0.526493 -59.415576 
0.7221250000000000 0.932448 -173.769561 0.004078 -178.931460 0.003609 160.145771 0.527592 -59.428424 
0.7225000000000000 0.934775 -173.807708 0.004087 -179.548730 0.003626 159.902478 0.527292 -59.601540 
0.7228750000000001 0.933448 -173.934519 0.004099 -179.896698 0.003514 157.301638 0.526269 -59.640249 
0.7232500000000000 0.934454 -174.027624 0.003960 178.947707 0.003407 159.328049 0.525658 -59.747635 
0.7236250000000000 0.936091 -174.075663 0.003950 175.138413 0.003439 156.865045 0.526356 -59.887993 
0.7240000000000000 0.937171 -174.090019 0.003909 176.580189 0.003305 153.963587 0.526263 -59.932018 
0.7243750000000000 0.936845 -174.174264 0.003790 173.599700 0.003355 155.011154 0.526432 -60.046244 
0.7247500000000000 0.938162 -174.343560 0.003821 173.533066 0.003276 151.100505 0.526210 -60.154969 
0.7251250000000000 0.938211 -174.388804 0.003789 171.383482 0.003301 152.949167 0.525671 -60.270790 
0.7255000000000000 0.937641 -174.400369 0.003726 170.532256 0.003394 150.564853 0.526128 -60.425363 
0.7258750000000001 0.940508 -174.525826 0.003808 168.742133 0.003320 151.051915 0.525064 -60.596714 
0.7262500000000000 0.940681 -174.571651 0.003808 169.079785 0.003186 145.595823 0.525799 -60.603659 
0.7266250000000000 0.941406 -174.657929 0.003804 167.829507 0.003211 147.580364 0.525563 -60.703687 
0.7270000000000000 0.941878 -174.750107 0.003667 165.313139 0.003109 146.273360 0.525432 -60.817718 
0.7273750000000000 0.943376 -174.855242 0.003648 163.406210 0.002950 143.312573 0.525505 -60.940228 
0.7277500000000000 0.942968 -174.923758 0.003689 162.885015 0.003101 142.660519 0.525096 -61.006850 
0.7281250000000000 0.943234 -175.036844 0.003479 161.385031 0.003028 140.493031 0.524482 -61.148746 
0.7285000000000000 0.943638 -175.053856 0.003486 159.957467 0.003122 140.834824 0.524383 -61.313963 
0.7288750000000001 0.944035 -175.163757 0.003436 159.878318 0.002976 139.041218 0.524225 -61.338701 
0.7292500000000000 0.943798 -175.114198 0.003429 158.673902 0.002943 138.724140 0.523971 -61.578103 
0.7296250000000000 0.944982 -175.187187 0.003555 159.985876 0.002973 137.694475 0.524685 -61.567207 
0.7300000000000000 0.946354 -175.394400 0.003489 155.819472 0.002853 134.671621 0.524977 -61.690446 
0.7303750000000000 0.947855 -175.416517 0.003457 154.143658 0.003010 136.492247 0.524034 -61.741055 
0.7307500000000000 0.947804 -175.408866 0.003423 153.721370 0.002728 133.831281 0.522727 -61.887962 
0.7311250000000000 0.950192 -175.549639 0.003328 151.330910 0.002888 132.636399 0.523101 -62.038602 
0.7315000000000000 0.950069 -175.597060 0.003064 150.610174 0.002791 131.072444 0.523847 -62.191399 
0.7318750000000001 0.950889 -175.674632 0.003348 148.730476 0.002742 129.944288 0.523203 -62.203329 
0.7322500000000000 0.952058 -175.768354 0.003141 145.926302 0.002708 128.933197 0.523353 -62.351626 
0.7326250000000000 0.952744 -175.808209 0.003199 147.662411 0.002709 127.365182 0.522522 -62.511557 
0.7330000000000000 0.952725 -175.874371 0.003074 146.125038 0.002660 127.100476 0.523077 -62.648591 
0.7333750000000000 0.953190 -175.946273 0.003113 145.816386 0.002682 124.175943 0.522905 -62.845737 
0.7337500000000000 0.954256 -175.925088 0.003143 143.263952 0.002547 123.174627 0.521964 -62.834189 
0.7341250000000000 0.955433 -176.069546 0.003027 142.536124 0.002555 125.132411 0.522315 -63.068148 
0.7345000000000000 0.954532 -176.054814 0.002988 139.801903 0.002541 120.961455 0.522299 -63.116054 
0.7348749999999999 0.956038 -176.075702 0.002949 141.394797 0.002585 121.450494 0.522404 -63.196947 
0.7352500000000000 0.957149 -176.175475 0.003000 139.723929 0.002484 118.887421 0.521364 -63.304464 
0.7356250000000000 0.957755 -176.291336 0.002851 135.633653 0.002474 121.572773 0.521731 -63.440941 
0.7360000000000000 0.958606 -176.184954 0.002843 138.433091 0.002444 118.988923 0.522484 -63.605565 
0.7363750000000000 0.960329 -176.286693 0.002933 135.512187 0.002533 120.768129 0.521763 -63.682240 
0.7367500000000000 0.957780 -176.382898 0.002856 133.136261 0.002355 116.051468 0.522153 -63.830316 
0.7371250000000000 0.958994 -176.449597 0.002649 132.461192 0.002420 114.979377 0.520847 -63.894363 
0.7375000000000000 0.958976 -176.350874 0.002759 130.877584 0.002381 115.573241 0.521707 -64.059989 
0.7378750000000000 0.962063 -176.380811 0.002590 131.033135 0.002372 113.504077 0.520819 -64.176664 
0.7382500000000000 0.960768 -176.448868 0.002732 129.329521 0.002233 110.193744 0.521092 -64.377385 
0.7386250000000000 0.961630 -176.623289 0.002754 124.556161 0.002251 109.310240 0.520951 -64.440689 
0.7390000000000000 0.962555 -176.677488 0.002739 130.700822 0.002212 109.006277 0.519837 -64.549669 
0.7393750000000000 0.959523 -176.652373 0.002833 125.390560 0.002293 109.672863 0.520296 -64.670451 
0.7397500000000000 0.960957 -176.624564 0.002665 125.383974 0.002213 106.562354 0.520126 -64.773109 
0.7401250000000000 0.962613 -176.619459 0.002804 126.650651 0.002227 105.717866 0.519656 -64.930867 
0.7405000000000001 0.962329 -176.658506 0.002672 123.315688 0.002288 104.312869 0.519267 -64.959103 
0.7408750000000000 0.963260 -176.770832 0.002481 124.084846 0.002247 104.076059 0.519180 -65.203457 
0.7412500000000000 0.963558 -176.844530 0.002575 119.406725 0.002277 101.440556 0.519580 -65.309005 
0.7416250000000000 0.963434 -176.913191 0.002584 121.479691 0.002189 99.996951 0.518768 -65.423541 
0.7420000000000000 0.963047 -176.868311 0.002646 121.081978 0.002173 101.703912 0.518852 -65.557437 
0.7423750000000000 0.961788 -176.977084 0.002472 118.627878 0.002129 100.922362 0.518712 -65.665126 
0.7427500000000000 0.963867 -176.907313 0.002495 119.483767 0.002097 96.776810 0.518732 -65.758572 
0.7431250000000000 0.964039 -176.987784 0.002496 115.854042 0.002166 97.888858 0.518197 -65.898414 
0.7435000000000001 0.964326 -177.079463 0.002358 118.343901 0.002127 95.044709 0.517037 -66.070474 
0.7438750000000000 0.964896 -177.200941 0.002360 113.421262 0.002123 95.157730 0.517075 -66.253480 
0.7442500000000000 0.964183 -177.177079 0.002499 113.803743 0.001995 98.184801 0.517648 -66.251863 
0.7446250000000000 0.966916 -177.271969 0.002369 109.851827 0.002013 93.509889 0.516873 -66.439388 
0.7450000000000000 0.966411 -177.143739 0.002339 112.582352 0.001862 89.457136 0.516416 -66.513319 
0.7453750000000000 0.965674 -177.297459 0.002281 112.424108 0.001976 93.053849 0.516250 -66.726695 
0.7457500000000000 0.967047 -177.337503 0.002284 110.463276 0.001909 90.311329 0.516835 -66.747216 
0.7461250000000000 0.966911 -177.434881 0.002350 105.116199 0.001979 88.612416 0.516150 -66.898831 
0.7465000000000001 0.968464 -177.482371 0.002291 105.589870 0.001924 87.603565 0.516402 -67.032156 
0.7468750000000000 0.968183 -177.449101 0.002303 103.938405 0.001897 87.975799 0.515743 -67.170453 
0.7472500000000000 0.969390 -177.553382 0.002183 104.458081 0.001902 86.841881 0.515445 -67.266887 
0.7476250000000000 0.969676 -177.496348 0.002241 105.422461 0.001847 84.715169 0.514799 -67.439177 
0.7480000000000000 0.969127 -177.578003 0.002251 101.704537 0.001885 81.733561 0.514924 -67.591971 
0.7483750000000000 0.969160 -177.617812 0.002238 103.876378 0.001882 81.081139 0.514472 -67.714513 
0.7487500000000000 0.970200 -177.616757 0.002114 97.540623 0.001855 80.474116 0.514074 -67.813940 
0.7491250000000000 0.971376 -177.594423 0.002178 98.950944 0.001906 83.964168 0.514243 -67.939078 
0.7495000000000001 0.971013 -177.676427 0.002104 98.526273 0.001663 80.478245 0.513282 -68.068283 
0.7498750000000000 0.971692 -177.757290 0.002175 95.494668 0.001844 78.418341 0.513127 -68.211877 
0.7502500000000000 0.970619 -177.808895 0.002063 94.146250 0.001750 76.508974 0.512913 -68.290380 
0.7506250000000000 0.970896 -177.759056 0.002277 96.895435 0.001785 78.221717 0.512821 -68.575952 
0.7510000000000000 0.973317 -177.793397 0.002127 94.928157 0.001795 72.782850 0.512791 -68.640559 
0.7513750000000000 0.973181 -177.814665 0.002030 94.192775 0.001729 74.007411 0.511639 -68.689156 
0.7517500000000000 0.973113 -177.825301 0.002117 92.446525 0.001751 74.171925 0.511377 -68.868464 
0.7521250000000000 0.973226 -177.839937 0.001985 93.705121 0.001807 72.721069 0.511712 -68.923235 
0.7525000000000000 0.972869 -177.824756 0.002065 91.071814 0.001709 73.552958 0.510999 -69.112352 
0.7528750000000000 0.973775 -177.938185 0.002081 89.629032 0.001636 66.848566 0.511126 -69.238551 
0.7532500000000000 0.973610 -177.909081 0.002055 85.858246 0.001634 67.613266 0.509906 -69.300272 
0.7536250000000000 0.973534 -178.034722 0.001949 86.260772 0.001716 67.314619 0.509919 -69.432716 
0.7540000000000000 0.974061 -177.870532 0.001850 84.165264 0.001662 63.736423 0.509120 -69.673878 
0.7543750000000000 0.973078 -177.979860 0.001968 82.164824 0.001599 66.501946 0.509419 -69.741239 
0.7547500000000000 0.974104 -177.999951 0.002007 80.962794 0.001625 64.214876 0.509502 -69.825142 
0.7551250000000001 0.973263 -178.080912 0.001923 81.417240 0.001644 65.544019 0.508735 -69.991048 
0.7555000000000000 0.973611 -178.113942 0.001816 83.158122 0.001646 60.408511 0.508662 -70.053903 
0.7558750000000000 0.974648 -178.115950 0.001782 78.666768 0.001664 60.848896 0.507896 -70.293380 
0.7562500000000000 0.974260 -178.154704 0.001813 81.194256 0.001680 57.713139 0.507539 -70.344789 
0.7566250000000000 0.974250 -178.172643 0.001874 74.070122 0.001488 60.157795 0.506782 -70.471733 
0.7570000000000000 0.973608 -178.232527 0.001894 79.217726 0.001589 61.506839 0.505844 -70.606360 
0.7573750000000000 0.974447 -178.262773 0.001885 75.775715 0.001539 56.254551 0.506583 -70.785700 
0.7577500000000000 0.974225 -178.219283 0.001860 74.126748 0.001471 55.483337 0.506296 -70.847511 
0.7581250000000001 0.975109 -178.281893 0.001781 74.294248 0.001481 56.744754 0.505953 -70.991294 
0.7585000000000000 0.975950 -178.433933 0.001648 73.224158 0.001530 55.077826 0.504731 -71.064406 
0.7588750000000000 0.975674 -178.372534 0.001807 70.264560 0.001360 53.360196 0.505394 -71.261997 
0.7592500000000000 0.976763 -178.528354 0.001747 71.321468 0.001528 53.066644 0.504530 -71.400658 
0.7596250000000000 0.975884 -178.584382 0.001747 76.196117 0.001526 49.575428 0.503776 -71.481633 
0.7600000000000000 0.976422 -178.470517 0.001754 67.410995 0.001421 45.057794 0.503554 -71.634229 
0.7603750000000000 0.977911 -178.555124 0.001761 71.035209 0.001447 47.399704 0.503180 -71.740872 
0.7607500000000000 0.978147 -178.573354 0.001664 63.765285 0.001424 44.406555 0.502684 -71.890642 
0.7611250000000001 0.976491 -178.592428 0.001722 69.912497 0.001374 46.912890 0.502793 -71.953260 
0.7615000000000000 0.976552 -178.746542 0.001639 65.730258 0.001403 44.948374 0.501880 -72.139056 
0.7618750000000000 0.976696 -178.689424 0.001693 59.976822 0.001393 45.416084 0.501645 -72.291448 
0.7622500000000000 0.978879 -178.728081 0.001691 62.267987 0.001395 44.802657 0.501529 -72.378713 
0.7626250000000000 0.980274 -178.751302 0.001730 62.557513 0.001453 42.968486 0.500670 -72.515978 
0.7630000000000000 0.979069 -178.878378 0.001515 64.647178 0.001343 37.483030 0.501195 -72.604353 
0.7633750000000000 0.978888 -178.874596 0.001647 59.741777 0.001495 39.580338 0.499746 -72.713607 
0.7637500000000000 0.979677 -178.886214 0.001640 54.104939 0.001385 36.719963 0.499467 -72.875908 
0.7641250000000001 0.981044 -178.816460 0.001523 57.218985 0.001435 37.159322 0.498945 -72.963746 
0.7645000000000000 0.979504 -178.857450 0.001514 54.908185 0.001302 36.685804 0.499168 -73.059516 
0.7648750000000000 0.980715 -178.887393 0.001572 53.295240 0.001230 35.165295 0.498893 -73.236636 
0.7652500000000000 0.980399 -178.919143 0.001513 55.061247 0.001245 33.200053 0.498132 -73.283612 
0.7656250000000000 0.980502 -178.979899 0.001464 52.844640 0.001350 32.765785 0.497833 -73.460221 
0.7660000000000000 0.979567 -179.046765 0.001599 54.756325 0.001370 32.214098 0.497393 -73.694381 
0.7663750000000000 0.981651 -179.016723 0.001434 49.953539 0.001296 29.978925 0.495954 -73.811016 
0.7667500000000000 0.981685 -179.112952 0.001550 50.892251 0.001312 26.050579 0.495228 -73.834422 
0.7671250000000000 0.981889 -179.038334 0.001706 48.631801 0.001230 33.178782 0.496172 -73.990710 
0.7675000000000000 0.981497 -179.130599 0.001734 50.722507 0.001301 27.301154 0.495731 -74.078832 
0.7678750000000000 0.981314 -179.130437 0.001454 43.644466 0.001275 28.634826 0.494198 -74.186307 
0.7682500000000000 0.982590 -179.152923 0.001421 42.855263 0.001244 25.423459 0.494817 -74.283710 
0.7686250000000000 0.981635 -179.073714 0.001417 50.893034 0.001124 23.605022 0.495350 -74.469653 
0.7690000000000000 0.980891 -179.115799 0.001513 43.106275 0.001222 23.517502 0.494393 -74.446161 
0.7693750000000000 0.981530 -179.248214 0.001457 41.716474 0.001213 27.243581 0.493796 -74.643640 
0.7697500000000001 0.982082 -179.234392 0.001363 38.774106 0.001361 14.206646 0.493209 -74.812358 
0.7701250000000000 0.983232 -179.277972 0.001501 42.221322 0.001144 21.755395 0.492625 -74.941005 
0.7705000000000000 0.979858 -179.361146 0.001328 39.008517 0.001039 20.849191 0.491602 -75.056213 
0.7708750000000000 0.981734 -179.451425 0.001454 40.486619 0.001319 17.576108 0.491878 -75.156741 
0.7712500000000000 0.981318 -179.387044 0.001398 39.999432 0.001239 17.187822 0.492284 -75.382260 
0.7716250000000000 0.981913 -179.480018 0.001391 36.378725 0.001196 14.723081 0.491045 -75.414482 
0.7720000000000000 0.982145 -179.562038 0.001499 37.882165 0.001128 16.413105 0.490937 -75.462733 
