!
! C:\Users\rflab\Downloads\Lab5_KD_ZW\Q2\728 MHz\160.S2P
!
! Touchstone 1.1 file saved by VNA.EXE V1.65 (www.ke5fx.com/gpib/readme.htm)
! 11/18/2024 9:18:58 PM
!
!    Source: HEWLETT PACKARD,8753D,0,6.14
!  Min freq: 7.000000E+008 Hz
!  Max freq: 1.000000E+009 Hz
!    Points: 801
!    Params: S11 S21 S12 S22
!
!!!!!
# GHZ S MA R 50
0.7000000000000000 0.812909 -165.423289 0.010475 -85.263432 0.009910 -103.149594 0.535513 -53.462497 
0.7003750000000000 0.818878 -165.686172 0.010364 -87.046097 0.009638 -105.516678 0.535875 -53.487068 
0.7007500000000000 0.821431 -165.867731 0.010242 -88.135104 0.009552 -106.931559 0.535732 -53.634039 
0.7011250000000000 0.825177 -166.103542 0.009987 -90.527969 0.009419 -108.938521 0.535316 -53.755295 
0.7015000000000000 0.828538 -166.343543 0.009982 -91.828637 0.009280 -109.811066 0.535718 -53.851447 
0.7018750000000000 0.832553 -166.596409 0.009896 -92.024124 0.009054 -112.304632 0.534922 -53.934897 
0.7022500000000000 0.836213 -166.699136 0.009718 -95.214028 0.009029 -113.972626 0.535059 -53.998089 
0.7026250000000001 0.838681 -166.948814 0.009443 -96.247532 0.008717 -115.543245 0.534524 -54.093838 
0.7030000000000000 0.842261 -167.150093 0.009366 -98.614425 0.008576 -117.023793 0.534727 -54.343350 
0.7033750000000000 0.845559 -167.362182 0.009250 -99.980436 0.008499 -119.585394 0.535462 -54.295300 
0.7037500000000000 0.848544 -167.538241 0.009159 -101.477837 0.008316 -120.198030 0.535329 -54.505993 
0.7041250000000000 0.852281 -167.753358 0.008941 -102.659068 0.008257 -122.206000 0.534812 -54.594963 
0.7045000000000000 0.855436 -167.878687 0.008905 -104.127027 0.008048 -123.920733 0.534798 -54.710125 
0.7048750000000000 0.856835 -168.086537 0.008800 -105.586758 0.008000 -124.830584 0.535534 -54.813784 
0.7052500000000000 0.860395 -168.223756 0.008675 -106.519461 0.007815 -125.763644 0.535046 -54.944799 
0.7056250000000000 0.864277 -168.438516 0.008417 -108.487303 0.007705 -127.713877 0.534836 -55.016820 
0.7060000000000000 0.866423 -168.632282 0.008542 -109.571856 0.007631 -130.138382 0.535076 -55.174229 
0.7063750000000000 0.869236 -168.690068 0.008363 -111.931828 0.007598 -131.313116 0.534319 -55.101808 
0.7067500000000000 0.871240 -168.892373 0.008274 -112.746357 0.007471 -132.459904 0.533683 -55.297593 
0.7071250000000000 0.874009 -169.091047 0.008137 -113.847598 0.007341 -133.068050 0.533936 -55.356213 
0.7075000000000000 0.874433 -169.222623 0.008007 -116.421613 0.007194 -134.760986 0.533713 -55.558458 
0.7078750000000000 0.878340 -169.396731 0.008015 -116.905002 0.007095 -136.045689 0.533668 -55.658366 
0.7082500000000001 0.880822 -169.418877 0.007878 -118.930983 0.007051 -137.905641 0.533202 -55.743292 
0.7086250000000000 0.881097 -169.628057 0.007671 -120.374356 0.007061 -139.313091 0.533821 -55.832076 
0.7090000000000000 0.884928 -169.721666 0.007692 -120.370461 0.006887 -141.223094 0.532972 -55.861343 
0.7093750000000000 0.887503 -169.843884 0.007645 -122.653195 0.006732 -143.508346 0.532494 -56.107755 
0.7097500000000000 0.886164 -170.060830 0.007620 -124.196254 0.006671 -143.296369 0.532950 -56.152513 
0.7101250000000000 0.888639 -170.084804 0.007304 -125.556813 0.006595 -145.671116 0.532466 -56.212476 
0.7105000000000000 0.890570 -170.242014 0.007322 -126.688549 0.006707 -146.350601 0.531805 -56.295338 
0.7108750000000000 0.893348 -170.455305 0.007226 -128.874146 0.006553 -148.242546 0.532882 -56.459180 
0.7112500000000001 0.894904 -170.618626 0.007182 -129.617558 0.006427 -149.190057 0.532352 -56.575024 
0.7116250000000000 0.896018 -170.642264 0.007173 -132.073845 0.006382 -150.383620 0.532164 -56.695412 
0.7120000000000000 0.898062 -170.786066 0.007030 -133.147607 0.006171 -152.189497 0.532439 -56.758061 
0.7123750000000000 0.899388 -170.921858 0.006917 -134.757021 0.006117 -154.112088 0.531306 -56.957088 
0.7127500000000000 0.902275 -170.978611 0.006975 -135.598311 0.006217 -155.475303 0.530622 -57.180032 
0.7131250000000000 0.901430 -171.170367 0.006870 -137.889228 0.005996 -156.376627 0.531325 -57.056564 
0.7135000000000000 0.902993 -171.315084 0.006751 -138.659880 0.006056 -157.950627 0.530884 -57.233504 
0.7138750000000000 0.904028 -171.270310 0.006688 -139.287932 0.005888 -160.681703 0.530789 -57.328711 
0.7142500000000001 0.906875 -171.551418 0.006676 -141.190630 0.005897 -161.301357 0.530510 -57.430725 
0.7146250000000000 0.906907 -171.723205 0.006415 -142.844775 0.005682 -161.146901 0.530383 -57.605673 
0.7150000000000000 0.907941 -171.783292 0.006468 -143.526335 0.005631 -163.111838 0.530364 -57.596572 
0.7153750000000000 0.911125 -171.901382 0.006297 -145.305121 0.005721 -165.312824 0.529150 -57.736118 
0.7157500000000000 0.912130 -172.030392 0.006213 -147.047848 0.005578 -166.741814 0.530436 -57.905516 
0.7161250000000000 0.913425 -172.169310 0.006241 -147.918975 0.005528 -168.781660 0.529475 -57.984464 
0.7165000000000000 0.912463 -172.300254 0.006103 -149.700379 0.005486 -169.219426 0.529758 -58.116367 
0.7168750000000000 0.915172 -172.473538 0.006140 -151.088030 0.005407 -171.255374 0.529238 -58.163069 
0.7172500000000001 0.917816 -172.533767 0.006025 -151.542614 0.005288 -171.850535 0.528823 -58.248016 
0.7176250000000000 0.918349 -172.691722 0.005970 -154.853438 0.005167 -172.688390 0.528406 -58.371690 
0.7180000000000000 0.919317 -172.730134 0.005809 -154.879975 0.005202 -174.086653 0.528994 -58.457462 
0.7183750000000000 0.920972 -172.884875 0.005839 -155.722548 0.005225 -176.172011 0.527717 -58.582219 
0.7187500000000000 0.922735 -172.894729 0.005742 -157.210657 0.005099 -176.883025 0.528133 -58.718275 
0.7191250000000000 0.922920 -173.018330 0.005766 -159.150604 0.005090 -178.904899 0.528636 -58.704963 
0.7195000000000000 0.925165 -173.191452 0.005655 -160.067658 0.004917 -178.641428 0.527540 -58.869124 
0.7198750000000000 0.926437 -173.200850 0.005543 -161.510500 0.004869 179.859713 0.527078 -59.036242 
0.7202500000000000 0.926825 -173.351884 0.005484 -162.797091 0.004871 177.640908 0.527251 -59.140321 
0.7206250000000000 0.927018 -173.379857 0.005576 -164.524413 0.004737 174.301456 0.526656 -59.190542 
0.7210000000000000 0.930291 -173.569727 0.005476 -166.575490 0.004749 173.719528 0.527077 -59.379885 
0.7213750000000000 0.930661 -173.670597 0.005243 -166.859892 0.004659 174.025072 0.526622 -59.385302 
0.7217500000000000 0.933431 -173.666842 0.005324 -168.090725 0.004652 173.077119 0.526181 -59.584501 
0.7221250000000000 0.933324 -173.760357 0.005208 -168.803222 0.004488 169.340150 0.526714 -59.583938 
0.7225000000000000 0.934167 -173.769773 0.005165 -169.338918 0.004621 169.409582 0.526875 -59.724930 
0.7228750000000001 0.932597 -173.789421 0.005164 -172.103317 0.004473 168.917683 0.526241 -59.849998 
0.7232500000000000 0.934556 -173.968078 0.005088 -173.053153 0.004521 167.854601 0.525212 -59.904120 
0.7236250000000000 0.934848 -174.048951 0.004984 -173.001119 0.004446 165.824407 0.525489 -60.071459 
0.7240000000000000 0.936839 -174.177977 0.005048 -175.326922 0.004368 166.497693 0.525193 -60.087456 
0.7243750000000000 0.935710 -174.155903 0.004907 -177.507666 0.004271 165.892378 0.525547 -60.220869 
0.7247500000000000 0.937251 -174.263047 0.004910 -176.085440 0.004277 162.904311 0.525275 -60.353384 
0.7251250000000000 0.939455 -174.265331 0.004840 -178.328759 0.004170 160.854356 0.524241 -60.484720 
0.7255000000000000 0.937934 -174.447080 0.004941 -179.787119 0.004143 159.519977 0.524394 -60.658776 
0.7258750000000001 0.941483 -174.490468 0.004725 179.199177 0.004164 157.837925 0.523817 -60.696067 
0.7262500000000000 0.942394 -174.574093 0.004869 178.195720 0.004083 155.735871 0.524725 -60.744081 
0.7266250000000000 0.939926 -174.623338 0.004755 178.204072 0.003933 157.442654 0.524447 -60.723250 
0.7270000000000000 0.941300 -174.687175 0.004649 175.048973 0.004097 156.809293 0.524058 -60.970670 
0.7273750000000000 0.943105 -174.790465 0.004492 173.928447 0.003965 154.400173 0.523898 -61.140219 
0.7277500000000000 0.942835 -174.889522 0.004566 174.829143 0.003980 152.408827 0.523925 -61.141829 
0.7281250000000000 0.943893 -174.962217 0.004386 170.541267 0.003964 151.254350 0.524139 -61.230858 
0.7285000000000000 0.944556 -174.969481 0.004378 171.431749 0.003909 150.264876 0.522826 -61.395944 
0.7288750000000001 0.945209 -175.069522 0.004555 170.504652 0.003840 148.081354 0.522247 -61.414658 
0.7292500000000000 0.944051 -175.022557 0.004263 167.670012 0.003873 146.476233 0.521837 -61.687438 
0.7296250000000000 0.945597 -175.142071 0.004496 165.557699 0.003708 146.586841 0.522280 -61.618524 
0.7300000000000000 0.946589 -175.310297 0.004334 165.304729 0.003669 146.547960 0.522942 -61.794352 
0.7303750000000000 0.946892 -175.404432 0.004266 164.139056 0.003734 144.177424 0.521761 -61.873101 
0.7307500000000000 0.948299 -175.359470 0.004298 162.474596 0.003590 143.749631 0.520928 -61.987736 
0.7311250000000000 0.950465 -175.480799 0.004338 162.323821 0.003678 142.259540 0.521343 -62.087908 
0.7315000000000000 0.949274 -175.549024 0.004210 162.246306 0.003529 141.110745 0.522195 -62.262355 
0.7318750000000001 0.950627 -175.640230 0.004104 159.556169 0.003499 139.092306 0.522005 -62.330855 
0.7322500000000000 0.951845 -175.693719 0.004102 157.376798 0.003593 137.938183 0.521314 -62.381899 
0.7326250000000000 0.952566 -175.803742 0.004108 156.577206 0.003471 137.065579 0.520429 -62.546911 
0.7330000000000000 0.952795 -175.867313 0.004056 154.453904 0.003387 134.154269 0.521164 -62.668214 
0.7333750000000000 0.953834 -175.868148 0.003899 155.740144 0.003512 134.822623 0.520455 -62.775358 
0.7337500000000000 0.953964 -175.912816 0.004127 152.322539 0.003355 135.668040 0.519788 -62.903886 
0.7341250000000000 0.955900 -175.983455 0.003845 151.262668 0.003414 131.274952 0.520556 -63.041381 
0.7345000000000000 0.955498 -176.066145 0.004004 150.046943 0.003416 128.820292 0.520607 -63.104494 
0.7348749999999999 0.956056 -175.954777 0.003909 150.596470 0.003322 131.263676 0.519880 -63.180749 
0.7352500000000000 0.956832 -176.185196 0.003711 148.213531 0.003145 130.911754 0.519277 -63.237679 
0.7356250000000000 0.959076 -176.314718 0.003834 147.152471 0.003262 128.151576 0.518906 -63.416861 
0.7360000000000000 0.959159 -176.128689 0.003784 146.345473 0.003106 126.459169 0.519999 -63.552245 
0.7363750000000000 0.958748 -176.222077 0.003735 144.960038 0.003136 126.032971 0.519701 -63.633567 
0.7367500000000000 0.958229 -176.362655 0.003736 143.588300 0.003069 124.887166 0.518898 -63.706207 
0.7371250000000000 0.959223 -176.348164 0.003762 143.777888 0.003153 123.643809 0.518760 -63.912793 
0.7375000000000000 0.959310 -176.268129 0.003555 142.043626 0.003047 124.036997 0.518427 -64.011140 
0.7378750000000000 0.961316 -176.392578 0.003729 141.698336 0.002980 121.152457 0.518951 -64.192904 
0.7382500000000000 0.960011 -176.354815 0.003511 139.982488 0.002903 122.090435 0.519432 -64.323186 
0.7386250000000000 0.960935 -176.584388 0.003679 137.623902 0.002982 116.474899 0.518404 -64.388306 
0.7390000000000000 0.961495 -176.575446 0.003612 140.014797 0.002946 119.022169 0.518204 -64.418856 
0.7393750000000000 0.959421 -176.509611 0.003531 136.504567 0.002945 119.076681 0.517963 -64.529541 
0.7397500000000000 0.962106 -176.515719 0.003446 135.665723 0.002954 116.294106 0.517890 -64.719985 
0.7401250000000000 0.962955 -176.522434 0.003193 134.689886 0.002832 115.560721 0.517711 -64.777843 
0.7405000000000001 0.963208 -176.697925 0.003403 130.565165 0.003017 113.080294 0.516742 -64.902976 
0.7408750000000000 0.962878 -176.660412 0.003323 130.737950 0.002845 113.672953 0.517245 -65.063369 
0.7412500000000000 0.961212 -176.804025 0.003282 129.784260 0.002804 112.251994 0.517727 -65.181220 
0.7416250000000000 0.961300 -176.775170 0.003291 131.730057 0.002748 110.841959 0.516632 -65.169780 
0.7420000000000000 0.962407 -176.833473 0.003265 130.086513 0.002724 110.412834 0.517214 -65.344806 
0.7423750000000000 0.961260 -176.884342 0.003189 129.259266 0.002759 107.706749 0.516987 -65.448565 
0.7427500000000000 0.963809 -176.903494 0.003069 127.806472 0.002775 105.547435 0.517292 -65.627375 
0.7431250000000000 0.963420 -176.996752 0.003142 122.759246 0.002705 104.451521 0.516753 -65.726581 
0.7435000000000001 0.963909 -177.067299 0.003154 125.627297 0.002625 105.721314 0.515174 -65.777675 
0.7438750000000000 0.965454 -177.119145 0.003194 123.993778 0.002727 103.561786 0.515448 -65.992045 
0.7442500000000000 0.965033 -177.183197 0.003106 121.734277 0.002505 103.837164 0.516105 -66.128323 
0.7446250000000000 0.966170 -177.139402 0.003052 123.230737 0.002621 100.553065 0.516028 -66.172718 
0.7450000000000000 0.966472 -177.143919 0.003136 122.741506 0.002618 99.763435 0.515774 -66.338013 
0.7453750000000000 0.965598 -177.239236 0.003018 122.002029 0.002614 101.499036 0.516456 -66.452436 
0.7457500000000000 0.967369 -177.316676 0.002962 117.012626 0.002575 98.686681 0.514929 -66.545027 
0.7461250000000000 0.968552 -177.366943 0.002999 117.566245 0.002543 100.998047 0.514648 -66.668467 
0.7465000000000001 0.969081 -177.393669 0.002918 117.174312 0.002496 97.028954 0.515200 -66.861127 
0.7468750000000000 0.968447 -177.424492 0.003002 113.244609 0.002541 94.288819 0.514571 -67.034323 
0.7472500000000000 0.968199 -177.510604 0.002800 114.513612 0.002527 93.391699 0.513863 -67.063687 
0.7476250000000000 0.970195 -177.537377 0.003046 116.205097 0.002471 91.717115 0.514173 -67.244365 
0.7480000000000000 0.969281 -177.535052 0.002898 110.715199 0.002337 93.055022 0.513989 -67.302156 
0.7483750000000000 0.971071 -177.593667 0.002911 110.289155 0.002371 88.562587 0.513700 -67.344002 
0.7487500000000000 0.969148 -177.635838 0.002796 109.693423 0.002342 90.921740 0.513327 -67.577434 
0.7491250000000000 0.971574 -177.573298 0.002838 109.909096 0.002485 88.658517 0.513346 -67.688783 
0.7495000000000001 0.971006 -177.687222 0.002821 106.847443 0.002371 86.128054 0.513406 -67.798264 
0.7498750000000000 0.970191 -177.717746 0.002777 103.990312 0.002239 87.846160 0.511876 -67.901730 
0.7502500000000000 0.973502 -177.790223 0.002760 105.809747 0.002376 83.631233 0.512239 -68.083861 
0.7506250000000000 0.971577 -177.656162 0.002816 104.132141 0.002365 86.705942 0.511501 -68.216369 
0.7510000000000000 0.973254 -177.796850 0.002686 103.329935 0.002279 83.290501 0.512420 -68.327222 
0.7513750000000000 0.971757 -177.660199 0.002820 102.596321 0.002290 83.291549 0.512441 -68.441897 
0.7517500000000000 0.973350 -177.743135 0.002641 97.864537 0.002392 82.044760 0.510996 -68.572854 
0.7521250000000000 0.971914 -177.790211 0.002763 99.578165 0.002234 79.853189 0.511687 -68.731627 
0.7525000000000000 0.971769 -177.825893 0.002665 97.645796 0.002326 78.659535 0.510875 -68.938402 
0.7528750000000000 0.973795 -177.905885 0.002627 98.497081 0.002102 77.218789 0.511081 -68.954628 
0.7532500000000000 0.975056 -177.940895 0.002743 96.955128 0.002202 80.206196 0.510209 -69.133492 
0.7536250000000000 0.972969 -177.958055 0.002642 94.588249 0.002150 77.938741 0.510733 -69.152244 
0.7540000000000000 0.973562 -177.887412 0.002504 94.639505 0.002079 77.379613 0.509548 -69.417045 
0.7543750000000000 0.973355 -178.027171 0.002584 94.195975 0.002136 74.154301 0.509844 -69.484496 
0.7547500000000000 0.973745 -177.988431 0.002551 89.135306 0.002145 74.400189 0.510193 -69.605205 
0.7551250000000001 0.973589 -178.045614 0.002473 92.820621 0.002205 72.473964 0.508908 -69.738321 
0.7555000000000000 0.974849 -178.084036 0.002484 86.645655 0.002037 71.480219 0.509038 -69.827899 
0.7558750000000000 0.975915 -178.035933 0.002477 86.476477 0.002218 68.183738 0.508972 -70.008091 
0.7562500000000000 0.972649 -178.086895 0.002501 87.336684 0.002146 66.980295 0.508045 -70.094526 
0.7566250000000000 0.974532 -178.104954 0.002434 87.819177 0.002089 65.295426 0.507634 -70.161975 
0.7570000000000000 0.974107 -178.211883 0.002378 85.756600 0.002023 65.898014 0.507042 -70.266147 
0.7573750000000000 0.975900 -178.286872 0.002291 85.358685 0.002012 67.179850 0.508080 -70.501741 
0.7577500000000000 0.975048 -178.281785 0.002289 80.711341 0.002017 63.283495 0.507116 -70.624040 
0.7581250000000001 0.976584 -178.262994 0.002382 84.655517 0.001986 60.960089 0.506938 -70.796066 
0.7585000000000000 0.975342 -178.429369 0.002419 82.802156 0.002033 61.332148 0.506699 -70.863359 
0.7588750000000000 0.975864 -178.358511 0.002384 81.991861 0.001952 59.879313 0.506115 -71.012232 
0.7592500000000000 0.977291 -178.439661 0.002418 80.463837 0.001955 59.156075 0.505432 -71.109944 
0.7596250000000000 0.976467 -178.506414 0.002260 76.889425 0.001950 59.971786 0.504912 -71.250752 
0.7600000000000000 0.977265 -178.496894 0.002335 78.286730 0.001825 62.447325 0.505138 -71.412904 
0.7603750000000000 0.977736 -178.536975 0.002388 76.166318 0.001857 59.768437 0.504278 -71.529966 
0.7607500000000000 0.977479 -178.565221 0.002233 76.463800 0.001878 59.880230 0.504578 -71.669157 
0.7611250000000001 0.977683 -178.519006 0.002131 75.655938 0.001735 53.249018 0.504626 -71.696538 
0.7615000000000000 0.977610 -178.694227 0.002229 74.505914 0.001876 51.262864 0.503338 -71.852868 
0.7618750000000000 0.978457 -178.713233 0.002158 71.538013 0.001828 50.829128 0.503599 -72.019618 
0.7622500000000000 0.979587 -178.636157 0.002202 70.580276 0.001845 51.013529 0.502782 -72.183122 
0.7626250000000000 0.979480 -178.753860 0.002194 68.163332 0.001822 49.697152 0.502973 -72.263137 
0.7630000000000000 0.979224 -178.785683 0.002293 67.416570 0.001823 47.419806 0.503243 -72.418798 
0.7633750000000000 0.979156 -178.803460 0.002240 67.713257 0.001813 49.150326 0.502237 -72.539433 
0.7637500000000000 0.980851 -178.844755 0.002160 67.675952 0.001858 46.712879 0.501504 -72.666561 
0.7641250000000001 0.980909 -178.855520 0.002145 65.235309 0.001781 48.085495 0.501532 -72.820889 
0.7645000000000000 0.981427 -178.770589 0.002176 63.426524 0.001780 45.705301 0.500616 -72.876215 
0.7648750000000000 0.980162 -178.897471 0.002176 63.340914 0.001688 40.522278 0.500743 -73.103428 
0.7652500000000000 0.980837 -178.887531 0.001958 61.265636 0.001731 40.139961 0.499621 -73.177733 
0.7656250000000000 0.980633 -178.951501 0.002291 64.228352 0.001725 43.866044 0.499609 -73.243096 
0.7660000000000000 0.980126 -179.011624 0.002192 60.665495 0.001770 42.470397 0.499935 -73.546309 
0.7663750000000000 0.981596 -178.995289 0.002118 60.301505 0.001685 36.608015 0.498408 -73.607887 
0.7667500000000000 0.981513 -179.073599 0.002064 63.053118 0.001649 35.958876 0.498334 -73.736988 
0.7671250000000000 0.981595 -178.998851 0.002038 59.883028 0.001626 35.909363 0.498677 -73.865324 
0.7675000000000000 0.982120 -179.084855 0.002018 57.163299 0.001739 39.108699 0.498406 -73.973159 
0.7678750000000000 0.982426 -179.081580 0.001915 56.746169 0.001651 39.117946 0.496993 -74.120330 
0.7682500000000000 0.982286 -179.149100 0.001991 51.709278 0.001681 34.027011 0.497138 -74.242053 
0.7686250000000000 0.982355 -179.117117 0.002001 54.349249 0.001590 35.561141 0.497064 -74.389463 
0.7690000000000000 0.980600 -179.062036 0.001810 53.350443 0.001594 32.809376 0.496048 -74.495698 
0.7693750000000000 0.982035 -179.177374 0.002135 53.067393 0.001580 22.820439 0.495610 -74.639060 
0.7697500000000001 0.980503 -179.201057 0.001860 49.472778 0.001538 29.735527 0.495029 -74.737752 
0.7701250000000000 0.981396 -179.301566 0.001951 46.378961 0.001579 33.451385 0.494843 -74.871015 
0.7705000000000000 0.980709 -179.379531 0.001922 50.180327 0.001553 26.771533 0.494596 -75.031688 
0.7708750000000000 0.981935 -179.351813 0.001872 49.376553 0.001527 25.729050 0.493442 -75.135236 
0.7712500000000000 0.981380 -179.383519 0.001882 49.080691 0.001609 26.937173 0.493743 -75.294650 
0.7716250000000000 0.980768 -179.393831 0.001765 43.902659 0.001510 24.871505 0.493180 -75.376444 
