!
! C:\Users\rflab\Downloads\Lab5_KD_ZW\Q2\728 MHz\180.S2P
!
! Touchstone 1.1 file saved by VNA.EXE V1.65 (www.ke5fx.com/gpib/readme.htm)
! 11/18/2024 9:20:13 PM
!
!    Source: HEWLETT PACKARD,8753D,0,6.14
!  Min freq: 7.000000E+008 Hz
!  Max freq: 1.000000E+009 Hz
!    Points: 801
!    Params: S11 S21 S12 S22
!
!!!!!
# GHZ S MA R 50
0.7000000000000000 0.813669 -165.663544 0.011487 -85.423803 0.010715 -102.966332 0.537607 -53.320040 
0.7003750000000000 0.818677 -165.863262 0.011403 -87.190955 0.010498 -105.597939 0.536259 -53.480944 
0.7007500000000000 0.821089 -166.015404 0.011094 -87.768252 0.010334 -107.170760 0.536912 -53.649871 
0.7011250000000000 0.825591 -166.324357 0.011011 -90.240675 0.010219 -108.527947 0.537164 -53.734267 
0.7015000000000000 0.829726 -166.597543 0.010804 -91.757764 0.010055 -109.653458 0.537200 -53.894378 
0.7018750000000000 0.831931 -166.758997 0.010609 -93.125403 0.009873 -111.569151 0.535795 -53.934238 
0.7022500000000000 0.835804 -166.928860 0.010453 -94.780788 0.009591 -113.705062 0.536334 -54.032551 
0.7026250000000001 0.839364 -167.117803 0.010384 -95.697505 0.009647 -115.349136 0.536211 -54.067331 
0.7030000000000000 0.841904 -167.370274 0.010198 -97.914901 0.009369 -116.857189 0.535782 -54.275666 
0.7033750000000000 0.845280 -167.523245 0.010097 -99.001467 0.009303 -118.496079 0.536423 -54.336900 
0.7037500000000000 0.849459 -167.737326 0.009898 -100.719352 0.009047 -120.319474 0.537259 -54.452866 
0.7041250000000000 0.851920 -167.924448 0.009833 -102.606858 0.008955 -121.393846 0.536476 -54.581289 
0.7045000000000000 0.856147 -168.047601 0.009580 -103.312046 0.008824 -122.689648 0.536405 -54.715827 
0.7048750000000000 0.857762 -168.328669 0.009498 -105.126711 0.008607 -125.382337 0.536859 -54.698201 
0.7052500000000000 0.860841 -168.441494 0.009399 -107.247201 0.008442 -126.172755 0.535726 -54.932044 
0.7056250000000000 0.864915 -168.616326 0.009311 -108.283701 0.008399 -127.573152 0.535116 -55.053754 
0.7060000000000000 0.867167 -168.818979 0.009296 -109.720451 0.008275 -129.071279 0.536038 -55.186220 
0.7063750000000000 0.868750 -168.872428 0.008958 -110.336167 0.008170 -131.464970 0.535348 -55.258165 
0.7067500000000000 0.870948 -169.117658 0.008914 -112.486663 0.007992 -132.524097 0.534711 -55.322223 
0.7071250000000000 0.874367 -169.266590 0.008836 -113.922928 0.007912 -133.075558 0.534463 -55.395270 
0.7075000000000000 0.875236 -169.374942 0.008928 -115.515317 0.007847 -134.874442 0.535160 -55.632994 
0.7078750000000000 0.878239 -169.541298 0.008622 -116.847048 0.007860 -135.818492 0.534761 -55.643378 
0.7082500000000001 0.880654 -169.719662 0.008467 -118.550975 0.007723 -138.095878 0.534285 -55.747171 
0.7086250000000000 0.881419 -169.756899 0.008479 -119.684933 0.007534 -139.478943 0.534102 -55.927664 
0.7090000000000000 0.884940 -169.918540 0.008236 -120.981390 0.007401 -139.452356 0.534131 -56.016666 
0.7093750000000000 0.886770 -170.111727 0.008286 -122.509376 0.007330 -141.303520 0.533744 -56.201813 
0.7097500000000000 0.887150 -170.224021 0.008154 -123.340635 0.007308 -143.660952 0.533253 -56.209899 
0.7101250000000000 0.889399 -170.356685 0.008034 -125.861852 0.007273 -144.036148 0.532863 -56.284447 
0.7105000000000000 0.891000 -170.549291 0.008038 -125.552297 0.007119 -146.235428 0.533033 -56.422749 
0.7108750000000000 0.894172 -170.638621 0.008013 -127.883958 0.007038 -147.761319 0.533223 -56.534570 
0.7112500000000001 0.895037 -170.711109 0.007786 -129.914294 0.006831 -148.108230 0.532382 -56.659730 
0.7116250000000000 0.895871 -170.870098 0.007727 -130.811067 0.006921 -150.276667 0.532443 -56.805418 
0.7120000000000000 0.897826 -171.028186 0.007643 -132.256619 0.006713 -151.598077 0.532679 -56.892601 
0.7123750000000000 0.899527 -171.190883 0.007721 -133.541199 0.006610 -153.575431 0.531559 -57.029780 
0.7127500000000000 0.900029 -171.136854 0.007414 -135.935435 0.006651 -153.806031 0.531133 -57.258637 
0.7131250000000000 0.901592 -171.332867 0.007513 -137.453813 0.006604 -156.031628 0.530696 -57.161629 
0.7135000000000000 0.903190 -171.544093 0.007328 -138.278832 0.006387 -156.686828 0.530229 -57.325206 
0.7138750000000000 0.904118 -171.595847 0.007193 -139.441137 0.006350 -158.975154 0.531173 -57.398281 
0.7142500000000001 0.906932 -171.739021 0.007174 -140.881017 0.006331 -159.102525 0.530774 -57.484090 
0.7146250000000000 0.907905 -171.880245 0.007123 -141.125136 0.006175 -161.331386 0.529251 -57.657024 
0.7150000000000000 0.909808 -172.021561 0.006970 -143.568319 0.006215 -163.627080 0.529612 -57.681749 
0.7153750000000000 0.911218 -172.080484 0.007016 -144.820395 0.006004 -163.981784 0.529650 -57.774156 
0.7157500000000000 0.911729 -172.297886 0.006711 -145.939568 0.006166 -165.846625 0.529773 -57.926750 
0.7161250000000000 0.913789 -172.342388 0.006894 -147.000223 0.006030 -167.554481 0.528631 -57.993563 
0.7165000000000000 0.913099 -172.464071 0.006660 -149.708126 0.005904 -168.360635 0.528763 -58.189511 
0.7168750000000000 0.915661 -172.593125 0.006617 -149.654408 0.005867 -170.120831 0.528894 -58.229410 
0.7172500000000001 0.917961 -172.730865 0.006490 -152.007744 0.005674 -172.197754 0.528355 -58.267179 
0.7176250000000000 0.917837 -172.852771 0.006497 -152.654501 0.005640 -172.621118 0.528303 -58.516307 
0.7180000000000000 0.919391 -172.999066 0.006441 -153.624635 0.005726 -174.998434 0.527721 -58.594149 
0.7183750000000000 0.922189 -173.077708 0.006315 -155.689603 0.005719 -174.685123 0.527224 -58.599993 
0.7187500000000000 0.923981 -173.041635 0.006191 -157.111974 0.005417 -175.159705 0.527112 -58.709131 
0.7191250000000000 0.923424 -173.201443 0.006349 -158.877834 0.005397 -178.101472 0.526934 -58.856411 
0.7195000000000000 0.925090 -173.392635 0.006054 -160.197724 0.005458 -178.540822 0.526300 -58.880692 
0.7198750000000000 0.926028 -173.482988 0.006086 -161.370562 0.005301 179.646951 0.526324 -59.056752 
0.7202500000000000 0.928262 -173.604890 0.005902 -161.570905 0.005293 178.112946 0.526230 -59.073850 
0.7206250000000000 0.927864 -173.586971 0.005869 -163.076935 0.005209 176.265299 0.526014 -59.249456 
0.7210000000000000 0.929825 -173.725433 0.005847 -163.510651 0.005200 176.235211 0.526049 -59.340646 
0.7213750000000000 0.931426 -173.826899 0.005753 -165.745470 0.005134 172.808329 0.525469 -59.453983 
0.7217500000000000 0.932286 -173.896752 0.005749 -166.089956 0.005066 172.228757 0.525422 -59.640074 
0.7221250000000000 0.933327 -173.933727 0.005592 -168.517601 0.005031 171.579204 0.526283 -59.618009 
0.7225000000000000 0.933903 -173.884763 0.005614 -169.783955 0.004992 170.304634 0.524452 -59.821312 
0.7228750000000001 0.934624 -174.036235 0.005512 -172.281047 0.004969 169.089037 0.524167 -59.795426 
0.7232500000000000 0.936006 -174.236617 0.005561 -172.367698 0.004887 167.509694 0.523551 -59.964738 
0.7236250000000000 0.936881 -174.189497 0.005488 -173.378870 0.004832 166.916180 0.524804 -60.047666 
0.7240000000000000 0.937178 -174.345101 0.005592 -175.407769 0.004770 165.508149 0.524627 -60.021139 
0.7243750000000000 0.937452 -174.365500 0.005429 -175.756077 0.004805 164.156142 0.524214 -60.287383 
0.7247500000000000 0.938732 -174.485498 0.005258 -176.516210 0.004651 162.773536 0.523582 -60.294057 
0.7251250000000000 0.939620 -174.505680 0.005399 -177.711918 0.004595 162.890717 0.522831 -60.431829 
0.7255000000000000 0.938870 -174.553664 0.005210 -178.539466 0.004554 159.431318 0.523485 -60.522339 
0.7258750000000001 0.940995 -174.726502 0.005176 -179.881233 0.004526 160.551425 0.522937 -60.676490 
0.7262500000000000 0.941371 -174.721153 0.005024 177.908590 0.004498 156.930625 0.523016 -60.715819 
0.7266250000000000 0.940723 -174.825764 0.005147 177.836370 0.004440 156.784848 0.523287 -60.751638 
0.7270000000000000 0.942597 -174.884505 0.005047 175.936751 0.004453 154.660099 0.522463 -60.961646 
0.7273750000000000 0.943223 -175.044231 0.005190 173.726362 0.004250 153.638353 0.522084 -61.022817 
0.7277500000000000 0.944238 -175.019832 0.005014 173.798495 0.004292 152.674057 0.521876 -61.105837 
0.7281250000000000 0.945500 -175.167556 0.005043 171.268460 0.004254 153.799022 0.521658 -61.176870 
0.7285000000000000 0.945915 -175.177103 0.004979 171.751161 0.004329 149.865663 0.521204 -61.344554 
0.7288750000000001 0.945257 -175.344505 0.004912 169.210894 0.004177 151.205545 0.520961 -61.379632 
0.7292500000000000 0.946163 -175.263676 0.005011 169.420871 0.004184 148.871884 0.520507 -61.612338 
0.7296250000000000 0.946050 -175.392916 0.004883 167.322816 0.004110 147.795206 0.520997 -61.568996 
0.7300000000000000 0.948601 -175.501485 0.004749 166.415875 0.004040 145.490170 0.521283 -61.715598 
0.7303750000000000 0.947724 -175.612049 0.004737 165.036263 0.004024 144.862831 0.520794 -61.808622 
0.7307500000000000 0.947860 -175.649682 0.004724 163.995416 0.003977 141.529798 0.519944 -61.876669 
0.7311250000000000 0.951028 -175.760074 0.004643 163.654956 0.003893 141.603232 0.520566 -62.019782 
0.7315000000000000 0.951772 -175.752341 0.004561 160.853821 0.003891 139.684682 0.520518 -62.051210 
0.7318750000000001 0.950925 -175.896042 0.004398 160.588741 0.003860 140.573508 0.520404 -62.139583 
0.7322500000000000 0.953286 -175.917258 0.004556 159.998447 0.003834 139.995767 0.519850 -62.320258 
0.7326250000000000 0.951930 -175.977724 0.004446 157.864219 0.003813 139.035815 0.518648 -62.406642 
0.7330000000000000 0.954331 -176.017248 0.004541 155.465665 0.003772 138.855641 0.519679 -62.450825 
0.7333750000000000 0.953816 -176.147392 0.004452 151.589108 0.003721 136.439588 0.519016 -62.598736 
0.7337500000000000 0.955551 -176.073698 0.004317 153.149114 0.003725 135.098526 0.518216 -62.666863 
0.7341250000000000 0.957047 -176.211690 0.004291 152.150800 0.003688 130.846747 0.519289 -62.834104 
0.7345000000000000 0.958023 -176.270425 0.004214 149.512924 0.003608 131.669385 0.518967 -62.925650 
0.7348749999999999 0.956638 -176.250363 0.004139 149.076997 0.003680 131.171259 0.518626 -62.932859 
0.7352500000000000 0.958092 -176.435278 0.004134 148.695056 0.003658 130.232519 0.517864 -63.105772 
0.7356250000000000 0.958689 -176.448467 0.004115 148.078362 0.003458 127.110481 0.518378 -63.210180 
0.7360000000000000 0.959042 -176.289012 0.004053 144.877238 0.003438 127.253682 0.518552 -63.299230 
0.7363750000000000 0.959935 -176.485931 0.004002 145.265667 0.003507 126.359594 0.518046 -63.418349 
0.7367500000000000 0.959093 -176.592430 0.004109 143.014401 0.003375 124.332787 0.518265 -63.528491 
0.7371250000000000 0.959685 -176.550729 0.003930 143.539877 0.003332 122.931158 0.517858 -63.634268 
0.7375000000000000 0.958580 -176.495577 0.004092 141.828991 0.003428 120.759090 0.518274 -63.777446 
0.7378750000000000 0.961568 -176.502839 0.004051 140.563139 0.003363 121.477506 0.517039 -63.887156 
0.7382500000000000 0.961326 -176.622218 0.003796 140.321381 0.003328 121.501555 0.517987 -64.118826 
0.7386250000000000 0.962207 -176.785495 0.003740 136.503363 0.003256 118.780737 0.518017 -64.142942 
0.7390000000000000 0.962221 -176.770980 0.003759 136.418545 0.003213 118.254675 0.517592 -64.240215 
0.7393750000000000 0.961974 -176.773791 0.003742 135.150987 0.003282 118.293711 0.517045 -64.334845 
0.7397500000000000 0.962144 -176.723395 0.003729 134.016949 0.003262 116.301879 0.516821 -64.386686 
0.7401250000000000 0.964107 -176.780935 0.003730 131.613468 0.003195 114.510121 0.516994 -64.527054 
0.7405000000000001 0.961923 -176.828236 0.003723 131.638415 0.003178 116.431463 0.516868 -64.587846 
0.7408750000000000 0.963405 -176.945812 0.003549 131.756306 0.002977 111.391622 0.516135 -64.751636 
0.7412500000000000 0.961718 -177.056970 0.003720 131.376446 0.003033 110.808047 0.516375 -64.910080 
0.7416250000000000 0.965012 -176.994451 0.003648 128.142292 0.003081 110.917012 0.516378 -64.925210 
0.7420000000000000 0.963674 -177.055684 0.003400 127.324715 0.002997 108.344855 0.516661 -65.074295 
0.7423750000000000 0.962265 -177.131424 0.003506 127.084574 0.003097 106.582435 0.516719 -65.189173 
0.7427500000000000 0.965216 -177.111179 0.003467 125.212958 0.002923 105.258398 0.515984 -65.341778 
0.7431250000000000 0.966106 -177.142837 0.003449 124.948045 0.002825 106.433348 0.516123 -65.438285 
0.7435000000000001 0.965401 -177.256804 0.003325 124.963920 0.002935 103.591493 0.515077 -65.538062 
0.7438750000000000 0.965384 -177.354671 0.003412 120.505829 0.002840 102.166986 0.515759 -65.658181 
0.7442500000000000 0.964977 -177.251970 0.003334 121.346725 0.002811 100.417855 0.515595 -65.772714 
0.7446250000000000 0.966251 -177.418637 0.003399 119.758586 0.002925 99.210092 0.515764 -65.963159 
0.7450000000000000 0.965895 -177.327074 0.003412 119.699443 0.002981 99.347420 0.515134 -66.028544 
0.7453750000000000 0.966933 -177.405977 0.003257 118.540504 0.002838 100.019411 0.515318 -66.141553 
0.7457500000000000 0.967040 -177.507620 0.003213 118.118499 0.002920 96.937895 0.514981 -66.277114 
0.7461250000000000 0.968670 -177.620218 0.003208 114.975730 0.002784 98.971097 0.514963 -66.357784 
0.7465000000000001 0.969847 -177.684458 0.003251 113.298745 0.002717 93.937488 0.515366 -66.654843 
0.7468750000000000 0.968538 -177.634348 0.003224 114.416953 0.002801 95.487844 0.514960 -66.690836 
0.7472500000000000 0.968993 -177.682417 0.003117 109.560507 0.002703 95.178646 0.513765 -66.759399 
0.7476250000000000 0.969308 -177.758994 0.003107 108.403668 0.002670 92.984281 0.514087 -66.900554 
0.7480000000000000 0.969212 -177.812934 0.003138 112.672100 0.002692 91.996966 0.514300 -66.940251 
0.7483750000000000 0.970601 -177.837698 0.003097 108.880646 0.002667 91.641550 0.513724 -67.179053 
0.7487500000000000 0.971631 -177.850796 0.003124 110.471077 0.002795 85.077676 0.514055 -67.275735 
0.7491250000000000 0.973155 -177.760665 0.003053 106.423883 0.002566 86.247354 0.513733 -67.397157 
0.7495000000000001 0.972421 -177.856143 0.003202 106.435885 0.002589 89.263932 0.513685 -67.516548 
0.7498750000000000 0.971482 -177.893692 0.002971 104.627259 0.002512 83.845676 0.512637 -67.693146 
0.7502500000000000 0.972655 -177.971787 0.003062 104.656816 0.002514 85.125811 0.513296 -67.837396 
0.7506250000000000 0.973817 -177.869998 0.003014 103.675175 0.002588 83.365104 0.513071 -67.926464 
0.7510000000000000 0.973604 -178.020486 0.003028 101.266583 0.002477 80.890763 0.513492 -68.037349 
0.7513750000000000 0.973935 -177.877442 0.002907 99.734262 0.002532 79.160934 0.512249 -68.117454 
0.7517500000000000 0.973732 -178.009966 0.002978 97.330664 0.002568 83.069326 0.512036 -68.361554 
0.7521250000000000 0.973038 -178.048103 0.002984 101.060828 0.002538 79.804180 0.512149 -68.366591 
0.7525000000000000 0.973705 -178.056628 0.002928 99.097189 0.002409 77.666804 0.512022 -68.570193 
0.7528750000000000 0.972594 -177.971660 0.002990 97.609737 0.002486 77.091252 0.511179 -68.746132 
0.7532500000000000 0.975907 -178.157820 0.002969 93.905294 0.002427 73.836604 0.511336 -68.852006 
0.7536250000000000 0.974626 -178.155398 0.002905 94.389507 0.002425 74.270862 0.511824 -68.909755 
0.7540000000000000 0.975197 -178.117011 0.003012 95.574069 0.002368 74.350207 0.510129 -69.089715 
0.7543750000000000 0.973299 -178.239156 0.002683 93.382605 0.002371 73.534708 0.511230 -69.217378 
0.7547500000000000 0.975533 -178.171460 0.002756 90.775626 0.002347 71.874307 0.510737 -69.383046 
0.7551250000000001 0.974748 -178.270489 0.002758 92.519022 0.002311 69.539742 0.510395 -69.544198 
0.7555000000000000 0.974996 -178.263752 0.002690 87.122129 0.002319 72.398611 0.510489 -69.584665 
0.7558750000000000 0.974305 -178.302020 0.002742 89.344922 0.002300 69.684804 0.510385 -69.773962 
0.7562500000000000 0.975586 -178.304250 0.002704 87.751194 0.002341 65.898257 0.509340 -69.814818 
0.7566250000000000 0.975137 -178.346523 0.002698 86.929850 0.002213 67.985914 0.508845 -69.977256 
0.7570000000000000 0.975566 -178.472761 0.002613 81.993370 0.002257 64.997180 0.508226 -70.189730 
0.7573750000000000 0.976625 -178.427850 0.002600 83.298290 0.002319 67.306060 0.508420 -70.230500 
0.7577500000000000 0.974746 -178.532487 0.002645 80.297427 0.002078 63.586359 0.508446 -70.344789 
0.7581250000000001 0.975955 -178.559397 0.002552 82.008811 0.002174 59.661244 0.508896 -70.530615 
0.7585000000000000 0.976295 -178.624392 0.002564 82.520127 0.002133 61.146289 0.507824 -70.666734 
0.7588750000000000 0.977156 -178.607705 0.002586 77.130887 0.002135 62.536360 0.507427 -70.826228 
0.7592500000000000 0.977539 -178.719181 0.002502 80.717166 0.002096 56.189725 0.507247 -70.979677 
0.7596250000000000 0.977650 -178.747950 0.002473 75.910164 0.001980 57.606605 0.506578 -71.019289 
0.7600000000000000 0.978871 -178.749511 0.002467 74.846384 0.002095 57.083148 0.506159 -71.222036 
0.7603750000000000 0.977477 -178.722678 0.002467 73.668900 0.001981 54.929181 0.506001 -71.296231 
0.7607500000000000 0.978651 -178.852879 0.002460 75.419549 0.002007 52.882396 0.505929 -71.461220 
0.7611250000000001 0.977668 -178.869615 0.002495 75.656958 0.002041 53.631546 0.505918 -71.519146 
0.7615000000000000 0.978138 -178.927371 0.002424 70.761290 0.002005 53.307216 0.505110 -71.729256 
0.7618750000000000 0.977266 -178.983679 0.002440 71.159640 0.001979 51.163952 0.504768 -71.891483 
0.7622500000000000 0.979274 -179.003621 0.002456 69.856729 0.001920 52.262909 0.504688 -72.008770 
0.7626250000000000 0.981720 -178.988291 0.002438 69.943655 0.002031 52.820003 0.504016 -72.166251 
0.7630000000000000 0.981018 -179.098088 0.002332 66.932179 0.001966 50.714506 0.504524 -72.235785 
0.7633750000000000 0.979318 -179.064380 0.002434 67.252350 0.001926 44.694129 0.503667 -72.485062 
0.7637500000000000 0.980779 -179.076472 0.002459 62.744376 0.001977 48.792627 0.503114 -72.534430 
0.7641250000000001 0.981582 -179.045159 0.002249 63.166046 0.001911 43.486123 0.502822 -72.698877 
0.7645000000000000 0.981210 -179.062620 0.002307 62.762368 0.001949 39.276084 0.503051 -72.790711 
0.7648750000000000 0.981255 -179.123256 0.002226 61.918322 0.001928 41.772369 0.502761 -72.980624 
0.7652500000000000 0.981963 -179.223615 0.002245 61.294633 0.001812 39.772742 0.501524 -73.061315 
0.7656250000000000 0.981849 -179.187904 0.002249 62.254764 0.001910 43.973539 0.501935 -73.279399 
0.7660000000000000 0.980613 -179.254644 0.002326 60.502113 0.001824 41.011175 0.501309 -73.458110 
0.7663750000000000 0.980985 -179.229971 0.002313 61.282098 0.001788 39.403086 0.500911 -73.550180 
0.7667500000000000 0.983648 -179.331609 0.002307 59.277450 0.001875 38.391280 0.499609 -73.648381 
0.7671250000000000 0.981819 -179.323240 0.002182 58.530085 0.001949 37.143207 0.499734 -73.823910 
0.7675000000000000 0.983094 -179.359691 0.002191 56.095504 0.001851 37.737769 0.499119 -73.803414 
0.7678750000000000 0.982734 -179.323870 0.002151 57.805465 0.001835 35.815523 0.499395 -74.085861 
0.7682500000000000 0.982355 -179.394810 0.002116 48.180725 0.001958 30.992469 0.499441 -74.080091 
0.7686250000000000 0.982667 -179.355855 0.001994 51.568077 0.001901 32.941623 0.498901 -74.390157 
0.7690000000000000 0.982243 -179.341334 0.002236 53.113597 0.001845 29.389017 0.497938 -74.421194 
0.7693750000000000 0.981982 -179.433756 0.002073 51.218743 0.001753 30.557579 0.497936 -74.672506 
0.7697500000000001 0.982596 -179.409196 0.002207 51.809038 0.001727 31.437057 0.496921 -74.713399 
0.7701250000000000 0.983610 -179.562690 0.002119 47.278035 0.001775 28.659910 0.496547 -74.818386 
0.7705000000000000 0.981648 -179.636629 0.002127 43.726152 0.001716 28.127723 0.495789 -75.075857 
0.7708750000000000 0.982991 -179.637126 0.001992 42.458627 0.001657 23.735603 0.495925 -75.167607 
0.7712500000000000 0.982437 -179.679637 0.002055 43.785127 0.001613 27.623467 0.495813 -75.313699 
0.7716250000000000 0.982863 -179.697566 0.001998 42.973583 0.001687 27.144515 0.494739 -75.496585 
