!
! C:\Users\rflab\Downloads\Lab5_KD_ZW\Q2\728 MHz\20.S2P
!
! Touchstone 1.1 file saved by VNA.EXE V1.65 (www.ke5fx.com/gpib/readme.htm)
! 11/18/2024 9:09:51 PM
!
!    Source: HEWLETT PACKARD,8753D,0,6.14
!  Min freq: 7.000000E+008 Hz
!  Max freq: 1.000000E+009 Hz
!    Points: 801
!    Params: S11 S21 S12 S22
!
!!!!!
# GHZ S MA R 50
0.7000000000000000 0.817206 -165.678342 0.023473 -145.089591 0.021953 -163.577312 0.534940 -53.473965 
0.7003750000000000 0.821297 -165.869780 0.023274 -146.813928 0.021572 -164.883066 0.535514 -53.572205 
0.7007500000000000 0.824435 -166.012108 0.022748 -148.170303 0.021336 -167.052025 0.535617 -53.766695 
0.7011250000000000 0.828583 -166.348646 0.022590 -149.992890 0.021031 -168.331861 0.535170 -53.760040 
0.7015000000000000 0.831838 -166.567384 0.022343 -151.380574 0.020801 -170.268205 0.535657 -53.854791 
0.7018750000000000 0.835017 -166.791613 0.021948 -152.904964 0.020438 -171.626020 0.534677 -53.976477 
0.7022500000000000 0.839047 -166.933218 0.021784 -154.121464 0.020189 -173.070700 0.536280 -54.157206 
0.7026250000000001 0.841395 -167.221892 0.021466 -155.416165 0.019909 -174.794639 0.535444 -54.124846 
0.7030000000000000 0.844367 -167.382249 0.021301 -157.053357 0.019588 -176.418620 0.534443 -54.357733 
0.7033750000000000 0.848456 -167.680415 0.020922 -158.453202 0.019291 -177.798600 0.535422 -54.368553 
0.7037500000000000 0.851734 -167.787382 0.020704 -160.185327 0.019093 -179.527793 0.535602 -54.470671 
0.7041250000000000 0.854462 -168.027871 0.020545 -161.190793 0.018886 178.897626 0.535019 -54.642783 
0.7045000000000000 0.858124 -168.192150 0.020342 -162.877521 0.018462 177.995887 0.536074 -54.754663 
0.7048750000000000 0.860359 -168.335336 0.019984 -163.968597 0.018214 176.734296 0.535960 -54.873814 
0.7052500000000000 0.863054 -168.471534 0.019975 -165.379243 0.018040 174.947350 0.535616 -54.931755 
0.7056250000000000 0.866124 -168.669481 0.019729 -166.546821 0.017738 173.702999 0.535244 -55.091213 
0.7060000000000000 0.869418 -168.836000 0.019405 -168.421685 0.017603 171.842688 0.535271 -55.172828 
0.7063750000000000 0.871557 -168.974141 0.019154 -169.541038 0.017340 171.013761 0.534507 -55.382641 
0.7067500000000000 0.871676 -169.102352 0.019051 -171.034680 0.017092 169.724597 0.534566 -55.442620 
0.7071250000000000 0.875693 -169.388685 0.018883 -172.066326 0.016897 167.853512 0.535298 -55.472799 
0.7075000000000000 0.877190 -169.451610 0.018615 -173.439701 0.016788 167.537206 0.535010 -55.610140 
0.7078750000000000 0.880453 -169.592130 0.018501 -174.945954 0.016613 165.505051 0.534878 -55.746888 
0.7082500000000001 0.883553 -169.725597 0.018296 -176.006731 0.016319 164.430354 0.534611 -55.917142 
0.7086250000000000 0.883501 -169.833581 0.018027 -177.389317 0.016158 163.013130 0.535074 -55.954654 
0.7090000000000000 0.886510 -170.024694 0.018151 -178.512680 0.015953 161.839074 0.534543 -56.085844 
0.7093750000000000 0.888472 -170.146836 0.017742 179.923012 0.015918 160.378504 0.534981 -56.168518 
0.7097500000000000 0.888434 -170.394020 0.017713 178.772143 0.015775 159.607329 0.533803 -56.328101 
0.7101250000000000 0.890411 -170.371739 0.017576 177.147994 0.015520 157.738310 0.534057 -56.393470 
0.7105000000000000 0.893128 -170.611706 0.017391 175.678883 0.015405 156.420887 0.533448 -56.444484 
0.7108750000000000 0.895584 -170.788035 0.017249 174.867505 0.015217 155.395274 0.534235 -56.649430 
0.7112500000000001 0.895963 -170.882897 0.017008 173.467140 0.015082 153.618035 0.534191 -56.752048 
0.7116250000000000 0.897040 -170.921581 0.016911 171.751539 0.015039 152.689911 0.533599 -56.867059 
0.7120000000000000 0.898439 -171.105281 0.016666 170.607208 0.014875 151.124502 0.533632 -56.939728 
0.7123750000000000 0.901782 -171.228778 0.016585 169.312948 0.014576 149.796173 0.533012 -57.138824 
0.7127500000000000 0.903740 -171.287079 0.016292 168.228993 0.014600 148.787844 0.533045 -57.406286 
0.7131250000000000 0.904379 -171.406714 0.016203 166.303192 0.014509 147.448512 0.532946 -57.270880 
0.7135000000000000 0.904842 -171.602625 0.016224 165.599440 0.014305 146.446073 0.532525 -57.475672 
0.7138750000000000 0.905415 -171.701659 0.015890 164.192057 0.014002 144.691643 0.532293 -57.545438 
0.7142500000000001 0.909918 -171.754669 0.015803 162.589659 0.014049 143.571552 0.532584 -57.643122 
0.7146250000000000 0.909020 -171.960213 0.015757 161.601242 0.013923 142.051196 0.531904 -57.814466 
0.7150000000000000 0.911520 -172.083127 0.015579 160.585644 0.013824 141.096043 0.531777 -57.848578 
0.7153750000000000 0.912243 -172.174582 0.015456 159.185342 0.013582 139.660517 0.531432 -57.988338 
0.7157500000000000 0.914083 -172.406619 0.015327 157.561399 0.013643 137.809146 0.531246 -58.138709 
0.7161250000000000 0.914982 -172.417987 0.015010 156.236181 0.013479 136.889386 0.530367 -58.172846 
0.7165000000000000 0.914403 -172.606019 0.014910 154.735572 0.013311 135.483296 0.531327 -58.368569 
0.7168750000000000 0.916627 -172.781764 0.014840 154.203977 0.013258 133.958054 0.530459 -58.457932 
0.7172500000000001 0.919223 -172.898103 0.014834 152.602182 0.013034 133.151434 0.530419 -58.559650 
0.7176250000000000 0.920283 -172.921646 0.014654 151.792172 0.012924 131.902673 0.530044 -58.689433 
0.7180000000000000 0.920689 -173.058721 0.014554 150.127993 0.012753 130.280639 0.530495 -58.799963 
0.7183750000000000 0.922162 -173.218826 0.014478 148.600309 0.012722 129.047189 0.529806 -58.897577 
0.7187500000000000 0.925328 -173.234524 0.014292 147.778196 0.012549 127.870591 0.529611 -58.996613 
0.7191250000000000 0.924404 -173.300110 0.014169 146.519565 0.012346 126.759695 0.529627 -59.128533 
0.7195000000000000 0.927454 -173.542384 0.013968 144.652409 0.012290 125.359362 0.528964 -59.197246 
0.7198750000000000 0.927975 -173.492927 0.013891 144.322845 0.012281 124.267573 0.528398 -59.326240 
0.7202500000000000 0.928241 -173.650241 0.013697 141.995041 0.012084 123.144519 0.528824 -59.449629 
0.7206250000000000 0.929602 -173.678500 0.013691 141.601354 0.011954 121.195013 0.527814 -59.531090 
0.7210000000000000 0.930785 -173.807516 0.013600 140.564304 0.011789 120.544030 0.528042 -59.672291 
0.7213750000000000 0.930774 -173.954809 0.013462 138.949620 0.011816 119.410785 0.527934 -59.692300 
0.7217500000000000 0.934141 -173.995500 0.013360 137.803484 0.011770 117.836823 0.527022 -60.067877 
0.7221250000000000 0.934381 -174.143796 0.013302 137.049606 0.011440 116.730600 0.527718 -59.969906 
0.7225000000000000 0.935526 -174.083345 0.013163 135.819000 0.011507 116.179628 0.527777 -60.164718 
0.7228750000000001 0.933687 -174.192136 0.012965 134.427808 0.011397 114.001926 0.527598 -60.191812 
0.7232500000000000 0.936947 -174.298692 0.013041 133.004236 0.011350 112.933717 0.526357 -60.347828 
0.7236250000000000 0.937666 -174.423004 0.012916 131.565206 0.011240 112.532166 0.526862 -60.432543 
0.7240000000000000 0.937865 -174.375484 0.012856 130.981617 0.011139 111.012507 0.526328 -60.521720 
0.7243750000000000 0.938407 -174.535996 0.012734 129.639928 0.010928 109.714199 0.525990 -60.573431 
0.7247500000000000 0.938772 -174.538124 0.012631 128.317949 0.011016 108.910227 0.525797 -60.698948 
0.7251250000000000 0.940004 -174.612575 0.012663 127.561618 0.010904 107.491995 0.525564 -60.860087 
0.7255000000000000 0.939991 -174.661075 0.012402 126.813063 0.010763 106.088700 0.525434 -60.981600 
0.7258750000000001 0.941524 -174.781696 0.012324 124.936437 0.010660 104.899722 0.524432 -61.138085 
0.7262500000000000 0.941082 -174.790432 0.012367 124.099963 0.010646 104.087285 0.524992 -61.137547 
0.7266250000000000 0.942144 -174.900674 0.012263 122.617960 0.010580 102.932682 0.525320 -61.210500 
0.7270000000000000 0.941112 -174.936102 0.012250 121.158059 0.010451 101.850292 0.524317 -61.389806 
0.7273750000000000 0.943374 -175.067350 0.012023 120.098605 0.010348 100.339558 0.524905 -61.515818 
0.7277500000000000 0.943746 -175.151119 0.012111 118.617484 0.010322 99.519762 0.524296 -61.589692 
0.7281250000000000 0.944659 -175.334121 0.012087 117.916648 0.010283 98.015125 0.523784 -61.658096 
0.7285000000000000 0.947346 -175.339975 0.011844 116.614560 0.010128 96.952693 0.522695 -61.851955 
0.7288750000000001 0.946118 -175.434037 0.011803 115.474987 0.010098 95.932961 0.522895 -61.924359 
0.7292500000000000 0.946685 -175.421955 0.011743 114.878162 0.009862 94.178582 0.522125 -62.133369 
0.7296250000000000 0.946920 -175.523119 0.011575 113.321626 0.010018 93.288148 0.521774 -62.113003 
0.7300000000000000 0.948740 -175.631544 0.011574 112.769308 0.009837 91.886205 0.522563 -62.264677 
0.7303750000000000 0.948007 -175.728043 0.011471 110.488581 0.009865 90.872373 0.522132 -62.311650 
0.7307500000000000 0.949718 -175.780062 0.011381 109.119669 0.009684 89.709420 0.520987 -62.465303 
0.7311250000000000 0.950778 -175.814279 0.011426 107.389114 0.009598 88.716154 0.521375 -62.616027 
0.7315000000000000 0.951682 -175.825631 0.011358 106.414919 0.009677 87.517559 0.521102 -62.615588 
0.7318750000000001 0.951930 -175.977724 0.011129 105.831758 0.009474 86.661479 0.521016 -62.648480 
0.7322500000000000 0.952437 -176.068202 0.011180 104.157742 0.009438 85.383484 0.521073 -62.878188 
0.7326250000000000 0.953901 -176.125691 0.011006 103.284865 0.009359 83.411588 0.520273 -62.991561 
0.7330000000000000 0.954989 -176.137452 0.011033 102.244369 0.009262 82.718023 0.520283 -63.041165 
0.7333750000000000 0.956231 -176.230443 0.010958 101.417504 0.009277 82.329267 0.520603 -63.202133 
0.7337500000000000 0.955338 -176.208570 0.010883 99.466868 0.009265 80.188130 0.519261 -63.368687 
0.7341250000000000 0.955604 -176.301310 0.010840 98.660126 0.009075 79.941269 0.520339 -63.439460 
0.7345000000000000 0.956344 -176.410436 0.010755 97.064830 0.009041 77.968776 0.519794 -63.529719 
0.7348749999999999 0.956372 -176.326270 0.010451 95.689782 0.008971 76.919556 0.519332 -63.639727 
0.7352500000000000 0.957271 -176.520058 0.010579 94.936070 0.008899 75.423170 0.518642 -63.763632 
0.7356250000000000 0.959456 -176.535298 0.010431 93.503958 0.008886 75.627461 0.518851 -63.838853 
0.7360000000000000 0.960034 -176.508192 0.010407 92.626045 0.008805 73.959983 0.518899 -63.942804 
0.7363750000000000 0.960631 -176.583303 0.010337 91.081074 0.008705 72.817662 0.518959 -64.006036 
0.7367500000000000 0.960198 -176.713098 0.010158 89.483592 0.008637 71.224959 0.517799 -64.138708 
0.7371250000000000 0.960177 -176.734915 0.010064 89.147535 0.008666 70.137294 0.517838 -64.238329 
0.7375000000000000 0.960724 -176.674793 0.010139 87.471587 0.008596 69.412706 0.518537 -64.264392 
0.7378750000000000 0.961788 -176.649339 0.010115 86.959810 0.008602 68.088893 0.517986 -64.500812 
0.7382500000000000 0.961824 -176.674960 0.010003 85.620358 0.008486 66.853831 0.519007 -64.711193 
0.7386250000000000 0.962360 -176.884269 0.009730 84.775576 0.008308 65.897609 0.517694 -64.765800 
0.7390000000000000 0.963359 -176.862053 0.009817 83.095219 0.008324 64.334731 0.517077 -64.815797 
0.7393750000000000 0.960992 -176.843383 0.009581 82.519171 0.008266 63.161477 0.517239 -64.928790 
0.7397500000000000 0.963520 -176.953448 0.009546 81.011005 0.008292 62.375428 0.516327 -65.049590 
0.7401250000000000 0.964025 -176.867859 0.009659 80.938992 0.008225 61.594185 0.516678 -65.239280 
0.7405000000000001 0.964511 -176.938428 0.009425 78.827076 0.008150 60.225181 0.516239 -65.231717 
0.7408750000000000 0.964027 -177.002275 0.009599 77.992313 0.008111 59.285799 0.516514 -65.376177 
0.7412500000000000 0.963153 -177.094079 0.009402 76.559984 0.008157 57.866098 0.516126 -65.445861 
0.7416250000000000 0.963339 -177.091006 0.009543 75.381898 0.008063 55.886067 0.516481 -65.530832 
0.7420000000000000 0.964158 -177.133429 0.009354 74.857853 0.007839 56.225834 0.515340 -65.670613 
0.7423750000000000 0.963392 -177.247445 0.009259 73.062790 0.007999 54.467089 0.515106 -65.777985 
0.7427500000000000 0.965949 -177.258363 0.009232 71.544462 0.007744 53.863947 0.515427 -65.905588 
0.7431250000000000 0.965514 -177.268004 0.009198 71.931362 0.007865 51.162781 0.515314 -66.067141 
0.7435000000000001 0.965281 -177.408788 0.009114 69.524651 0.007746 51.232226 0.514611 -66.084428 
0.7438750000000000 0.965696 -177.507773 0.009172 68.797614 0.007634 49.471300 0.514210 -66.295073 
0.7442500000000000 0.966135 -177.411079 0.009017 67.689410 0.007578 48.668572 0.514645 -66.438711 
0.7446250000000000 0.968202 -177.506995 0.009014 65.979963 0.007653 47.287788 0.514736 -66.543154 
0.7450000000000000 0.967571 -177.534310 0.009020 65.818244 0.007626 46.743225 0.514187 -66.538859 
0.7453750000000000 0.967692 -177.621428 0.008907 64.937156 0.007469 45.263841 0.513641 -66.757151 
0.7457500000000000 0.967201 -177.623840 0.008778 63.430775 0.007624 44.351302 0.514471 -66.852284 
0.7461250000000000 0.969074 -177.744006 0.008650 62.238518 0.007419 43.513045 0.513211 -66.973651 
0.7465000000000001 0.969823 -177.720487 0.008701 60.963999 0.007291 41.935403 0.513856 -67.170476 
0.7468750000000000 0.970650 -177.762093 0.008644 60.230425 0.007399 40.098235 0.513947 -67.278077 
0.7472500000000000 0.969672 -177.857280 0.008744 59.240412 0.007356 40.333408 0.512973 -67.317472 
0.7476250000000000 0.970927 -177.805984 0.008594 57.316923 0.007257 38.883832 0.513087 -67.544234 
0.7480000000000000 0.970632 -177.884637 0.008540 56.921280 0.007231 36.621287 0.512871 -67.549027 
0.7483750000000000 0.970782 -177.939034 0.008486 56.136699 0.007156 37.042478 0.512624 -67.651959 
0.7487500000000000 0.971399 -178.030401 0.008493 55.034859 0.007196 34.880050 0.511769 -67.786197 
0.7491250000000000 0.973213 -177.958567 0.008408 53.193789 0.007129 34.888099 0.512153 -67.925342 
0.7495000000000001 0.972947 -177.993975 0.008397 52.384988 0.007044 33.747079 0.511934 -68.040660 
0.7498750000000000 0.972824 -178.101626 0.008325 50.706666 0.007033 32.742929 0.511224 -68.137614 
0.7502500000000000 0.975154 -178.084635 0.008338 50.278761 0.007018 31.952569 0.511547 -68.314109 
0.7506250000000000 0.973484 -178.016647 0.008404 49.003074 0.006937 30.610515 0.511263 -68.478033 
0.7510000000000000 0.976228 -178.129753 0.008264 47.492805 0.006924 29.529061 0.511057 -68.546120 
0.7513750000000000 0.974168 -178.100654 0.008166 46.817102 0.006862 28.190998 0.510161 -68.709033 
0.7517500000000000 0.973859 -178.107237 0.008048 45.948163 0.006828 26.640198 0.510693 -68.886527 
0.7521250000000000 0.973595 -178.142662 0.008102 43.793397 0.006944 25.662430 0.510884 -68.916781 
0.7525000000000000 0.973631 -178.189447 0.008052 43.092364 0.006747 24.607158 0.510198 -69.059685 
0.7528750000000000 0.973796 -178.222092 0.007924 43.468704 0.006714 23.191111 0.509696 -69.188591 
0.7532500000000000 0.977238 -178.181811 0.007845 40.968067 0.006639 23.176979 0.509521 -69.298560 
0.7536250000000000 0.975335 -178.318162 0.007884 39.549564 0.006512 21.432113 0.509451 -69.387317 
0.7540000000000000 0.975952 -178.304887 0.007859 39.875450 0.006794 19.821276 0.508652 -69.529650 
0.7543750000000000 0.975950 -178.308469 0.007808 37.224693 0.006648 18.202323 0.509332 -69.708346 
0.7547500000000000 0.974840 -178.331662 0.007681 36.922538 0.006615 18.209000 0.508884 -69.825198 
0.7551250000000001 0.974531 -178.467548 0.007733 36.486901 0.006575 16.989388 0.508495 -69.944626 
0.7555000000000000 0.975174 -178.396811 0.007787 34.542494 0.006516 15.852675 0.508328 -70.036580 
0.7558750000000000 0.975927 -178.355031 0.007650 32.318076 0.006391 14.302716 0.508111 -70.185064 
0.7562500000000000 0.975589 -178.422595 0.007435 32.472039 0.006553 13.495249 0.507299 -70.287514 
0.7566250000000000 0.976902 -178.489174 0.007630 32.719738 0.006360 11.822617 0.507894 -70.406619 
0.7570000000000000 0.977209 -178.486069 0.007534 31.421490 0.006306 11.589452 0.506604 -70.559777 
0.7573750000000000 0.977018 -178.646893 0.007482 30.372610 0.006260 10.409071 0.506685 -70.595949 
0.7577500000000000 0.975610 -178.655696 0.007426 28.098676 0.006449 8.655500 0.506329 -70.731796 
0.7581250000000001 0.976590 -178.649881 0.007470 25.995810 0.006276 8.232307 0.506488 -70.942764 
0.7585000000000000 0.977645 -178.762255 0.007432 27.293356 0.006256 6.639677 0.505785 -71.035923 
0.7588750000000000 0.977462 -178.762023 0.007469 24.915903 0.006205 4.610263 0.506019 -71.139983 
0.7592500000000000 0.977722 -178.719421 0.007326 23.923862 0.006084 3.963564 0.505257 -71.318821 
0.7596250000000000 0.978409 -178.845446 0.007388 23.157804 0.006089 4.765875 0.504781 -71.402937 
0.7600000000000000 0.977486 -178.865827 0.007150 22.229249 0.006080 2.022477 0.504258 -71.613299 
0.7603750000000000 0.979868 -178.865013 0.007205 21.101487 0.005897 2.432911 0.504028 -71.703280 
0.7607500000000000 0.979845 -178.932811 0.007232 19.885318 0.006127 1.469317 0.504280 -71.760227 
0.7611250000000001 0.979714 -178.961228 0.007186 19.401654 0.005963 -0.341315 0.503622 -71.932851 
0.7615000000000000 0.979318 -179.064380 0.007020 18.080501 0.005942 -1.765785 0.503175 -72.033183 
0.7618750000000000 0.978816 -179.113924 0.007051 16.306234 0.005970 -3.407042 0.502967 -72.288444 
0.7622500000000000 0.980697 -179.158419 0.007122 15.236615 0.005844 -4.150233 0.502660 -72.306480 
0.7626250000000000 0.981519 -179.052224 0.007002 14.484797 0.005870 -5.659878 0.502854 -72.466749 
0.7630000000000000 0.982144 -179.230880 0.006995 13.771001 0.005834 -7.311477 0.502597 -72.559636 
0.7633750000000000 0.981799 -179.145115 0.007007 11.832225 0.005785 -6.866123 0.501806 -72.790444 
0.7637500000000000 0.981585 -179.276760 0.007113 11.656425 0.005777 -9.725113 0.501550 -72.814221 
0.7641250000000001 0.983192 -179.189013 0.006988 10.477239 0.005828 -9.184889 0.500868 -73.020207 
0.7645000000000000 0.982398 -179.188358 0.006972 9.996405 0.005708 -10.887970 0.501260 -73.088590 
0.7648750000000000 0.982197 -179.266529 0.006960 8.826300 0.005772 -10.223775 0.501038 -73.244932 
0.7652500000000000 0.981832 -179.262694 0.006861 7.103782 0.005677 -12.132072 0.500328 -73.333555 
0.7656250000000000 0.983518 -179.377747 0.006838 4.537838 0.005691 -12.582443 0.499954 -73.514145 
0.7660000000000000 0.982672 -179.330945 0.006750 4.101480 0.005543 -15.196542 0.500366 -73.750284 
0.7663750000000000 0.982540 -179.380687 0.006692 4.786526 0.005534 -16.492611 0.499487 -73.833892 
0.7667500000000000 0.982346 -179.444646 0.006756 2.459515 0.005585 -15.937330 0.499296 -73.922323 
0.7671250000000000 0.984130 -179.363920 0.006887 1.694127 0.005557 -16.343202 0.498242 -74.102810 
0.7675000000000000 0.982833 -179.452038 0.006658 0.414455 0.005505 -19.488071 0.498353 -74.212200 
0.7678750000000000 0.984419 -179.456474 0.006771 -1.830114 0.005431 -20.336412 0.497967 -74.330971 
0.7682500000000000 0.985135 -179.574017 0.006650 -2.110073 0.005425 -22.162373 0.497518 -74.411362 
0.7686250000000000 0.984912 -179.431890 0.006576 -3.024033 0.005447 -21.858219 0.497995 -74.634329 
0.7690000000000000 0.984161 -179.548722 0.006731 -5.433309 0.005300 -21.846877 0.497161 -74.586025 
0.7693750000000000 0.984216 -179.602045 0.006724 -4.198951 0.005340 -24.736547 0.496623 -74.893728 
0.7697500000000001 0.983603 -179.619574 0.006546 -5.861975 0.005400 -25.314772 0.496273 -74.908354 
0.7701250000000000 0.984516 -179.648344 0.006505 -7.300045 0.005337 -25.501638 0.495905 -75.039289 
0.7705000000000000 0.983713 -179.751152 0.006600 -7.343240 0.005259 -28.270674 0.495384 -75.238651 
0.7708750000000000 0.983956 -179.761876 0.006445 -9.172408 0.005309 -28.862420 0.495011 -75.347774 
0.7712500000000000 0.984200 -179.772595 0.006490 -10.445486 0.005290 -29.625730 0.494531 -75.519549 
0.7716250000000000 0.981996 -179.889604 0.006439 -12.040526 0.005187 -30.356717 0.494998 -75.621063 
0.7720000000000000 0.985475 -179.911285 0.006384 -12.730483 0.005202 -31.463170 0.494468 -75.733046 
0.7723750000000000 0.983582 -179.946669 0.006476 -13.988663 0.005168 -32.854984 0.493118 -75.846791 
