!
! C:\Users\rflab\Downloads\Lab5_KD_ZW\Q2\728 MHz\200.S2P
!
! Touchstone 1.1 file saved by VNA.EXE V1.65 (www.ke5fx.com/gpib/readme.htm)
! 11/18/2024 9:22:11 PM
!
!    Source: HEWLETT PACKARD,8753D,0,6.14
!  Min freq: 7.000000E+008 Hz
!  Max freq: 1.000000E+009 Hz
!    Points: 801
!    Params: S11 S21 S12 S22
!
!!!!!
# GHZ S MA R 50
0.7000000000000000 0.811567 -165.291747 0.010133 -86.868178 0.009439 -104.838005 0.536297 -53.508306 
0.7003750000000000 0.817015 -165.506976 0.010040 -88.190028 0.009342 -106.614652 0.535633 -53.532931 
0.7007500000000000 0.820535 -165.698100 0.009687 -90.411767 0.009337 -108.453458 0.536235 -53.726181 
0.7011250000000000 0.824213 -165.951410 0.009605 -91.254514 0.009013 -110.630545 0.536238 -53.758783 
0.7015000000000000 0.827965 -166.203466 0.009411 -92.561303 0.008820 -112.095907 0.536798 -53.903410 
0.7018750000000000 0.831918 -166.382786 0.009518 -95.185073 0.008680 -113.530071 0.535010 -53.994249 
0.7022500000000000 0.833789 -166.547662 0.009339 -96.773759 0.008692 -115.004549 0.535956 -54.116066 
0.7026250000000001 0.838299 -166.767125 0.009140 -98.182099 0.008480 -117.164456 0.535093 -54.137914 
0.7030000000000000 0.840195 -167.019734 0.008971 -99.848328 0.008261 -118.837451 0.534776 -54.375285 
0.7033750000000000 0.843432 -167.249031 0.009060 -102.084647 0.008265 -120.118423 0.535596 -54.353782 
0.7037500000000000 0.848261 -167.339726 0.008796 -102.250523 0.008080 -121.123236 0.535723 -54.548071 
0.7041250000000000 0.849862 -167.574741 0.008564 -103.984400 0.007900 -123.413842 0.535030 -54.635557 
0.7045000000000000 0.854145 -167.717655 0.008550 -105.378718 0.007841 -125.057676 0.535700 -54.794326 
0.7048750000000000 0.856106 -167.884130 0.008398 -107.299100 0.007555 -126.939324 0.535275 -54.870164 
0.7052500000000000 0.858513 -168.068547 0.008380 -109.047394 0.007596 -128.603077 0.535381 -54.961965 
0.7056250000000000 0.862708 -168.301320 0.008333 -111.389208 0.007413 -130.690445 0.534587 -55.117841 
0.7060000000000000 0.865928 -168.448501 0.008249 -112.295281 0.007256 -131.427483 0.535080 -55.150668 
0.7063750000000000 0.867744 -168.505913 0.008156 -113.762497 0.007292 -132.389616 0.534305 -55.224338 
0.7067500000000000 0.870529 -168.756243 0.007888 -115.127380 0.007264 -134.606366 0.533862 -55.454197 
0.7071250000000000 0.872479 -168.977769 0.007870 -115.748412 0.006975 -134.471011 0.534102 -55.491812 
0.7075000000000000 0.873868 -168.991441 0.007701 -116.999774 0.006935 -136.537921 0.533942 -55.626910 
0.7078750000000000 0.876903 -169.164025 0.007662 -118.301961 0.006985 -138.359638 0.533790 -55.703031 
0.7082500000000001 0.879204 -169.269659 0.007602 -121.226318 0.006730 -139.770789 0.533458 -55.825387 
0.7086250000000000 0.879867 -169.298066 0.007513 -122.021575 0.006690 -141.226667 0.533399 -55.939890 
0.7090000000000000 0.883109 -169.531166 0.007415 -123.444798 0.006607 -143.044087 0.532947 -56.006010 
0.7093750000000000 0.884694 -169.650609 0.007434 -124.576847 0.006546 -143.922297 0.532950 -56.128853 
0.7097500000000000 0.885417 -169.835753 0.007321 -126.103373 0.006517 -146.302956 0.532492 -56.166947 
0.7101250000000000 0.888574 -169.972187 0.007301 -127.650499 0.006317 -147.171226 0.532254 -56.228840 
0.7105000000000000 0.888987 -170.116669 0.007144 -128.969199 0.006414 -148.323296 0.532034 -56.394702 
0.7108750000000000 0.892784 -170.294262 0.007062 -130.791397 0.006290 -150.249732 0.532792 -56.574808 
0.7112500000000001 0.893752 -170.396160 0.006862 -131.103526 0.006269 -150.328638 0.531900 -56.660956 
0.7116250000000000 0.893529 -170.481058 0.006816 -133.361479 0.006228 -152.601083 0.531996 -56.722883 
0.7120000000000000 0.896971 -170.632538 0.006814 -134.656945 0.006008 -153.847811 0.532181 -56.908636 
0.7123750000000000 0.897850 -170.772038 0.006732 -136.236945 0.005929 -155.801248 0.531402 -57.061935 
0.7127500000000000 0.900249 -170.777159 0.006721 -137.524512 0.005946 -157.385440 0.531523 -57.266151 
0.7131250000000000 0.900883 -170.917390 0.006697 -138.255681 0.005888 -159.210994 0.530101 -57.084821 
0.7135000000000000 0.901111 -171.124013 0.006537 -140.039250 0.005749 -159.609693 0.530897 -57.316625 
0.7138750000000000 0.903206 -171.227053 0.006533 -141.561610 0.005755 -160.855008 0.530428 -57.401637 
0.7142500000000001 0.905328 -171.345464 0.006479 -143.141067 0.005718 -163.305788 0.530870 -57.541439 
0.7146250000000000 0.905562 -171.558598 0.006374 -143.756760 0.005571 -163.602301 0.529725 -57.576152 
0.7150000000000000 0.907309 -171.629514 0.006216 -145.799124 0.005516 -166.178197 0.529867 -57.687499 
0.7153750000000000 0.908962 -171.714834 0.006240 -148.490315 0.005445 -166.294761 0.529187 -57.785522 
0.7157500000000000 0.910797 -171.910081 0.006188 -149.522369 0.005439 -168.964890 0.529530 -57.937566 
0.7161250000000000 0.911550 -171.986545 0.006081 -149.783661 0.005308 -169.908985 0.528796 -58.008632 
0.7165000000000000 0.912712 -172.101273 0.006090 -151.235591 0.005247 -171.960468 0.529166 -58.119305 
0.7168750000000000 0.914565 -172.267897 0.005853 -153.478793 0.005234 -171.481237 0.528903 -58.284422 
0.7172500000000001 0.916858 -172.375865 0.005784 -153.487756 0.005227 -173.770345 0.529276 -58.363716 
0.7176250000000000 0.917116 -172.428036 0.005802 -154.292086 0.005027 -175.075924 0.529200 -58.440120 
0.7180000000000000 0.917545 -172.604579 0.005666 -156.360130 0.005064 -177.236478 0.528435 -58.575451 
0.7183750000000000 0.919781 -172.683989 0.005639 -157.601157 0.005086 -177.848086 0.528269 -58.719497 
0.7187500000000000 0.921445 -172.712582 0.005506 -160.273577 0.004980 -179.599490 0.527560 -58.750337 
0.7191250000000000 0.921645 -172.855689 0.005516 -160.795977 0.004938 179.073236 0.527478 -58.841817 
0.7195000000000000 0.924313 -173.028907 0.005496 -162.329094 0.004824 178.289508 0.527141 -58.928162 
0.7198750000000000 0.925112 -173.092070 0.005466 -163.055849 0.004813 176.202347 0.525916 -59.033962 
0.7202500000000000 0.925247 -173.180642 0.005430 -165.615359 0.004819 175.337347 0.527743 -59.141362 
0.7206250000000000 0.927087 -173.182843 0.005450 -166.052513 0.004658 173.779315 0.526660 -59.306707 
0.7210000000000000 0.928037 -173.296107 0.005327 -167.721822 0.004610 173.022367 0.526364 -59.445865 
0.7213750000000000 0.928882 -173.434883 0.005241 -168.865401 0.004545 171.098461 0.526680 -59.550953 
0.7217500000000000 0.931619 -173.416479 0.005109 -169.968478 0.004593 169.168401 0.525726 -59.701906 
0.7221250000000000 0.931240 -173.655660 0.005208 -169.787817 0.004500 169.242536 0.525775 -59.666486 
0.7225000000000000 0.933042 -173.543504 0.005032 -172.947723 0.004425 167.504005 0.526129 -59.831357 
0.7228750000000001 0.933404 -173.715660 0.005011 -174.139953 0.004346 167.349132 0.525725 -59.867338 
0.7232500000000000 0.934006 -173.791291 0.005010 -175.715061 0.004318 166.735750 0.524816 -60.025358 
0.7236250000000000 0.935718 -173.795176 0.004860 -174.592843 0.004296 163.157007 0.525193 -60.087456 
0.7240000000000000 0.936335 -173.863140 0.004947 -176.714781 0.004172 163.684918 0.525351 -60.151090 
0.7243750000000000 0.935611 -173.926041 0.004790 -178.588146 0.004248 161.882313 0.525221 -60.323248 
0.7247500000000000 0.936577 -174.078747 0.004776 -178.867390 0.004211 159.016763 0.524179 -60.442549 
0.7251250000000000 0.937561 -174.077483 0.004855 178.418472 0.004159 159.668081 0.523770 -60.528413 
0.7255000000000000 0.936705 -174.184649 0.004750 176.290557 0.004264 156.481247 0.524352 -60.660048 
0.7258750000000001 0.939650 -174.333845 0.004750 175.332843 0.004033 154.876489 0.523410 -60.816580 
0.7262500000000000 0.939437 -174.313854 0.004726 174.302346 0.004010 154.486939 0.523909 -60.801143 
0.7266250000000000 0.939525 -174.449035 0.004601 174.487331 0.003957 153.013422 0.523973 -60.877655 
0.7270000000000000 0.940059 -174.422294 0.004546 172.489952 0.004024 152.076168 0.523155 -61.045706 
0.7273750000000000 0.942047 -174.560900 0.004488 170.783371 0.003870 151.020649 0.523386 -61.158913 
0.7277500000000000 0.942530 -174.604694 0.004634 170.929279 0.003830 149.827526 0.522906 -61.240626 
0.7281250000000000 0.942082 -174.777341 0.004387 169.906525 0.003879 148.689226 0.522466 -61.328639 
0.7285000000000000 0.943873 -174.768673 0.004512 167.279744 0.003828 148.388061 0.522257 -61.468631 
0.7288750000000001 0.944680 -174.884666 0.004387 165.662459 0.003718 146.150457 0.521618 -61.548726 
0.7292500000000000 0.943348 -174.832757 0.004439 165.608518 0.003743 145.582550 0.521511 -61.732850 
0.7296250000000000 0.944310 -175.012775 0.004387 164.582388 0.003760 145.678199 0.521544 -61.711955 
0.7300000000000000 0.946642 -175.095544 0.004274 161.889521 0.003685 141.137001 0.522321 -61.871788 
0.7303750000000000 0.945352 -175.185363 0.004344 159.810553 0.003707 140.667682 0.521847 -61.912340 
0.7307500000000000 0.946585 -175.136034 0.004251 159.877972 0.003705 139.512066 0.520935 -62.079345 
0.7311250000000000 0.948069 -175.302830 0.004209 158.610845 0.003596 139.821868 0.520973 -62.157510 
0.7315000000000000 0.947943 -175.305903 0.004131 157.927798 0.003629 139.286825 0.521709 -62.234278 
0.7318750000000001 0.950212 -175.486977 0.004163 155.455424 0.003362 137.730552 0.520864 -62.302908 
0.7322500000000000 0.949961 -175.445160 0.004135 154.105669 0.003589 136.648729 0.520375 -62.449133 
0.7326250000000000 0.952597 -175.582993 0.004049 152.460325 0.003572 134.490290 0.519955 -62.618300 
0.7330000000000000 0.950912 -175.608346 0.003981 152.762785 0.003449 131.617412 0.520095 -62.698212 
0.7333750000000000 0.952115 -175.624957 0.003971 152.634903 0.003352 133.786828 0.519966 -62.755182 
0.7337500000000000 0.952023 -175.698209 0.003913 149.839670 0.003367 130.797154 0.519131 -62.927321 
0.7341250000000000 0.954762 -175.809738 0.003783 150.076886 0.003389 128.244376 0.519710 -63.031703 
0.7345000000000000 0.954566 -175.819896 0.003920 146.861315 0.003241 129.357621 0.519215 -63.102108 
0.7348749999999999 0.955445 -175.801729 0.003826 146.068779 0.003346 126.613113 0.518664 -63.207290 
0.7352500000000000 0.955478 -175.926640 0.003677 145.146138 0.003231 125.368139 0.518743 -63.332444 
0.7356250000000000 0.956340 -176.025629 0.003687 145.586586 0.003331 125.899235 0.518701 -63.454550 
0.7360000000000000 0.957061 -175.882101 0.003688 141.523008 0.003198 123.476797 0.519084 -63.558479 
0.7363750000000000 0.956457 -175.978466 0.003679 142.020335 0.003247 121.730439 0.519019 -63.663957 
0.7367500000000000 0.957246 -176.142912 0.003753 141.069296 0.003281 120.352189 0.518503 -63.718482 
0.7371250000000000 0.958213 -176.154123 0.003796 139.555602 0.003142 121.819417 0.517880 -63.819986 
0.7375000000000000 0.957064 -176.142175 0.003601 136.722383 0.003037 118.280964 0.518447 -63.922127 
0.7378750000000000 0.960146 -176.121722 0.003513 136.194665 0.003088 117.449552 0.517549 -64.102784 
0.7382500000000000 0.958622 -176.170395 0.003598 135.316777 0.003115 117.436846 0.517943 -64.315171 
0.7386250000000000 0.959204 -176.253101 0.003450 134.647251 0.003065 114.306189 0.518139 -64.348040 
0.7390000000000000 0.959558 -176.378653 0.003515 132.596038 0.002941 113.788436 0.517680 -64.383601 
0.7393750000000000 0.959311 -176.322930 0.003345 132.352524 0.003009 113.065337 0.517321 -64.600451 
0.7397500000000000 0.959653 -176.346152 0.003554 128.681118 0.002866 109.904094 0.516910 -64.664926 
0.7401250000000000 0.960944 -176.340127 0.003450 130.570583 0.002901 112.517921 0.517119 -64.687113 
0.7405000000000001 0.962535 -176.455394 0.003279 129.108720 0.002907 113.062206 0.516908 -64.855589 
0.7408750000000000 0.962141 -176.541336 0.003328 124.967984 0.002825 110.655941 0.516351 -65.035888 
0.7412500000000000 0.960835 -176.624136 0.003384 125.490278 0.002965 107.447191 0.516257 -65.098303 
0.7416250000000000 0.962265 -176.600035 0.003214 121.974745 0.002891 106.379672 0.515820 -65.146728 
0.7420000000000000 0.961670 -176.583358 0.003278 125.265660 0.002737 105.535464 0.516792 -65.300947 
0.7423750000000000 0.960414 -176.743014 0.003338 124.319369 0.002794 103.442208 0.515920 -65.398132 
0.7427500000000000 0.962993 -176.668085 0.003128 122.996591 0.002738 101.356417 0.516079 -65.514265 
0.7431250000000000 0.963158 -176.814128 0.003285 122.908019 0.002746 103.536753 0.515748 -65.702234 
0.7435000000000001 0.962815 -176.922116 0.003094 117.334064 0.002697 100.204272 0.514953 -65.807551 
0.7438750000000000 0.963617 -176.913777 0.003225 118.733505 0.002664 98.159115 0.514659 -65.897109 
0.7442500000000000 0.962940 -176.918880 0.003089 117.794388 0.002684 97.238325 0.515262 -66.005120 
0.7446250000000000 0.965144 -177.052914 0.003044 115.964001 0.002557 96.361724 0.514748 -66.150637 
0.7450000000000000 0.965025 -176.911027 0.003071 114.184952 0.002667 95.723334 0.514109 -66.252993 
0.7453750000000000 0.963712 -177.012197 0.003082 113.192195 0.002703 94.928586 0.514384 -66.377828 
0.7457500000000000 0.964917 -177.175601 0.003076 115.457707 0.002668 95.109360 0.514720 -66.538688 
0.7461250000000000 0.966243 -177.197599 0.003043 110.979822 0.002654 91.539257 0.513959 -66.546338 
0.7465000000000001 0.967738 -177.238109 0.002951 109.363773 0.002691 92.475113 0.514138 -66.766133 
0.7468750000000000 0.966702 -177.235146 0.002964 111.158142 0.002650 90.432957 0.514500 -66.931271 
0.7472500000000000 0.967996 -177.220763 0.003049 108.851556 0.002545 89.119579 0.513346 -66.946765 
0.7476250000000000 0.967918 -177.318198 0.002913 109.040053 0.002603 89.107986 0.513269 -67.124376 
0.7480000000000000 0.967391 -177.367399 0.002847 106.925618 0.002417 85.164535 0.513640 -67.245279 
0.7483750000000000 0.967818 -177.448136 0.002918 105.286532 0.002510 88.355892 0.513491 -67.337957 
0.7487500000000000 0.969069 -177.574244 0.002923 102.066034 0.002463 84.979576 0.513149 -67.491791 
0.7491250000000000 0.970719 -177.408889 0.002737 103.343129 0.002412 84.106287 0.512803 -67.549574 
0.7495000000000001 0.969913 -177.424779 0.002899 103.908236 0.002317 81.662674 0.511818 -67.736745 
0.7498750000000000 0.969167 -177.523926 0.002877 100.151126 0.002451 82.639960 0.512442 -67.809543 
0.7502500000000000 0.970614 -177.549259 0.002790 101.178879 0.002329 82.280148 0.511780 -68.055836 
0.7506250000000000 0.970683 -177.538615 0.002791 98.903931 0.002316 79.768225 0.511893 -68.060944 
0.7510000000000000 0.972326 -177.632772 0.002767 96.033293 0.002345 75.939044 0.512527 -68.232799 
0.7513750000000000 0.972883 -177.623334 0.002923 96.847043 0.002322 75.397312 0.510799 -68.284399 
0.7517500000000000 0.972972 -177.670316 0.002672 92.258115 0.002378 72.356086 0.510451 -68.438391 
0.7521250000000000 0.970365 -177.642412 0.002720 96.187652 0.002324 73.497211 0.510971 -68.523936 
0.7525000000000000 0.971767 -177.645817 0.002738 94.710602 0.002234 74.765251 0.510137 -68.763164 
0.7528750000000000 0.971175 -177.619153 0.002634 92.944903 0.002118 75.781532 0.510135 -68.858640 
0.7532500000000000 0.972945 -177.709821 0.002542 89.545823 0.002299 72.644562 0.510049 -68.998178 
0.7536250000000000 0.970887 -177.867172 0.002602 90.677248 0.002247 70.943187 0.510619 -69.147372 
0.7540000000000000 0.972626 -177.730658 0.002604 90.868170 0.002247 70.942309 0.509438 -69.206937 
0.7543750000000000 0.972196 -177.826849 0.002545 90.367654 0.002319 70.477122 0.510141 -69.405440 
0.7547500000000000 0.972105 -177.873444 0.002622 85.300184 0.002226 66.897276 0.510051 -69.412658 
0.7551250000000001 0.972751 -177.914430 0.002481 84.999964 0.002152 64.175973 0.509565 -69.637539 
0.7555000000000000 0.973566 -177.980873 0.002544 83.295661 0.002077 64.809898 0.509548 -69.662443 
0.7558750000000000 0.973888 -177.952797 0.002395 85.031499 0.002144 64.771578 0.508687 -69.875638 
0.7562500000000000 0.972754 -178.011562 0.002464 80.622434 0.002054 64.098363 0.507940 -69.925430 
0.7566250000000000 0.972739 -178.036712 0.002477 81.811793 0.002098 60.693678 0.508425 -70.117381 
0.7570000000000000 0.973717 -178.035091 0.002490 83.118556 0.002189 62.120411 0.506982 -70.183080 
0.7573750000000000 0.974420 -178.086782 0.002289 79.711962 0.002023 59.046084 0.507307 -70.346406 
0.7577500000000000 0.972491 -178.151346 0.002406 79.902392 0.001997 57.241547 0.507508 -70.405741 
0.7581250000000001 0.973758 -178.178905 0.002328 76.422791 0.001985 60.570080 0.506770 -70.610300 
0.7585000000000000 0.974504 -178.270056 0.002411 78.412240 0.001950 56.749094 0.505904 -70.733274 
0.7588750000000000 0.974501 -178.277230 0.002403 74.979975 0.002074 57.242435 0.506491 -70.920933 
0.7592500000000000 0.975828 -178.308257 0.002484 74.880446 0.002009 56.157199 0.505875 -71.006510 
0.7596250000000000 0.975674 -178.372534 0.002361 72.917254 0.001859 54.859011 0.505683 -71.112362 
0.7600000000000000 0.975739 -178.365470 0.002231 71.168051 0.002007 51.216857 0.504662 -71.237448 
0.7603750000000000 0.976700 -178.399316 0.002365 69.750889 0.001956 49.318033 0.504386 -71.395129 
0.7607500000000000 0.977023 -178.492941 0.002403 66.955149 0.001936 51.939051 0.504220 -71.560660 
0.7611250000000001 0.976912 -178.467703 0.002202 69.653399 0.001967 49.769352 0.504307 -71.651673 
0.7615000000000000 0.976210 -178.534688 0.002158 68.084607 0.001829 47.311294 0.504765 -71.814813 
0.7618750000000000 0.976366 -178.599413 0.002150 67.734942 0.001876 48.116144 0.503766 -71.927265 
0.7622500000000000 0.978979 -178.628165 0.002226 63.609235 0.001806 44.721962 0.503961 -72.094998 
0.7626250000000000 0.978257 -178.602121 0.002314 65.491556 0.001852 43.528660 0.503483 -72.150408 
0.7630000000000000 0.980090 -178.754636 0.002129 64.602711 0.001726 45.867292 0.503054 -72.291614 
0.7633750000000000 0.978413 -178.670273 0.002203 62.417064 0.001916 43.868397 0.502467 -72.387105 
0.7637500000000000 0.979355 -178.760844 0.002157 60.405568 0.001838 40.520694 0.502472 -72.500456 
0.7641250000000001 0.979550 -178.728953 0.002311 58.630820 0.001809 41.564560 0.501961 -72.686501 
0.7645000000000000 0.979842 -178.607953 0.002203 58.860264 0.001796 39.609377 0.501370 -72.880862 
0.7648750000000000 0.980034 -178.740288 0.002069 57.799710 0.001724 36.823941 0.501967 -72.920067 
0.7652500000000000 0.980800 -178.816165 0.002139 57.194727 0.001845 38.053252 0.500786 -73.039234 
0.7656250000000000 0.979764 -178.811343 0.002073 56.797849 0.001686 37.356742 0.500536 -73.205730 
0.7660000000000000 0.977752 -178.805319 0.002165 53.492932 0.001840 33.151630 0.500699 -73.386382 
0.7663750000000000 0.980119 -178.843892 0.002045 54.434359 0.001735 33.203225 0.499534 -73.467046 
0.7667500000000000 0.980569 -178.962134 0.001997 52.376991 0.001817 33.936164 0.499693 -73.640276 
0.7671250000000000 0.980042 -178.890198 0.002074 53.074103 0.001701 31.874270 0.498887 -73.744567 
0.7675000000000000 0.980145 -178.950979 0.002047 49.542787 0.001634 29.948632 0.498904 -73.825446 
0.7678750000000000 0.981431 -178.938098 0.001819 50.973157 0.001673 33.505502 0.498364 -74.066652 
0.7682500000000000 0.981352 -178.995039 0.001939 50.469966 0.001626 31.182795 0.498448 -74.058455 
0.7686250000000000 0.979841 -178.947084 0.001965 48.705855 0.001701 32.725819 0.498293 -74.301386 
0.7690000000000000 0.980080 -178.961617 0.001882 49.601041 0.001579 27.801255 0.497517 -74.385780 
0.7693750000000000 0.981152 -179.051871 0.002068 41.713906 0.001595 26.105467 0.497644 -74.543033 
0.7697500000000001 0.981754 -179.084514 0.001860 44.568895 0.001651 28.376108 0.496567 -74.596328 
0.7701250000000000 0.981926 -179.123855 0.001950 41.931749 0.001566 27.271185 0.497076 -74.754751 
0.7705000000000000 0.980269 -179.161620 0.001900 39.022535 0.001575 18.383537 0.495964 -75.041109 
0.7708750000000000 0.980307 -179.257979 0.001837 42.256688 0.001552 22.892983 0.495416 -75.100864 
0.7712500000000000 0.981042 -179.247840 0.001855 40.619261 0.001586 23.506291 0.495479 -75.252480 
0.7716250000000000 0.979923 -179.339775 0.001669 33.710494 0.001565 18.717935 0.494402 -75.365888 
