!
! C:\Users\rflab\Downloads\Lab5_KD_ZW\Q2\728 MHz\220.S2P
!
! Touchstone 1.1 file saved by VNA.EXE V1.65 (www.ke5fx.com/gpib/readme.htm)
! 11/18/2024 9:23:17 PM
!
!    Source: HEWLETT PACKARD,8753D,0,6.14
!  Min freq: 7.000000E+008 Hz
!  Max freq: 1.000000E+009 Hz
!    Points: 801
!    Params: S11 S21 S12 S22
!
!!!!!
# GHZ S MA R 50
0.7000000000000000 0.812428 -165.196404 0.008501 -99.205028 0.008038 -116.598493 0.535585 -53.545375 
0.7003750000000000 0.817894 -165.456654 0.008440 -101.082012 0.007875 -118.910045 0.534778 -53.607474 
0.7007500000000000 0.820541 -165.627815 0.008198 -102.537482 0.007750 -120.364026 0.535968 -53.798254 
0.7011250000000000 0.825265 -165.869201 0.008289 -104.271279 0.007675 -122.374816 0.534967 -53.800811 
0.7015000000000000 0.827218 -166.042708 0.008004 -105.955714 0.007411 -124.970273 0.534815 -53.906280 
0.7018750000000000 0.831691 -166.340068 0.007888 -107.056891 0.007306 -126.697133 0.534440 -53.978164 
0.7022500000000000 0.834352 -166.548283 0.007811 -109.810988 0.007260 -128.319543 0.534718 -54.048358 
0.7026250000000001 0.838725 -166.752558 0.007744 -110.231476 0.007138 -130.147129 0.534337 -54.143926 
0.7030000000000000 0.842496 -166.932272 0.007521 -112.457792 0.007025 -131.056041 0.534125 -54.292972 
0.7033750000000000 0.845069 -167.134103 0.007549 -114.010258 0.006878 -132.572429 0.534361 -54.375593 
0.7037500000000000 0.848533 -167.314291 0.007444 -115.754167 0.006851 -134.791324 0.534779 -54.532263 
0.7041250000000000 0.850179 -167.516250 0.007336 -117.657758 0.006847 -135.237013 0.533987 -54.640464 
0.7045000000000000 0.853990 -167.669292 0.007075 -118.630798 0.006495 -137.755169 0.533732 -54.741469 
0.7048750000000000 0.856809 -167.898400 0.007028 -120.000419 0.006413 -139.498973 0.534704 -54.815090 
0.7052500000000000 0.859496 -167.995039 0.007110 -121.098201 0.006398 -141.609639 0.534136 -54.924308 
0.7056250000000000 0.862752 -168.227412 0.006959 -123.204421 0.006269 -142.413609 0.533353 -55.061427 
0.7060000000000000 0.866840 -168.415523 0.006821 -124.239945 0.006244 -144.174957 0.533969 -55.207302 
0.7063750000000000 0.868474 -168.511598 0.006791 -125.278111 0.006063 -145.520021 0.533054 -55.210869 
0.7067500000000000 0.869918 -168.649861 0.006695 -127.021698 0.005987 -146.413712 0.532156 -55.367604 
0.7071250000000000 0.873191 -168.884851 0.006596 -128.654633 0.005916 -148.977634 0.532658 -55.353015 
0.7075000000000000 0.873617 -168.992310 0.006532 -130.202955 0.005874 -149.486118 0.532622 -55.549645 
0.7078750000000000 0.877746 -169.109659 0.006442 -131.290850 0.005807 -151.477783 0.532648 -55.615232 
0.7082500000000001 0.880289 -169.238558 0.006442 -133.224325 0.005821 -152.666658 0.532683 -55.772788 
0.7086250000000000 0.880466 -169.370094 0.006345 -132.840818 0.005692 -153.606685 0.532686 -55.848360 
0.7090000000000000 0.883651 -169.493390 0.006209 -136.042309 0.005636 -155.870168 0.531755 -55.978878 
0.7093750000000000 0.885141 -169.667947 0.006245 -137.039110 0.005533 -156.680807 0.531470 -56.100978 
0.7097500000000000 0.885550 -169.877414 0.006058 -139.526369 0.005408 -158.707512 0.531080 -56.116352 
0.7101250000000000 0.888367 -169.889862 0.006103 -140.650111 0.005434 -160.722409 0.530773 -56.189328 
0.7105000000000000 0.889868 -170.134531 0.006097 -141.952494 0.005360 -160.680973 0.531086 -56.287105 
0.7108750000000000 0.892213 -170.276064 0.006061 -143.771119 0.005303 -162.433447 0.531158 -56.549149 
0.7112500000000001 0.894484 -170.400135 0.005848 -144.461781 0.005222 -163.985610 0.531073 -56.551006 
0.7116250000000000 0.894241 -170.468886 0.005817 -145.825318 0.005044 -166.155569 0.531134 -56.732683 
0.7120000000000000 0.897593 -170.631189 0.005768 -148.780368 0.005020 -167.698459 0.530757 -56.788724 
0.7123750000000000 0.898429 -170.714932 0.005737 -148.378770 0.004982 -169.348338 0.530719 -56.927656 
0.7127500000000000 0.900549 -170.756652 0.005574 -150.525043 0.004985 -170.048853 0.530275 -57.116581 
0.7131250000000000 0.901809 -170.942499 0.005518 -153.395090 0.004924 -171.740828 0.529433 -57.014348 
0.7135000000000000 0.902423 -171.042888 0.005531 -152.626368 0.004866 -174.066225 0.530250 -57.181563 
0.7138750000000000 0.904130 -171.177378 0.005472 -156.671941 0.004844 -174.217572 0.530686 -57.321595 
0.7142500000000001 0.905272 -171.317571 0.005492 -156.857253 0.004742 -174.309474 0.529912 -57.299273 
0.7146250000000000 0.906045 -171.563130 0.005398 -158.582553 0.004766 -177.815248 0.528635 -57.453973 
0.7150000000000000 0.907336 -171.618075 0.005313 -158.638328 0.004685 -177.538561 0.529360 -57.613678 
0.7153750000000000 0.909442 -171.614308 0.005193 -161.665698 0.004598 179.361195 0.528915 -57.708315 
0.7157500000000000 0.910357 -171.859573 0.005163 -162.059565 0.004640 177.814823 0.528805 -57.814117 
0.7161250000000000 0.912577 -171.995626 0.005177 -162.352729 0.004503 177.420577 0.527691 -57.863254 
0.7165000000000000 0.911649 -172.080380 0.005080 -164.299850 0.004488 174.940335 0.528152 -57.976719 
0.7168750000000000 0.914263 -172.180400 0.004961 -166.136717 0.004496 175.681004 0.528183 -58.146555 
0.7172500000000001 0.916810 -172.340828 0.005011 -167.136763 0.004414 172.539109 0.528546 -58.171001 
0.7176250000000000 0.916918 -172.434090 0.004888 -169.860392 0.004459 171.966076 0.527963 -58.310916 
0.7180000000000000 0.917666 -172.517170 0.004791 -170.649701 0.004257 168.396784 0.527840 -58.376658 
0.7183750000000000 0.920640 -172.625744 0.004772 -171.322173 0.004374 168.323816 0.527571 -58.455898 
0.7187500000000000 0.922151 -172.668487 0.004747 -173.051292 0.004217 166.379402 0.527289 -58.639280 
0.7191250000000000 0.922108 -172.779020 0.004730 -174.704381 0.004203 165.420683 0.527608 -58.652596 
0.7195000000000000 0.924160 -172.981998 0.004618 -176.412780 0.004005 165.651046 0.526790 -58.773256 
0.7198750000000000 0.925505 -173.079795 0.004565 -177.188854 0.004081 162.133534 0.526583 -58.868251 
0.7202500000000000 0.927055 -173.167416 0.004566 -177.890199 0.004026 161.671273 0.526952 -59.000965 
0.7206250000000000 0.927465 -173.178039 0.004428 -179.503317 0.003974 162.171646 0.525926 -59.077295 
0.7210000000000000 0.929053 -173.311056 0.004487 179.616407 0.003874 160.376301 0.526657 -59.229262 
0.7213750000000000 0.929201 -173.395477 0.004419 178.373930 0.003942 156.719055 0.526308 -59.280098 
0.7217500000000000 0.931555 -173.484034 0.004339 176.685868 0.003780 156.350862 0.525466 -59.546434 
0.7221250000000000 0.931490 -173.585600 0.004340 174.454169 0.003808 153.896126 0.527007 -59.444795 
0.7225000000000000 0.932482 -173.547158 0.004338 173.961325 0.003749 154.184513 0.526170 -59.579946 
0.7228750000000001 0.932952 -173.659811 0.004230 170.608818 0.003740 153.355738 0.525583 -59.781396 
0.7232500000000000 0.934762 -173.815149 0.004216 170.752320 0.003568 153.121577 0.524321 -59.859271 
0.7236250000000000 0.935633 -173.843483 0.004200 170.504529 0.003663 148.921767 0.525244 -59.944613 
0.7240000000000000 0.936604 -173.849890 0.004152 169.355278 0.003569 149.044774 0.525382 -59.991757 
0.7243750000000000 0.935342 -174.010760 0.004166 167.406462 0.003533 147.992155 0.524945 -60.194800 
0.7247500000000000 0.935861 -174.066687 0.004116 168.101594 0.003653 147.086178 0.524532 -60.199710 
0.7251250000000000 0.938080 -174.133241 0.004016 164.707289 0.003413 143.064451 0.524051 -60.284920 
0.7255000000000000 0.937768 -174.210000 0.004073 164.746050 0.003468 142.524698 0.524293 -60.461118 
0.7258750000000001 0.940463 -174.249077 0.003894 163.125025 0.003479 142.894145 0.524247 -60.619176 
0.7262500000000000 0.940397 -174.327149 0.004136 161.669487 0.003576 139.872871 0.524291 -60.644793 
0.7266250000000000 0.941412 -174.381813 0.003894 159.556663 0.003447 139.014836 0.524331 -60.677850 
0.7270000000000000 0.941650 -174.424286 0.003817 160.348828 0.003406 139.990308 0.524295 -60.889680 
0.7273750000000000 0.941407 -174.538537 0.003890 157.699122 0.003210 139.428478 0.524269 -61.025409 
0.7277500000000000 0.942621 -174.664837 0.003768 154.729698 0.003328 135.699581 0.523680 -61.066041 
0.7281250000000000 0.943636 -174.722698 0.003737 153.984197 0.003243 134.551723 0.523930 -61.126924 
0.7285000000000000 0.944000 -174.765659 0.003755 153.220214 0.003198 132.835645 0.523473 -61.259449 
0.7288750000000001 0.944608 -174.850820 0.003626 152.045847 0.003150 133.653588 0.522736 -61.379132 
0.7292500000000000 0.944961 -174.778432 0.003575 152.740350 0.003253 131.438389 0.522228 -61.516464 
0.7296250000000000 0.944798 -174.929896 0.003678 149.868155 0.003113 129.234145 0.522501 -61.608813 
0.7300000000000000 0.947014 -175.049293 0.003616 148.973397 0.003135 128.942932 0.523208 -61.669596 
0.7303750000000000 0.947348 -175.073271 0.003657 145.675878 0.003173 128.871955 0.522428 -61.722361 
0.7307500000000000 0.947132 -175.138852 0.003556 144.196605 0.003142 127.701123 0.521036 -61.936986 
0.7311250000000000 0.947871 -175.268529 0.003473 145.816821 0.003091 124.165696 0.521467 -62.019235 
0.7315000000000000 0.949184 -175.293573 0.003607 141.417673 0.003023 123.652470 0.522073 -62.187178 
0.7318750000000001 0.948980 -175.399778 0.003585 144.544047 0.002910 121.466503 0.522180 -62.200910 
0.7322500000000000 0.952052 -175.484663 0.003386 142.802102 0.002959 120.565501 0.520956 -62.319619 
0.7326250000000000 0.951826 -175.516758 0.003417 139.718690 0.002972 121.691649 0.520454 -62.468811 
0.7330000000000000 0.951821 -175.664134 0.003530 136.959649 0.002907 119.289917 0.521436 -62.566624 
0.7333750000000000 0.952092 -175.643269 0.003420 139.756369 0.002745 120.157558 0.521082 -62.663589 
0.7337500000000000 0.952125 -175.665522 0.003416 136.631645 0.002809 117.403583 0.520570 -62.853614 
0.7341250000000000 0.955048 -175.726548 0.003379 133.789276 0.002823 118.134263 0.520800 -62.877891 
0.7345000000000000 0.954312 -175.877570 0.003423 133.304029 0.002820 113.625354 0.520462 -63.017270 
0.7348749999999999 0.955133 -175.756302 0.003291 132.317947 0.002731 113.227151 0.519504 -63.054124 
0.7352500000000000 0.956326 -175.933923 0.003221 131.917555 0.002850 112.594972 0.519974 -63.227418 
0.7356250000000000 0.956723 -176.012564 0.003189 129.034433 0.002785 109.912498 0.520054 -63.284584 
0.7360000000000000 0.958039 -175.882655 0.003099 127.644928 0.002656 113.130386 0.520640 -63.546092 
0.7363750000000000 0.957690 -176.075163 0.003220 126.858430 0.002751 105.382716 0.520068 -63.612373 
0.7367500000000000 0.957829 -176.061094 0.003234 125.813395 0.002721 109.008016 0.519388 -63.665300 
0.7371250000000000 0.958550 -176.126226 0.003145 126.635365 0.002592 107.473982 0.519435 -63.799264 
0.7375000000000000 0.957957 -176.109191 0.003063 122.999288 0.002709 107.396886 0.519548 -63.857876 
0.7378750000000000 0.960824 -176.117167 0.003038 121.187403 0.002677 103.841916 0.518488 -64.074422 
0.7382500000000000 0.959463 -176.184713 0.003113 122.494087 0.002548 101.174814 0.519090 -64.207764 
0.7386250000000000 0.960960 -176.325601 0.002929 118.160823 0.002497 103.553289 0.518302 -64.341716 
0.7390000000000000 0.960237 -176.315531 0.002918 121.038420 0.002523 101.752272 0.518461 -64.398766 
0.7393750000000000 0.959465 -176.294300 0.003005 120.124580 0.002450 97.394749 0.518526 -64.547960 
0.7397500000000000 0.960221 -176.330069 0.002999 117.801723 0.002550 99.478177 0.518218 -64.722188 
0.7401250000000000 0.962400 -176.294695 0.002994 112.444546 0.002442 96.657388 0.518159 -64.767629 
0.7405000000000001 0.960965 -176.555326 0.002991 117.157398 0.002361 96.355530 0.517718 -64.934957 
0.7408750000000000 0.961278 -176.428885 0.002859 113.841944 0.002434 94.289154 0.517743 -65.033093 
0.7412500000000000 0.961054 -176.588454 0.002746 110.244879 0.002561 92.584764 0.517761 -65.156928 
0.7416250000000000 0.962032 -176.588286 0.002714 111.018539 0.002459 92.400396 0.517934 -65.236409 
0.7420000000000000 0.961408 -176.662588 0.002775 109.290277 0.002331 95.414632 0.516796 -65.316076 
0.7423750000000000 0.961018 -176.624778 0.002737 109.815503 0.002279 90.961932 0.517214 -65.434052 
0.7427500000000000 0.962663 -176.692416 0.002818 106.736386 0.002268 89.906653 0.516602 -65.566687 
0.7431250000000000 0.963201 -176.705174 0.002750 106.424020 0.002281 91.317876 0.516808 -65.688484 
0.7435000000000001 0.963044 -176.871936 0.002722 105.441098 0.002380 86.232489 0.515898 -65.813831 
0.7438750000000000 0.964676 -176.891756 0.002720 103.667218 0.002403 83.837461 0.515641 -65.927340 
0.7442500000000000 0.963931 -176.903886 0.002715 103.312101 0.002216 81.632772 0.516288 -66.107665 
0.7446250000000000 0.965374 -176.999207 0.002686 100.876016 0.002234 84.935423 0.516463 -66.197697 
0.7450000000000000 0.963780 -176.936103 0.002582 100.546684 0.002278 82.911421 0.515023 -66.249508 
0.7453750000000000 0.963741 -176.979584 0.002530 98.469098 0.002215 84.576613 0.515578 -66.446935 
0.7457500000000000 0.965801 -177.141934 0.002697 95.821971 0.002239 82.392462 0.514972 -66.465700 
0.7461250000000000 0.965963 -177.167786 0.002521 100.103240 0.002285 80.435952 0.514778 -66.600702 
0.7465000000000001 0.967301 -177.175327 0.002598 95.809741 0.002173 79.417404 0.515525 -66.854407 
0.7468750000000000 0.967121 -177.171181 0.002514 98.789741 0.002150 78.101372 0.514752 -66.891503 
0.7472500000000000 0.965886 -177.337925 0.002452 94.442294 0.002144 74.264233 0.513909 -67.025239 
0.7476250000000000 0.968458 -177.330540 0.002585 95.283407 0.002052 74.101233 0.514068 -67.228382 
0.7480000000000000 0.967666 -177.328352 0.002585 93.860475 0.002247 74.425308 0.513389 -67.259358 
0.7483750000000000 0.969226 -177.444622 0.002429 92.705848 0.002105 72.366609 0.513432 -67.397944 
0.7487500000000000 0.968253 -177.438438 0.002383 90.074529 0.002093 71.190520 0.513301 -67.557792 
0.7491250000000000 0.971032 -177.398910 0.002348 88.449632 0.002017 70.175760 0.512921 -67.687725 
0.7495000000000001 0.969954 -177.450153 0.002425 87.870362 0.002062 69.381533 0.513060 -67.811910 
0.7498750000000000 0.970391 -177.519839 0.002441 85.737552 0.002052 67.974200 0.512057 -67.906275 
0.7502500000000000 0.970416 -177.570399 0.002351 87.738768 0.001984 65.056308 0.512381 -68.053472 
0.7506250000000000 0.972107 -177.513416 0.002305 85.077884 0.002016 65.219891 0.511909 -68.194155 
0.7510000000000000 0.972464 -177.611511 0.002480 82.801190 0.002033 65.077065 0.512777 -68.291676 
0.7513750000000000 0.972372 -177.568091 0.002328 81.459514 0.001964 61.102817 0.512305 -68.443235 
0.7517500000000000 0.972822 -177.623185 0.002232 82.852205 0.002048 66.793966 0.510905 -68.561474 
0.7521250000000000 0.971729 -177.613307 0.002242 80.606770 0.001875 63.008206 0.510976 -68.700593 
0.7525000000000000 0.972382 -177.640107 0.002282 79.734510 0.002033 58.887607 0.510715 -68.880143 
0.7528750000000000 0.973894 -177.661742 0.002283 76.550005 0.001894 59.725134 0.510117 -68.949695 
0.7532500000000000 0.973341 -177.667603 0.002203 76.565991 0.001856 56.840558 0.509890 -69.083123 
0.7536250000000000 0.972414 -177.773352 0.002393 75.200060 0.001786 54.113768 0.510125 -69.177576 
0.7540000000000000 0.972690 -177.637255 0.002322 74.170985 0.001838 55.985328 0.509034 -69.365963 
0.7543750000000000 0.973247 -177.807621 0.002096 70.955921 0.001824 50.620204 0.509891 -69.431512 
0.7547500000000000 0.973509 -177.779454 0.002178 73.668163 0.001991 48.662114 0.509309 -69.498608 
0.7551250000000001 0.971654 -177.814831 0.002248 71.386368 0.001849 53.300818 0.508781 -69.707425 
0.7555000000000000 0.973863 -177.895251 0.002012 65.658620 0.001802 51.196326 0.508471 -69.782444 
0.7558750000000000 0.973314 -177.894064 0.002159 64.668563 0.001875 46.058670 0.508419 -70.018359 
0.7562500000000000 0.973274 -177.958695 0.002199 65.858650 0.001879 49.056863 0.508177 -70.063342 
0.7566250000000000 0.974094 -178.017890 0.002143 65.894167 0.001794 45.963724 0.508069 -70.157738 
0.7570000000000000 0.973780 -178.031625 0.002061 66.663874 0.001838 47.388673 0.507395 -70.287757 
0.7573750000000000 0.975537 -178.056692 0.002013 65.236472 0.001823 44.327066 0.507445 -70.436106 
0.7577500000000000 0.973892 -178.157599 0.002007 64.967482 0.001730 46.719979 0.506990 -70.498364 
0.7581250000000001 0.976201 -178.179878 0.001828 64.365599 0.001769 44.899024 0.506359 -70.648848 
0.7585000000000000 0.974580 -178.241471 0.002010 61.565047 0.001685 41.415433 0.506107 -70.730335 
0.7588750000000000 0.975320 -178.228456 0.002039 61.547004 0.001797 39.686828 0.505671 -70.914431 
0.7592500000000000 0.975602 -178.272004 0.002148 60.256703 0.001738 41.744809 0.504943 -71.068987 
0.7596250000000000 0.975859 -178.369256 0.002029 57.889717 0.001738 40.321275 0.504944 -71.197120 
0.7600000000000000 0.976171 -178.355442 0.002015 55.938590 0.001563 38.743728 0.504350 -71.309606 
0.7603750000000000 0.977535 -178.314790 0.001934 55.315573 0.001650 30.702498 0.504250 -71.408246 
0.7607500000000000 0.976689 -178.420790 0.001933 55.119413 0.001662 30.994773 0.504085 -71.595761 
0.7611250000000001 0.977166 -178.446621 0.002009 52.785947 0.001651 31.484473 0.504317 -71.670299 
0.7615000000000000 0.976217 -178.520364 0.001862 55.732970 0.001626 35.499595 0.503635 -71.794514 
0.7618750000000000 0.976896 -178.503488 0.001875 53.975852 0.001686 30.144442 0.503089 -72.040964 
0.7622500000000000 0.978129 -178.616244 0.001806 54.146999 0.001662 30.096666 0.502569 -72.065658 
0.7626250000000000 0.978429 -178.487957 0.001923 49.953439 0.001559 25.205557 0.502543 -72.210926 
0.7630000000000000 0.978907 -178.656650 0.001838 44.992107 0.001567 28.668181 0.502356 -72.266206 
0.7633750000000000 0.979112 -178.603341 0.001860 43.922403 0.001557 26.690637 0.501847 -72.518152 
0.7637500000000000 0.978610 -178.634797 0.001861 44.044899 0.001639 24.535676 0.501541 -72.594816 
0.7641250000000001 0.979956 -178.629532 0.001861 50.024343 0.001419 21.384069 0.500929 -72.795905 
0.7645000000000000 0.979951 -178.640235 0.001812 38.985287 0.001502 25.809706 0.501076 -72.859553 
0.7648750000000000 0.980137 -178.633355 0.001945 37.100210 0.001533 23.549902 0.500298 -72.971015 
0.7652500000000000 0.980639 -178.755333 0.001823 40.395661 0.001504 20.275989 0.499498 -73.067389 
0.7656250000000000 0.979694 -178.672013 0.001813 36.523238 0.001577 18.404820 0.499328 -73.204158 
0.7660000000000000 0.978547 -178.799141 0.001884 29.956645 0.001499 13.206208 0.499886 -73.478990 
0.7663750000000000 0.979329 -178.832245 0.001923 39.182429 0.001491 19.926548 0.498638 -73.505979 
0.7667500000000000 0.980884 -178.930375 0.001928 39.564785 0.001437 15.630710 0.498624 -73.648056 
0.7671250000000000 0.981037 -178.837843 0.001586 35.452544 0.001436 17.633746 0.498550 -73.777114 
0.7675000000000000 0.980403 -178.908444 0.001772 33.866470 0.001483 12.435892 0.497700 -73.862054 
0.7678750000000000 0.981826 -178.849465 0.001744 36.171309 0.001365 13.248539 0.496997 -74.054610 
0.7682500000000000 0.981563 -178.906172 0.001486 32.502922 0.001443 8.456195 0.497421 -74.101440 
0.7686250000000000 0.982290 -178.924784 0.001748 28.586772 0.001258 6.205912 0.497006 -74.296229 
0.7690000000000000 0.982034 -178.960121 0.001787 31.394963 0.001448 8.447273 0.495750 -74.343350 
0.7693750000000000 0.980615 -179.012117 0.001742 33.573689 0.001495 10.453375 0.496344 -74.530757 
0.7697500000000001 0.980853 -179.030187 0.001732 23.237958 0.001331 5.796646 0.495635 -74.628849 
0.7701250000000000 0.981372 -179.144743 0.001591 25.387839 0.001279 8.756716 0.495760 -74.790048 
0.7705000000000000 0.979339 -179.217963 0.001709 21.073962 0.001282 4.392368 0.494614 -74.955400 
0.7708750000000000 0.979024 -179.264151 0.001733 25.139252 0.001351 2.405205 0.494034 -75.028914 
0.7712500000000000 0.980929 -179.208535 0.001587 19.815077 0.001350 3.237220 0.493788 -75.219124 
0.7716250000000000 0.982028 -179.205859 0.001598 18.394402 0.001305 1.528292 0.493547 -75.325322 
0.7720000000000000 0.982121 -179.337692 0.001580 20.194756 0.001399 2.114050 0.493668 -75.468091 
