!
! C:\Users\rflab\Downloads\Lab5_KD_ZW\Q2\728 MHz\240.S2P
!
! Touchstone 1.1 file saved by VNA.EXE V1.65 (www.ke5fx.com/gpib/readme.htm)
! 11/18/2024 9:24:31 PM
!
!    Source: HEWLETT PACKARD,8753D,0,6.14
!  Min freq: 7.000000E+008 Hz
!  Max freq: 1.000000E+009 Hz
!    Points: 801
!    Params: S11 S21 S12 S22
!
!!!!!
# GHZ S MA R 50
0.7000000000000000 0.811923 -165.062199 0.007611 -121.114585 0.007107 -140.539935 0.534949 -53.604708 
0.7003750000000000 0.816610 -165.327062 0.007599 -123.469702 0.006939 -141.361101 0.534019 -53.718179 
0.7007500000000000 0.820043 -165.438328 0.007462 -125.149500 0.006915 -144.140813 0.534514 -53.894942 
0.7011250000000000 0.824030 -165.689967 0.007251 -126.873665 0.006806 -144.913593 0.534412 -53.854514 
0.7015000000000000 0.827795 -165.917651 0.007168 -128.946132 0.006678 -147.041821 0.534573 -54.053185 
0.7018750000000000 0.831515 -166.159598 0.007063 -130.138907 0.006544 -148.409730 0.533600 -54.119107 
0.7022500000000000 0.835304 -166.348589 0.007028 -131.471161 0.006435 -150.568467 0.533926 -54.204973 
0.7026250000000001 0.838406 -166.537366 0.006964 -132.444172 0.006413 -152.478553 0.533168 -54.267515 
0.7030000000000000 0.841577 -166.725694 0.006800 -134.897728 0.006271 -153.974692 0.533161 -54.420386 
0.7033750000000000 0.843810 -166.914681 0.006593 -135.559660 0.006206 -155.272216 0.533520 -54.411654 
0.7037500000000000 0.847896 -167.131200 0.006834 -138.153329 0.006007 -157.011030 0.533208 -54.577068 
0.7041250000000000 0.850273 -167.336466 0.006467 -139.335925 0.006045 -158.864164 0.532816 -54.647722 
0.7045000000000000 0.854594 -167.447667 0.006434 -141.508638 0.005962 -160.407209 0.533103 -54.854281 
0.7048750000000000 0.855828 -167.604156 0.006405 -143.272583 0.005814 -164.047507 0.533189 -54.812664 
0.7052500000000000 0.858541 -167.806529 0.006300 -144.217819 0.005718 -163.352928 0.533471 -54.946217 
0.7056250000000000 0.862123 -168.032163 0.006333 -145.028481 0.005566 -165.965539 0.532084 -55.102211 
0.7060000000000000 0.864998 -168.266673 0.006204 -146.711767 0.005642 -167.009010 0.532425 -55.227788 
0.7063750000000000 0.868584 -168.315798 0.006054 -149.728941 0.005569 -168.654954 0.531959 -55.276990 
0.7067500000000000 0.870091 -168.492221 0.006031 -151.240218 0.005358 -169.961741 0.531481 -55.357285 
0.7071250000000000 0.871379 -168.660945 0.006052 -151.777208 0.005405 -170.076493 0.531778 -55.351434 
0.7075000000000000 0.873366 -168.744251 0.005856 -153.482940 0.005238 -171.807203 0.531888 -55.531265 
0.7078750000000000 0.876951 -168.916866 0.005847 -155.581565 0.005233 -173.485385 0.531750 -55.704351 
0.7082500000000001 0.879141 -169.058285 0.005784 -156.325727 0.005202 -175.054034 0.530859 -55.722527 
0.7086250000000000 0.880315 -169.166087 0.005763 -158.281347 0.005138 -176.842586 0.531589 -55.911268 
0.7090000000000000 0.883346 -169.340705 0.005582 -158.878499 0.005096 -178.150230 0.530682 -55.932519 
0.7093750000000000 0.884738 -169.482326 0.005515 -162.293543 0.005033 179.492470 0.531114 -56.099010 
0.7097500000000000 0.884950 -169.713887 0.005574 -162.790426 0.004993 179.491129 0.530022 -56.126935 
0.7101250000000000 0.887855 -169.783932 0.005460 -163.718177 0.005091 178.175223 0.529470 -56.174376 
0.7105000000000000 0.890024 -169.940811 0.005527 -164.816857 0.004878 175.857316 0.529443 -56.303518 
0.7108750000000000 0.891857 -170.109002 0.005440 -165.558177 0.004821 172.961089 0.530664 -56.450667 
0.7112500000000001 0.894582 -170.155292 0.005366 -166.607148 0.004739 174.033842 0.530166 -56.502031 
0.7116250000000000 0.893609 -170.263608 0.005190 -168.533649 0.004658 172.091790 0.530109 -56.577057 
0.7120000000000000 0.896189 -170.434393 0.005220 -171.204098 0.004617 170.404896 0.529719 -56.719166 
0.7123750000000000 0.897482 -170.531275 0.005139 -171.271420 0.004588 167.705000 0.528969 -56.867351 
0.7127500000000000 0.900542 -170.544063 0.005237 -173.066176 0.004534 168.349706 0.528742 -57.044619 
0.7131250000000000 0.899526 -170.769682 0.005004 -176.123645 0.004489 165.352623 0.528360 -56.962537 
0.7135000000000000 0.900709 -170.888098 0.004884 -177.000149 0.004396 165.143040 0.528853 -57.123326 
0.7138750000000000 0.903011 -171.080125 0.004863 -178.328527 0.004314 162.485400 0.529287 -57.196889 
0.7142500000000001 0.905463 -171.163106 0.004877 179.764725 0.004406 160.540535 0.528742 -57.233581 
0.7146250000000000 0.905443 -171.272340 0.004835 179.892645 0.004266 161.155933 0.527865 -57.455637 
0.7150000000000000 0.908163 -171.450573 0.004880 178.499344 0.004249 158.532919 0.527925 -57.506958 
0.7153750000000000 0.909249 -171.460864 0.004693 176.067631 0.004265 158.400228 0.528139 -57.600163 
0.7157500000000000 0.910018 -171.658494 0.004695 173.614497 0.004265 155.580959 0.527828 -57.727751 
0.7161250000000000 0.911032 -171.753182 0.004633 173.900101 0.004151 154.590420 0.527073 -57.683761 
0.7165000000000000 0.911230 -171.964332 0.004755 170.711489 0.004070 152.338385 0.528085 -57.882306 
0.7168750000000000 0.913200 -172.020454 0.004600 171.426793 0.004022 151.031829 0.527489 -58.029397 
0.7172500000000001 0.915864 -172.124773 0.004624 170.777622 0.003957 150.455313 0.527263 -58.100070 
0.7176250000000000 0.916396 -172.275742 0.004465 167.124400 0.004086 148.093320 0.526581 -58.143852 
0.7180000000000000 0.918802 -172.388254 0.004457 167.604492 0.003879 147.395109 0.527052 -58.269262 
0.7183750000000000 0.919630 -172.491048 0.004301 164.169343 0.003940 143.890045 0.526773 -58.375321 
0.7187500000000000 0.922513 -172.495537 0.004310 164.762111 0.003794 143.621519 0.526290 -58.498933 
0.7191250000000000 0.921415 -172.578407 0.004306 164.955787 0.003816 142.657536 0.526534 -58.589162 
0.7195000000000000 0.924235 -172.822422 0.004155 160.224756 0.003891 143.268441 0.525917 -58.661052 
0.7198750000000000 0.924923 -172.877326 0.004254 159.196263 0.003679 137.882404 0.525983 -58.789952 
0.7202500000000000 0.925901 -172.972422 0.004208 158.605459 0.003729 137.267311 0.527049 -58.848490 
0.7206250000000000 0.926606 -172.989206 0.004222 156.555874 0.003592 137.551461 0.525693 -58.867963 
0.7210000000000000 0.928217 -173.107698 0.004125 156.283969 0.003640 135.501486 0.525738 -59.111531 
0.7213750000000000 0.928709 -173.202391 0.004065 153.903895 0.003428 135.340917 0.526210 -59.142236 
0.7217500000000000 0.931162 -173.205251 0.003946 150.530793 0.003490 135.146697 0.525096 -59.333204 
0.7221250000000000 0.932492 -173.377364 0.003974 151.472255 0.003603 130.969398 0.525802 -59.320834 
0.7225000000000000 0.932292 -173.353272 0.003946 152.901654 0.003463 131.467771 0.525555 -59.490426 
0.7228750000000001 0.931692 -173.443438 0.003894 149.325631 0.003334 129.790626 0.525661 -59.562790 
0.7232500000000000 0.933655 -173.543991 0.003963 147.799890 0.003418 128.813963 0.524213 -59.694101 
0.7236250000000000 0.935440 -173.609028 0.003936 147.005378 0.003309 126.052560 0.525432 -59.783326 
0.7240000000000000 0.936201 -173.629285 0.003816 146.179362 0.003327 125.443163 0.524695 -59.875253 
0.7243750000000000 0.935348 -173.796472 0.003841 145.169548 0.003083 121.861653 0.524998 -59.944457 
0.7247500000000000 0.935819 -173.912364 0.003728 143.030441 0.003179 121.535580 0.524440 -60.090115 
0.7251250000000000 0.937306 -173.869522 0.003674 141.530966 0.003286 123.176435 0.524135 -60.228640 
0.7255000000000000 0.936687 -173.978097 0.003664 140.866538 0.003230 122.182477 0.524532 -60.334093 
0.7258750000000001 0.938895 -174.014779 0.003632 140.320611 0.003151 119.877155 0.523729 -60.441467 
0.7262500000000000 0.939030 -174.079297 0.003673 140.378928 0.003107 118.632738 0.524544 -60.480452 
0.7266250000000000 0.938545 -174.222301 0.003552 137.235620 0.003093 114.925658 0.524473 -60.514395 
0.7270000000000000 0.940536 -174.242051 0.003618 135.927894 0.003209 116.432732 0.524460 -60.693457 
0.7273750000000000 0.943131 -174.380907 0.003487 135.274240 0.003018 114.831243 0.524181 -60.836863 
0.7277500000000000 0.942830 -174.453643 0.003466 133.501777 0.002953 112.259244 0.524046 -60.931779 
0.7281250000000000 0.943641 -174.521722 0.003477 134.933336 0.002992 111.601768 0.523901 -60.987858 
0.7285000000000000 0.942573 -174.537860 0.003260 131.070610 0.002888 112.054398 0.523459 -61.144281 
0.7288750000000001 0.943266 -174.724343 0.003411 129.150201 0.002971 109.730355 0.522830 -61.262760 
0.7292500000000000 0.943085 -174.563184 0.003310 127.808915 0.002883 110.186717 0.523046 -61.310038 
0.7296250000000000 0.943143 -174.805571 0.003370 128.148919 0.002903 107.992304 0.523063 -61.425291 
0.7300000000000000 0.945530 -174.807580 0.003314 124.422860 0.002933 104.317487 0.523551 -61.522811 
0.7303750000000000 0.945456 -174.940861 0.003302 125.064886 0.002802 103.226141 0.523662 -61.703992 
0.7307500000000000 0.945708 -175.020168 0.003257 122.485991 0.002793 102.620569 0.522595 -61.815718 
0.7311250000000000 0.948241 -175.048310 0.003294 123.287460 0.002801 100.659642 0.522588 -61.951924 
0.7315000000000000 0.948627 -175.165028 0.003180 121.521107 0.002667 99.929207 0.522747 -62.033171 
0.7318750000000001 0.948682 -175.213399 0.003148 119.216257 0.002781 99.291501 0.522274 -62.073836 
0.7322500000000000 0.950984 -175.320950 0.003091 117.978252 0.002662 97.047057 0.522784 -62.326509 
0.7326250000000000 0.950984 -175.320950 0.003186 115.812333 0.002690 94.973482 0.521269 -62.326296 
0.7330000000000000 0.951530 -175.415821 0.002968 116.642242 0.002609 97.169510 0.522482 -62.418681 
0.7333750000000000 0.951832 -175.465192 0.003109 112.121276 0.002755 96.409180 0.521481 -62.637182 
0.7337500000000000 0.953008 -175.456073 0.003178 110.076570 0.002663 93.862523 0.521800 -62.708113 
0.7341250000000000 0.954376 -175.580217 0.003138 110.495414 0.002516 91.401087 0.521663 -62.847340 
0.7345000000000000 0.953084 -175.633095 0.002966 111.814669 0.002630 90.750500 0.521306 -62.872434 
0.7348749999999999 0.954826 -175.563935 0.003102 107.864029 0.002499 89.800475 0.521511 -63.049600 
0.7352500000000000 0.955941 -175.697532 0.003037 107.473302 0.002669 89.106986 0.520538 -63.111968 
0.7356250000000000 0.955109 -175.825950 0.002855 105.344303 0.002600 88.486889 0.520644 -63.193145 
0.7360000000000000 0.956713 -175.668017 0.002976 105.344498 0.002503 88.446830 0.521049 -63.463461 
0.7363750000000000 0.956683 -175.840159 0.002824 104.019818 0.002547 85.874827 0.520667 -63.449964 
0.7367500000000000 0.956101 -176.020967 0.003079 102.379170 0.002519 83.036413 0.520616 -63.664761 
0.7371250000000000 0.956974 -175.954999 0.002906 102.920965 0.002526 83.382103 0.519391 -63.733049 
0.7375000000000000 0.957017 -175.918549 0.002912 100.533927 0.002510 81.512711 0.520445 -63.794047 
0.7378750000000000 0.958761 -175.893074 0.002803 99.613375 0.002313 81.602568 0.520761 -64.005556 
0.7382500000000000 0.959696 -175.981105 0.002830 97.974820 0.002489 80.944619 0.521121 -64.192742 
0.7386250000000000 0.959299 -176.059830 0.002954 96.424704 0.002424 75.079286 0.520385 -64.306524 
0.7390000000000000 0.958627 -176.111914 0.002820 92.948635 0.002391 76.790886 0.520101 -64.325049 
0.7393750000000000 0.959142 -176.143240 0.002783 92.202126 0.002371 76.986815 0.519721 -64.513801 
0.7397500000000000 0.960750 -176.127815 0.002678 94.273703 0.002237 77.960694 0.519374 -64.633483 
0.7401250000000000 0.959717 -176.068853 0.002696 94.961620 0.002275 74.365620 0.519653 -64.662945 
0.7405000000000001 0.960498 -176.188832 0.002792 93.172636 0.002147 73.001825 0.518892 -64.872771 
0.7408750000000000 0.960860 -176.248628 0.002625 89.578541 0.002262 69.884003 0.519116 -64.955024 
0.7412500000000000 0.961126 -176.399153 0.002509 88.325394 0.002261 71.278430 0.519188 -65.129592 
0.7416250000000000 0.961831 -176.369007 0.002551 89.975901 0.002294 69.930413 0.518874 -65.276875 
0.7420000000000000 0.960365 -176.367107 0.002685 84.239042 0.002174 68.059182 0.518608 -65.300452 
0.7423750000000000 0.959451 -176.480505 0.002639 85.946821 0.002246 69.161664 0.518412 -65.420382 
0.7427500000000000 0.963113 -176.428422 0.002532 86.569224 0.002133 67.205482 0.518842 -65.527318 
0.7431250000000000 0.961051 -176.530120 0.002458 84.073165 0.002144 63.980656 0.517942 -65.689598 
0.7435000000000001 0.962430 -176.680694 0.002592 82.597118 0.002109 65.075821 0.517007 -65.820829 
0.7438750000000000 0.963109 -176.737591 0.002564 83.237100 0.002156 60.060585 0.517995 -65.940176 
0.7442500000000000 0.962599 -176.695832 0.002578 81.090460 0.002173 59.630867 0.517477 -66.077307 
0.7446250000000000 0.963649 -176.812118 0.002478 78.237555 0.002093 61.579905 0.517369 -66.238251 
0.7450000000000000 0.965054 -176.686099 0.002471 78.378946 0.002063 56.030794 0.517130 -66.315247 
0.7453750000000000 0.963467 -176.876947 0.002361 77.234324 0.002129 57.498051 0.516286 -66.470110 
0.7457500000000000 0.964022 -176.871481 0.002343 74.034984 0.002047 57.214241 0.516391 -66.545313 
0.7461250000000000 0.966523 -177.013646 0.002463 73.754428 0.002012 59.255692 0.516367 -66.713815 
0.7465000000000001 0.966401 -177.013269 0.002260 72.531468 0.001918 55.461402 0.516037 -66.841897 
0.7468750000000000 0.966253 -177.041806 0.002288 69.264326 0.001956 54.583695 0.516288 -67.070895 
0.7472500000000000 0.967515 -177.067381 0.002391 72.643931 0.002100 53.290747 0.515072 -67.050582 
0.7476250000000000 0.967161 -177.051827 0.002312 68.745061 0.002007 48.329175 0.515254 -67.335234 
0.7480000000000000 0.967030 -177.207121 0.002355 71.863106 0.002100 47.059278 0.515048 -67.310935 
0.7483750000000000 0.969532 -177.210724 0.002300 68.622159 0.001998 49.804387 0.514891 -67.476530 
0.7487500000000000 0.967111 -177.258037 0.002444 67.290274 0.001998 49.871426 0.514317 -67.604513 
0.7491250000000000 0.970705 -177.123922 0.002333 66.694934 0.001870 44.214672 0.513997 -67.700174 
0.7495000000000001 0.968990 -177.201934 0.002384 63.569491 0.002053 39.949547 0.513986 -67.865036 
0.7498750000000000 0.969588 -177.369760 0.002330 64.874386 0.001934 43.043829 0.513194 -67.965126 
0.7502500000000000 0.971646 -177.317686 0.002148 59.340012 0.001996 43.969197 0.513734 -68.106952 
0.7506250000000000 0.969880 -177.309190 0.002202 58.079122 0.001933 40.998069 0.513225 -68.304243 
0.7510000000000000 0.971282 -177.471661 0.002287 62.554624 0.001818 38.756622 0.513149 -68.436508 
0.7513750000000000 0.970993 -177.369964 0.002303 60.019346 0.001815 35.699148 0.511939 -68.500490 
0.7517500000000000 0.970181 -177.393018 0.002278 56.526112 0.001874 42.888453 0.512550 -68.681315 
0.7521250000000000 0.971440 -177.425226 0.002192 56.843952 0.001764 37.119291 0.512421 -68.756213 
0.7525000000000000 0.970586 -177.422960 0.002214 56.681189 0.001882 37.400601 0.511385 -68.989740 
0.7528750000000000 0.972282 -177.524664 0.002073 50.839026 0.001835 34.857840 0.511474 -69.059440 
0.7532500000000000 0.971357 -177.536719 0.002135 48.971492 0.001848 31.115241 0.510045 -69.210833 
0.7536250000000000 0.969979 -177.670340 0.002053 53.627068 0.001739 29.629442 0.510953 -69.289751 
0.7540000000000000 0.972192 -177.481229 0.002005 50.620475 0.001755 30.664679 0.509908 -69.465227 
0.7543750000000000 0.970860 -177.632800 0.002070 45.588064 0.001730 30.449133 0.510388 -69.565854 
0.7547500000000000 0.971574 -177.573298 0.002044 50.033584 0.001787 28.116988 0.509728 -69.706533 
0.7551250000000001 0.971789 -177.703493 0.002072 47.984615 0.001775 25.062687 0.508943 -69.856917 
0.7555000000000000 0.972151 -177.621544 0.002077 46.676688 0.001789 28.743038 0.510063 -69.892128 
0.7558750000000000 0.971713 -177.724925 0.001943 45.574120 0.001756 25.523197 0.509280 -70.013371 
0.7562500000000000 0.972438 -177.737418 0.001979 45.927282 0.001590 24.128648 0.509005 -70.159237 
0.7566250000000000 0.973362 -177.818666 0.001978 41.699208 0.001821 21.850866 0.508686 -70.299699 
0.7570000000000000 0.972067 -177.743755 0.002010 41.749798 0.001629 21.719657 0.507126 -70.496469 
0.7573750000000000 0.974372 -177.960996 0.002048 39.849564 0.001603 16.019726 0.507984 -70.501535 
0.7577500000000000 0.971242 -177.885967 0.002072 40.994928 0.001641 20.172246 0.507373 -70.645218 
0.7581250000000001 0.974008 -177.956642 0.001911 37.279436 0.001647 18.318255 0.507005 -70.805981 
0.7585000000000000 0.973183 -178.008843 0.001946 41.389910 0.001759 15.871800 0.506342 -70.958966 
0.7588750000000000 0.973601 -178.024076 0.001922 34.520787 0.001686 17.738038 0.506382 -71.051840 
0.7592500000000000 0.974662 -178.090848 0.002007 40.456586 0.001600 14.848085 0.505655 -71.261053 
0.7596250000000000 0.975150 -178.091804 0.001846 30.633226 0.001613 14.901959 0.505035 -71.317615 
0.7600000000000000 0.973928 -178.093001 0.002016 30.154249 0.001527 16.374897 0.504432 -71.499281 
0.7603750000000000 0.975811 -178.111025 0.001898 27.839652 0.001539 6.163260 0.503583 -71.569444 
0.7607500000000000 0.975968 -178.272652 0.001774 23.907374 0.001498 8.518818 0.503836 -71.747227 
0.7611250000000001 0.975148 -178.206617 0.002033 30.486156 0.001625 7.071832 0.503539 -71.805529 
0.7615000000000000 0.975878 -178.329854 0.001823 25.975339 0.001524 6.254093 0.503187 -71.916685 
0.7618750000000000 0.975023 -178.331976 0.001850 26.345424 0.001596 6.718086 0.502580 -72.084340 
0.7622500000000000 0.977313 -178.393161 0.001853 24.129416 0.001421 4.403313 0.502421 -72.242993 
0.7626250000000000 0.978852 -178.367096 0.001801 24.597129 0.001570 3.958356 0.502230 -72.345658 
0.7630000000000000 0.977289 -178.443238 0.001801 21.245006 0.001571 2.601182 0.501478 -72.431732 
0.7633750000000000 0.978074 -178.462371 0.001896 21.596004 0.001540 1.481361 0.501513 -72.663235 
0.7637500000000000 0.977978 -178.540915 0.001770 22.713086 0.001553 3.420324 0.500633 -72.763491 
0.7641250000000001 0.978259 -178.459086 0.001800 21.673152 0.001505 -1.227951 0.500369 -72.849226 
0.7645000000000000 0.978516 -178.430890 0.001678 15.304216 0.001411 -6.296886 0.500605 -72.963523 
0.7648750000000000 0.978105 -178.530374 0.001796 18.000904 0.001418 2.645654 0.499727 -73.137543 
0.7652500000000000 0.979939 -178.525985 0.001781 10.617062 0.001433 -0.722117 0.499086 -73.199412 
0.7656250000000000 0.979122 -178.578348 0.001669 14.556827 0.001458 -7.052404 0.499293 -73.400374 
0.7660000000000000 0.978978 -178.631736 0.001748 12.058325 0.001475 -7.272318 0.499111 -73.569536 
0.7663750000000000 0.978677 -178.620593 0.001724 10.883357 0.001449 -2.732925 0.498291 -73.666106 
0.7667500000000000 0.980038 -178.729586 0.001783 6.864149 0.001419 -8.745614 0.497843 -73.742463 
0.7671250000000000 0.979221 -178.635647 0.001796 10.506089 0.001400 -13.227953 0.497719 -73.968704 
0.7675000000000000 0.979793 -178.732838 0.001700 11.835162 0.001468 -10.206634 0.496901 -74.029465 
0.7678750000000000 0.979924 -178.708021 0.001823 6.994418 0.001434 -16.742583 0.496465 -74.102984 
0.7682500000000000 0.981749 -178.724675 0.001616 4.948599 0.001454 -13.280607 0.496552 -74.274203 
0.7686250000000000 0.980827 -178.741307 0.001682 6.983771 0.001336 -11.355053 0.496228 -74.420997 
0.7690000000000000 0.979642 -178.811195 0.001693 7.776066 0.001368 -14.691582 0.495693 -74.458707 
0.7693750000000000 0.980446 -178.783628 0.001656 3.596400 0.001410 -17.983140 0.494784 -74.627406 
0.7697500000000001 0.980800 -178.816165 0.001515 0.617588 0.001367 -17.244006 0.495197 -74.746744 
0.7701250000000000 0.980901 -178.876907 0.001557 -0.695484 0.001342 -22.660195 0.494430 -74.953317 
0.7705000000000000 0.978728 -178.992345 0.001515 -1.560463 0.001239 -24.619801 0.493715 -75.030023 
0.7708750000000000 0.980793 -179.026561 0.001500 -3.910252 0.001374 -20.954345 0.493071 -75.145793 
0.7712500000000000 0.981016 -179.105216 0.001514 -4.403551 0.001362 -22.164195 0.493256 -75.272499 
0.7716250000000000 0.979379 -179.064438 0.001667 -3.830833 0.001429 -20.120524 0.492909 -75.426887 
0.7720000000000000 0.981197 -179.112511 0.001542 -3.562101 0.001358 -30.201031 0.492208 -75.501077 
0.7723750000000000 0.980805 -179.215566 0.001523 -10.864105 0.001400 -33.917400 0.492392 -75.631303 
