!
! C:\Users\rflab\Downloads\Lab5_KD_ZW\Q2\728 MHz\260.S2P
!
! Touchstone 1.1 file saved by VNA.EXE V1.65 (www.ke5fx.com/gpib/readme.htm)
! 11/18/2024 9:25:37 PM
!
!    Source: HEWLETT PACKARD,8753D,0,6.14
!  Min freq: 7.000000E+008 Hz
!  Max freq: 1.000000E+009 Hz
!    Points: 801
!    Params: S11 S21 S12 S22
!
!!!!!
# GHZ S MA R 50
0.7000000000000000 0.812565 -164.976267 0.008721 -145.739948 0.008137 -163.494682 0.534051 -53.741058 
0.7003750000000000 0.817678 -165.227267 0.008586 -146.937449 0.008096 -165.584827 0.533430 -53.809958 
0.7007500000000000 0.821617 -165.405266 0.008527 -147.791511 0.007801 -167.209085 0.533417 -53.995526 
0.7011250000000000 0.824515 -165.746707 0.008215 -150.074864 0.007848 -168.585602 0.533358 -54.015290 
0.7015000000000000 0.827425 -165.915578 0.008217 -151.379456 0.007607 -170.806314 0.532921 -54.220121 
0.7018750000000000 0.831307 -166.130061 0.008047 -152.906557 0.007562 -172.754430 0.532423 -54.165307 
0.7022500000000000 0.834405 -166.389667 0.008099 -155.579216 0.007465 -174.306887 0.532428 -54.355810 
0.7026250000000001 0.838293 -166.569823 0.007915 -156.089382 0.007351 -176.310767 0.532396 -54.349317 
0.7030000000000000 0.841469 -166.702605 0.007849 -158.640088 0.007166 -177.459936 0.531568 -54.507823 
0.7033750000000000 0.844610 -166.918800 0.007744 -159.728445 0.007061 -178.301096 0.532069 -54.562412 
0.7037500000000000 0.848573 -167.116274 0.007621 -161.129713 0.007059 179.024583 0.531735 -54.669894 
0.7041250000000000 0.850427 -167.309287 0.007506 -163.032671 0.006904 177.209131 0.531057 -54.739053 
0.7045000000000000 0.854236 -167.480070 0.007273 -163.574208 0.006909 176.597081 0.531516 -54.834423 
0.7048750000000000 0.855911 -167.693217 0.007501 -165.734947 0.006838 175.332248 0.532189 -54.885516 
0.7052500000000000 0.859385 -167.835328 0.007317 -166.154839 0.006637 173.995303 0.531471 -55.036015 
0.7056250000000000 0.862481 -168.037207 0.007243 -168.570223 0.006502 171.854748 0.530762 -55.151289 
0.7060000000000000 0.865159 -168.136743 0.007192 -170.342816 0.006437 170.127371 0.531297 -55.235534 
0.7063750000000000 0.868531 -168.253394 0.007119 -171.576826 0.006450 168.903134 0.530087 -55.337385 
0.7067500000000000 0.869516 -168.496823 0.007013 -173.099204 0.006250 167.078120 0.529579 -55.451852 
0.7071250000000000 0.872312 -168.722301 0.006897 -173.605568 0.006169 165.664593 0.529917 -55.340741 
0.7075000000000000 0.873689 -168.760715 0.006887 -175.481120 0.006205 165.139345 0.530464 -55.545626 
0.7078750000000000 0.876010 -168.982093 0.006783 -177.163339 0.006124 162.498392 0.529801 -55.644456 
0.7082500000000001 0.879542 -169.111920 0.006698 -178.425283 0.005971 162.157615 0.529012 -55.746146 
0.7086250000000000 0.880261 -169.290782 0.006594 -179.318433 0.006070 159.750576 0.529407 -55.883063 
0.7090000000000000 0.882978 -169.360395 0.006566 177.217481 0.005900 159.580530 0.528419 -55.994227 
0.7093750000000000 0.885985 -169.437079 0.006327 176.634048 0.005685 157.481064 0.528477 -56.014445 
0.7097500000000000 0.885245 -169.653106 0.006402 175.283143 0.005795 156.113622 0.527822 -56.102286 
0.7101250000000000 0.888542 -169.715921 0.006383 173.441196 0.005660 154.069616 0.527652 -56.129794 
0.7105000000000000 0.889621 -169.952171 0.006232 173.056857 0.005643 152.081583 0.527709 -56.245602 
0.7108750000000000 0.893052 -170.102492 0.006347 171.840985 0.005572 151.588151 0.528302 -56.435697 
0.7112500000000001 0.893988 -170.168545 0.006298 170.708134 0.005453 151.849560 0.527990 -56.468831 
0.7116250000000000 0.893657 -170.291927 0.006067 168.572621 0.005504 149.249062 0.528035 -56.563414 
0.7120000000000000 0.896922 -170.414610 0.006009 166.938080 0.005358 146.723586 0.528237 -56.704704 
0.7123750000000000 0.897883 -170.567129 0.006086 164.871656 0.005277 145.532402 0.527866 -56.832688 
0.7127500000000000 0.898707 -170.631074 0.005955 164.963972 0.005223 145.713617 0.526883 -56.917419 
0.7131250000000000 0.900190 -170.800166 0.005861 163.142481 0.005290 143.824735 0.526787 -56.890840 
0.7135000000000000 0.902308 -170.916149 0.005969 161.604855 0.005140 141.699628 0.526783 -57.013285 
0.7138750000000000 0.903233 -171.015702 0.005729 161.140563 0.005147 141.091512 0.527273 -57.138647 
0.7142500000000001 0.906418 -171.176399 0.005551 159.213542 0.005079 138.362666 0.526909 -57.199973 
0.7146250000000000 0.905165 -171.285267 0.005622 157.944570 0.005032 137.042665 0.526116 -57.278756 
0.7150000000000000 0.906971 -171.458748 0.005587 155.359950 0.004982 137.515493 0.526348 -57.448810 
0.7153750000000000 0.908205 -171.458762 0.005452 155.721533 0.004902 134.463987 0.526287 -57.440646 
0.7157500000000000 0.911058 -171.741786 0.005448 151.366731 0.004909 133.396130 0.526456 -57.609819 
0.7161250000000000 0.911747 -171.817827 0.005419 151.363583 0.004802 132.386018 0.525192 -57.640649 
0.7165000000000000 0.912429 -171.951742 0.005419 150.398936 0.004799 129.590201 0.525246 -57.731023 
0.7168750000000000 0.913967 -172.007881 0.005282 148.816712 0.004655 130.765525 0.525717 -57.861702 
0.7172500000000001 0.916029 -172.133908 0.005155 146.520875 0.004615 127.077694 0.526195 -57.941429 
0.7176250000000000 0.916344 -172.271443 0.005327 146.060296 0.004672 127.166391 0.525710 -57.994617 
0.7180000000000000 0.918471 -172.370135 0.005126 145.411871 0.004642 125.440186 0.525529 -58.107829 
0.7183750000000000 0.920477 -172.497998 0.005167 142.925474 0.004499 124.801730 0.524875 -58.184947 
0.7187500000000000 0.921392 -172.501664 0.004941 142.623068 0.004599 122.090078 0.524877 -58.330083 
0.7191250000000000 0.921106 -172.667784 0.005035 141.379178 0.004505 120.757323 0.525985 -58.400557 
0.7195000000000000 0.923721 -172.772618 0.004925 139.564458 0.004415 120.598717 0.524664 -58.476119 
0.7198750000000000 0.925968 -172.847347 0.004921 137.004560 0.004290 117.190145 0.524498 -58.582284 
0.7202500000000000 0.926689 -172.978425 0.004958 135.602071 0.004299 116.674480 0.525374 -58.636698 
0.7206250000000000 0.926211 -172.940546 0.004798 135.126842 0.004271 115.466373 0.524979 -58.778063 
0.7210000000000000 0.928161 -173.073130 0.004844 134.014790 0.004157 114.827927 0.524719 -58.908798 
0.7213750000000000 0.929257 -173.236741 0.004703 133.779986 0.004228 113.667856 0.525446 -58.925528 
0.7217500000000000 0.931236 -173.326803 0.004622 132.750657 0.004207 111.428734 0.524221 -59.167808 
0.7221250000000000 0.930596 -173.405418 0.004659 131.815680 0.004189 112.034571 0.525199 -59.080211 
0.7225000000000000 0.931475 -173.362543 0.004685 130.252459 0.003985 108.575891 0.524779 -59.273957 
0.7228750000000001 0.933277 -173.416912 0.004660 129.351073 0.003947 108.916515 0.524829 -59.343076 
0.7232500000000000 0.934497 -173.587490 0.004601 127.172153 0.003908 108.180702 0.523604 -59.504145 
0.7236250000000000 0.936012 -173.631752 0.004532 125.145613 0.003950 105.693140 0.524517 -59.466169 
0.7240000000000000 0.935136 -173.708541 0.004537 123.315156 0.003886 104.789005 0.524283 -59.667700 
0.7243750000000000 0.936049 -173.816171 0.004467 123.766396 0.003917 103.070167 0.524030 -59.748121 
0.7247500000000000 0.935726 -173.930548 0.004473 122.332051 0.003953 101.800566 0.524316 -59.820382 
0.7251250000000000 0.936779 -173.854800 0.004287 122.155689 0.003723 100.660900 0.523925 -59.980667 
0.7255000000000000 0.936393 -174.006241 0.004350 118.004876 0.003817 97.169407 0.523963 -60.060164 
0.7258750000000001 0.940104 -174.097303 0.004150 118.875545 0.003759 97.167390 0.523484 -60.245595 
0.7262500000000000 0.939811 -174.125383 0.004226 116.868616 0.003780 96.995038 0.524574 -60.279098 
0.7266250000000000 0.939359 -174.212357 0.004222 115.127926 0.003615 97.004097 0.525092 -60.307573 
0.7270000000000000 0.939886 -174.264231 0.004221 115.282599 0.003713 91.843340 0.524442 -60.493317 
0.7273750000000000 0.941521 -174.389933 0.004254 114.272260 0.003588 94.260583 0.525069 -60.616122 
0.7277500000000000 0.942987 -174.432213 0.004279 113.227939 0.003610 92.676098 0.524569 -60.726866 
0.7281250000000000 0.942947 -174.495323 0.004016 111.583519 0.003654 91.383236 0.523870 -60.794977 
0.7285000000000000 0.944098 -174.542987 0.004114 109.178329 0.003569 86.671969 0.523187 -60.929168 
0.7288750000000001 0.943598 -174.707595 0.003907 107.944057 0.003450 88.451623 0.523000 -61.021051 
0.7292500000000000 0.943489 -174.658590 0.003984 106.866749 0.003527 87.753039 0.522612 -61.146551 
0.7296250000000000 0.944852 -174.729506 0.004006 106.639148 0.003392 85.436352 0.523484 -61.229597 
0.7300000000000000 0.946321 -174.811928 0.003877 106.235823 0.003439 85.188540 0.523781 -61.357838 
0.7303750000000000 0.946962 -174.874780 0.004054 103.442917 0.003271 83.198688 0.523667 -61.415659 
0.7307500000000000 0.946718 -174.999539 0.003789 102.386080 0.003315 81.030810 0.522758 -61.570801 
0.7311250000000000 0.948163 -175.103427 0.003870 99.168080 0.003395 80.560839 0.522602 -61.736410 
0.7315000000000000 0.949459 -175.139702 0.003899 101.069455 0.003307 80.255205 0.523815 -61.849366 
0.7318750000000001 0.949934 -175.193863 0.003710 100.523525 0.003258 78.167914 0.524284 -61.831379 
0.7322500000000000 0.951283 -175.281846 0.003794 96.559249 0.003168 78.659623 0.523463 -62.006698 
0.7326250000000000 0.950723 -175.378706 0.003873 96.091707 0.003207 76.829477 0.522433 -62.162586 
0.7330000000000000 0.951791 -175.450251 0.003876 94.010536 0.003207 76.117696 0.523420 -62.280049 
0.7333750000000000 0.952159 -175.496225 0.003713 93.604334 0.003125 72.319781 0.522952 -62.385196 
0.7337500000000000 0.953519 -175.440117 0.003636 91.262347 0.003083 72.380592 0.522900 -62.540640 
0.7341250000000000 0.954162 -175.509376 0.003587 90.841628 0.003116 73.365007 0.522251 -62.597935 
0.7345000000000000 0.953206 -175.585819 0.003706 88.540265 0.003095 71.168643 0.522441 -62.717990 
0.7348749999999999 0.954227 -175.649359 0.003674 88.709626 0.003008 69.746429 0.522989 -62.827889 
0.7352500000000000 0.954681 -175.629389 0.003702 86.577640 0.002993 67.072269 0.521844 -62.970421 
0.7356250000000000 0.956606 -175.803168 0.003669 84.847378 0.003015 65.090690 0.522176 -63.120469 
0.7360000000000000 0.957104 -175.746736 0.003469 83.417155 0.003045 64.646988 0.522444 -63.240371 
0.7363750000000000 0.957396 -175.857911 0.003370 84.479362 0.002993 63.120581 0.522511 -63.270324 
0.7367500000000000 0.957557 -175.979433 0.003486 81.172815 0.003011 61.466666 0.522277 -63.448421 
0.7371250000000000 0.957932 -176.024924 0.003302 83.637417 0.002835 60.529401 0.521282 -63.569962 
0.7375000000000000 0.958052 -175.922965 0.003262 80.361450 0.002913 62.033989 0.522541 -63.675879 
0.7378750000000000 0.959987 -175.942154 0.003406 78.181975 0.002839 62.578347 0.521583 -63.881718 
0.7382500000000000 0.959122 -175.949453 0.003380 78.785187 0.002913 56.737851 0.522015 -63.990701 
0.7386250000000000 0.959521 -176.079012 0.003390 78.798343 0.002861 58.254248 0.521881 -64.151179 
0.7390000000000000 0.961412 -176.137776 0.003326 75.055355 0.002867 56.484374 0.521197 -64.252655 
0.7393750000000000 0.957693 -176.181310 0.003290 73.743779 0.002817 54.897532 0.521227 -64.369637 
0.7397500000000000 0.959570 -176.090168 0.003269 73.345181 0.002707 54.025302 0.521125 -64.501890 
0.7401250000000000 0.959552 -176.159501 0.003105 70.820811 0.002814 50.341735 0.520965 -64.601303 
0.7405000000000001 0.960150 -176.282351 0.003113 72.325549 0.002707 50.095551 0.520384 -64.767933 
0.7408750000000000 0.960602 -176.316935 0.003230 72.975016 0.002748 50.443330 0.520729 -64.908251 
0.7412500000000000 0.960502 -176.411402 0.003206 68.596596 0.002828 49.934678 0.520884 -64.982903 
0.7416250000000000 0.962052 -176.333421 0.003149 69.202297 0.002663 49.356971 0.520168 -65.168515 
0.7420000000000000 0.961385 -176.443860 0.003069 64.267169 0.002667 49.488725 0.520541 -65.279993 
0.7423750000000000 0.960712 -176.503364 0.003071 68.160594 0.002629 46.804016 0.519703 -65.400396 
0.7427500000000000 0.961457 -176.433195 0.003170 64.868823 0.002640 43.225062 0.519620 -65.525689 
0.7431250000000000 0.962319 -176.607505 0.003079 61.523748 0.002710 42.736168 0.519529 -65.735422 
0.7435000000000001 0.961498 -176.633753 0.003039 62.097824 0.002614 43.155724 0.518401 -65.823466 
0.7438750000000000 0.964283 -176.788788 0.002953 60.226435 0.002646 41.804177 0.518866 -65.931440 
0.7442500000000000 0.963958 -176.744103 0.002957 61.353777 0.002550 41.528095 0.519531 -66.023158 
0.7446250000000000 0.963707 -176.815943 0.002931 58.880389 0.002642 37.277324 0.519392 -66.240894 
0.7450000000000000 0.964763 -176.797650 0.003022 56.625901 0.002555 36.985393 0.518655 -66.333946 
0.7453750000000000 0.963091 -176.821177 0.002911 53.923285 0.002609 35.453077 0.518082 -66.394583 
0.7457500000000000 0.964948 -176.928926 0.003017 54.323868 0.002436 36.860933 0.518067 -66.533734 
0.7461250000000000 0.965862 -177.000724 0.003022 54.396644 0.002484 32.722990 0.517585 -66.690953 
0.7465000000000001 0.967552 -177.024066 0.002787 53.799646 0.002445 32.593092 0.518082 -66.905547 
0.7468750000000000 0.965980 -177.004718 0.002826 51.106879 0.002459 32.979034 0.517975 -67.080215 
0.7472500000000000 0.966438 -177.111213 0.002933 48.988461 0.002416 29.006259 0.516900 -67.136314 
0.7476250000000000 0.967033 -177.058678 0.002831 49.706975 0.002508 29.260904 0.516839 -67.309616 
0.7480000000000000 0.965990 -177.135244 0.002902 47.880523 0.002384 27.881184 0.516712 -67.413715 
0.7483750000000000 0.967909 -177.253067 0.002770 46.516882 0.002349 27.632730 0.516253 -67.509885 
0.7487500000000000 0.968420 -177.225596 0.002760 46.697752 0.002293 24.234683 0.515820 -67.724594 
0.7491250000000000 0.970306 -177.162432 0.002725 43.975387 0.002380 25.145692 0.515451 -67.726146 
0.7495000000000001 0.968481 -177.225770 0.002898 42.412585 0.002422 25.486744 0.515109 -67.981758 
0.7498750000000000 0.969137 -177.321575 0.002893 40.203918 0.002220 23.610360 0.514999 -68.057371 
0.7502500000000000 0.969824 -177.460639 0.002798 42.133118 0.002321 19.144080 0.514589 -68.207427 
0.7506250000000000 0.970632 -177.286028 0.002769 43.492929 0.002431 21.041352 0.513934 -68.372332 
0.7510000000000000 0.972810 -177.472035 0.002705 36.835564 0.002271 19.287062 0.514852 -68.511398 
0.7513750000000000 0.970984 -177.305038 0.002615 36.576349 0.002260 18.299233 0.513521 -68.628547 
0.7517500000000000 0.970525 -177.422798 0.002756 37.645045 0.002208 16.188930 0.512937 -68.767674 
0.7521250000000000 0.971551 -177.439933 0.002695 37.313931 0.002201 18.160148 0.513188 -68.837001 
0.7525000000000000 0.970949 -177.427530 0.002487 32.765930 0.002249 16.064706 0.512547 -69.032299 
0.7528750000000000 0.972141 -177.466696 0.002615 33.793671 0.002311 14.188223 0.513099 -69.205444 
0.7532500000000000 0.970116 -177.562432 0.002542 31.006597 0.002289 14.231671 0.512758 -69.267540 
0.7536250000000000 0.970871 -177.531882 0.002678 29.471544 0.002260 12.310489 0.511337 -69.437557 
0.7540000000000000 0.972309 -177.571532 0.002577 29.327003 0.002060 8.625171 0.511099 -69.548057 
0.7543750000000000 0.970677 -177.632354 0.002647 31.161104 0.002193 8.746389 0.510909 -69.664259 
0.7547500000000000 0.972103 -177.603423 0.002583 25.327819 0.002166 6.643881 0.510789 -69.849015 
0.7551250000000001 0.971292 -177.626646 0.002411 24.314540 0.002208 10.896752 0.510654 -70.000219 
0.7555000000000000 0.972431 -177.658221 0.002512 23.878828 0.002167 4.678836 0.510106 -70.028897 
0.7558750000000000 0.973138 -177.695889 0.002531 25.478656 0.002197 3.764437 0.509724 -70.228495 
0.7562500000000000 0.971663 -177.800445 0.002611 24.998246 0.002100 4.189416 0.509454 -70.272291 
0.7566250000000000 0.972949 -177.796159 0.002579 20.352395 0.002117 -0.480680 0.509163 -70.435574 
0.7570000000000000 0.971685 -177.861721 0.002540 18.510647 0.002133 0.096040 0.507901 -70.600445 
0.7573750000000000 0.973784 -177.923829 0.002530 18.894285 0.002091 2.385678 0.507579 -70.693529 
0.7577500000000000 0.970831 -177.859839 0.002547 16.189297 0.002035 1.631218 0.507603 -70.811230 
0.7581250000000001 0.973503 -177.984337 0.002464 15.823145 0.002070 -1.815162 0.506834 -70.967197 
0.7585000000000000 0.975423 -178.042116 0.002538 11.796498 0.002057 -4.644500 0.506271 -71.120529 
0.7588750000000000 0.974127 -178.064656 0.002460 18.715005 0.002164 -5.667886 0.506680 -71.220197 
0.7592500000000000 0.974481 -178.086902 0.002408 12.898315 0.002077 -5.533243 0.505119 -71.397568 
0.7596250000000000 0.974815 -178.144987 0.002427 16.085350 0.001996 -6.132025 0.505176 -71.432606 
0.7600000000000000 0.974069 -178.168711 0.002350 10.029013 0.002009 -7.094225 0.504731 -71.638447 
0.7603750000000000 0.975388 -178.214233 0.002374 11.690737 0.002000 -12.173949 0.503713 -71.812032 
0.7607500000000000 0.975383 -178.224984 0.002308 7.438543 0.002000 -13.171491 0.503869 -71.847081 
0.7611250000000001 0.977234 -178.188964 0.002167 4.413213 0.001978 -11.221224 0.503922 -71.951293 
0.7615000000000000 0.974662 -178.320590 0.002363 6.785487 0.001993 -13.939007 0.503634 -72.108517 
0.7618750000000000 0.975514 -178.325644 0.002361 2.428354 0.002052 -12.348640 0.502539 -72.349570 
0.7622500000000000 0.976729 -178.338473 0.002306 3.426476 0.002012 -13.807353 0.502855 -72.408469 
0.7626250000000000 0.977689 -178.372310 0.002325 1.078435 0.001831 -18.966933 0.501959 -72.489290 
0.7630000000000000 0.978314 -178.473475 0.002394 2.942765 0.001942 -17.767178 0.501371 -72.621629 
0.7633750000000000 0.977275 -178.475431 0.002318 3.331496 0.001870 -16.964042 0.500576 -72.819968 
0.7637500000000000 0.978061 -178.490965 0.002259 1.427341 0.001889 -20.649125 0.500084 -72.872083 
0.7641250000000001 0.980067 -178.511901 0.002370 -2.986436 0.001881 -21.409356 0.500029 -73.023762 
0.7645000000000000 0.977854 -178.411938 0.002231 -3.632853 0.001884 -20.868575 0.499334 -73.105548 
0.7648750000000000 0.978515 -178.570315 0.002242 -5.912515 0.001897 -26.752606 0.498819 -73.252406 
0.7652500000000000 0.979338 -178.503649 0.002317 -10.285076 0.001893 -28.108568 0.498434 -73.363590 
0.7656250000000000 0.979299 -178.592893 0.002220 -6.376550 0.001817 -27.293864 0.498476 -73.544348 
0.7660000000000000 0.977844 -178.569334 0.002281 -7.735904 0.001766 -28.028464 0.498069 -73.665930 
0.7663750000000000 0.978695 -178.577727 0.002211 -9.757421 0.001903 -27.464631 0.497106 -73.732340 
0.7667500000000000 0.979385 -178.682308 0.002220 -7.800356 0.001831 -29.134323 0.496815 -73.898448 
0.7671250000000000 0.980181 -178.676241 0.002180 -13.191185 0.001896 -30.693480 0.496314 -74.112672 
0.7675000000000000 0.980292 -178.704937 0.002257 -13.281062 0.001897 -32.460009 0.496298 -74.170746 
0.7678750000000000 0.980349 -178.715716 0.002243 -12.878651 0.001915 -30.698236 0.494498 -74.258595 
0.7682500000000000 0.981061 -178.770130 0.002109 -14.949985 0.001770 -33.103533 0.494853 -74.347275 
0.7686250000000000 0.979309 -178.721496 0.002156 -13.998585 0.001862 -33.960700 0.495584 -74.517439 
0.7690000000000000 0.980037 -178.733154 0.002010 -17.367406 0.001804 -38.731058 0.493814 -74.556070 
0.7693750000000000 0.979343 -178.792974 0.002068 -23.319169 0.001805 -39.443410 0.492954 -74.785948 
0.7697500000000001 0.979798 -178.889922 0.002110 -19.750274 0.001839 -38.576276 0.493417 -74.763839 
0.7701250000000000 0.981130 -178.923513 0.002124 -21.476599 0.001776 -43.339665 0.492770 -74.960235 
0.7705000000000000 0.977266 -178.983679 0.002268 -21.695141 0.001613 -40.043022 0.491361 -75.148130 
0.7708750000000000 0.980356 -179.061803 0.002267 -19.890170 0.001738 -41.965031 0.491728 -75.236707 
0.7712500000000000 0.980000 -179.025773 0.002097 -26.615305 0.001800 -40.446998 0.491218 -75.294669 
0.7716250000000000 0.979594 -178.953960 0.002017 -27.357806 0.001792 -45.516200 0.490972 -75.489545 
0.7720000000000000 0.981306 -179.162506 0.001900 -26.920376 0.001689 -48.688937 0.490938 -75.562078 
0.7723750000000000 0.981851 -179.180781 0.002158 -28.619685 0.001709 -49.941349 0.490658 -75.689763 
