!
! C:\Users\rflab\Downloads\Lab5_KD_ZW\Q2\728 MHz\270.S2P
!
! Touchstone 1.1 file saved by VNA.EXE V1.65 (www.ke5fx.com/gpib/readme.htm)
! 11/18/2024 9:26:52 PM
!
!    Source: HEWLETT PACKARD,8753D,0,6.14
!  Min freq: 7.000000E+008 Hz
!  Max freq: 1.000000E+009 Hz
!    Points: 801
!    Params: S11 S21 S12 S22
!
!!!!!
# GHZ S MA R 50
0.7000000000000000 0.812424 -164.946861 0.010526 -154.238248 0.009872 -172.305132 0.533512 -53.653838 
0.7003750000000000 0.817718 -165.099714 0.010437 -155.116262 0.009796 -173.824280 0.531809 -53.775858 
0.7007500000000000 0.821131 -165.383245 0.010286 -157.502116 0.009690 -176.154041 0.533123 -53.944179 
0.7011250000000000 0.825378 -165.665750 0.010086 -158.655810 0.009478 -176.842075 0.532941 -53.954297 
0.7015000000000000 0.828494 -165.794840 0.010057 -159.906884 0.009527 -178.511425 0.532566 -54.026458 
0.7018750000000000 0.832177 -166.010638 0.009748 -161.326627 0.009207 178.765472 0.531163 -54.184885 
0.7022500000000000 0.835284 -166.283613 0.009691 -163.952370 0.009052 177.630139 0.532153 -54.188842 
0.7026250000000001 0.838798 -166.479454 0.009528 -165.052696 0.008835 176.872146 0.531852 -54.250592 
0.7030000000000000 0.841627 -166.675257 0.009498 -166.801646 0.008845 174.030927 0.531480 -54.379716 
0.7033750000000000 0.844891 -166.855227 0.009231 -168.842150 0.008702 171.920073 0.531551 -54.425612 
0.7037500000000000 0.847850 -167.126263 0.009228 -169.088974 0.008472 171.480878 0.531600 -54.514317 
0.7041250000000000 0.851093 -167.222508 0.009122 -170.336778 0.008448 169.742303 0.530326 -54.650901 
0.7045000000000000 0.855117 -167.421953 0.009050 -173.033375 0.008308 167.574271 0.530697 -54.788265 
0.7048750000000000 0.857190 -167.569869 0.009012 -174.486378 0.008275 166.517880 0.531373 -54.827635 
0.7052500000000000 0.859420 -167.785882 0.008812 -175.524727 0.008104 165.567195 0.531179 -54.897416 
0.7056250000000000 0.862612 -167.976879 0.008758 -176.953763 0.007928 163.718980 0.530003 -55.049869 
0.7060000000000000 0.866209 -168.159579 0.008651 -177.415651 0.007839 162.792977 0.530287 -55.115492 
0.7063750000000000 0.867333 -168.257530 0.008560 -179.581883 0.007829 160.264954 0.529594 -55.200022 
0.7067500000000000 0.870104 -168.467791 0.008389 178.378024 0.007639 158.267660 0.529101 -55.259487 
0.7071250000000000 0.873102 -168.667289 0.008288 177.622562 0.007491 157.965627 0.529552 -55.345572 
0.7075000000000000 0.874263 -168.694775 0.008186 176.362870 0.007604 156.324433 0.529237 -55.418312 
0.7078750000000000 0.877070 -168.898066 0.008207 174.194006 0.007417 155.689871 0.529054 -55.517013 
0.7082500000000001 0.878888 -169.038878 0.008127 173.078455 0.007284 154.184780 0.528935 -55.664461 
0.7086250000000000 0.880757 -169.163510 0.008052 172.007134 0.007216 153.009951 0.528699 -55.743058 
0.7090000000000000 0.883825 -169.346560 0.007953 171.466177 0.007121 151.046758 0.528357 -55.785835 
0.7093750000000000 0.884554 -169.460003 0.007821 168.617447 0.007034 150.286915 0.528141 -55.973859 
0.7097500000000000 0.885190 -169.672539 0.007649 167.583165 0.006933 148.344472 0.527709 -55.966234 
0.7101250000000000 0.888580 -169.680368 0.007638 166.732446 0.006882 146.740465 0.528335 -55.984080 
0.7105000000000000 0.888773 -169.922499 0.007677 164.624091 0.006819 145.694841 0.527111 -56.098331 
0.7108750000000000 0.892501 -170.100288 0.007661 163.611263 0.006751 144.002680 0.528157 -56.309926 
0.7112500000000001 0.893259 -170.140565 0.007538 161.716338 0.006714 142.910769 0.527581 -56.284195 
0.7116250000000000 0.894262 -170.250949 0.007451 159.522708 0.006652 140.672451 0.527007 -56.413919 
0.7120000000000000 0.896539 -170.489585 0.007323 158.935705 0.006587 140.519441 0.527448 -56.485549 
0.7123750000000000 0.897211 -170.492821 0.007292 157.746015 0.006530 139.136623 0.526934 -56.702921 
0.7127500000000000 0.900472 -170.594498 0.007203 156.911978 0.006470 137.622356 0.526594 -56.813685 
0.7131250000000000 0.900607 -170.733657 0.007070 155.926080 0.006486 136.064853 0.526477 -56.717997 
0.7135000000000000 0.901840 -170.856427 0.007035 153.467075 0.006389 134.168503 0.525944 -56.830911 
0.7138750000000000 0.901443 -170.989862 0.006969 152.218084 0.006227 132.644795 0.526919 -57.014950 
0.7142500000000001 0.905889 -171.065708 0.006885 150.840563 0.006181 131.777607 0.526192 -57.094263 
0.7146250000000000 0.907054 -171.346464 0.006832 150.159386 0.006037 129.884086 0.525795 -57.105923 
0.7150000000000000 0.907524 -171.382160 0.006622 147.999207 0.006152 129.543438 0.526292 -57.212068 
0.7153750000000000 0.909065 -171.486355 0.006689 146.865603 0.005888 127.613712 0.525856 -57.292144 
0.7157500000000000 0.910460 -171.627628 0.006644 145.144759 0.005898 125.305306 0.526432 -57.446777 
0.7161250000000000 0.911808 -171.791250 0.006705 144.265757 0.005946 125.020061 0.524990 -57.476697 
0.7165000000000000 0.912213 -171.883993 0.006524 142.985209 0.005824 124.329513 0.525491 -57.614047 
0.7168750000000000 0.913932 -171.968928 0.006385 141.478191 0.005691 122.333859 0.525899 -57.618571 
0.7172500000000001 0.916872 -172.087276 0.006546 139.766090 0.005629 120.599168 0.525827 -57.755284 
0.7176250000000000 0.917003 -172.223153 0.006439 138.735039 0.005613 117.465099 0.525363 -57.798110 
0.7180000000000000 0.918532 -172.428252 0.006123 137.592750 0.005681 116.584409 0.525587 -57.978399 
0.7183750000000000 0.920029 -172.505829 0.006200 136.513055 0.005564 115.880955 0.524820 -57.992851 
0.7187500000000000 0.921916 -172.486825 0.006200 134.513877 0.005490 115.173845 0.525110 -58.149920 
0.7191250000000000 0.920358 -172.554504 0.006052 132.755442 0.005335 114.764769 0.524936 -58.193046 
0.7195000000000000 0.923182 -172.825650 0.006019 132.420395 0.005383 112.842021 0.524843 -58.355179 
0.7198750000000000 0.924023 -172.805506 0.006084 130.720625 0.005387 111.158596 0.524859 -58.403192 
0.7202500000000000 0.926279 -172.906826 0.005949 130.308635 0.005278 109.485981 0.525834 -58.503604 
0.7206250000000000 0.926968 -172.931136 0.005883 128.703687 0.005259 108.269840 0.524484 -58.565691 
0.7210000000000000 0.928296 -173.036191 0.005998 127.071699 0.005193 107.810218 0.524855 -58.742569 
0.7213750000000000 0.929290 -173.187715 0.005796 126.889697 0.005100 106.383952 0.524686 -58.785919 
0.7217500000000000 0.931062 -173.193174 0.005770 124.503035 0.004985 105.535113 0.524424 -59.013946 
0.7221250000000000 0.932543 -173.415476 0.005518 123.240994 0.005114 104.689996 0.525498 -58.928967 
0.7225000000000000 0.932252 -173.341661 0.005647 124.536184 0.004895 101.555657 0.524650 -59.121979 
0.7228750000000001 0.931300 -173.455791 0.005573 121.244124 0.004903 100.678870 0.525257 -59.115026 
0.7232500000000000 0.933170 -173.540620 0.005448 121.005468 0.004876 101.248392 0.523710 -59.359759 
0.7236250000000000 0.934727 -173.528838 0.005523 118.510981 0.004810 97.662961 0.524915 -59.379582 
0.7240000000000000 0.935089 -173.666830 0.005395 119.150032 0.004726 98.482885 0.525025 -59.464039 
0.7243750000000000 0.935717 -173.761335 0.005293 116.787821 0.004679 96.407580 0.524712 -59.614031 
0.7247500000000000 0.937096 -173.849381 0.005461 115.042281 0.004689 95.444751 0.524364 -59.692201 
0.7251250000000000 0.937170 -173.842358 0.005266 113.973817 0.004732 93.576335 0.523803 -59.857218 
0.7255000000000000 0.936946 -174.006037 0.005287 114.546155 0.004632 92.708495 0.524239 -59.908023 
0.7258750000000001 0.939745 -174.020211 0.005356 111.431037 0.004500 90.971434 0.524102 -60.134289 
0.7262500000000000 0.938750 -174.099992 0.005262 111.543962 0.004479 89.652328 0.524822 -60.091063 
0.7266250000000000 0.939567 -174.161265 0.005170 111.907883 0.004478 88.529319 0.525184 -60.156013 
0.7270000000000000 0.940506 -174.260548 0.005235 108.359036 0.004482 88.738012 0.524718 -60.345643 
0.7273750000000000 0.942906 -174.368381 0.005010 108.021081 0.004405 87.893828 0.524299 -60.507448 
0.7277500000000000 0.940787 -174.389272 0.004988 104.854671 0.004285 85.280039 0.524764 -60.505573 
0.7281250000000000 0.941607 -174.528506 0.004972 103.425208 0.004326 84.379893 0.524123 -60.622984 
0.7285000000000000 0.944049 -174.535259 0.004946 102.164210 0.004286 82.378393 0.523418 -60.671539 
0.7288750000000001 0.944334 -174.667104 0.004979 102.278530 0.004190 82.365509 0.523901 -60.919134 
0.7292500000000000 0.942952 -174.569865 0.004933 101.107897 0.004290 81.926189 0.523599 -60.992425 
0.7296250000000000 0.944327 -174.711694 0.004883 99.391494 0.004140 79.789017 0.523721 -61.064726 
0.7300000000000000 0.946061 -174.862463 0.004934 99.801412 0.004270 77.602022 0.524120 -61.206894 
0.7303750000000000 0.946278 -174.923010 0.004685 98.403896 0.004120 77.286701 0.524549 -61.266901 
0.7307500000000000 0.947267 -174.917205 0.004740 96.074468 0.004102 75.205239 0.523842 -61.422311 
0.7311250000000000 0.948241 -175.048310 0.004749 93.690089 0.004040 74.425208 0.523396 -61.540175 
0.7315000000000000 0.948741 -175.084224 0.004720 92.918332 0.004073 72.712804 0.524737 -61.668778 
0.7318750000000001 0.949427 -175.206076 0.004616 92.480556 0.003967 73.061599 0.524069 -61.712797 
0.7322500000000000 0.951399 -175.197592 0.004726 90.193664 0.003839 71.216243 0.523398 -61.877993 
0.7326250000000000 0.951206 -175.248265 0.004727 88.291700 0.003930 70.218525 0.522898 -62.030580 
0.7330000000000000 0.953166 -175.383216 0.004535 87.927067 0.003887 67.676449 0.523229 -62.076326 
0.7333750000000000 0.952195 -175.422711 0.004504 87.755205 0.003862 67.722416 0.524167 -62.232447 
0.7337500000000000 0.951825 -175.424614 0.004466 85.686214 0.003754 66.213741 0.523400 -62.399541 
0.7341250000000000 0.954709 -175.559717 0.004443 84.883504 0.003728 66.484779 0.523356 -62.502565 
0.7345000000000000 0.954011 -175.578523 0.004395 82.315185 0.003731 64.892205 0.523136 -62.614297 
0.7348749999999999 0.954609 -175.449011 0.004543 82.081251 0.003713 63.502399 0.523421 -62.735764 
0.7352500000000000 0.954943 -175.663647 0.004356 81.296041 0.003651 62.492773 0.522817 -62.915942 
0.7356250000000000 0.956808 -175.738091 0.004292 80.385426 0.003594 59.688031 0.522579 -62.996509 
0.7360000000000000 0.956746 -175.690162 0.004264 79.153797 0.003680 60.857792 0.522980 -63.146371 
0.7363750000000000 0.958705 -175.837976 0.004293 76.520971 0.003715 58.708992 0.522923 -63.195689 
0.7367500000000000 0.956652 -175.916988 0.004238 76.060699 0.003622 57.848710 0.522304 -63.405004 
0.7371250000000000 0.956508 -175.934701 0.004099 76.924940 0.003595 55.856806 0.522086 -63.512837 
0.7375000000000000 0.957410 -175.795714 0.004127 75.250873 0.003471 55.076340 0.523098 -63.612839 
0.7378750000000000 0.959801 -175.842736 0.004035 72.690201 0.003457 53.818382 0.522737 -63.783497 
0.7382500000000000 0.960048 -175.891286 0.003980 72.116453 0.003505 53.322662 0.522407 -63.948369 
0.7386250000000000 0.959761 -176.083643 0.004002 71.067417 0.003359 52.106827 0.522549 -64.145776 
0.7390000000000000 0.959987 -176.153939 0.004041 69.532575 0.003514 51.374795 0.521796 -64.124319 
0.7393750000000000 0.957594 -176.052804 0.003944 69.158178 0.003460 48.019532 0.521753 -64.226298 
0.7397500000000000 0.960447 -176.071849 0.003886 64.755651 0.003293 49.949026 0.521879 -64.344502 
0.7401250000000000 0.961231 -176.082348 0.003958 65.703163 0.003370 46.662444 0.521801 -64.540978 
0.7405000000000001 0.960876 -176.179388 0.003852 66.175059 0.003369 46.029323 0.520512 -64.659420 
0.7408750000000000 0.960661 -176.152993 0.003912 64.837538 0.003304 43.517714 0.521382 -64.834397 
0.7412500000000000 0.960647 -176.331700 0.003912 63.008560 0.003387 43.887770 0.521378 -64.993446 
0.7416250000000000 0.960058 -176.311193 0.003597 61.046102 0.003273 41.317449 0.520836 -65.065647 
0.7420000000000000 0.961648 -176.368316 0.003843 61.490520 0.003215 40.657978 0.521580 -65.240314 
0.7423750000000000 0.959942 -176.420257 0.003762 57.968827 0.003276 39.501233 0.519989 -65.307530 
0.7427500000000000 0.962088 -176.300775 0.003780 57.323405 0.003325 39.080699 0.520632 -65.443480 
0.7431250000000000 0.962406 -176.520450 0.003785 57.377954 0.003121 36.962694 0.519820 -65.591127 
0.7435000000000001 0.962978 -176.620744 0.003783 56.535284 0.003277 36.134629 0.519612 -65.698911 
0.7438750000000000 0.962675 -176.743397 0.003588 54.284416 0.003204 35.717069 0.519345 -65.862830 
0.7442500000000000 0.962317 -176.734902 0.003645 54.018361 0.003076 36.736659 0.518831 -66.047779 
0.7446250000000000 0.964585 -176.728064 0.003689 51.800556 0.003159 33.537761 0.518866 -66.163768 
0.7450000000000000 0.963997 -176.704263 0.003637 50.972453 0.003034 33.314173 0.518371 -66.279654 
0.7453750000000000 0.964375 -176.756406 0.003496 49.982308 0.003098 33.564087 0.519092 -66.333012 
0.7457500000000000 0.964381 -176.879911 0.003515 49.197621 0.002991 28.213815 0.518850 -66.486789 
0.7461250000000000 0.964640 -176.931575 0.003543 47.656291 0.002991 28.272620 0.518120 -66.613518 
0.7465000000000001 0.965968 -176.950299 0.003563 46.005950 0.002959 30.136504 0.518365 -66.797868 
0.7468750000000000 0.966337 -177.016694 0.003373 45.704421 0.003000 26.139489 0.517846 -66.949493 
0.7472500000000000 0.966533 -177.071646 0.003464 43.624979 0.002993 25.985447 0.517037 -67.065620 
0.7476250000000000 0.967840 -177.187756 0.003514 42.618856 0.003006 26.130150 0.517502 -67.274347 
0.7480000000000000 0.967651 -177.122074 0.003305 41.554571 0.002888 23.860674 0.516874 -67.388197 
0.7483750000000000 0.967600 -177.183437 0.003499 43.202409 0.002876 23.006471 0.516876 -67.413969 
0.7487500000000000 0.968850 -177.223213 0.003516 40.335375 0.002969 20.379392 0.515357 -67.626508 
0.7491250000000000 0.970184 -177.089894 0.003413 41.123054 0.003009 19.562524 0.515482 -67.771530 
0.7495000000000001 0.968972 -177.299438 0.003327 40.031647 0.002855 17.480190 0.515779 -67.942370 
0.7498750000000000 0.969799 -177.334235 0.003408 37.561742 0.002987 17.342289 0.515578 -68.024778 
0.7502500000000000 0.970284 -177.263403 0.003329 36.559636 0.002797 17.754726 0.514391 -68.161980 
0.7506250000000000 0.968861 -177.284677 0.003465 36.643608 0.002817 13.335894 0.514387 -68.319149 
0.7510000000000000 0.971111 -177.298183 0.003420 34.246227 0.002848 14.411356 0.514671 -68.349997 
0.7513750000000000 0.970334 -177.353744 0.003358 32.904843 0.002738 11.531080 0.513729 -68.597404 
0.7517500000000000 0.970004 -177.385324 0.003240 30.269492 0.002693 11.899896 0.513429 -68.683017 
0.7521250000000000 0.970805 -177.376665 0.003133 28.804294 0.002761 10.944653 0.513922 -68.813969 
0.7525000000000000 0.970692 -177.444878 0.003319 28.709995 0.002719 9.461092 0.512762 -69.026880 
0.7528750000000000 0.971548 -177.443529 0.003199 25.667497 0.002772 8.257627 0.512521 -69.173623 
0.7532500000000000 0.972473 -177.514352 0.003286 26.429328 0.002723 6.495313 0.511782 -69.266405 
0.7536250000000000 0.970691 -177.527817 0.003262 24.118527 0.002610 8.407696 0.511580 -69.403946 
0.7540000000000000 0.972221 -177.441700 0.003125 24.928701 0.002731 5.771805 0.510976 -69.477193 
0.7543750000000000 0.970713 -177.581961 0.003090 24.316256 0.002620 0.172071 0.511221 -69.589670 
0.7547500000000000 0.971750 -177.584542 0.003265 22.910764 0.002680 -0.061164 0.510879 -69.801680 
0.7551250000000001 0.971917 -177.606566 0.003140 18.195604 0.002725 4.664767 0.510120 -69.974727 
0.7555000000000000 0.972104 -177.689836 0.003089 19.226401 0.002638 1.253406 0.510234 -70.019531 
0.7558750000000000 0.971821 -177.656750 0.003077 16.103951 0.002601 0.695898 0.509805 -70.122390 
0.7562500000000000 0.972118 -177.668269 0.002886 15.554015 0.002633 -1.429568 0.508607 -70.263619 
0.7566250000000000 0.972496 -177.741153 0.003114 14.783076 0.002560 -2.212442 0.509107 -70.371359 
0.7570000000000000 0.971903 -177.714567 0.003132 14.630786 0.002568 -6.255009 0.507593 -70.595511 
0.7573750000000000 0.974821 -177.829113 0.003095 11.252365 0.002626 -8.525232 0.507713 -70.629502 
0.7577500000000000 0.971931 -177.858662 0.003033 12.037807 0.002511 -6.519492 0.507538 -70.790434 
0.7581250000000001 0.973854 -177.909605 0.003051 11.676516 0.002564 -8.845206 0.506510 -70.914412 
0.7585000000000000 0.974008 -177.956642 0.003025 10.845443 0.002457 -10.067402 0.505797 -71.010795 
0.7588750000000000 0.973389 -177.969723 0.002965 6.626668 0.002533 -11.374443 0.506702 -71.180938 
0.7592500000000000 0.974468 -178.004289 0.002876 8.752113 0.002431 -9.464631 0.505172 -71.271716 
0.7596250000000000 0.974998 -178.145335 0.002962 9.284126 0.002484 -12.914664 0.504281 -71.354522 
0.7600000000000000 0.974475 -178.097662 0.002855 4.954199 0.002471 -14.548533 0.503911 -71.589188 
0.7603750000000000 0.976055 -178.111497 0.002901 3.862159 0.002271 -15.857820 0.503670 -71.671542 
0.7607500000000000 0.976376 -178.194539 0.002838 5.379634 0.002545 -15.019941 0.503393 -71.767162 
0.7611250000000001 0.975026 -178.206392 0.002992 -0.721468 0.002365 -17.595578 0.503147 -71.896932 
0.7615000000000000 0.975647 -178.304356 0.002937 4.017345 0.002409 -18.231441 0.503037 -71.991540 
0.7618750000000000 0.974748 -178.270489 0.002820 -0.636997 0.002466 -17.546696 0.502243 -72.203602 
0.7622500000000000 0.976968 -178.349622 0.002841 -1.618040 0.002312 -22.164520 0.501964 -72.303100 
0.7626250000000000 0.978330 -178.312584 0.002830 -2.998960 0.002363 -21.918410 0.501058 -72.387215 
0.7630000000000000 0.977718 -178.440343 0.002840 -3.883974 0.002442 -23.109719 0.500853 -72.518933 
0.7633750000000000 0.977725 -178.426041 0.002857 -3.930467 0.002413 -24.867076 0.500901 -72.641393 
0.7637500000000000 0.977679 -178.393763 0.002756 -6.181430 0.002324 -28.204594 0.500233 -72.793193 
0.7641250000000001 0.977844 -178.433387 0.002721 -7.350453 0.002286 -27.305311 0.499716 -72.913988 
0.7645000000000000 0.978223 -178.405385 0.002749 -7.027924 0.002362 -29.703995 0.499139 -73.058495 
0.7648750000000000 0.978771 -178.542098 0.002772 -8.136725 0.002287 -26.601123 0.498557 -73.170086 
0.7652500000000000 0.979044 -178.478187 0.002836 -7.754102 0.002265 -30.798534 0.497580 -73.312199 
0.7656250000000000 0.978890 -178.549422 0.002692 -11.944845 0.002339 -31.951518 0.497280 -73.415596 
0.7660000000000000 0.976747 -178.564145 0.002657 -12.977469 0.002116 -32.752865 0.497327 -73.607884 
0.7663750000000000 0.978566 -178.595412 0.002701 -12.653612 0.002286 -31.251678 0.496879 -73.658719 
0.7667500000000000 0.978769 -178.695774 0.002635 -12.264774 0.002239 -31.662352 0.495865 -73.833736 
0.7671250000000000 0.979783 -178.604298 0.002796 -14.242438 0.002318 -35.468492 0.495977 -73.877853 
0.7675000000000000 0.979152 -178.653415 0.002769 -20.494556 0.002192 -35.498194 0.495048 -74.085653 
0.7678750000000000 0.980490 -178.665956 0.002561 -17.245059 0.002159 -38.285265 0.495196 -74.193317 
0.7682500000000000 0.980894 -178.727128 0.002820 -20.454857 0.002172 -38.879361 0.494913 -74.257464 
0.7686250000000000 0.980322 -178.630044 0.002651 -20.821671 0.002089 -40.722197 0.494441 -74.399979 
0.7690000000000000 0.980292 -178.704937 0.002596 -22.896703 0.002248 -41.536907 0.493186 -74.447609 
0.7693750000000000 0.979065 -178.721177 0.002743 -23.963507 0.002215 -42.596440 0.493220 -74.673056 
0.7697500000000001 0.979667 -178.743386 0.002622 -20.591110 0.002119 -44.557827 0.492079 -74.714030 
0.7701250000000000 0.981712 -178.827953 0.002572 -26.232498 0.002137 -45.922016 0.492168 -74.838364 
0.7705000000000000 0.979986 -178.875858 0.002669 -28.191567 0.002203 -46.370140 0.491081 -74.925689 
0.7708750000000000 0.981233 -178.984224 0.002551 -28.283526 0.002217 -46.523077 0.490800 -75.075470 
0.7712500000000000 0.979546 -178.914631 0.002640 -29.831517 0.002081 -50.817753 0.490743 -75.239572 
0.7716250000000000 0.980188 -179.008119 0.002630 -30.859521 0.002139 -46.711774 0.489933 -75.347443 
0.7720000000000000 0.981444 -179.102043 0.002571 -34.202955 0.002254 -48.325677 0.490418 -75.483826 
0.7723750000000000 0.979901 -179.164875 0.002470 -32.520194 0.002189 -52.232019 0.490101 -75.570051 
