!
! C:\Users\rflab\Downloads\Lab5_KD_ZW\Q2\728 MHz\280.S2P
!
! Touchstone 1.1 file saved by VNA.EXE V1.65 (www.ke5fx.com/gpib/readme.htm)
! 11/18/2024 9:28:14 PM
!
!    Source: HEWLETT PACKARD,8753D,0,6.14
!  Min freq: 7.000000E+008 Hz
!  Max freq: 1.000000E+009 Hz
!    Points: 801
!    Params: S11 S21 S12 S22
!
!!!!!
# GHZ S MA R 50
0.7000000000000000 0.811237 -164.843936 0.012224 -156.647049 0.011619 -175.228157 0.533459 -53.739120 
0.7003750000000000 0.817223 -165.063898 0.012144 -158.688223 0.011352 -176.797340 0.532534 -53.824885 
0.7007500000000000 0.820148 -165.241899 0.011939 -159.867136 0.011129 -177.905435 0.532797 -53.975521 
0.7011250000000000 0.823384 -165.472395 0.011867 -161.850456 0.010950 179.271462 0.533004 -53.967322 
0.7015000000000000 0.828308 -165.691381 0.011596 -163.432551 0.010833 178.148570 0.532903 -54.149931 
0.7018750000000000 0.831585 -165.983136 0.011510 -165.027603 0.010698 176.547606 0.532487 -54.178320 
0.7022500000000000 0.834550 -166.154825 0.011319 -166.523987 0.010652 174.368780 0.532350 -54.333646 
0.7026250000000001 0.837925 -166.353460 0.011256 -167.577556 0.010443 173.450641 0.531573 -54.326190 
0.7030000000000000 0.840999 -166.549712 0.011059 -169.061197 0.010215 171.409591 0.531114 -54.497142 
0.7033750000000000 0.843548 -166.808380 0.010917 -171.147853 0.010088 169.751835 0.531462 -54.523895 
0.7037500000000000 0.848260 -167.005690 0.010789 -172.513459 0.009929 167.516259 0.531622 -54.681411 
0.7041250000000000 0.850961 -167.131977 0.010660 -173.486310 0.009827 166.673829 0.530732 -54.685990 
0.7045000000000000 0.853842 -167.335700 0.010561 -174.847728 0.009518 165.848888 0.531208 -54.847262 
0.7048750000000000 0.856163 -167.521252 0.010422 -176.193597 0.009553 163.562363 0.531249 -54.886643 
0.7052500000000000 0.859265 -167.642030 0.010340 -178.224202 0.009409 161.742269 0.530776 -54.959404 
0.7056250000000000 0.862543 -167.901281 0.010068 -179.457263 0.009289 160.867493 0.530651 -55.203151 
0.7060000000000000 0.864788 -168.057190 0.010217 177.560626 0.009218 159.318723 0.530636 -55.193974 
0.7063750000000000 0.868456 -168.100146 0.010004 177.259657 0.009150 158.036132 0.529720 -55.249734 
0.7067500000000000 0.869704 -168.376214 0.009968 176.939674 0.008920 156.259251 0.530297 -55.345096 
0.7071250000000000 0.872529 -168.610682 0.009834 175.079475 0.008842 154.989640 0.529273 -55.400957 
0.7075000000000000 0.874371 -168.639085 0.009631 173.903534 0.008644 153.960767 0.529943 -55.586978 
0.7078750000000000 0.876659 -168.807417 0.009557 172.067193 0.008628 152.089558 0.529305 -55.611763 
0.7082500000000001 0.878218 -168.868118 0.009465 170.269087 0.008578 151.189486 0.528238 -55.692982 
0.7086250000000000 0.878096 -169.012639 0.009358 169.358284 0.008370 149.927178 0.529370 -55.812487 
0.7090000000000000 0.883483 -169.229589 0.009371 167.958795 0.008316 148.806074 0.528046 -55.858994 
0.7093750000000000 0.884827 -169.322563 0.009159 166.711142 0.008174 146.407731 0.528197 -56.029900 
0.7097500000000000 0.885423 -169.546785 0.009047 165.579977 0.008186 145.507374 0.528290 -56.044634 
0.7101250000000000 0.887819 -169.555287 0.009020 163.801221 0.008060 144.618946 0.528119 -56.084039 
0.7105000000000000 0.889662 -169.736991 0.008941 163.113156 0.008040 143.161367 0.528049 -56.142782 
0.7108750000000000 0.891923 -169.926605 0.008869 161.079934 0.007863 141.546128 0.528386 -56.386111 
0.7112500000000001 0.893684 -170.030104 0.008729 159.477288 0.007767 139.612949 0.527955 -56.414648 
0.7116250000000000 0.893520 -170.135533 0.008744 158.112720 0.007696 138.711386 0.527771 -56.504730 
0.7120000000000000 0.896341 -170.376687 0.008542 156.461646 0.007686 137.622655 0.527955 -56.648878 
0.7123750000000000 0.896661 -170.419700 0.008526 155.909310 0.007474 135.865940 0.527276 -56.767047 
0.7127500000000000 0.898195 -170.471752 0.008539 153.812689 0.007546 135.075520 0.527232 -56.938174 
0.7131250000000000 0.900584 -170.646840 0.008337 152.703624 0.007452 133.470263 0.527558 -56.889983 
0.7135000000000000 0.901775 -170.785041 0.008277 151.301285 0.007352 132.029336 0.527095 -57.003669 
0.7138750000000000 0.903642 -170.804252 0.008144 150.112403 0.007122 130.168554 0.526445 -57.088358 
0.7142500000000001 0.905422 -171.029783 0.007993 148.937180 0.007132 129.012192 0.527006 -57.104095 
0.7146250000000000 0.904252 -171.127701 0.008044 148.169770 0.007157 127.912485 0.526586 -57.248414 
0.7150000000000000 0.906868 -171.321271 0.008045 146.055625 0.007074 126.727768 0.526533 -57.343382 
0.7153750000000000 0.909718 -171.368115 0.007795 143.290270 0.007054 124.632691 0.525713 -57.353301 
0.7157500000000000 0.909554 -171.619231 0.007729 143.666727 0.006940 124.221823 0.526212 -57.533903 
0.7161250000000000 0.911346 -171.670741 0.007519 141.849813 0.006785 122.641353 0.525805 -57.616038 
0.7165000000000000 0.910582 -171.815041 0.007565 139.780822 0.006812 119.921240 0.525983 -57.734567 
0.7168750000000000 0.913378 -171.859610 0.007494 138.966696 0.006578 118.942446 0.526276 -57.789999 
0.7172500000000001 0.915288 -171.996336 0.007429 138.502209 0.006661 119.061381 0.525815 -57.844808 
0.7176250000000000 0.915696 -172.061633 0.007278 137.235654 0.006485 117.201928 0.526202 -58.059431 
0.7180000000000000 0.917109 -172.316410 0.007454 134.795263 0.006514 115.375800 0.526111 -58.068949 
0.7183750000000000 0.918705 -172.375927 0.007148 134.052610 0.006591 114.704351 0.525679 -58.157150 
0.7187500000000000 0.921448 -172.360462 0.007220 132.733025 0.006330 113.551399 0.524835 -58.331169 
0.7191250000000000 0.921045 -172.491167 0.007103 131.389651 0.006424 111.557373 0.524924 -58.290153 
0.7195000000000000 0.923329 -172.605335 0.007030 129.645846 0.006231 110.425700 0.525266 -58.477329 
0.7198750000000000 0.923987 -172.732744 0.006990 129.777551 0.006181 109.850365 0.524952 -58.596958 
0.7202500000000000 0.926362 -172.835180 0.007019 129.487837 0.006052 108.378562 0.525521 -58.623113 
0.7206250000000000 0.925945 -172.858588 0.006814 125.863478 0.006063 106.630614 0.525081 -58.714715 
0.7210000000000000 0.927757 -172.997948 0.006806 125.531843 0.006056 106.088855 0.525175 -58.864945 
0.7213750000000000 0.929201 -173.107456 0.006729 125.048731 0.005847 103.781809 0.524865 -58.933978 
0.7217500000000000 0.930490 -173.139764 0.006591 122.952530 0.005802 102.880971 0.524508 -59.069976 
0.7221250000000000 0.931879 -173.184054 0.006522 122.172562 0.005768 101.945381 0.525498 -59.122985 
0.7225000000000000 0.932231 -173.224415 0.006498 120.955821 0.005753 100.926244 0.525028 -59.208733 
0.7228750000000001 0.932206 -173.269565 0.006617 119.089093 0.005714 100.024321 0.524996 -59.318983 
0.7232500000000000 0.933217 -173.416482 0.006504 117.228173 0.005685 96.472872 0.524302 -59.460052 
0.7236250000000000 0.934417 -173.530451 0.006281 117.251752 0.005579 97.949337 0.525254 -59.447866 
0.7240000000000000 0.935535 -173.557020 0.006339 114.890737 0.005497 96.275149 0.524587 -59.617606 
0.7243750000000000 0.935514 -173.669717 0.006284 114.627102 0.005455 95.993408 0.525357 -59.678395 
0.7247500000000000 0.934610 -173.659811 0.006259 115.197520 0.005518 93.011877 0.524733 -59.808322 
0.7251250000000000 0.937369 -173.764868 0.006113 112.334670 0.005370 92.529331 0.524214 -59.952688 
0.7255000000000000 0.936324 -173.904391 0.006244 111.565771 0.005390 89.673077 0.525076 -60.076267 
0.7258750000000001 0.938906 -173.902484 0.006072 109.442404 0.005242 88.561326 0.524797 -60.216270 
0.7262500000000000 0.938515 -173.986118 0.006214 108.377245 0.005250 88.186194 0.524131 -60.182292 
0.7266250000000000 0.938513 -174.094753 0.006080 107.769924 0.005214 86.799389 0.524998 -60.278667 
0.7270000000000000 0.940073 -174.115805 0.006008 106.536572 0.005175 84.609850 0.525036 -60.480247 
0.7273750000000000 0.941206 -174.171470 0.005948 105.211610 0.005110 85.251895 0.525188 -60.592918 
0.7277500000000000 0.941848 -174.302338 0.005850 103.673211 0.005064 82.764222 0.524470 -60.609915 
0.7281250000000000 0.943112 -174.354713 0.005916 102.303134 0.005100 82.813858 0.524178 -60.714383 
0.7285000000000000 0.942761 -174.419699 0.005854 101.314507 0.005084 81.317782 0.523966 -60.892565 
0.7288750000000001 0.941746 -174.518125 0.005657 99.850600 0.004909 80.187235 0.523581 -60.968422 
0.7292500000000000 0.943112 -174.507462 0.005764 100.616449 0.005027 78.393213 0.524113 -61.187451 
0.7296250000000000 0.944047 -174.654317 0.005680 96.212179 0.004819 78.506075 0.523664 -61.145172 
0.7300000000000000 0.945018 -174.700707 0.005682 96.425417 0.004763 77.540875 0.523952 -61.295794 
0.7303750000000000 0.945863 -174.872517 0.005801 95.218734 0.004816 75.570904 0.524466 -61.436638 
0.7307500000000000 0.947039 -174.823290 0.005595 93.102493 0.004775 73.054160 0.524119 -61.541300 
0.7311250000000000 0.947346 -174.947275 0.005505 92.983836 0.004779 73.644665 0.523749 -61.637067 
0.7315000000000000 0.947501 -174.966633 0.005451 91.393514 0.004728 71.769701 0.524200 -61.784864 
0.7318750000000001 0.948585 -175.064911 0.005558 91.037248 0.004645 71.165168 0.524165 -61.926531 
0.7322500000000000 0.950072 -175.139153 0.005307 89.124777 0.004605 70.334200 0.523796 -62.044942 
0.7326250000000000 0.949094 -175.137829 0.005386 87.254627 0.004480 68.409239 0.523268 -62.218426 
0.7330000000000000 0.951881 -175.292191 0.005317 86.833136 0.004571 67.850060 0.524166 -62.168279 
0.7333750000000000 0.952003 -175.292794 0.005263 84.405369 0.004528 66.082842 0.523863 -62.403441 
0.7337500000000000 0.950782 -175.334713 0.005335 83.198314 0.004447 65.724349 0.523236 -62.484420 
0.7341250000000000 0.954353 -175.411030 0.005237 82.691847 0.004399 64.051511 0.523870 -62.633361 
0.7345000000000000 0.952412 -175.490057 0.005137 82.898072 0.004387 63.014424 0.523412 -62.701382 
0.7348749999999999 0.953044 -175.382626 0.005109 81.123141 0.004304 61.272502 0.522864 -62.847195 
0.7352500000000000 0.954292 -175.550423 0.005208 79.309446 0.004358 60.610480 0.522776 -62.917396 
0.7356250000000000 0.955256 -175.609998 0.005094 78.745818 0.004347 58.174485 0.522038 -63.142862 
0.7360000000000000 0.956123 -175.555289 0.004889 74.343229 0.004251 59.203228 0.523004 -63.230114 
0.7363750000000000 0.956279 -175.721057 0.004930 76.213068 0.004214 57.264768 0.523669 -63.382691 
0.7367500000000000 0.955165 -175.730744 0.004913 74.394174 0.004154 55.479960 0.523355 -63.443908 
0.7371250000000000 0.957050 -175.790463 0.004838 73.873862 0.004143 54.503709 0.521627 -63.697292 
0.7375000000000000 0.956641 -175.774001 0.004882 71.937557 0.004097 54.670875 0.523294 -63.727839 
0.7378750000000000 0.958788 -175.721304 0.004868 70.225936 0.004004 51.933798 0.522464 -63.981247 
0.7382500000000000 0.957620 -175.774666 0.004751 71.954206 0.004003 51.707444 0.522653 -64.099252 
0.7386250000000000 0.958487 -175.968712 0.004676 69.767778 0.004038 50.563025 0.522598 -64.211549 
0.7390000000000000 0.959401 -175.972556 0.004764 68.232666 0.003992 49.061651 0.522601 -64.233993 
0.7393750000000000 0.957026 -175.859971 0.004668 67.637216 0.003946 48.970704 0.521849 -64.328064 
0.7397500000000000 0.958088 -175.996300 0.004626 66.307043 0.003892 45.637894 0.521326 -64.556990 
0.7401250000000000 0.959580 -176.028110 0.004528 65.402488 0.003917 46.919015 0.521465 -64.642184 
0.7405000000000001 0.958816 -176.054187 0.004561 64.076480 0.003946 43.881297 0.520623 -64.798873 
0.7408750000000000 0.960107 -176.048549 0.004516 60.895158 0.003830 42.865836 0.520862 -64.948431 
0.7412500000000000 0.959257 -176.260615 0.004459 61.719371 0.003833 44.616988 0.520964 -65.083272 
0.7416250000000000 0.962045 -176.227756 0.004596 59.140230 0.003804 41.870029 0.520395 -65.202332 
0.7420000000000000 0.960843 -176.208440 0.004456 61.138044 0.003754 41.173602 0.520533 -65.346150 
0.7423750000000000 0.959765 -176.299114 0.004390 57.603753 0.003723 39.473463 0.520528 -65.419827 
0.7427500000000000 0.960480 -176.316467 0.004273 57.015802 0.003778 37.086862 0.520287 -65.599712 
0.7431250000000000 0.961617 -176.455651 0.004346 55.718906 0.003763 37.522557 0.520118 -65.738837 
0.7435000000000001 0.961313 -176.454527 0.004221 54.959728 0.003651 35.879944 0.519230 -65.882964 
0.7438750000000000 0.961957 -176.664493 0.004310 55.242706 0.003632 35.031770 0.519575 -65.995829 
0.7442500000000000 0.962907 -176.569560 0.004186 52.092387 0.003576 34.423160 0.519569 -66.080229 
0.7446250000000000 0.963842 -176.674660 0.004386 51.129112 0.003682 32.039209 0.519526 -66.265788 
0.7450000000000000 0.964459 -176.546028 0.004333 50.463261 0.003668 30.685315 0.518330 -66.340299 
0.7453750000000000 0.962735 -176.681746 0.004266 46.077856 0.003630 29.438720 0.518753 -66.511511 
0.7457500000000000 0.963030 -176.755512 0.004126 47.608937 0.003470 28.861510 0.518585 -66.613689 
0.7461250000000000 0.964733 -176.830223 0.004257 48.835509 0.003598 26.843491 0.518250 -66.733628 
0.7465000000000001 0.965576 -176.778584 0.004051 44.511159 0.003543 26.446097 0.518916 -66.955822 
0.7468750000000000 0.965282 -176.897338 0.004098 44.771370 0.003504 26.870143 0.518280 -67.087143 
0.7472500000000000 0.966247 -176.911314 0.004109 44.238354 0.003436 24.567998 0.516802 -67.109723 
0.7476250000000000 0.966025 -176.954106 0.004210 42.578624 0.003413 22.869578 0.517159 -67.295087 
0.7480000000000000 0.965425 -177.010249 0.003946 41.735585 0.003459 20.595787 0.516771 -67.442080 
0.7483750000000000 0.966494 -177.046166 0.004123 39.749584 0.003366 20.664819 0.516422 -67.517660 
0.7487500000000000 0.966183 -177.052463 0.004022 37.701322 0.003320 20.222827 0.515611 -67.718733 
0.7491250000000000 0.968996 -176.981522 0.003893 39.355341 0.003337 18.398701 0.515376 -67.836329 
0.7495000000000001 0.969087 -177.086597 0.003947 35.637849 0.003424 18.414764 0.515686 -68.022287 
0.7498750000000000 0.969425 -177.120121 0.003743 36.405688 0.003345 15.112922 0.515334 -68.046741 
0.7502500000000000 0.970121 -177.237682 0.003746 35.270167 0.003376 17.333029 0.513904 -68.279468 
0.7506250000000000 0.969483 -177.123905 0.003836 33.022370 0.003311 13.011162 0.513960 -68.457610 
0.7510000000000000 0.970740 -177.228623 0.003952 33.230816 0.003275 11.721838 0.514144 -68.516876 
0.7513750000000000 0.969553 -177.113279 0.003834 33.007291 0.003258 13.935044 0.513589 -68.693612 
0.7517500000000000 0.969662 -177.276091 0.003774 28.001144 0.003197 11.464563 0.512899 -68.787974 
0.7521250000000000 0.969840 -177.208001 0.003847 26.828642 0.003208 8.995433 0.513725 -68.936834 
0.7525000000000000 0.969941 -177.233560 0.003641 27.466039 0.003115 7.751742 0.512825 -69.036903 
0.7528750000000000 0.969411 -177.362056 0.003693 24.766362 0.003263 7.555767 0.512507 -69.187593 
0.7532500000000000 0.970636 -177.358175 0.003843 24.618990 0.003177 6.107022 0.511134 -69.381494 
0.7536250000000000 0.969815 -177.392034 0.003746 22.956770 0.003126 4.507276 0.511584 -69.451558 
0.7540000000000000 0.971478 -177.374881 0.003700 22.385561 0.003116 4.403411 0.510485 -69.566221 
0.7543750000000000 0.970988 -177.456475 0.003719 23.806245 0.003145 2.187744 0.510409 -69.756701 
0.7547500000000000 0.970834 -177.499338 0.003653 20.418201 0.003201 1.794575 0.511271 -69.850645 
0.7551250000000001 0.969898 -177.525795 0.003609 21.272853 0.003135 -0.627468 0.510031 -70.022163 
0.7555000000000000 0.971757 -177.573755 0.003668 18.910753 0.003104 -1.289405 0.509750 -70.109207 
0.7558750000000000 0.970951 -177.506849 0.003640 17.373945 0.003147 -0.004341 0.510061 -70.234793 
0.7562500000000000 0.971140 -177.583024 0.003530 16.006009 0.003067 -1.035554 0.508799 -70.366284 
0.7566250000000000 0.971945 -177.567023 0.003497 15.614868 0.002936 -5.216546 0.508429 -70.493766 
0.7570000000000000 0.971247 -177.691401 0.003631 11.766601 0.003054 -4.395102 0.506944 -70.606260 
0.7573750000000000 0.973553 -177.714845 0.003516 13.441633 0.003138 -5.452198 0.507886 -70.782252 
0.7577500000000000 0.970447 -177.700316 0.003364 10.469734 0.002929 -8.742262 0.507109 -70.908641 
0.7581250000000001 0.973226 -177.746443 0.003423 11.844477 0.003017 -8.225182 0.506823 -70.981371 
0.7585000000000000 0.972105 -177.873444 0.003558 9.936364 0.003015 -9.002065 0.505389 -71.177747 
0.7588750000000000 0.972796 -177.842581 0.003459 9.185104 0.002815 -12.168994 0.506746 -71.251893 
0.7592500000000000 0.974224 -177.903216 0.003533 5.848320 0.003016 -14.350405 0.504742 -71.437981 
0.7596250000000000 0.973986 -177.992524 0.003446 5.319688 0.002990 -12.561265 0.505079 -71.520167 
0.7600000000000000 0.974281 -177.910522 0.003337 5.634410 0.002940 -12.610962 0.504269 -71.664830 
0.7603750000000000 0.974073 -177.949594 0.003344 2.926472 0.002912 -13.885511 0.503353 -71.736412 
0.7607500000000000 0.975034 -178.080811 0.003333 1.561658 0.002867 -16.179021 0.503426 -71.867102 
0.7611250000000001 0.974825 -178.127060 0.003436 3.150506 0.002837 -18.209567 0.503046 -71.977248 
0.7615000000000000 0.973755 -178.186084 0.003345 0.175591 0.002784 -19.247321 0.502526 -72.126222 
0.7618750000000000 0.974223 -178.222871 0.003286 2.478170 0.002877 -20.882555 0.502428 -72.309029 
0.7622500000000000 0.976283 -178.255290 0.003380 -4.656583 0.002849 -21.757332 0.501465 -72.401984 
0.7626250000000000 0.976649 -178.141307 0.003225 -3.397433 0.002697 -23.628503 0.501451 -72.511183 
0.7630000000000000 0.977899 -178.318996 0.003344 -2.605344 0.002817 -22.076528 0.501193 -72.651802 
0.7633750000000000 0.976237 -178.226537 0.003248 -5.253634 0.002779 -25.060251 0.500336 -72.719986 
0.7637500000000000 0.976363 -178.337850 0.003294 -5.223523 0.002746 -26.736340 0.499698 -72.920685 
0.7641250000000001 0.977910 -178.297548 0.003197 -8.720821 0.002588 -28.966664 0.499994 -73.037144 
0.7645000000000000 0.977453 -178.235904 0.003217 -8.324061 0.002658 -28.379940 0.499227 -73.061559 
0.7648750000000000 0.978197 -178.333814 0.003291 -9.432975 0.002778 -31.313265 0.498828 -73.285652 
0.7652500000000000 0.977813 -178.368939 0.003279 -11.450890 0.002667 -30.816159 0.497817 -73.404711 
0.7656250000000000 0.978708 -178.413324 0.003129 -13.095554 0.002664 -33.889192 0.498105 -73.564696 
0.7660000000000000 0.976717 -178.492470 0.003251 -12.444268 0.002583 -32.556989 0.497479 -73.660645 
0.7663750000000000 0.978434 -178.477238 0.003149 -15.077993 0.002731 -34.950633 0.496351 -73.728944 
0.7667500000000000 0.978698 -178.570583 0.003356 -14.107330 0.002684 -33.795932 0.496211 -73.885683 
0.7671250000000000 0.979260 -178.542825 0.003043 -16.158752 0.002690 -37.239132 0.495564 -73.992570 
0.7675000000000000 0.978527 -178.541734 0.003163 -18.169290 0.002612 -34.223136 0.495534 -74.094351 
0.7678750000000000 0.979667 -178.589850 0.003195 -18.825033 0.002663 -40.941517 0.493935 -74.203405 
0.7682500000000000 0.980070 -178.647539 0.003133 -24.236102 0.002560 -39.868780 0.494547 -74.238178 
0.7686250000000000 0.979966 -178.604559 0.003145 -21.344071 0.002539 -43.055225 0.493973 -74.502419 
0.7690000000000000 0.979185 -178.574866 0.003114 -22.644831 0.002518 -44.758286 0.494003 -74.503364 
0.7693750000000000 0.979513 -178.668195 0.003133 -23.802664 0.002570 -43.801024 0.493161 -74.671183 
0.7697500000000001 0.977977 -178.691141 0.003207 -24.957066 0.002586 -44.830073 0.492735 -74.771651 
0.7701250000000000 0.979057 -178.742603 0.003013 -26.343029 0.002424 -43.608943 0.492451 -74.920830 
0.7705000000000000 0.978359 -178.813211 0.003170 -26.378112 0.002467 -45.516776 0.491036 -75.027520 
0.7708750000000000 0.979160 -178.792749 0.003025 -27.276915 0.002528 -45.309462 0.490717 -75.209279 
0.7712500000000000 0.978585 -178.867100 0.003063 -28.936137 0.002426 -48.574339 0.490958 -75.312452 
0.7716250000000000 0.978919 -178.785304 0.003017 -32.784055 0.002445 -52.241166 0.490716 -75.448684 
0.7720000000000000 0.979860 -178.886422 0.002985 -30.876659 0.002431 -49.339885 0.490000 -75.530155 
0.7723750000000000 0.980002 -179.018637 0.002883 -34.280831 0.002460 -53.871993 0.489741 -75.662407 
