!
! C:\Users\rflab\Downloads\Lab5_KD_ZW\Q2\728 MHz\300.S2P
!
! Touchstone 1.1 file saved by VNA.EXE V1.65 (www.ke5fx.com/gpib/readme.htm)
! 11/18/2024 9:29:19 PM
!
!    Source: HEWLETT PACKARD,8753D,0,6.14
!  Min freq: 7.000000E+008 Hz
!  Max freq: 1.000000E+009 Hz
!    Points: 801
!    Params: S11 S21 S12 S22
!
!!!!!
# GHZ S MA R 50
0.7000000000000000 0.813925 -164.984167 0.016912 -156.547299 0.015872 -175.361011 0.534782 -53.778155 
0.7003750000000000 0.818566 -165.225997 0.016709 -158.180369 0.015581 -176.177996 0.534101 -53.805825 
0.7007500000000000 0.821737 -165.389867 0.016496 -159.505209 0.015368 -177.606359 0.535014 -53.982482 
0.7011250000000000 0.825304 -165.668805 0.016240 -161.323518 0.015100 -179.551283 0.534653 -53.974555 
0.7015000000000000 0.829409 -165.923874 0.015925 -162.702266 0.014758 178.415130 0.534756 -54.132008 
0.7018750000000000 0.831989 -166.167642 0.015824 -164.687336 0.014693 177.291554 0.533482 -54.215046 
0.7022500000000000 0.835000 -166.257310 0.015586 -165.456116 0.014459 175.778680 0.533844 -54.323732 
0.7026250000000001 0.838319 -166.544503 0.015568 -167.830964 0.014405 173.682845 0.533305 -54.314440 
0.7030000000000000 0.841700 -166.672169 0.015223 -168.266999 0.014167 172.309523 0.532817 -54.522979 
0.7033750000000000 0.844966 -166.979633 0.015030 -170.471339 0.014015 170.399230 0.532370 -54.516920 
0.7037500000000000 0.848645 -167.058197 0.014929 -171.477017 0.013714 168.500197 0.532899 -54.686225 
0.7041250000000000 0.851074 -167.340164 0.014755 -172.609946 0.013338 167.930416 0.532011 -54.747338 
0.7045000000000000 0.854164 -167.520929 0.014477 -174.670597 0.013173 166.098575 0.532480 -54.875355 
0.7048750000000000 0.856116 -167.687845 0.014284 -176.244705 0.012937 164.349619 0.532748 -54.999916 
0.7052500000000000 0.859871 -167.800710 0.014288 -177.249315 0.012897 163.620744 0.532159 -55.107847 
0.7056250000000000 0.862600 -168.038888 0.013930 -179.227211 0.012685 161.870180 0.531797 -55.232892 
0.7060000000000000 0.866942 -168.223320 0.013672 -179.752210 0.012626 160.134106 0.531623 -55.311917 
0.7063750000000000 0.868094 -168.313215 0.013573 179.194828 0.012364 159.440331 0.531635 -55.292776 
0.7067500000000000 0.871141 -168.575911 0.013536 177.367193 0.012143 157.978812 0.530196 -55.401628 
0.7071250000000000 0.873461 -168.692426 0.013355 175.851710 0.012142 156.427950 0.530667 -55.484691 
0.7075000000000000 0.874564 -168.800642 0.013236 174.430509 0.011859 155.192848 0.531434 -55.649240 
0.7078750000000000 0.877568 -169.001894 0.013080 173.340562 0.011857 153.688441 0.530348 -55.756705 
0.7082500000000001 0.879066 -169.020868 0.013039 172.014206 0.011541 152.427010 0.530136 -55.872669 
0.7086250000000000 0.879595 -169.157120 0.012853 170.996874 0.011366 151.189840 0.530266 -55.957828 
0.7090000000000000 0.884171 -169.334665 0.012728 169.365706 0.011423 149.608064 0.529933 -56.017092 
0.7093750000000000 0.884464 -169.491101 0.012556 167.495969 0.011211 148.443590 0.529563 -56.189052 
0.7097500000000000 0.886457 -169.707505 0.012509 166.158168 0.011111 146.890989 0.529497 -56.140499 
0.7101250000000000 0.888740 -169.778215 0.012452 165.210763 0.011189 144.858561 0.528970 -56.273258 
0.7105000000000000 0.889612 -169.888180 0.012331 163.945050 0.011004 144.417300 0.528851 -56.352114 
0.7108750000000000 0.892367 -170.126642 0.012145 162.183256 0.010875 142.951739 0.529337 -56.529803 
0.7112500000000001 0.893337 -170.157331 0.011995 161.156673 0.010695 141.116788 0.528432 -56.540281 
0.7116250000000000 0.894722 -170.263943 0.011883 159.711436 0.010571 140.784784 0.528979 -56.654639 
0.7120000000000000 0.896569 -170.478045 0.011882 157.771188 0.010512 139.122149 0.528293 -56.779939 
0.7123750000000000 0.897853 -170.578656 0.011792 156.353908 0.010519 137.542686 0.528149 -56.967389 
0.7127500000000000 0.900081 -170.602187 0.011550 155.616726 0.010363 136.081278 0.527073 -57.104912 
0.7131250000000000 0.901098 -170.856684 0.011480 154.495009 0.010117 134.818596 0.527686 -56.990023 
0.7135000000000000 0.900939 -170.969052 0.011334 152.988632 0.010058 132.882887 0.527208 -57.161744 
0.7138750000000000 0.901487 -171.021729 0.011142 151.114972 0.010083 132.569708 0.527316 -57.204804 
0.7142500000000001 0.906293 -171.151746 0.011192 149.874820 0.009995 131.106212 0.527356 -57.247049 
0.7146250000000000 0.906177 -171.326310 0.010905 148.660699 0.009916 129.603441 0.526325 -57.415672 
0.7150000000000000 0.908259 -171.435917 0.010860 147.636472 0.009729 128.337028 0.526927 -57.418099 
0.7153750000000000 0.909599 -171.495278 0.010813 146.139653 0.009742 126.731919 0.526743 -57.523465 
0.7157500000000000 0.909634 -171.744307 0.010693 144.237487 0.009505 125.311802 0.526923 -57.697035 
0.7161250000000000 0.911575 -171.785264 0.010563 144.274997 0.009462 124.325156 0.525505 -57.717393 
0.7165000000000000 0.912377 -171.920306 0.010458 142.303505 0.009320 123.131515 0.525788 -57.874409 
0.7168750000000000 0.913063 -172.054059 0.010374 140.964264 0.009345 122.081928 0.525736 -57.933623 
0.7172500000000001 0.916878 -172.168182 0.010140 139.105570 0.009072 119.741145 0.525946 -57.959731 
0.7176250000000000 0.917792 -172.256801 0.010208 138.823893 0.009191 119.030355 0.525757 -58.162417 
0.7180000000000000 0.918141 -172.467276 0.010118 137.654925 0.009054 117.729729 0.525665 -58.222738 
0.7183750000000000 0.920303 -172.492739 0.010078 136.754285 0.008794 116.434448 0.525145 -58.320728 
0.7187500000000000 0.921082 -172.502955 0.009850 135.045113 0.008699 115.355587 0.525545 -58.402305 
0.7191250000000000 0.921684 -172.626501 0.009853 133.668511 0.008738 114.587562 0.524808 -58.501416 
0.7195000000000000 0.923145 -172.813902 0.009669 131.983643 0.008626 112.879595 0.524871 -58.560324 
0.7198750000000000 0.924545 -172.821028 0.009675 130.967306 0.008566 111.052165 0.524446 -58.758354 
0.7202500000000000 0.925372 -172.991233 0.009502 129.893931 0.008402 110.447589 0.524638 -58.794465 
0.7206250000000000 0.924964 -173.010979 0.009578 128.655799 0.008402 109.118783 0.524289 -58.954456 
0.7210000000000000 0.927574 -173.121889 0.009376 127.800102 0.008188 107.809247 0.525372 -58.971173 
0.7213750000000000 0.928405 -173.264638 0.009375 126.499195 0.008157 105.894329 0.524513 -59.043106 
0.7217500000000000 0.930790 -173.270630 0.009329 125.595895 0.008122 105.075737 0.523741 -59.229770 
0.7221250000000000 0.932478 -173.384810 0.009155 123.412806 0.008138 103.911658 0.524381 -59.255838 
0.7225000000000000 0.932713 -173.390267 0.009196 123.486548 0.007996 102.431711 0.524401 -59.350183 
0.7228750000000001 0.931118 -173.454506 0.009013 121.290751 0.007930 102.393153 0.523918 -59.419731 
0.7232500000000000 0.933318 -173.560501 0.008989 120.937696 0.007837 101.113039 0.523371 -59.593740 
0.7236250000000000 0.934152 -173.675516 0.008807 119.796438 0.007701 99.454740 0.524423 -59.707558 
0.7240000000000000 0.935352 -173.725042 0.008879 117.583415 0.007719 97.871812 0.524316 -59.727722 
0.7243750000000000 0.935645 -173.802206 0.008691 116.629725 0.007671 97.436015 0.524420 -59.853963 
0.7247500000000000 0.936478 -173.886618 0.008676 116.069337 0.007581 95.398992 0.523958 -59.921079 
0.7251250000000000 0.938419 -173.970513 0.008666 114.218258 0.007681 95.189276 0.523986 -60.069278 
0.7255000000000000 0.937633 -173.999193 0.008577 113.127073 0.007388 93.433778 0.523610 -60.134169 
0.7258750000000001 0.938802 -174.141516 0.008354 112.042503 0.007406 92.154958 0.523401 -60.328876 
0.7262500000000000 0.939908 -174.140950 0.008377 110.370145 0.007281 91.245853 0.523749 -60.342905 
0.7266250000000000 0.938951 -174.236041 0.008369 110.251140 0.007280 89.939960 0.523825 -60.355316 
0.7270000000000000 0.939479 -174.287926 0.008115 108.123024 0.007176 88.697877 0.523913 -60.602434 
0.7273750000000000 0.941910 -174.377331 0.008239 106.998133 0.007039 87.561699 0.524414 -60.675309 
0.7277500000000000 0.941656 -174.420590 0.008056 106.406574 0.007045 85.461795 0.523944 -60.719143 
0.7281250000000000 0.944416 -174.574588 0.008105 105.243881 0.007076 84.718174 0.523893 -60.838422 
0.7285000000000000 0.944136 -174.558088 0.007985 104.648651 0.006889 84.483154 0.522517 -61.033798 
0.7288750000000001 0.943776 -174.671383 0.007865 104.064044 0.006876 83.585209 0.523051 -61.066180 
0.7292500000000000 0.943328 -174.683738 0.007981 101.678501 0.006776 80.873093 0.522338 -61.263703 
0.7296250000000000 0.944631 -174.713400 0.007863 101.859846 0.006829 80.198288 0.523037 -61.256134 
0.7300000000000000 0.946244 -174.863456 0.007713 99.034868 0.006637 79.066277 0.523908 -61.388208 
0.7303750000000000 0.946050 -174.995995 0.007885 97.928711 0.006735 78.200764 0.522907 -61.484547 
0.7307500000000000 0.947533 -175.029779 0.007770 96.890389 0.006633 77.215633 0.522241 -61.612393 
0.7311250000000000 0.948783 -175.054846 0.007661 95.196043 0.006541 75.145261 0.522325 -61.701061 
0.7315000000000000 0.948137 -175.121802 0.007531 94.495526 0.006548 74.897114 0.523760 -61.796921 
0.7318750000000001 0.949295 -175.212802 0.007642 93.545335 0.006568 73.226645 0.523105 -61.902543 
0.7322500000000000 0.950660 -175.334115 0.007562 91.701998 0.006413 73.365231 0.522728 -62.122902 
0.7326250000000000 0.951046 -175.457748 0.007514 90.229066 0.006458 71.915574 0.521416 -62.194606 
0.7330000000000000 0.952762 -175.410712 0.007481 89.203867 0.006324 70.861443 0.522730 -62.323399 
0.7333750000000000 0.951362 -175.544064 0.007464 87.733532 0.006258 68.907951 0.523116 -62.466257 
0.7337500000000000 0.951877 -175.524371 0.007365 86.767080 0.006119 68.000434 0.521910 -62.597378 
0.7341250000000000 0.954577 -175.614219 0.007300 86.644748 0.006134 67.314349 0.522596 -62.670311 
0.7345000000000000 0.954657 -175.647652 0.007068 84.110566 0.006040 64.399936 0.522538 -62.828871 
0.7348749999999999 0.955992 -175.514321 0.007203 84.446032 0.006056 64.847380 0.521609 -62.844277 
0.7352500000000000 0.955767 -175.788472 0.007016 83.533372 0.006023 63.682436 0.522169 -63.003658 
0.7356250000000000 0.955948 -175.840623 0.007021 81.572172 0.005868 62.679077 0.521521 -63.106577 
0.7360000000000000 0.957758 -175.811886 0.006979 79.473164 0.005830 60.048181 0.522169 -63.315141 
0.7363750000000000 0.956956 -175.866997 0.006877 78.767982 0.005853 60.755902 0.521895 -63.352545 
0.7367500000000000 0.955978 -175.917771 0.006887 76.474641 0.005773 58.690464 0.521567 -63.446941 
0.7371250000000000 0.958118 -175.970813 0.006785 76.146386 0.005755 58.605542 0.521600 -63.703298 
0.7375000000000000 0.957065 -175.878457 0.006748 76.839695 0.005725 56.888308 0.521875 -63.740620 
0.7378750000000000 0.960431 -175.929430 0.006629 73.780019 0.005761 55.767988 0.521482 -63.980773 
0.7382500000000000 0.959822 -175.926843 0.006771 74.665958 0.005894 54.067361 0.521438 -64.097802 
0.7386250000000000 0.960061 -176.088521 0.006547 71.514905 0.005596 53.091049 0.520998 -64.189921 
0.7390000000000000 0.960226 -176.158550 0.006455 69.897210 0.005619 51.661424 0.521126 -64.230255 
0.7393750000000000 0.957649 -176.111595 0.006471 69.655452 0.005650 51.614348 0.521094 -64.392395 
0.7397500000000000 0.960852 -176.146463 0.006425 68.602869 0.005378 49.635656 0.521115 -64.519925 
0.7401250000000000 0.959991 -176.150304 0.006413 67.359161 0.005500 50.636492 0.520453 -64.634012 
0.7405000000000001 0.960901 -176.267024 0.006480 66.746049 0.005482 47.619043 0.520348 -64.792076 
0.7408750000000000 0.961035 -176.369643 0.006398 64.888427 0.005385 46.087017 0.520077 -64.863480 
0.7412500000000000 0.961088 -176.435468 0.006276 64.260412 0.005447 44.829767 0.520288 -65.004224 
0.7416250000000000 0.960986 -176.358517 0.006184 63.166234 0.005382 44.041506 0.519530 -65.184192 
0.7420000000000000 0.960635 -176.459317 0.006292 62.549456 0.005369 43.837611 0.520196 -65.314310 
0.7423750000000000 0.960118 -176.486601 0.006081 61.933858 0.005292 40.662333 0.520259 -65.387764 
0.7427500000000000 0.961862 -176.514835 0.006124 60.808469 0.005222 40.682434 0.519434 -65.457145 
0.7431250000000000 0.961290 -176.596582 0.005979 59.948482 0.005104 39.434785 0.519245 -65.665853 
0.7435000000000001 0.961201 -176.687378 0.005978 58.958656 0.005086 39.285623 0.518652 -65.835895 
0.7438750000000000 0.961991 -176.755643 0.006163 56.378784 0.005169 37.492545 0.518912 -65.944795 
0.7442500000000000 0.962759 -176.783701 0.006022 55.914852 0.005096 37.052160 0.518754 -66.091928 
0.7446250000000000 0.964596 -176.717206 0.006014 54.930200 0.005051 35.799892 0.518886 -66.208925 
0.7450000000000000 0.965174 -176.751836 0.005848 55.191683 0.005065 35.017207 0.517523 -66.308520 
0.7453750000000000 0.964100 -176.853570 0.005991 53.133754 0.005040 32.521911 0.518367 -66.448846 
0.7457500000000000 0.964068 -176.955183 0.006010 51.678107 0.004996 32.283307 0.518051 -66.529296 
0.7461250000000000 0.965714 -177.029275 0.005827 51.602337 0.005001 30.146718 0.517698 -66.644861 
0.7465000000000001 0.966757 -176.956413 0.005717 49.001110 0.004962 31.002002 0.518310 -66.897980 
0.7468750000000000 0.966176 -176.990827 0.005811 47.710496 0.004744 31.153398 0.516866 -67.101698 
0.7472500000000000 0.966276 -177.157836 0.005717 47.484560 0.005007 28.734773 0.516465 -67.093920 
0.7476250000000000 0.968551 -177.070521 0.005590 46.562167 0.004922 28.216159 0.516415 -67.264227 
0.7480000000000000 0.966727 -177.130188 0.005699 44.874582 0.004826 25.773896 0.516759 -67.445203 
0.7483750000000000 0.967744 -177.230890 0.005637 43.615355 0.004749 24.986310 0.515779 -67.495401 
0.7487500000000000 0.969006 -177.256180 0.005584 42.608730 0.004783 23.690208 0.516262 -67.649522 
0.7491250000000000 0.970050 -177.176120 0.005393 41.878391 0.004770 21.996036 0.515735 -67.720741 
0.7495000000000001 0.967157 -177.127845 0.005466 39.825412 0.004792 21.653733 0.515426 -67.985033 
0.7498750000000000 0.968946 -177.331885 0.005444 39.145704 0.004628 21.125029 0.514823 -68.060470 
0.7502500000000000 0.970556 -177.383204 0.005541 37.707190 0.004683 18.265221 0.514494 -68.115282 
0.7506250000000000 0.969927 -177.327367 0.005472 36.834954 0.004662 18.860264 0.514257 -68.346334 
0.7510000000000000 0.971268 -177.410353 0.005347 34.066306 0.004542 16.507676 0.514175 -68.452447 
0.7513750000000000 0.971320 -177.421306 0.005466 35.122234 0.004576 15.559909 0.513822 -68.542982 
0.7517500000000000 0.970799 -177.383862 0.005313 33.591662 0.004551 17.061236 0.512828 -68.751961 
0.7521250000000000 0.971362 -177.446643 0.005386 31.066841 0.004633 13.222460 0.513285 -68.790058 
0.7525000000000000 0.970936 -177.445520 0.005328 31.005968 0.004443 12.361056 0.512520 -69.126107 
0.7528750000000000 0.970681 -177.459274 0.005234 30.081538 0.004510 11.934201 0.512315 -69.157540 
0.7532500000000000 0.971794 -177.523421 0.005199 28.485286 0.004440 11.416741 0.511443 -69.270289 
0.7536250000000000 0.972067 -177.653744 0.005221 26.552173 0.004470 9.440715 0.512255 -69.377641 
0.7540000000000000 0.971559 -177.594876 0.005132 26.935253 0.004491 7.028068 0.510630 -69.532133 
0.7543750000000000 0.972121 -177.578263 0.005118 26.634271 0.004348 7.283230 0.510480 -69.675675 
0.7547500000000000 0.970888 -177.593213 0.005179 24.018468 0.004409 6.180743 0.511147 -69.809099 
0.7551250000000001 0.971950 -177.646260 0.005106 23.593075 0.004277 4.956739 0.510055 -69.924638 
0.7555000000000000 0.971028 -177.744943 0.005042 22.322660 0.004265 2.521406 0.510407 -69.946359 
0.7558750000000000 0.971186 -177.691256 0.005016 21.481780 0.004241 3.058326 0.509412 -70.245045 
0.7562500000000000 0.972353 -177.773213 0.004917 21.107526 0.004262 0.903937 0.509463 -70.228893 
0.7566250000000000 0.972316 -177.830715 0.004975 19.322445 0.004273 0.099095 0.509249 -70.439025 
0.7570000000000000 0.973559 -177.797540 0.004998 18.551646 0.004260 -1.292408 0.508155 -70.581342 
0.7573750000000000 0.972864 -177.929060 0.004900 17.136136 0.004154 -3.415510 0.508051 -70.697614 
0.7577500000000000 0.971690 -177.951766 0.004731 16.645036 0.004194 -2.430418 0.508027 -70.809685 
0.7581250000000001 0.974337 -177.917826 0.004921 14.582217 0.004228 -2.880155 0.507693 -70.960583 
0.7585000000000000 0.973261 -178.084503 0.004995 14.046186 0.004094 -4.475215 0.506299 -71.132575 
0.7588750000000000 0.972584 -178.093962 0.004915 11.864323 0.004196 -6.948937 0.506728 -71.225693 
0.7592500000000000 0.973967 -178.132594 0.004900 10.603043 0.004168 -8.218633 0.506045 -71.432841 
0.7596250000000000 0.975833 -178.182778 0.004862 10.439296 0.004047 -8.687651 0.505262 -71.479698 
0.7600000000000000 0.973526 -178.156906 0.004860 9.552422 0.004097 -8.511143 0.504249 -71.594659 
0.7603750000000000 0.974510 -178.144406 0.004683 8.912727 0.004034 -10.649191 0.504395 -71.709753 
0.7607500000000000 0.976300 -178.223068 0.004777 7.170418 0.003952 -11.724155 0.504342 -71.850100 
0.7611250000000001 0.974896 -178.220509 0.004715 4.634684 0.003933 -13.360641 0.503807 -71.957960 
0.7615000000000000 0.976034 -178.387470 0.004835 5.765422 0.003951 -13.444228 0.503480 -72.106485 
0.7618750000000000 0.975300 -178.389843 0.004622 5.196569 0.003885 -14.958149 0.503361 -72.273590 
0.7622500000000000 0.977310 -178.400315 0.004720 2.701262 0.003901 -17.577764 0.502902 -72.391896 
0.7626250000000000 0.977362 -178.418298 0.004435 1.358361 0.003920 -18.449828 0.502428 -72.528051 
0.7630000000000000 0.976586 -178.513760 0.004700 1.787636 0.003942 -17.641560 0.501614 -72.568200 
0.7633750000000000 0.978388 -178.444986 0.004586 0.932307 0.003922 -20.307595 0.501274 -72.786231 
0.7637500000000000 0.978811 -178.452808 0.004650 -0.199769 0.003859 -20.283601 0.500986 -72.845438 
0.7641250000000001 0.980207 -178.472855 0.004673 -2.713935 0.003863 -21.539761 0.500753 -73.063629 
0.7645000000000000 0.977947 -178.472904 0.004548 -3.251469 0.003783 -22.368356 0.499977 -73.091392 
0.7648750000000000 0.978044 -178.530283 0.004696 -6.258588 0.003762 -24.782365 0.500217 -73.242161 
0.7652500000000000 0.977927 -178.519375 0.004478 -6.910494 0.003845 -24.319585 0.498840 -73.329969 
0.7656250000000000 0.979726 -178.593507 0.004486 -7.503485 0.003584 -26.032299 0.498905 -73.526006 
0.7660000000000000 0.977428 -178.543672 0.004362 -9.180199 0.003704 -29.181964 0.498069 -73.665930 
0.7663750000000000 0.979093 -178.649760 0.004555 -9.215828 0.003654 -27.415135 0.497566 -73.751463 
0.7667500000000000 0.979923 -178.711589 0.004590 -11.471600 0.003618 -29.869447 0.497742 -73.870762 
0.7671250000000000 0.979017 -178.685386 0.004377 -13.617617 0.003660 -31.118674 0.496905 -74.040587 
0.7675000000000000 0.978524 -178.699022 0.004451 -14.797772 0.003631 -31.937188 0.496515 -74.108300 
0.7678750000000000 0.979260 -178.689284 0.004324 -13.558155 0.003648 -31.234466 0.495240 -74.253447 
0.7682500000000000 0.980518 -178.751613 0.004298 -15.696109 0.003520 -35.195029 0.496128 -74.344588 
0.7686250000000000 0.979614 -178.721894 0.004312 -16.782693 0.003466 -34.470062 0.495421 -74.519526 
0.7690000000000000 0.980037 -178.733154 0.004391 -16.088108 0.003650 -37.140455 0.495024 -74.539797 
0.7693750000000000 0.980006 -178.818774 0.004145 -18.493314 0.003700 -37.674853 0.494737 -74.754183 
0.7697500000000001 0.979667 -178.918335 0.004360 -19.334545 0.003509 -37.896827 0.493627 -74.836526 
0.7701250000000000 0.979977 -178.904401 0.004193 -21.713982 0.003556 -38.236199 0.493753 -74.972552 
0.7705000000000000 0.980762 -178.930242 0.004211 -22.441085 0.003588 -39.483615 0.492663 -75.089160 
0.7708750000000000 0.979988 -179.068588 0.004110 -23.637657 0.003508 -44.008676 0.491952 -75.221520 
0.7712500000000000 0.979926 -179.072099 0.004245 -26.094450 0.003482 -43.159184 0.492492 -75.373902 
0.7716250000000000 0.979753 -179.036237 0.004157 -26.479087 0.003415 -44.684605 0.491321 -75.474348 
0.7720000000000000 0.980027 -179.150707 0.004209 -26.789303 0.003438 -47.622214 0.490833 -75.581001 
0.7723750000000000 0.981439 -179.119857 0.004108 -27.142812 0.003328 -47.240965 0.490828 -75.698510 
