!
! C:\Users\rflab\Downloads\Lab5_KD_ZW\Q2\728 MHz\320.S2P
!
! Touchstone 1.1 file saved by VNA.EXE V1.65 (www.ke5fx.com/gpib/readme.htm)
! 11/18/2024 9:30:27 PM
!
!    Source: HEWLETT PACKARD,8753D,0,6.14
!  Min freq: 7.000000E+008 Hz
!  Max freq: 1.000000E+009 Hz
!    Points: 801
!    Params: S11 S21 S12 S22
!
!!!!!
# GHZ S MA R 50
0.7000000000000000 0.814428 -165.118092 0.021141 -151.370141 0.019788 -169.545728 0.536462 -53.671160 
0.7003750000000000 0.819347 -165.337466 0.020877 -153.053357 0.019486 -171.522893 0.535650 -53.668071 
0.7007500000000000 0.822606 -165.546168 0.020698 -154.405450 0.019375 -172.798029 0.535835 -53.917202 
0.7011250000000000 0.826036 -165.812820 0.020437 -155.965841 0.019030 -174.489977 0.535744 -53.914075 
0.7015000000000000 0.830371 -166.023000 0.020228 -157.371413 0.018664 -176.068107 0.535693 -54.115890 
0.7018750000000000 0.832734 -166.240795 0.019858 -159.192437 0.018581 -177.579042 0.535198 -54.150140 
0.7022500000000000 0.835874 -166.418344 0.019623 -160.407054 0.018241 -179.730403 0.534370 -54.194911 
0.7026250000000001 0.839540 -166.680057 0.019378 -161.723772 0.018069 179.119943 0.535054 -54.300114 
0.7030000000000000 0.842896 -166.870421 0.019154 -163.456231 0.017587 177.485760 0.534453 -54.491227 
0.7033750000000000 0.845617 -167.083185 0.018979 -164.249964 0.017389 176.207667 0.534350 -54.551713 
0.7037500000000000 0.849673 -167.179680 0.018602 -166.235196 0.017168 174.542770 0.534268 -54.665865 
0.7041250000000000 0.852370 -167.477420 0.018501 -167.835107 0.017042 172.614900 0.534139 -54.736315 
0.7045000000000000 0.855518 -167.641444 0.018273 -169.103517 0.016698 171.602387 0.534164 -54.914387 
0.7048750000000000 0.858459 -167.851183 0.018152 -170.580733 0.016456 170.082424 0.534674 -54.944751 
0.7052500000000000 0.860829 -167.968228 0.017874 -171.905778 0.016211 168.736994 0.534215 -55.157868 
0.7056250000000000 0.864307 -168.149686 0.017599 -173.134537 0.016018 167.535943 0.533457 -55.280802 
0.7060000000000000 0.867337 -168.335819 0.017555 -174.216313 0.015780 166.131722 0.532994 -55.266257 
0.7063750000000000 0.870178 -168.444165 0.017266 -175.711006 0.015720 164.777503 0.532647 -55.424019 
0.7067500000000000 0.871091 -168.673537 0.017219 -177.104633 0.015602 163.479223 0.532428 -55.475581 
0.7071250000000000 0.873416 -168.830621 0.016994 -178.659109 0.015323 161.981172 0.532290 -55.497229 
0.7075000000000000 0.875623 -168.924259 0.016848 -179.795674 0.015130 160.824996 0.533100 -55.747739 
0.7078750000000000 0.878226 -169.115678 0.016645 178.332096 0.014998 159.272975 0.531674 -55.698795 
0.7082500000000001 0.880540 -169.152726 0.016617 177.184049 0.014699 158.067436 0.531667 -55.881219 
0.7086250000000000 0.881550 -169.338920 0.016380 176.084075 0.014601 156.498218 0.531380 -56.027017 
0.7090000000000000 0.884816 -169.455121 0.016188 174.621898 0.014503 155.402478 0.531937 -56.067428 
0.7093750000000000 0.886310 -169.605515 0.016054 173.262515 0.014347 154.367508 0.531145 -56.247846 
0.7097500000000000 0.886595 -169.813341 0.015946 172.639948 0.014228 152.839848 0.530535 -56.275196 
0.7101250000000000 0.888678 -169.889437 0.015884 170.565959 0.014011 151.621720 0.529943 -56.371251 
0.7105000000000000 0.890781 -170.049100 0.015637 169.912058 0.013889 150.077741 0.530079 -56.408739 
0.7108750000000000 0.892455 -170.254877 0.015500 168.173617 0.013822 148.689808 0.530593 -56.599668 
0.7112500000000001 0.894590 -170.290255 0.015384 167.166451 0.013686 147.478284 0.529807 -56.626637 
0.7116250000000000 0.894176 -170.329362 0.015164 165.165839 0.013627 146.246539 0.530444 -56.786254 
0.7120000000000000 0.896700 -170.617821 0.015108 163.712306 0.013357 145.228010 0.530440 -56.841122 
0.7123750000000000 0.899310 -170.661056 0.014996 163.111587 0.013181 143.437711 0.529259 -57.049399 
0.7127500000000000 0.900829 -170.743815 0.014788 162.053464 0.013127 142.066966 0.529019 -57.217509 
0.7131250000000000 0.902696 -170.982863 0.014686 160.229549 0.013192 141.102137 0.528412 -57.045075 
0.7135000000000000 0.902513 -171.106538 0.014583 158.759388 0.012851 139.964141 0.528245 -57.250056 
0.7138750000000000 0.903514 -171.151723 0.014304 157.665162 0.012833 137.991109 0.528304 -57.356450 
0.7142500000000001 0.905879 -171.194549 0.014320 156.445672 0.012671 136.706331 0.528096 -57.471669 
0.7146250000000000 0.906156 -171.490037 0.014023 154.858817 0.012516 135.282458 0.528037 -57.518654 
0.7150000000000000 0.907631 -171.597452 0.013933 154.152302 0.012480 133.823471 0.527789 -57.666272 
0.7153750000000000 0.909602 -171.677970 0.013800 152.399867 0.012271 132.711905 0.527193 -57.731297 
0.7157500000000000 0.910857 -171.883470 0.013765 151.185986 0.012194 131.117213 0.527866 -57.820462 
0.7161250000000000 0.913464 -171.848782 0.013637 149.705210 0.011942 130.140974 0.526708 -57.827473 
0.7165000000000000 0.912942 -172.052999 0.013478 148.468190 0.011986 128.266435 0.527133 -57.997431 
0.7168750000000000 0.914234 -172.137673 0.013313 147.445537 0.011809 127.787525 0.527028 -58.166237 
0.7172500000000001 0.917757 -172.244961 0.013261 145.811076 0.011770 126.160490 0.526592 -58.179753 
0.7176250000000000 0.918620 -172.386741 0.013173 144.894139 0.011619 125.443926 0.525989 -58.311044 
0.7180000000000000 0.917921 -172.542314 0.013083 144.077782 0.011521 123.302024 0.526268 -58.509171 
0.7183750000000000 0.920540 -172.644095 0.012737 142.233015 0.011454 122.682487 0.525469 -58.479263 
0.7187500000000000 0.922417 -172.659143 0.012686 140.732413 0.011298 120.924357 0.525634 -58.583841 
0.7191250000000000 0.922033 -172.786071 0.012649 139.363095 0.011255 120.107392 0.525971 -58.625754 
0.7195000000000000 0.925136 -172.955156 0.012555 138.820421 0.011217 118.981740 0.525137 -58.749587 
0.7198750000000000 0.925125 -173.054092 0.012424 137.390667 0.011076 117.732233 0.524469 -58.857288 
0.7202500000000000 0.926056 -173.175223 0.012326 136.700764 0.010821 116.182277 0.524508 -58.953344 
0.7206250000000000 0.927368 -173.196314 0.012149 134.686737 0.010735 114.897433 0.524644 -59.071110 
0.7210000000000000 0.929118 -173.277413 0.012158 134.388212 0.010624 114.250494 0.524918 -59.189913 
0.7213750000000000 0.930349 -173.373392 0.012074 132.509615 0.010661 112.470046 0.524656 -59.192278 
0.7217500000000000 0.931564 -173.446314 0.011912 131.730298 0.010487 111.487918 0.523614 -59.423391 
0.7221250000000000 0.931345 -173.497676 0.011800 130.503106 0.010400 109.992760 0.524821 -59.377354 
0.7225000000000000 0.932994 -173.569573 0.011838 129.068558 0.010276 109.546516 0.525000 -59.547455 
0.7228750000000001 0.933357 -173.673878 0.011678 128.078120 0.010223 107.505317 0.523498 -59.609650 
0.7232500000000000 0.934200 -173.751165 0.011646 126.376299 0.010032 106.496817 0.522800 -59.700472 
0.7236250000000000 0.935745 -173.780317 0.011476 125.403730 0.010047 105.607370 0.524061 -59.788716 
0.7240000000000000 0.935968 -173.793080 0.011487 124.728396 0.009838 104.441059 0.523564 -59.869046 
0.7243750000000000 0.936829 -173.896427 0.011201 123.309873 0.009959 103.933113 0.522966 -60.008779 
0.7247500000000000 0.936339 -174.002137 0.011331 122.478218 0.009843 102.068779 0.523508 -60.093141 
0.7251250000000000 0.937873 -174.038225 0.011216 120.967097 0.009691 100.794056 0.523147 -60.209103 
0.7255000000000000 0.937825 -174.139136 0.011179 120.030733 0.009705 99.756194 0.523276 -60.332622 
0.7258750000000001 0.939364 -174.246066 0.010973 118.575290 0.009561 99.062061 0.522117 -60.468216 
0.7262500000000000 0.940378 -174.300878 0.010927 117.297495 0.009529 96.839810 0.522781 -60.509429 
0.7266250000000000 0.939947 -174.339384 0.010776 116.755528 0.009336 95.821827 0.523718 -60.552040 
0.7270000000000000 0.941066 -174.405882 0.010913 115.401666 0.009237 94.491487 0.522966 -60.705081 
0.7273750000000000 0.942340 -174.491763 0.010801 113.826364 0.009223 94.394162 0.523167 -60.809377 
0.7277500000000000 0.942042 -174.642904 0.010604 112.694185 0.009238 92.656680 0.522953 -60.865176 
0.7281250000000000 0.942073 -174.702731 0.010569 111.483138 0.009097 91.390591 0.522134 -60.964586 
0.7285000000000000 0.944661 -174.654080 0.010431 110.652001 0.009066 91.175350 0.521819 -61.075579 
0.7288750000000001 0.943432 -174.900209 0.010437 108.525182 0.009083 89.121699 0.521415 -61.169815 
0.7292500000000000 0.943298 -174.825038 0.010241 108.000481 0.009005 87.787608 0.521316 -61.378035 
0.7296250000000000 0.945284 -174.932512 0.010190 106.482750 0.008769 87.076137 0.521891 -61.374303 
0.7300000000000000 0.946113 -175.037144 0.010385 105.406950 0.008917 85.070208 0.522783 -61.488576 
0.7303750000000000 0.945810 -175.120906 0.010088 104.044125 0.008748 84.579653 0.521313 -61.610648 
0.7307500000000000 0.947355 -175.154815 0.010093 103.079629 0.008629 83.017530 0.520876 -61.657189 
0.7311250000000000 0.949508 -175.236052 0.010000 103.097214 0.008596 81.893721 0.520850 -61.804284 
0.7315000000000000 0.949159 -175.267567 0.010025 100.581987 0.008606 81.019948 0.521693 -61.929876 
0.7318750000000001 0.949850 -175.344899 0.009955 99.008870 0.008383 80.630374 0.521621 -62.001659 
0.7322500000000000 0.951472 -175.459785 0.009838 98.709001 0.008416 78.925642 0.521492 -62.092790 
0.7326250000000000 0.952018 -175.510296 0.009819 97.259265 0.008358 77.900903 0.520652 -62.267886 
0.7330000000000000 0.953618 -175.598764 0.009698 96.493568 0.008322 75.584770 0.521279 -62.345816 
0.7333750000000000 0.952720 -175.679277 0.009570 94.423666 0.008239 75.668595 0.520765 -62.403307 
0.7337500000000000 0.953239 -175.608048 0.009570 93.279120 0.008190 74.531599 0.520712 -62.574431 
0.7341250000000000 0.953966 -175.710664 0.009548 92.601783 0.008115 72.984402 0.520549 -62.667304 
0.7345000000000000 0.954604 -175.739249 0.009501 91.006448 0.007892 72.717842 0.520327 -62.824784 
0.7348749999999999 0.954698 -175.761711 0.009435 89.070490 0.007905 71.442643 0.520146 -62.863658 
0.7352500000000000 0.956173 -175.907609 0.009299 88.607188 0.007927 69.686800 0.519713 -62.994096 
0.7356250000000000 0.955904 -175.979806 0.009216 87.870894 0.007852 69.355178 0.519326 -63.070557 
0.7360000000000000 0.958409 -175.931801 0.009136 87.484339 0.007803 66.710843 0.520491 -63.293729 
0.7363750000000000 0.958105 -175.981736 0.008929 85.503671 0.007806 66.695706 0.520190 -63.322207 
0.7367500000000000 0.956521 -176.081352 0.008989 83.863881 0.007797 65.565033 0.519875 -63.466532 
0.7371250000000000 0.958129 -176.065989 0.009006 83.295656 0.007680 64.373615 0.519985 -63.562779 
0.7375000000000000 0.958402 -176.041508 0.008790 82.001332 0.007634 64.891644 0.520772 -63.796818 
0.7378750000000000 0.960999 -176.070462 0.008701 80.727653 0.007555 62.029406 0.519489 -63.794713 
0.7382500000000000 0.959086 -176.139356 0.008829 79.378255 0.007505 60.641647 0.519525 -64.077663 
0.7386250000000000 0.960650 -176.273342 0.008806 78.429644 0.007469 59.876268 0.519926 -64.125300 
0.7390000000000000 0.960520 -176.280134 0.008696 77.941445 0.007375 58.937127 0.519200 -64.221152 
0.7393750000000000 0.958474 -176.305090 0.008405 76.258611 0.007283 56.726097 0.519243 -64.335562 
0.7397500000000000 0.961093 -176.315173 0.008514 75.714717 0.007240 56.748479 0.520048 -64.422893 
0.7401250000000000 0.961076 -176.274997 0.008509 73.882608 0.007326 55.667604 0.518601 -64.507079 
0.7405000000000001 0.960730 -176.426844 0.008437 72.946552 0.007252 54.792549 0.518483 -64.683823 
0.7408750000000000 0.962196 -176.428653 0.008431 71.991369 0.007215 52.929409 0.518466 -64.861879 
0.7412500000000000 0.960363 -176.545869 0.008376 71.835304 0.007159 51.514818 0.518736 -64.909391 
0.7416250000000000 0.961696 -176.557948 0.008247 70.022835 0.007026 50.377639 0.518790 -65.072091 
0.7420000000000000 0.961050 -176.592086 0.008252 68.178306 0.007067 49.748428 0.518339 -65.123316 
0.7423750000000000 0.961272 -176.676692 0.008269 67.051749 0.006977 49.253882 0.518420 -65.264910 
0.7427500000000000 0.962193 -176.610703 0.008037 66.630464 0.006902 47.886864 0.519051 -65.411909 
0.7431250000000000 0.963387 -176.702177 0.008176 65.391498 0.006886 46.759329 0.518019 -65.515533 
0.7435000000000001 0.962739 -176.870945 0.007896 65.148247 0.006869 45.509073 0.517192 -65.692869 
0.7438750000000000 0.963721 -176.866868 0.007990 63.457884 0.006862 44.698761 0.517360 -65.816170 
0.7442500000000000 0.962726 -176.885453 0.007942 62.614937 0.006787 43.744677 0.517713 -65.952124 
0.7446250000000000 0.963764 -176.954219 0.007852 60.980207 0.006777 41.697146 0.517858 -66.073850 
0.7450000000000000 0.964704 -176.928149 0.007757 61.514618 0.006616 41.084144 0.516607 -66.152982 
0.7453750000000000 0.965365 -176.941137 0.007667 58.615200 0.006667 40.742629 0.516819 -66.292745 
0.7457500000000000 0.966006 -177.044674 0.007609 58.278173 0.006580 39.489803 0.517502 -66.381265 
0.7461250000000000 0.964707 -177.135061 0.007640 57.640980 0.006583 37.672593 0.516946 -66.505617 
0.7465000000000001 0.967145 -177.142290 0.007612 55.749514 0.006506 36.113196 0.516583 -66.709404 
0.7468750000000000 0.967588 -177.197877 0.007557 54.574957 0.006492 35.765634 0.516515 -66.890306 
0.7472500000000000 0.967683 -177.230716 0.007737 53.048883 0.006504 34.901856 0.516096 -66.973571 
0.7476250000000000 0.966919 -177.268356 0.007667 52.291278 0.006404 34.252110 0.516077 -67.108825 
0.7480000000000000 0.966611 -177.271108 0.007395 51.537529 0.006404 32.614498 0.515732 -67.173586 
0.7483750000000000 0.967551 -177.396781 0.007511 50.502274 0.006345 31.177897 0.515538 -67.330038 
0.7487500000000000 0.968735 -177.367441 0.007444 49.434534 0.006296 30.002169 0.515375 -67.506186 
0.7491250000000000 0.970711 -177.340346 0.007394 48.833191 0.006258 30.445620 0.514758 -67.610075 
0.7495000000000001 0.969192 -177.408415 0.007251 47.371747 0.006290 28.554645 0.514955 -67.699830 
0.7498750000000000 0.969556 -177.492430 0.007399 45.989610 0.006108 27.139173 0.513496 -67.809713 
0.7502500000000000 0.970285 -177.497923 0.007462 44.137870 0.006144 25.029517 0.513374 -68.006324 
0.7506250000000000 0.970570 -177.444557 0.007267 45.188741 0.006162 25.631094 0.514459 -68.124749 
0.7510000000000000 0.972558 -177.564957 0.007295 42.626405 0.006126 23.300478 0.514341 -68.276864 
0.7513750000000000 0.972327 -177.463579 0.007158 41.735287 0.006194 22.634454 0.513165 -68.422578 
0.7517500000000000 0.971253 -177.511229 0.007222 41.104784 0.006003 21.985655 0.512870 -68.534131 
0.7521250000000000 0.972075 -177.642961 0.007103 38.994412 0.006000 19.401892 0.512611 -68.654648 
0.7525000000000000 0.971173 -177.622751 0.007179 38.419698 0.005938 18.931798 0.511787 -68.834941 
0.7528750000000000 0.971343 -177.641184 0.007035 37.392654 0.005968 17.628608 0.512282 -68.995324 
0.7532500000000000 0.972521 -177.705222 0.007127 35.755132 0.005985 16.146358 0.512383 -69.032562 
0.7536250000000000 0.971631 -177.850796 0.006971 36.064835 0.005983 15.102326 0.511494 -69.235907 
0.7540000000000000 0.973209 -177.681671 0.006857 34.259194 0.005942 15.886663 0.510927 -69.365448 
0.7543750000000000 0.972210 -177.805282 0.006955 32.769445 0.005956 14.064612 0.510769 -69.461185 
0.7547500000000000 0.972534 -177.777225 0.006899 32.396176 0.005711 12.921108 0.511081 -69.543658 
0.7551250000000001 0.971956 -177.819112 0.006957 30.454595 0.005846 12.104545 0.510755 -69.760090 
0.7555000000000000 0.973327 -177.872521 0.006750 28.850164 0.005798 10.338146 0.510509 -69.884922 
0.7558750000000000 0.972083 -177.909394 0.006703 28.588669 0.005860 9.644349 0.510130 -70.011625 
0.7562500000000000 0.971139 -177.954206 0.006601 27.585040 0.005799 8.382607 0.509390 -70.079944 
0.7566250000000000 0.972832 -177.982946 0.006609 26.417144 0.005683 6.780054 0.509069 -70.220258 
0.7570000000000000 0.973591 -178.042025 0.006656 25.891314 0.005608 6.189555 0.508290 -70.353121 
0.7573750000000000 0.973890 -178.053404 0.006626 24.458629 0.005539 4.809718 0.508616 -70.475678 
0.7577500000000000 0.972544 -178.057905 0.006463 23.790820 0.005529 4.033335 0.508481 -70.663540 
0.7581250000000001 0.975053 -178.156206 0.006540 21.581874 0.005590 3.952243 0.507959 -70.737735 
0.7585000000000000 0.974096 -178.233413 0.006566 21.793686 0.005556 1.955108 0.507435 -70.844765 
0.7588750000000000 0.974498 -178.165927 0.006504 19.638569 0.005407 1.859746 0.506952 -71.044776 
0.7592500000000000 0.976212 -178.273084 0.006347 18.458093 0.005437 -1.542863 0.506111 -71.216534 
0.7596250000000000 0.974273 -178.244508 0.006245 16.611245 0.005462 -1.908736 0.506367 -71.302980 
0.7600000000000000 0.974865 -178.281463 0.006383 15.946571 0.005452 -3.989402 0.505243 -71.464368 
0.7603750000000000 0.975403 -178.429467 0.006238 15.923141 0.005304 -3.896990 0.504442 -71.517920 
0.7607500000000000 0.976627 -178.424271 0.006336 13.707878 0.005325 -4.529736 0.504983 -71.695347 
0.7611250000000001 0.976040 -178.373144 0.006198 12.613190 0.005371 -4.779483 0.505284 -71.746701 
0.7615000000000000 0.975527 -178.562349 0.006234 12.313933 0.005121 -7.765286 0.504048 -71.963260 
0.7618750000000000 0.976465 -178.509993 0.006270 11.432553 0.005236 -8.267725 0.503658 -72.156796 
0.7622500000000000 0.978007 -178.616071 0.006244 11.236560 0.005160 -8.558384 0.503901 -72.172965 
0.7626250000000000 0.978831 -178.545760 0.006148 8.636355 0.005182 -11.333718 0.503305 -72.293444 
0.7630000000000000 0.979069 -178.710464 0.006138 7.476404 0.005035 -12.531750 0.503074 -72.456470 
0.7633750000000000 0.977220 -178.600637 0.006047 7.161445 0.005114 -12.018257 0.502596 -72.617957 
0.7637500000000000 0.978887 -178.706651 0.006106 4.557421 0.005072 -13.839632 0.501358 -72.767264 
0.7641250000000001 0.979710 -178.632759 0.006127 5.611435 0.005005 -14.722724 0.501449 -72.839848 
0.7645000000000000 0.980004 -178.661724 0.006055 4.387456 0.004996 -16.359291 0.501214 -73.010377 
0.7648750000000000 0.979667 -178.743386 0.006091 3.404125 0.004996 -16.322108 0.500806 -73.127528 
0.7652500000000000 0.980414 -178.705098 0.005952 2.594329 0.004890 -17.558651 0.499565 -73.332944 
0.7656250000000000 0.979720 -178.764876 0.006075 0.080948 0.004910 -18.592431 0.500272 -73.342604 
0.7660000000000000 0.979155 -178.807031 0.005881 -1.407773 0.004869 -21.275203 0.499247 -73.603343 
0.7663750000000000 0.979948 -178.807997 0.005793 -3.085912 0.004930 -22.490912 0.498578 -73.715952 
0.7667500000000000 0.980357 -178.862012 0.005955 -3.373869 0.004761 -22.702410 0.498017 -73.799487 
0.7671250000000000 0.981357 -178.795451 0.006071 -3.462513 0.004902 -22.434857 0.498152 -73.884415 
0.7675000000000000 0.980097 -178.908104 0.005876 -4.246613 0.004788 -23.433496 0.497501 -73.954189 
0.7678750000000000 0.980020 -178.957984 0.005791 -6.764269 0.004863 -25.355129 0.496692 -74.165334 
0.7682500000000000 0.980404 -178.904878 0.005743 -8.054080 0.004852 -26.870992 0.496978 -74.346508 
0.7686250000000000 0.981617 -178.927611 0.005743 -7.692102 0.004777 -27.520400 0.496969 -74.415621 
0.7690000000000000 0.981172 -178.984161 0.005737 -8.426097 0.004830 -29.457904 0.496007 -74.512684 
0.7693750000000000 0.980789 -179.040821 0.005724 -11.372655 0.004723 -28.145815 0.495794 -74.681476 
0.7697500000000001 0.980055 -179.047240 0.005744 -12.482637 0.004688 -31.102191 0.495508 -74.789446 
0.7701250000000000 0.981444 -179.102043 0.005778 -11.701741 0.004621 -32.478556 0.494511 -74.904589 
0.7705000000000000 0.979961 -179.172063 0.005608 -14.331658 0.004578 -33.329621 0.493668 -75.105543 
0.7708750000000000 0.981167 -179.233678 0.005701 -14.955649 0.004701 -33.553870 0.493455 -75.212615 
0.7712500000000000 0.981551 -179.159152 0.005743 -15.864693 0.004571 -35.066443 0.493637 -75.313406 
0.7716250000000000 0.981404 -179.265936 0.005574 -17.745234 0.004643 -37.916279 0.492675 -75.489466 
0.7720000000000000 0.981390 -179.330071 0.005628 -19.313071 0.004584 -36.620741 0.493337 -75.545984 
0.7723750000000000 0.981818 -179.330363 0.005427 -20.480926 0.004468 -39.550347 0.492242 -75.670832 
