!
! C:\Users\rflab\Downloads\Lab5_KD_ZW\Q2\728 MHz\340.S2P
!
! Touchstone 1.1 file saved by VNA.EXE V1.65 (www.ke5fx.com/gpib/readme.htm)
! 11/18/2024 9:31:25 PM
!
!    Source: HEWLETT PACKARD,8753D,0,6.14
!  Min freq: 7.000000E+008 Hz
!  Max freq: 1.000000E+009 Hz
!    Points: 801
!    Params: S11 S21 S12 S22
!
!!!!!
# GHZ S MA R 50
0.7000000000000000 0.813928 -165.099854 0.023927 -147.398144 0.022487 -165.423905 0.536722 -53.468916 
0.7003750000000000 0.818836 -165.389904 0.023703 -148.554700 0.022156 -167.298923 0.536254 -53.508988 
0.7007500000000000 0.822501 -165.557459 0.023280 -150.008826 0.021865 -168.739567 0.536667 -53.646853 
0.7011250000000000 0.825991 -165.842587 0.023089 -151.823957 0.021458 -170.460229 0.536927 -53.752111 
0.7015000000000000 0.830046 -166.060827 0.022809 -152.946402 0.021131 -171.957662 0.536155 -53.881519 
0.7018750000000000 0.833179 -166.256938 0.022456 -154.788778 0.020873 -173.678310 0.535927 -54.009090 
0.7022500000000000 0.836308 -166.455637 0.022331 -156.230797 0.020655 -175.089387 0.535903 -54.007174 
0.7026250000000001 0.839003 -166.654225 0.021928 -157.211072 0.020398 -176.609314 0.534778 -54.117586 
0.7030000000000000 0.842474 -166.902087 0.021669 -159.125797 0.020111 -177.929184 0.535200 -54.295215 
0.7033750000000000 0.845821 -167.171175 0.021409 -160.233204 0.019762 -179.427642 0.535404 -54.343113 
0.7037500000000000 0.849453 -167.319818 0.021261 -161.646322 0.019562 178.647969 0.536248 -54.435796 
0.7041250000000000 0.851582 -167.469857 0.020969 -162.952066 0.019243 177.210474 0.535462 -54.632385 
0.7045000000000000 0.856096 -167.675001 0.020748 -164.349432 0.018950 176.170760 0.535555 -54.663475 
0.7048750000000000 0.857495 -167.879039 0.020515 -165.917889 0.018816 174.459313 0.535747 -54.809859 
0.7052500000000000 0.860479 -167.921707 0.020224 -167.552370 0.018464 172.917930 0.535034 -54.923912 
0.7056250000000000 0.863739 -168.191415 0.020209 -168.573941 0.018193 171.899619 0.535058 -55.045458 
0.7060000000000000 0.866736 -168.368804 0.019818 -170.054474 0.018063 170.432737 0.534767 -55.147273 
0.7063750000000000 0.869830 -168.455891 0.019798 -171.283637 0.017724 169.493036 0.534337 -55.230755 
0.7067500000000000 0.871762 -168.678266 0.019560 -172.432494 0.017527 167.729539 0.533804 -55.278745 
0.7071250000000000 0.872794 -168.851154 0.019268 -173.862743 0.017518 166.346558 0.534517 -55.490637 
0.7075000000000000 0.875123 -168.966711 0.019162 -175.140924 0.017187 165.014528 0.534109 -55.508173 
0.7078750000000000 0.878283 -169.096126 0.019097 -176.942699 0.016981 163.815464 0.534265 -55.698129 
0.7082500000000001 0.881088 -169.220160 0.018750 -178.312403 0.016776 162.283987 0.533351 -55.778005 
0.7086250000000000 0.882240 -169.444141 0.018660 -178.793458 0.016660 160.758102 0.533924 -55.926632 
0.7090000000000000 0.884911 -169.508524 0.018359 179.505929 0.016414 159.806706 0.533363 -55.980782 
0.7093750000000000 0.885922 -169.677150 0.018243 178.253506 0.016324 158.648629 0.533305 -56.166262 
0.7097500000000000 0.886378 -169.846893 0.018042 176.976061 0.016078 157.410976 0.532340 -56.167820 
0.7101250000000000 0.889011 -169.881273 0.017912 175.357977 0.016023 155.868195 0.532389 -56.301736 
0.7105000000000000 0.890281 -170.119218 0.017794 174.229528 0.015898 154.988398 0.532177 -56.353678 
0.7108750000000000 0.893167 -170.266687 0.017693 172.551671 0.015809 153.436495 0.532410 -56.547675 
0.7112500000000001 0.893765 -170.320900 0.017437 171.409905 0.015633 152.171052 0.531567 -56.613735 
0.7116250000000000 0.894884 -170.436174 0.017256 170.209188 0.015466 150.770041 0.531776 -56.711194 
0.7120000000000000 0.897071 -170.617790 0.017178 169.061246 0.015312 149.619490 0.531915 -56.874296 
0.7123750000000000 0.897999 -170.738062 0.017181 167.464974 0.015165 147.832096 0.530801 -57.059125 
0.7127500000000000 0.901174 -170.802430 0.016806 165.970843 0.015132 146.760110 0.531054 -57.241429 
0.7131250000000000 0.901500 -170.966875 0.016917 165.254789 0.014952 145.331311 0.529952 -57.109743 
0.7135000000000000 0.902150 -171.028383 0.016792 163.964323 0.014914 144.507051 0.530095 -57.280633 
0.7138750000000000 0.903462 -171.198220 0.016387 162.349584 0.014633 142.808213 0.530591 -57.361999 
0.7142500000000001 0.905500 -171.351029 0.016259 161.364194 0.014569 141.537017 0.529941 -57.422771 
0.7146250000000000 0.907011 -171.572182 0.016179 159.525786 0.014401 140.420823 0.529124 -57.573926 
0.7150000000000000 0.908405 -171.635795 0.015882 158.645817 0.014256 138.869070 0.529209 -57.658041 
0.7153750000000000 0.909188 -171.670264 0.016033 157.432821 0.014228 137.648545 0.528378 -57.800632 
0.7157500000000000 0.909891 -171.901968 0.015788 155.976537 0.014058 135.968879 0.529200 -57.969746 
0.7161250000000000 0.912912 -171.901859 0.015568 154.204896 0.013847 135.129752 0.528592 -57.912924 
0.7165000000000000 0.912737 -172.089882 0.015485 153.216397 0.013675 133.906497 0.528448 -58.125444 
0.7168750000000000 0.913842 -172.203811 0.015358 152.218419 0.013624 132.621437 0.527978 -58.226308 
0.7172500000000001 0.917378 -172.391752 0.015304 150.234306 0.013484 130.850065 0.528393 -58.304701 
0.7176250000000000 0.917610 -172.543617 0.015189 149.280561 0.013436 129.800888 0.527984 -58.401829 
0.7180000000000000 0.918576 -172.701213 0.014949 147.990544 0.013238 128.443529 0.527588 -58.554258 
0.7183750000000000 0.919658 -172.713678 0.014872 146.712964 0.013179 127.487693 0.526506 -58.536745 
0.7187500000000000 0.922429 -172.712752 0.014725 145.974422 0.013070 125.677888 0.526375 -58.706960 
0.7191250000000000 0.922123 -172.832647 0.014608 144.315569 0.012887 124.803758 0.526714 -58.729375 
0.7195000000000000 0.923658 -173.081142 0.014483 142.881475 0.012792 123.620176 0.525940 -58.829844 
0.7198750000000000 0.925812 -173.017414 0.014453 141.624475 0.012686 121.679174 0.525372 -58.990583 
0.7202500000000000 0.925974 -173.186023 0.014268 140.539621 0.012530 121.257683 0.526471 -59.081814 
0.7206250000000000 0.926527 -173.186308 0.014129 139.850037 0.012412 120.146492 0.525708 -59.175419 
0.7210000000000000 0.928843 -173.324695 0.013939 138.833622 0.012284 118.892160 0.525728 -59.308317 
0.7213750000000000 0.929885 -173.457141 0.013959 137.490526 0.012228 118.449816 0.525471 -59.407753 
0.7217500000000000 0.932224 -173.454749 0.013839 136.358377 0.012035 116.158955 0.525602 -59.613062 
0.7221250000000000 0.931369 -173.618760 0.013712 135.610063 0.011985 115.619962 0.525888 -59.527209 
0.7225000000000000 0.932528 -173.656912 0.013620 134.131904 0.012007 114.238124 0.524579 -59.744527 
0.7228750000000001 0.932610 -173.748010 0.013573 133.307492 0.011901 113.401456 0.524268 -59.716914 
0.7232500000000000 0.934000 -173.795017 0.013473 131.872498 0.011791 111.920595 0.523730 -59.937502 
0.7236250000000000 0.935615 -173.888478 0.013348 130.283827 0.011716 110.775494 0.524258 -59.970915 
0.7240000000000000 0.936619 -173.876276 0.013198 129.248201 0.011613 109.169255 0.524330 -60.090907 
0.7243750000000000 0.935100 -174.009199 0.012938 127.981095 0.011435 108.180326 0.524078 -60.232767 
0.7247500000000000 0.935258 -174.096680 0.013097 126.754324 0.011464 106.907183 0.523779 -60.283270 
0.7251250000000000 0.936924 -174.054684 0.013022 126.158648 0.011389 105.677170 0.523411 -60.448624 
0.7255000000000000 0.937027 -174.212908 0.012926 124.722421 0.011173 104.599675 0.523080 -60.512600 
0.7258750000000001 0.939449 -174.343856 0.012837 124.191195 0.011068 103.506387 0.522264 -60.623456 
0.7262500000000000 0.941078 -174.398485 0.012902 123.090996 0.011167 101.811792 0.523178 -60.656809 
0.7266250000000000 0.939914 -174.436382 0.012675 121.218466 0.010986 101.219709 0.523063 -60.734021 
0.7270000000000000 0.940141 -174.486314 0.012608 120.261733 0.010928 100.071845 0.522781 -60.919729 
0.7273750000000000 0.942264 -174.539788 0.012465 118.584744 0.010902 98.801037 0.522170 -60.978247 
0.7277500000000000 0.941839 -174.615640 0.012537 117.527017 0.010730 97.995429 0.522334 -61.049446 
0.7281250000000000 0.942718 -174.762247 0.012492 116.437895 0.010687 97.040038 0.522408 -61.180108 
0.7285000000000000 0.944376 -174.801213 0.012339 114.901331 0.010581 95.251706 0.521706 -61.313578 
0.7288750000000001 0.943659 -174.912599 0.012303 113.809167 0.010403 93.829274 0.521426 -61.376958 
0.7292500000000000 0.943171 -174.828062 0.012272 113.193911 0.010401 92.348874 0.520577 -61.513385 
0.7296250000000000 0.944728 -174.977829 0.012147 111.980588 0.010395 92.163507 0.520821 -61.520290 
0.7300000000000000 0.946502 -175.065147 0.011980 110.478371 0.010251 90.527688 0.521473 -61.669726 
0.7303750000000000 0.945737 -175.217012 0.011896 108.895403 0.010207 89.312110 0.520764 -61.715391 
0.7307500000000000 0.947314 -175.317598 0.011816 108.100807 0.010184 87.794310 0.520467 -61.861706 
0.7311250000000000 0.948724 -175.317172 0.011631 106.657845 0.009920 86.624156 0.520316 -61.978516 
0.7315000000000000 0.948434 -175.304642 0.011719 105.822113 0.010112 86.534060 0.520750 -62.053327 
0.7318750000000001 0.949326 -175.508625 0.011583 104.243903 0.009849 84.866602 0.519969 -62.064793 
0.7322500000000000 0.951424 -175.496426 0.011624 103.498658 0.009804 83.526552 0.519875 -62.336859 
0.7326250000000000 0.950336 -175.579845 0.011607 101.773856 0.009739 82.088902 0.518934 -62.411732 
0.7330000000000000 0.953269 -175.729595 0.011432 100.720806 0.009766 81.579896 0.519787 -62.457050 
0.7333750000000000 0.952968 -175.676723 0.011322 99.296897 0.009614 79.842059 0.518932 -62.616684 
0.7337500000000000 0.952275 -175.644106 0.011182 98.129410 0.009575 78.817659 0.518821 -62.743127 
0.7341250000000000 0.953668 -175.753447 0.011212 97.241680 0.009618 78.625446 0.519729 -62.806030 
0.7345000000000000 0.954917 -175.883856 0.011156 95.939404 0.009524 76.685238 0.518589 -62.881549 
0.7348749999999999 0.954631 -175.816510 0.011041 95.665784 0.009342 76.371629 0.519164 -63.046352 
0.7352500000000000 0.955547 -175.919598 0.010951 93.847266 0.009296 74.959347 0.518546 -63.106205 
0.7356250000000000 0.956557 -176.103485 0.010937 92.596210 0.009293 73.205293 0.518350 -63.208660 
0.7360000000000000 0.957666 -175.990873 0.010733 91.402642 0.009215 72.400472 0.518606 -63.460577 
0.7363750000000000 0.957728 -176.042378 0.010643 90.472320 0.009245 71.120243 0.518537 -63.460580 
0.7367500000000000 0.957055 -176.149466 0.010742 89.587951 0.009071 70.561135 0.517693 -63.564845 
0.7371250000000000 0.959581 -176.188834 0.010563 88.046816 0.009164 69.538521 0.517588 -63.702359 
0.7375000000000000 0.957758 -176.123019 0.010467 86.468926 0.009002 67.767445 0.517712 -63.743078 
0.7378750000000000 0.959792 -176.164112 0.010439 85.454363 0.008870 67.285127 0.517302 -63.935307 
0.7382500000000000 0.959093 -176.186895 0.010249 84.009829 0.008850 66.000838 0.518472 -64.054830 
0.7386250000000000 0.959482 -176.334544 0.010291 83.738086 0.008839 64.500770 0.517086 -64.231929 
0.7390000000000000 0.960879 -176.343527 0.010098 82.090682 0.008865 62.865720 0.517545 -64.188918 
0.7393750000000000 0.958781 -176.361098 0.010212 81.192608 0.008850 62.665916 0.516766 -64.383762 
0.7397500000000000 0.961186 -176.286361 0.010054 80.346035 0.008728 61.294116 0.517231 -64.479679 
0.7401250000000000 0.960141 -176.348009 0.010069 78.455395 0.008621 60.824729 0.517507 -64.572824 
0.7405000000000001 0.959455 -176.476868 0.009981 77.498211 0.008566 59.307563 0.516569 -64.736901 
0.7408750000000000 0.960974 -176.486090 0.010030 77.292441 0.008467 58.227198 0.517334 -64.803009 
0.7412500000000000 0.961093 -176.610463 0.009883 75.826984 0.008461 56.461292 0.517009 -64.879520 
0.7416250000000000 0.961441 -176.567967 0.009840 74.257119 0.008413 56.541416 0.516275 -65.005821 
0.7420000000000000 0.960899 -176.620716 0.009839 74.110674 0.008291 54.870296 0.516672 -65.216582 
0.7423750000000000 0.958789 -176.715571 0.009618 73.543450 0.008386 53.720418 0.516209 -65.271228 
0.7427500000000000 0.962552 -176.681115 0.009590 71.153350 0.008276 52.310037 0.516543 -65.336684 
0.7431250000000000 0.962894 -176.835078 0.009571 69.591301 0.008224 51.197000 0.515572 -65.507207 
0.7435000000000001 0.962805 -176.932997 0.009604 69.111994 0.008200 50.008012 0.515319 -65.609957 
0.7438750000000000 0.963767 -176.950596 0.009431 68.478314 0.008132 48.736963 0.515788 -65.700530 
0.7442500000000000 0.963016 -176.970035 0.009479 67.067081 0.008138 47.802419 0.515796 -65.905337 
0.7446250000000000 0.965012 -176.994451 0.009354 65.674243 0.008160 47.147732 0.515342 -66.001687 
0.7450000000000000 0.964730 -176.899192 0.009222 64.563786 0.007921 45.243895 0.514936 -66.078190 
0.7453750000000000 0.964698 -177.073331 0.009182 63.613260 0.007826 45.232047 0.515104 -66.246034 
0.7457500000000000 0.963994 -177.183790 0.009258 63.078631 0.007902 43.026586 0.515082 -66.226393 
0.7461250000000000 0.966119 -177.200860 0.009142 62.170468 0.007832 41.677869 0.515014 -66.438078 
0.7465000000000001 0.968069 -177.206505 0.009124 61.132401 0.007859 41.999612 0.514843 -66.566844 
0.7468750000000000 0.966266 -177.244769 0.009198 59.356144 0.007858 40.062419 0.514343 -66.713027 
0.7472500000000000 0.967715 -177.342960 0.009019 58.785836 0.007729 39.437632 0.513809 -66.842964 
0.7476250000000000 0.967108 -177.337671 0.009060 56.958939 0.007639 38.038715 0.514361 -66.976384 
0.7480000000000000 0.966961 -177.369849 0.008922 56.540943 0.007653 36.548620 0.513818 -67.031977 
0.7483750000000000 0.967194 -177.384960 0.008910 54.925341 0.007627 36.096118 0.514149 -67.180529 
0.7487500000000000 0.968907 -177.461846 0.008868 53.523224 0.007470 35.285964 0.513493 -67.363899 
0.7491250000000000 0.971573 -177.331899 0.008819 53.869905 0.007495 34.287562 0.512889 -67.490801 
0.7495000000000001 0.969522 -177.456236 0.008788 52.753282 0.007447 33.053092 0.512592 -67.624687 
0.7498750000000000 0.969376 -177.488352 0.008777 50.237074 0.007424 31.837261 0.512347 -67.709345 
0.7502500000000000 0.970474 -177.660710 0.008782 50.327081 0.007508 30.415175 0.512637 -67.873666 
0.7506250000000000 0.970158 -177.504810 0.008707 47.619086 0.007254 28.797431 0.512070 -68.021046 
0.7510000000000000 0.972138 -177.639515 0.008597 46.932808 0.007342 28.069638 0.512692 -68.085864 
0.7513750000000000 0.972301 -177.582312 0.008693 45.782265 0.007270 26.817159 0.511473 -68.141454 
0.7517500000000000 0.971267 -177.662621 0.008427 45.314067 0.007322 26.242998 0.512138 -68.388152 
0.7521250000000000 0.970472 -177.664311 0.008423 43.343773 0.007204 26.183422 0.512616 -68.438652 
0.7525000000000000 0.971463 -177.645077 0.008468 42.943925 0.007214 23.905199 0.511699 -68.578054 
0.7528750000000000 0.971494 -177.778449 0.008308 42.148047 0.007090 23.169746 0.510901 -68.807440 
0.7532500000000000 0.971867 -177.768498 0.008367 41.279922 0.007122 22.025815 0.510805 -68.873034 
0.7536250000000000 0.970758 -177.783972 0.008386 40.463830 0.006956 21.123804 0.510787 -68.963964 
0.7540000000000000 0.972376 -177.830851 0.008417 38.583264 0.007004 18.903666 0.510180 -69.132272 
0.7543750000000000 0.972252 -177.834174 0.008371 38.094534 0.006990 18.420120 0.510099 -69.117783 
0.7547500000000000 0.973971 -177.820033 0.008203 37.218922 0.006977 17.151958 0.510294 -69.437542 
0.7551250000000001 0.971834 -177.916061 0.008116 35.115024 0.006885 16.426714 0.509930 -69.517398 
0.7555000000000000 0.972727 -177.953950 0.008037 34.379309 0.006862 15.233814 0.508993 -69.613630 
0.7558750000000000 0.973339 -177.951642 0.008016 32.881848 0.006811 14.735800 0.508924 -69.782947 
0.7562500000000000 0.973383 -177.980493 0.007976 32.913872 0.006768 12.941669 0.508386 -69.808259 
0.7566250000000000 0.972763 -178.101507 0.008057 31.216733 0.006689 11.531023 0.508260 -69.997206 
0.7570000000000000 0.972159 -178.089529 0.007871 30.752425 0.006850 10.278093 0.507513 -70.138755 
0.7573750000000000 0.974746 -178.159214 0.007745 28.526287 0.006742 9.321084 0.508003 -70.290376 
0.7577500000000000 0.972802 -178.141147 0.007931 27.515632 0.006578 9.332250 0.508374 -70.367460 
0.7581250000000001 0.974529 -178.223428 0.007707 27.536959 0.006719 7.425618 0.507552 -70.546395 
0.7585000000000000 0.974416 -178.323756 0.007826 25.620485 0.006582 5.787407 0.506975 -70.596506 
0.7588750000000000 0.972737 -178.263315 0.007768 25.500090 0.006594 4.641158 0.506900 -70.798188 
0.7592500000000000 0.974587 -178.349178 0.007669 24.222546 0.006609 4.236698 0.506084 -70.937901 
0.7596250000000000 0.975533 -178.411747 0.007653 23.590947 0.006415 3.628938 0.505837 -70.997717 
0.7600000000000000 0.975179 -178.386057 0.007660 21.676903 0.006377 1.090379 0.504983 -71.184005 
0.7603750000000000 0.975025 -178.453974 0.007647 21.000571 0.006436 0.592191 0.504706 -71.330597 
0.7607500000000000 0.977293 -178.572107 0.007575 19.729518 0.006380 -1.197058 0.504762 -71.409499 
0.7611250000000001 0.975860 -178.498315 0.007574 18.936834 0.006410 -1.140265 0.504413 -71.604513 
0.7615000000000000 0.976094 -178.667114 0.007584 17.260326 0.006327 -2.488146 0.504511 -71.736022 
0.7618750000000000 0.975995 -178.609634 0.007413 17.094602 0.006373 -3.803238 0.504083 -71.884253 
0.7622500000000000 0.975928 -178.623876 0.007510 15.783490 0.006255 -3.487917 0.504144 -71.941251 
0.7626250000000000 0.978368 -178.630883 0.007573 13.873493 0.006121 -6.517394 0.502835 -72.130270 
0.7630000000000000 0.978079 -178.744922 0.007563 13.731356 0.006153 -6.823463 0.503544 -72.276627 
0.7633750000000000 0.977794 -178.690896 0.007379 11.522703 0.006129 -8.184627 0.502520 -72.425533 
0.7637500000000000 0.979660 -178.761230 0.007355 11.314302 0.006162 -8.170547 0.502036 -72.484749 
0.7641250000000001 0.979725 -178.750602 0.007486 8.767525 0.006020 -9.521634 0.502111 -72.713705 
0.7645000000000000 0.979130 -178.710545 0.007398 8.660245 0.006124 -10.737761 0.501656 -72.763250 
0.7648750000000000 0.979100 -178.789102 0.007259 7.575491 0.006027 -11.225919 0.501608 -72.958519 
0.7652500000000000 0.979824 -178.814985 0.007127 6.449837 0.006048 -12.435213 0.500519 -73.055489 
0.7656250000000000 0.980972 -178.848463 0.007134 5.348374 0.005902 -13.908810 0.500267 -73.174545 
0.7660000000000000 0.978085 -178.902281 0.007087 4.333653 0.005876 -14.564046 0.500325 -73.359003 
0.7663750000000000 0.979234 -178.935716 0.007037 2.860664 0.006003 -16.394288 0.499263 -73.497999 
0.7667500000000000 0.979893 -178.975695 0.007015 2.000234 0.005881 -18.234416 0.498605 -73.556035 
0.7671250000000000 0.980777 -178.883897 0.007092 1.234770 0.005734 -18.489951 0.498599 -73.720299 
0.7675000000000000 0.980176 -179.050926 0.007083 -0.532287 0.005822 -18.689438 0.498484 -73.866211 
0.7678750000000000 0.979937 -179.032848 0.007048 -1.981146 0.005704 -20.809168 0.498431 -73.988588 
0.7682500000000000 0.981463 -179.034352 0.007042 -2.613748 0.005817 -21.147268 0.497954 -74.155412 
0.7686250000000000 0.981653 -179.009599 0.007014 -4.412000 0.005764 -22.504276 0.497750 -74.250994 
0.7690000000000000 0.981224 -179.016295 0.006955 -4.485029 0.005787 -24.039183 0.496978 -74.412234 
0.7693750000000000 0.981372 -179.144743 0.006834 -5.202573 0.005659 -25.188402 0.497291 -74.531789 
0.7697500000000001 0.980526 -179.108337 0.006933 -5.713926 0.005691 -24.855943 0.496365 -74.535104 
0.7701250000000000 0.980923 -179.233487 0.006916 -7.346502 0.005576 -26.273597 0.495872 -74.782608 
0.7705000000000000 0.980546 -179.283127 0.006812 -8.503296 0.005641 -26.848821 0.495517 -74.866511 
0.7708750000000000 0.980671 -179.268953 0.006791 -9.163054 0.005533 -28.432342 0.494659 -75.114123 
0.7712500000000000 0.982497 -179.291670 0.006766 -10.513238 0.005504 -31.582627 0.493575 -75.201625 
0.7716250000000000 0.981883 -179.309036 0.006846 -12.539626 0.005544 -30.946432 0.494320 -75.290285 
0.7720000000000000 0.981790 -179.487077 0.006708 -13.656924 0.005366 -32.177541 0.493863 -75.353211 
0.7723750000000000 0.981731 -179.472797 0.006717 -14.769232 0.005484 -32.023600 0.493189 -75.541559 
