!
! C:\Users\rflab\Downloads\Lab5_KD_ZW\Q2\728 MHz\40.S2P
!
! Touchstone 1.1 file saved by VNA.EXE V1.65 (www.ke5fx.com/gpib/readme.htm)
! 11/18/2024 9:10:59 PM
!
!    Source: HEWLETT PACKARD,8753D,0,6.14
!  Min freq: 7.000000E+008 Hz
!  Max freq: 1.000000E+009 Hz
!    Points: 801
!    Params: S11 S21 S12 S22
!
!!!!!
# GHZ S MA R 50
0.7000000000000000 0.816129 -165.628077 0.019402 -147.983273 0.018005 -165.779007 0.533617 -53.666187 
0.7003750000000000 0.821313 -165.848093 0.019138 -149.204688 0.017706 -167.794881 0.533786 -53.768881 
0.7007500000000000 0.824775 -166.004891 0.018676 -150.602402 0.017622 -169.579775 0.534191 -53.898024 
0.7011250000000000 0.827513 -166.295845 0.018561 -151.940507 0.017298 -171.023762 0.533801 -53.899891 
0.7015000000000000 0.831754 -166.501162 0.018195 -153.797581 0.016976 -172.598707 0.533848 -54.065576 
0.7018750000000000 0.834318 -166.776042 0.018133 -154.991660 0.016698 -173.697751 0.533079 -54.106948 
0.7022500000000000 0.838059 -166.947524 0.017789 -156.874010 0.016458 -174.917085 0.532928 -54.224698 
0.7026250000000001 0.841190 -167.133452 0.017462 -158.468216 0.016178 -177.269994 0.533206 -54.306786 
0.7030000000000000 0.844235 -167.346291 0.017436 -159.442854 0.015960 -179.188587 0.533349 -54.414679 
0.7033750000000000 0.847696 -167.529812 0.017155 -161.790677 0.015821 179.899826 0.533746 -54.473370 
0.7037500000000000 0.851109 -167.748845 0.016987 -162.419541 0.015568 178.300974 0.533499 -54.567094 
0.7041250000000000 0.854315 -167.916965 0.016822 -163.753432 0.015375 176.693018 0.532751 -54.703074 
0.7045000000000000 0.857869 -168.134437 0.016660 -165.394991 0.015111 175.177801 0.532983 -54.861239 
0.7048750000000000 0.860470 -168.299515 0.016440 -166.657852 0.014946 173.305327 0.533566 -54.937371 
0.7052500000000000 0.862467 -168.480137 0.016187 -168.100218 0.014836 172.100640 0.533481 -55.058996 
0.7056250000000000 0.865718 -168.577571 0.015972 -169.169773 0.014567 170.834905 0.533241 -55.204882 
0.7060000000000000 0.869608 -168.793385 0.015877 -171.161739 0.014427 169.175841 0.533109 -55.282857 
0.7063750000000000 0.870880 -168.867256 0.015742 -172.554676 0.014161 167.957527 0.532662 -55.329345 
0.7067500000000000 0.872933 -169.097828 0.015492 -173.705768 0.014011 167.191588 0.531693 -55.405096 
0.7071250000000000 0.875222 -169.293453 0.015435 -175.371591 0.013890 165.293482 0.532894 -55.414420 
0.7075000000000000 0.878145 -169.378145 0.015371 -176.075968 0.013690 164.067483 0.532104 -55.567129 
0.7078750000000000 0.881125 -169.596110 0.015160 -177.779115 0.013507 162.685796 0.531736 -55.759067 
0.7082500000000001 0.883056 -169.659379 0.014920 -179.003779 0.013326 161.699904 0.531546 -55.812702 
0.7086250000000000 0.883056 -169.703655 0.014838 179.907937 0.013147 159.993640 0.532348 -55.954650 
0.7090000000000000 0.886408 -169.903348 0.014514 178.335791 0.012972 159.156041 0.531669 -56.004368 
0.7093750000000000 0.887557 -170.072593 0.014489 177.166598 0.012902 157.597753 0.531174 -56.095375 
0.7097500000000000 0.889008 -170.340438 0.014466 175.655757 0.012864 156.457565 0.531272 -56.221395 
0.7101250000000000 0.891093 -170.395096 0.014245 174.375287 0.012662 154.650850 0.531060 -56.273408 
0.7105000000000000 0.892274 -170.558941 0.014177 173.185242 0.012625 153.568516 0.530908 -56.369302 
0.7108750000000000 0.895357 -170.682793 0.013960 172.204248 0.012468 152.579377 0.531369 -56.532617 
0.7112500000000001 0.896958 -170.782522 0.013816 170.933311 0.012300 151.142595 0.531247 -56.642213 
0.7116250000000000 0.896044 -170.899551 0.013712 168.949144 0.012171 149.642581 0.531182 -56.700684 
0.7120000000000000 0.899520 -171.017672 0.013673 168.060294 0.012089 148.482357 0.530865 -56.867192 
0.7123750000000000 0.901709 -171.157421 0.013610 166.589366 0.011954 146.542571 0.530278 -57.073591 
0.7127500000000000 0.902895 -171.227925 0.013309 165.452447 0.011896 146.001638 0.531060 -57.167445 
0.7131250000000000 0.903373 -171.440142 0.013307 163.893861 0.011787 144.474178 0.529946 -57.062166 
0.7135000000000000 0.904321 -171.535201 0.013013 162.392343 0.011684 143.326050 0.529613 -57.282429 
0.7138750000000000 0.904695 -171.507459 0.012959 160.492252 0.011496 141.464897 0.529626 -57.310788 
0.7142500000000001 0.907061 -171.763581 0.012866 159.548837 0.011494 140.659751 0.530384 -57.390754 
0.7146250000000000 0.908823 -171.993427 0.012661 158.550392 0.011325 139.335379 0.529154 -57.599515 
0.7150000000000000 0.910974 -172.051221 0.012701 157.295411 0.011236 137.932902 0.529075 -57.625380 
0.7153750000000000 0.911221 -172.134758 0.012495 155.877438 0.011093 136.388178 0.529682 -57.799714 
0.7157500000000000 0.912595 -172.324578 0.012368 154.599712 0.010934 135.139577 0.528968 -57.891608 
0.7161250000000000 0.914507 -172.352291 0.012347 152.769947 0.010897 133.581553 0.528592 -57.944122 
0.7165000000000000 0.914126 -172.561333 0.012303 151.741509 0.010679 132.165782 0.529123 -58.089193 
0.7168750000000000 0.916437 -172.634068 0.012052 150.949368 0.010605 131.472872 0.528714 -58.166741 
0.7172500000000001 0.919292 -172.772124 0.012050 149.260982 0.010641 129.793407 0.528967 -58.273181 
0.7176250000000000 0.919950 -172.873100 0.011798 147.638213 0.010452 128.435286 0.528990 -58.445544 
0.7180000000000000 0.921664 -173.031702 0.011791 146.774571 0.010354 127.349626 0.528587 -58.504099 
0.7183750000000000 0.922115 -173.115353 0.011738 145.677282 0.010293 125.763538 0.527802 -58.560696 
0.7187500000000000 0.924801 -173.188763 0.011556 144.193543 0.010180 125.280918 0.527970 -58.715342 
0.7191250000000000 0.924332 -173.272922 0.011519 143.705489 0.010101 123.606802 0.528021 -58.757399 
0.7195000000000000 0.926256 -173.393387 0.011287 142.292525 0.009905 122.757437 0.526802 -58.886537 
0.7198750000000000 0.927880 -173.511224 0.011247 140.782887 0.009898 120.236171 0.527559 -59.013511 
0.7202500000000000 0.929630 -173.595420 0.011154 139.045882 0.009785 120.307284 0.527790 -59.132826 
0.7206250000000000 0.929138 -173.595799 0.011057 138.162290 0.009640 118.451444 0.527159 -59.234771 
0.7210000000000000 0.931093 -173.737784 0.010924 136.975787 0.009648 117.527595 0.527066 -59.375328 
0.7213750000000000 0.930877 -173.895035 0.010895 136.212917 0.009424 116.084055 0.527669 -59.394842 
0.7217500000000000 0.933637 -173.931982 0.010775 134.718501 0.009358 114.310812 0.526552 -59.692882 
0.7221250000000000 0.933960 -174.065861 0.010614 133.591103 0.009328 113.480115 0.527175 -59.636364 
0.7225000000000000 0.935457 -174.015258 0.010583 132.867417 0.009163 112.292553 0.527163 -59.770065 
0.7228750000000001 0.934849 -174.120418 0.010601 131.464248 0.009145 110.878787 0.526812 -59.809264 
0.7232500000000000 0.936989 -174.272695 0.010423 129.950218 0.009058 109.465129 0.525193 -59.987525 
0.7236250000000000 0.937992 -174.260100 0.010134 129.050967 0.009024 109.150163 0.526201 -60.043273 
0.7240000000000000 0.938763 -174.350938 0.010370 128.377123 0.008981 107.868330 0.526026 -60.062991 
0.7243750000000000 0.938009 -174.477487 0.010161 126.220303 0.008991 107.487440 0.525672 -60.297616 
0.7247500000000000 0.937872 -174.525377 0.010057 126.066319 0.008827 104.797440 0.526274 -60.377103 
0.7251250000000000 0.940782 -174.546100 0.009942 124.213704 0.008741 104.242437 0.525119 -60.477735 
0.7255000000000000 0.939201 -174.656571 0.009940 122.991030 0.008606 103.783693 0.524886 -60.597246 
0.7258750000000001 0.940674 -174.735900 0.009992 122.507683 0.008484 102.052022 0.525071 -60.765236 
0.7262500000000000 0.942629 -174.821357 0.009870 121.454627 0.008597 101.018880 0.525781 -60.865615 
0.7266250000000000 0.940978 -174.860752 0.009768 120.145913 0.008370 100.258717 0.525470 -60.823869 
0.7270000000000000 0.943292 -174.996216 0.009776 118.805403 0.008332 99.227825 0.524824 -61.039884 
0.7273750000000000 0.944004 -174.970248 0.009659 117.792133 0.008224 97.170749 0.525223 -61.140059 
0.7277500000000000 0.943893 -175.177900 0.009698 116.403781 0.008316 96.129037 0.524540 -61.178832 
0.7281250000000000 0.944810 -175.268019 0.009501 115.067966 0.008113 95.189856 0.524565 -61.340059 
0.7285000000000000 0.946042 -175.174042 0.009457 114.200083 0.008066 93.280536 0.524239 -61.461144 
0.7288750000000001 0.945880 -175.291931 0.009331 112.761078 0.008050 92.869015 0.523514 -61.600394 
0.7292500000000000 0.947300 -175.328636 0.009392 110.948954 0.007956 91.964638 0.523782 -61.764137 
0.7296250000000000 0.946505 -175.465560 0.009191 110.422454 0.007970 90.627339 0.523117 -61.751539 
0.7300000000000000 0.948745 -175.579809 0.009193 109.470701 0.007768 89.352856 0.523588 -61.938313 
0.7303750000000000 0.948816 -175.668856 0.009207 107.864392 0.007806 87.580839 0.523711 -61.998412 
0.7307500000000000 0.949050 -175.677317 0.009188 106.104280 0.007777 85.720916 0.523140 -62.108979 
0.7311250000000000 0.949957 -175.784817 0.008967 106.462272 0.007632 85.473899 0.522913 -62.220589 
0.7315000000000000 0.950499 -175.842559 0.009086 103.797026 0.007740 84.492408 0.523658 -62.403043 
0.7318750000000001 0.951755 -175.918048 0.008878 102.302166 0.007650 82.067391 0.522933 -62.418057 
0.7322500000000000 0.953034 -175.975036 0.008949 101.663801 0.007578 81.448734 0.522674 -62.595613 
0.7326250000000000 0.953870 -175.993267 0.008741 99.942797 0.007425 80.302367 0.521503 -62.683710 
0.7330000000000000 0.954485 -176.150099 0.008703 98.479074 0.007413 79.549456 0.522627 -62.758639 
0.7333750000000000 0.954709 -176.114290 0.008744 98.451352 0.007381 79.466065 0.522845 -62.909990 
0.7337500000000000 0.954408 -176.219560 0.008626 96.124727 0.007323 77.021605 0.521567 -63.030152 
0.7341250000000000 0.955923 -176.232891 0.008644 95.504606 0.007215 76.216321 0.521902 -63.135293 
0.7345000000000000 0.957592 -176.272406 0.008505 93.551888 0.007149 75.752438 0.521816 -63.228145 
0.7348749999999999 0.956435 -176.267889 0.008542 94.244901 0.007227 73.579954 0.521964 -63.315099 
0.7352500000000000 0.957768 -176.393829 0.008403 91.398132 0.007036 73.467373 0.520967 -63.481477 
0.7356250000000000 0.959571 -176.543014 0.008282 90.752113 0.006984 72.569658 0.520929 -63.648105 
0.7360000000000000 0.959500 -176.433214 0.008350 88.779526 0.007064 71.373046 0.521918 -63.776557 
0.7363750000000000 0.960930 -176.529680 0.008266 88.638117 0.006960 69.610737 0.521210 -63.805526 
0.7367500000000000 0.959509 -176.666927 0.008302 87.725440 0.006786 67.998960 0.520977 -63.979812 
0.7371250000000000 0.960663 -176.612590 0.008141 87.035541 0.006843 67.478713 0.520345 -64.084165 
0.7375000000000000 0.960279 -176.629476 0.008038 84.129769 0.006850 65.839903 0.520459 -64.243293 
0.7378750000000000 0.961399 -176.549595 0.008017 83.384328 0.006850 65.434896 0.520676 -64.333078 
0.7382500000000000 0.961145 -176.745495 0.007805 82.617940 0.006830 64.397360 0.521296 -64.540546 
0.7386250000000000 0.962928 -176.798816 0.007736 81.203087 0.006748 63.445813 0.520264 -64.646472 
0.7390000000000000 0.962603 -176.819565 0.007758 80.347787 0.006651 61.836413 0.519917 -64.687900 
0.7393750000000000 0.961369 -176.702534 0.007765 79.645750 0.006658 60.343168 0.519387 -64.827732 
0.7397500000000000 0.963128 -176.846755 0.007731 78.281154 0.006556 58.783969 0.519186 -64.906608 
0.7401250000000000 0.963301 -176.858229 0.007626 77.827923 0.006511 59.673800 0.519883 -65.020486 
0.7405000000000001 0.964714 -176.917290 0.007551 76.298956 0.006483 57.216923 0.518805 -65.228860 
0.7408750000000000 0.963943 -176.958420 0.007560 75.241540 0.006469 56.712867 0.519250 -65.347858 
0.7412500000000000 0.963954 -177.085600 0.007626 74.509830 0.006349 55.531807 0.518770 -65.431083 
0.7416250000000000 0.963651 -177.012008 0.007474 74.108830 0.006358 53.760026 0.518858 -65.531778 
0.7420000000000000 0.963781 -177.074175 0.007305 71.413667 0.006327 53.695786 0.518563 -65.668783 
0.7423750000000000 0.963134 -177.188546 0.007416 71.461369 0.006282 51.487587 0.518378 -65.763179 
0.7427500000000000 0.965847 -177.160196 0.007328 69.359733 0.006177 50.208018 0.518272 -65.879937 
0.7431250000000000 0.965798 -177.294184 0.007177 68.860271 0.006151 50.672150 0.517387 -66.058104 
0.7435000000000001 0.965958 -177.323627 0.007098 68.136407 0.006202 47.617270 0.517057 -66.149106 
0.7438750000000000 0.966795 -177.427330 0.007123 65.835392 0.006065 47.147272 0.516869 -66.313671 
0.7442500000000000 0.967175 -177.330615 0.007203 65.233332 0.006079 46.287150 0.517192 -66.476898 
0.7446250000000000 0.967836 -177.506052 0.007065 63.818883 0.006074 44.284359 0.517377 -66.548464 
0.7450000000000000 0.968266 -177.420398 0.006977 61.979568 0.006023 42.943721 0.515899 -66.654542 
0.7453750000000000 0.967009 -177.467720 0.006882 62.625322 0.005896 41.715118 0.516538 -66.806742 
0.7457500000000000 0.967636 -177.614056 0.007072 60.313100 0.005935 41.211480 0.516198 -66.886365 
0.7461250000000000 0.968010 -177.690908 0.007016 60.351229 0.006020 40.087388 0.516174 -67.039821 
0.7465000000000001 0.972128 -177.743897 0.006852 59.187359 0.005813 39.608186 0.515972 -67.232591 
0.7468750000000000 0.969879 -177.637622 0.006989 58.202217 0.005855 38.100084 0.515907 -67.328779 
0.7472500000000000 0.969677 -177.756236 0.006803 56.396812 0.005799 37.063045 0.515240 -67.400763 
0.7476250000000000 0.969545 -177.770370 0.006895 56.594564 0.005716 36.286730 0.514926 -67.573686 
0.7480000000000000 0.970357 -177.837154 0.006768 54.560866 0.005731 35.378641 0.514928 -67.680267 
0.7483750000000000 0.971211 -177.839056 0.006718 52.388262 0.005710 34.743879 0.514246 -67.785020 
0.7487500000000000 0.972352 -177.967556 0.006699 51.705798 0.005672 32.618598 0.514146 -67.956722 
0.7491250000000000 0.973167 -177.836211 0.006624 50.555630 0.005593 30.843969 0.513945 -68.057709 
0.7495000000000001 0.972899 -177.972296 0.006610 50.720482 0.005617 31.002965 0.513938 -68.251660 
0.7498750000000000 0.971932 -177.955876 0.006545 49.046925 0.005573 29.811773 0.512850 -68.261903 
0.7502500000000000 0.973503 -177.984337 0.006564 47.667243 0.005493 27.675029 0.512656 -68.455106 
0.7506250000000000 0.973585 -177.948566 0.006489 45.940749 0.005453 27.328008 0.512193 -68.596064 
0.7510000000000000 0.974245 -178.183405 0.006461 45.445537 0.005483 26.149440 0.512855 -68.734847 
0.7513750000000000 0.973715 -178.038680 0.006434 44.648717 0.005423 24.576339 0.511349 -68.867232 
0.7517500000000000 0.975036 -178.077226 0.006460 42.963018 0.005414 23.757813 0.511749 -68.998064 
0.7521250000000000 0.974256 -178.054136 0.006364 41.692362 0.005436 23.480725 0.512441 -69.130049 
0.7525000000000000 0.974152 -178.129357 0.006428 40.743287 0.005397 23.732719 0.511214 -69.289833 
0.7528750000000000 0.975667 -178.150194 0.006353 41.610682 0.005328 21.845684 0.510830 -69.394272 
0.7532500000000000 0.975419 -178.156898 0.006172 38.910059 0.005292 19.946050 0.510437 -69.502085 
0.7536250000000000 0.974147 -178.251465 0.006241 37.880355 0.005464 18.672932 0.510280 -69.667345 
0.7540000000000000 0.976832 -178.141655 0.006148 36.846790 0.005353 17.707818 0.509259 -69.829744 
0.7543750000000000 0.975179 -178.264078 0.006202 35.736871 0.005197 15.398049 0.509850 -69.857796 
0.7547500000000000 0.975713 -178.293715 0.006130 34.529410 0.005323 13.751167 0.510083 -70.086299 
0.7551250000000001 0.975353 -178.282323 0.006103 32.342780 0.005189 13.293726 0.508923 -70.093800 
0.7555000000000000 0.976288 -178.366390 0.005999 34.249597 0.005228 13.645228 0.509142 -70.197628 
0.7558750000000000 0.976296 -178.230228 0.005889 31.744265 0.005134 13.090743 0.508309 -70.408648 
0.7562500000000000 0.975427 -178.379294 0.005971 30.263020 0.005145 11.087592 0.507811 -70.556714 
0.7566250000000000 0.976935 -178.417606 0.006031 29.008845 0.005051 9.020854 0.507596 -70.708816 
0.7570000000000000 0.976803 -178.438881 0.006091 28.740051 0.005076 8.897772 0.506381 -70.777746 
0.7573750000000000 0.977320 -178.511296 0.005958 26.630671 0.005190 6.992786 0.507373 -70.875199 
0.7577500000000000 0.974796 -178.557683 0.005946 26.178712 0.005056 5.270994 0.506617 -71.017149 
0.7581250000000001 0.976841 -178.632323 0.005947 26.145941 0.004904 5.506610 0.506184 -71.128105 
0.7585000000000000 0.976879 -178.689669 0.005805 22.664030 0.004929 3.899431 0.505272 -71.206104 
0.7588750000000000 0.977055 -178.707806 0.005752 21.820816 0.005011 3.948097 0.505650 -71.403208 
0.7592500000000000 0.977779 -178.730228 0.005814 21.253425 0.004950 1.470922 0.504432 -71.576017 
0.7596250000000000 0.978605 -178.809934 0.005721 20.696350 0.004867 0.359292 0.504066 -71.690103 
0.7600000000000000 0.978052 -178.819990 0.005636 19.998849 0.004784 0.768205 0.503947 -71.864586 
0.7603750000000000 0.978703 -178.877958 0.005728 17.861787 0.004815 -1.112289 0.503275 -71.941893 
0.7607500000000000 0.978715 -178.842234 0.005688 17.825095 0.004783 -1.562433 0.503455 -72.036223 
0.7611250000000001 0.978776 -178.842306 0.005542 15.060980 0.004766 -3.754589 0.503471 -72.120774 
0.7615000000000000 0.978540 -179.010022 0.005653 15.071365 0.004757 -4.368973 0.502532 -72.283560 
0.7618750000000000 0.978298 -179.002626 0.005713 14.097708 0.004742 -5.854765 0.501979 -72.424258 
0.7622500000000000 0.980137 -178.975951 0.005506 11.539582 0.004672 -7.931215 0.501722 -72.517285 
0.7626250000000000 0.981093 -179.044684 0.005653 13.127198 0.004705 -6.859609 0.500876 -72.662425 
0.7630000000000000 0.981323 -179.098368 0.005595 10.312047 0.004664 -7.885729 0.501793 -72.771740 
0.7633750000000000 0.980910 -179.044505 0.005482 9.551226 0.004689 -10.455192 0.501011 -72.966810 
0.7637500000000000 0.981996 -179.091863 0.005470 9.484905 0.004596 -10.664575 0.500317 -73.059402 
0.7641250000000001 0.982400 -179.181239 0.005456 6.954534 0.004543 -9.966006 0.500326 -73.176570 
0.7645000000000000 0.982477 -179.117227 0.005472 5.425417 0.004526 -13.163618 0.499009 -73.313847 
0.7648750000000000 0.982157 -179.177476 0.005311 5.874642 0.004428 -13.707764 0.499417 -73.463063 
0.7652500000000000 0.981914 -179.170149 0.005554 4.152550 0.004440 -14.996616 0.498217 -73.484294 
0.7656250000000000 0.982626 -179.259731 0.005430 1.821655 0.004533 -17.400945 0.498356 -73.715794 
0.7660000000000000 0.981205 -179.340638 0.005354 1.651081 0.004482 -17.222391 0.497561 -73.904959 
0.7663750000000000 0.982373 -179.302261 0.005425 0.637042 0.004465 -17.518664 0.497864 -73.860192 
0.7667500000000000 0.982967 -179.384514 0.005418 0.920266 0.004338 -19.877095 0.496876 -74.065235 
0.7671250000000000 0.983098 -179.334793 0.005361 0.043320 0.004464 -20.707534 0.496956 -74.148364 
0.7675000000000000 0.983387 -179.423897 0.005256 -2.901731 0.004286 -21.211880 0.495922 -74.337926 
0.7678750000000000 0.982723 -179.380802 0.005326 -4.006680 0.004304 -22.706040 0.495878 -74.460980 
0.7682500000000000 0.983256 -179.480728 0.005222 -5.391719 0.004435 -23.617564 0.495571 -74.509701 
0.7686250000000000 0.984618 -179.367786 0.005341 -6.921999 0.004204 -23.271557 0.495843 -74.701268 
0.7690000000000000 0.982771 -179.459121 0.005259 -6.456089 0.004250 -24.949330 0.494153 -74.746741 
0.7693750000000000 0.982335 -179.515842 0.005242 -8.665926 0.004309 -25.392537 0.494106 -74.943212 
0.7697500000000001 0.983004 -179.530402 0.005189 -8.715341 0.004382 -28.033799 0.493936 -74.989227 
0.7701250000000000 0.985259 -179.556323 0.005197 -10.937247 0.004202 -29.526530 0.493799 -75.186511 
0.7705000000000000 0.984456 -179.630561 0.005289 -10.807978 0.004305 -31.607292 0.492874 -75.315840 
0.7708750000000000 0.983167 -179.711887 0.005056 -12.275903 0.004234 -30.794699 0.491988 -75.373290 
0.7712500000000000 0.983293 -179.662133 0.005154 -14.799271 0.004190 -32.108523 0.492564 -75.482475 
0.7716250000000000 0.982678 -179.722420 0.005037 -14.265134 0.004222 -33.867312 0.490962 -75.665755 
0.7720000000000000 0.984500 -179.865019 0.005049 -16.721787 0.004153 -33.613433 0.491195 -75.775546 
0.7723750000000000 0.983521 -179.964443 0.005077 -17.372964 0.004047 -37.696188 0.491126 -75.879999 
