!
! C:\Users\rflab\Downloads\Lab5_KD_ZW\Q2\728 MHz\60.S2P
!
! Touchstone 1.1 file saved by VNA.EXE V1.65 (www.ke5fx.com/gpib/readme.htm)
! 11/18/2024 9:12:06 PM
!
!    Source: HEWLETT PACKARD,8753D,0,6.14
!  Min freq: 7.000000E+008 Hz
!  Max freq: 1.000000E+009 Hz
!    Points: 801
!    Params: S11 S21 S12 S22
!
!!!!!
# GHZ S MA R 50
0.7000000000000000 0.814839 -165.498474 0.014908 -149.925079 0.013919 -168.683137 0.534378 -53.770791 
0.7003750000000000 0.819735 -165.710264 0.014495 -151.946133 0.013700 -170.863564 0.533719 -53.828595 
0.7007500000000000 0.823088 -165.984367 0.014498 -153.138298 0.013475 -172.051110 0.534254 -54.000059 
0.7011250000000000 0.826353 -166.232670 0.014265 -155.372808 0.013314 -173.538800 0.534025 -54.067236 
0.7015000000000000 0.830665 -166.435494 0.014034 -156.427697 0.012996 -175.178224 0.533772 -54.160723 
0.7018750000000000 0.834026 -166.642075 0.013781 -158.815605 0.012822 -177.414467 0.533080 -54.252606 
0.7022500000000000 0.837936 -166.799867 0.013672 -159.724609 0.012684 -178.429554 0.532911 -54.328446 
0.7026250000000001 0.841028 -167.088288 0.013474 -160.961036 0.012475 179.989050 0.532532 -54.295144 
0.7030000000000000 0.843486 -167.232852 0.013330 -162.573591 0.012267 178.146643 0.532399 -54.563498 
0.7033750000000000 0.847007 -167.472985 0.013138 -163.636986 0.012229 176.373915 0.532652 -54.598941 
0.7037500000000000 0.851197 -167.682861 0.013008 -165.318864 0.012031 174.965735 0.532031 -54.704538 
0.7041250000000000 0.853105 -167.866019 0.012917 -167.433106 0.011819 173.469633 0.532193 -54.833560 
0.7045000000000000 0.857656 -168.043935 0.012747 -168.499240 0.011577 172.592808 0.532419 -54.918924 
0.7048750000000000 0.858500 -168.251483 0.012546 -170.598538 0.011555 170.882451 0.532573 -54.986729 
0.7052500000000000 0.862106 -168.334465 0.012467 -171.117376 0.011263 168.913658 0.532888 -55.058515 
0.7056250000000000 0.865719 -168.556978 0.012337 -172.524483 0.011141 167.291926 0.532039 -55.206946 
0.7060000000000000 0.868030 -168.842553 0.012264 -174.318889 0.010979 166.764044 0.531652 -55.290074 
0.7063750000000000 0.870007 -168.888718 0.012068 -175.581154 0.010950 165.160675 0.530923 -55.351710 
0.7067500000000000 0.872045 -169.082516 0.012015 -176.482386 0.010739 163.479376 0.531635 -55.460647 
0.7071250000000000 0.874307 -169.265846 0.011857 -177.856646 0.010628 162.718667 0.531004 -55.489778 
0.7075000000000000 0.877197 -169.297572 0.011776 -179.709985 0.010442 160.949489 0.531550 -55.677673 
0.7078750000000000 0.879353 -169.433356 0.011552 179.281034 0.010404 159.095411 0.530689 -55.737868 
0.7082500000000001 0.882774 -169.583544 0.011489 178.101940 0.010273 158.221804 0.530795 -55.896969 
0.7086250000000000 0.882423 -169.752578 0.011371 176.624653 0.010143 156.176442 0.531400 -55.964973 
0.7090000000000000 0.885548 -169.833262 0.011192 175.001606 0.009901 155.734638 0.530489 -56.069501 
0.7093750000000000 0.887245 -170.005035 0.011128 173.580907 0.009769 153.851422 0.530282 -56.221227 
0.7097500000000000 0.888172 -170.235386 0.010978 172.286951 0.009814 152.938220 0.529935 -56.212011 
0.7101250000000000 0.889635 -170.267553 0.010902 171.161436 0.009534 151.708366 0.529359 -56.329178 
0.7105000000000000 0.891752 -170.521559 0.010910 169.592794 0.009632 151.115389 0.530019 -56.352930 
0.7108750000000000 0.894192 -170.654695 0.010695 168.099370 0.009544 149.652895 0.529988 -56.489280 
0.7112500000000001 0.895794 -170.778349 0.010674 166.601339 0.009413 147.266342 0.529987 -56.663131 
0.7116250000000000 0.896720 -170.827471 0.010534 165.768115 0.009511 146.192017 0.529101 -56.706804 
0.7120000000000000 0.898384 -171.002282 0.010497 164.063895 0.009239 144.553248 0.529493 -56.853060 
0.7123750000000000 0.900919 -171.051388 0.010209 162.879365 0.009197 144.453686 0.529315 -56.943033 
0.7127500000000000 0.901872 -171.115870 0.010250 161.068586 0.009051 142.236599 0.529252 -57.190530 
0.7131250000000000 0.902794 -171.320983 0.010058 160.448318 0.009033 140.539077 0.529049 -57.066193 
0.7135000000000000 0.902791 -171.477660 0.009997 159.411013 0.008883 139.808704 0.528477 -57.156029 
0.7138750000000000 0.906488 -171.532183 0.009930 158.150564 0.008861 137.732948 0.528489 -57.294588 
0.7142500000000001 0.908511 -171.776815 0.009762 156.390172 0.008833 137.124168 0.529180 -57.428960 
0.7146250000000000 0.908587 -171.851390 0.009765 154.517291 0.008631 135.519268 0.527885 -57.519915 
0.7150000000000000 0.910178 -171.993787 0.009678 154.097774 0.008632 133.616786 0.528283 -57.563078 
0.7153750000000000 0.911224 -172.049545 0.009504 152.542710 0.008452 132.404808 0.527642 -57.691476 
0.7157500000000000 0.912223 -172.240189 0.009425 150.353276 0.008438 131.797816 0.528204 -57.780923 
0.7161250000000000 0.914119 -172.360611 0.009356 149.423856 0.008268 130.675488 0.527240 -57.891265 
0.7165000000000000 0.914763 -172.551122 0.009214 147.990218 0.008131 127.818109 0.527447 -58.030454 
0.7168750000000000 0.915255 -172.551298 0.009149 146.761315 0.008103 128.025799 0.527602 -58.009720 
0.7172500000000001 0.917977 -172.723305 0.009086 145.591832 0.008019 125.845017 0.527506 -58.120400 
0.7176250000000000 0.918882 -172.822588 0.009077 144.472994 0.008007 124.253174 0.526761 -58.288767 
0.7180000000000000 0.920215 -172.924947 0.009011 143.336878 0.007882 123.288203 0.527380 -58.369255 
0.7183750000000000 0.921790 -173.124378 0.008777 141.958073 0.007765 122.695694 0.526377 -58.458002 
0.7187500000000000 0.923779 -173.082053 0.008749 140.475503 0.007719 120.861783 0.526745 -58.564302 
0.7191250000000000 0.924680 -173.187866 0.008634 138.766154 0.007684 119.235919 0.526852 -58.602527 
0.7195000000000000 0.926112 -173.339135 0.008603 137.484481 0.007529 118.399059 0.526267 -58.758181 
0.7198750000000000 0.927105 -173.399463 0.008424 137.029940 0.007524 117.349433 0.526237 -58.892073 
0.7202500000000000 0.927722 -173.597367 0.008385 135.175105 0.007524 116.534197 0.525958 -59.013434 
0.7206250000000000 0.927993 -173.549947 0.008379 134.944664 0.007373 114.587775 0.525905 -59.048788 
0.7210000000000000 0.930169 -173.705065 0.008324 134.008916 0.007274 113.366772 0.526237 -59.202068 
0.7213750000000000 0.931238 -173.829419 0.008154 132.525883 0.007041 111.935432 0.526270 -59.235103 
0.7217500000000000 0.932102 -173.861581 0.008140 130.481530 0.007118 110.513368 0.525588 -59.438483 
0.7221250000000000 0.934502 -173.963964 0.008184 129.754711 0.007075 109.965290 0.526556 -59.508361 
0.7225000000000000 0.934598 -173.979635 0.007940 128.805440 0.007074 108.237110 0.525972 -59.590411 
0.7228750000000001 0.935321 -174.059490 0.007999 128.761163 0.006946 106.526706 0.525524 -59.561780 
0.7232500000000000 0.935423 -174.217985 0.007907 126.344677 0.006871 106.137103 0.524446 -59.809321 
0.7236250000000000 0.936115 -174.282344 0.007831 124.333520 0.006769 104.033301 0.525472 -59.855178 
0.7240000000000000 0.938726 -174.260864 0.007834 123.838046 0.006675 103.332389 0.525258 -59.968566 
0.7243750000000000 0.937950 -174.361007 0.007716 121.637193 0.006633 102.233278 0.524999 -60.117552 
0.7247500000000000 0.937889 -174.514243 0.007594 120.784214 0.006743 101.639700 0.524540 -60.157961 
0.7251250000000000 0.939484 -174.474970 0.007543 119.756115 0.006640 99.469087 0.524736 -60.254700 
0.7255000000000000 0.939680 -174.584543 0.007504 119.358746 0.006453 98.721697 0.524458 -60.402337 
0.7258750000000001 0.941047 -174.652153 0.007449 118.543721 0.006495 96.970066 0.524263 -60.555046 
0.7262500000000000 0.941110 -174.771929 0.007504 117.379209 0.006489 96.942764 0.524445 -60.635168 
0.7266250000000000 0.941651 -174.819693 0.007399 115.995335 0.006332 95.133095 0.524635 -60.639158 
0.7270000000000000 0.941823 -174.869106 0.007256 115.438418 0.006259 94.711077 0.524323 -60.856968 
0.7273750000000000 0.944118 -174.933675 0.007218 113.145412 0.006302 92.142117 0.524716 -60.999125 
0.7277500000000000 0.943975 -175.118836 0.007076 112.580065 0.006148 91.759931 0.524396 -61.014051 
0.7281250000000000 0.944750 -175.133995 0.007207 109.985051 0.006199 90.819841 0.524679 -61.095910 
0.7285000000000000 0.945363 -175.177991 0.007000 109.847055 0.006152 89.769073 0.523249 -61.276466 
0.7288750000000001 0.944678 -175.185633 0.007175 107.661839 0.006076 88.133693 0.523759 -61.424974 
0.7292500000000000 0.945028 -175.243119 0.006976 107.441638 0.006098 86.853221 0.523102 -61.473304 
0.7296250000000000 0.946800 -175.381750 0.007043 106.841184 0.005886 86.665430 0.523478 -61.537492 
0.7300000000000000 0.947117 -175.512940 0.006851 104.568191 0.005890 84.881164 0.524007 -61.690207 
0.7303750000000000 0.948179 -175.543872 0.006824 102.354240 0.005854 83.648983 0.523359 -61.765772 
0.7307500000000000 0.949363 -175.623331 0.006869 100.798247 0.005763 82.157541 0.523330 -61.877790 
0.7311250000000000 0.950605 -175.706536 0.006735 101.354091 0.005680 80.021278 0.523456 -62.036563 
0.7315000000000000 0.951162 -175.701681 0.006637 99.917125 0.005782 80.012544 0.523370 -62.118534 
0.7318750000000001 0.951047 -175.844959 0.006630 98.411571 0.005633 79.661314 0.523106 -62.209079 
0.7322500000000000 0.951547 -175.990841 0.006510 96.290605 0.005616 78.032668 0.522387 -62.416999 
0.7326250000000000 0.952612 -175.969570 0.006608 96.147068 0.005615 76.303647 0.521826 -62.513321 
0.7330000000000000 0.954630 -175.970758 0.006531 95.870846 0.005517 74.745752 0.522974 -62.597593 
0.7333750000000000 0.955367 -176.127975 0.006536 94.070726 0.005455 73.927326 0.522169 -62.702640 
0.7337500000000000 0.954325 -176.075992 0.006449 92.860713 0.005386 72.657470 0.521953 -62.814695 
0.7341250000000000 0.956122 -176.109044 0.006182 91.891780 0.005348 71.384103 0.521560 -62.935679 
0.7345000000000000 0.956998 -176.200509 0.006331 89.978425 0.005345 70.516021 0.522096 -63.078478 
0.7348749999999999 0.956678 -176.213888 0.006215 88.544722 0.005263 69.197282 0.522229 -63.153449 
0.7352500000000000 0.957345 -176.388575 0.006205 88.150541 0.005293 69.132221 0.521610 -63.295530 
0.7356250000000000 0.958472 -176.422073 0.006249 86.763187 0.005311 66.791279 0.521458 -63.440949 
0.7360000000000000 0.959060 -176.329273 0.006117 84.255184 0.005178 65.769128 0.522223 -63.527787 
0.7363750000000000 0.958800 -176.459840 0.006148 83.722131 0.005140 64.725880 0.521680 -63.655299 
0.7367500000000000 0.958395 -176.557045 0.006108 84.148325 0.004998 64.036311 0.520705 -63.804380 
0.7371250000000000 0.960295 -176.552919 0.005855 80.687271 0.005057 63.534021 0.521052 -63.901687 
0.7375000000000000 0.959008 -176.555595 0.005916 81.078271 0.004921 61.664277 0.521933 -63.993792 
0.7378750000000000 0.961288 -176.538263 0.005814 78.805268 0.004985 59.611010 0.520621 -64.113865 
0.7382500000000000 0.961037 -176.544649 0.005918 77.713060 0.005107 59.415114 0.521096 -64.407390 
0.7386250000000000 0.962258 -176.669179 0.005879 75.969394 0.004960 58.802933 0.521088 -64.440431 
0.7390000000000000 0.962277 -176.712926 0.005808 77.505379 0.004844 57.160227 0.520325 -64.452420 
0.7393750000000000 0.960173 -176.738551 0.005723 75.225090 0.004803 54.539686 0.520035 -64.660540 
0.7397500000000000 0.962719 -176.761737 0.005771 74.347908 0.004924 54.197209 0.521036 -64.749757 
0.7401250000000000 0.964195 -176.752170 0.005591 73.741168 0.004777 54.067035 0.520311 -64.927482 
0.7405000000000001 0.961781 -176.784067 0.005628 72.440082 0.004745 52.122493 0.519877 -64.997936 
0.7408750000000000 0.963443 -176.836881 0.005601 70.969627 0.004790 50.819138 0.520074 -65.126707 
0.7412500000000000 0.963465 -177.015065 0.005495 69.624361 0.004686 49.957416 0.519848 -65.244825 
0.7416250000000000 0.965323 -176.988165 0.005468 68.287668 0.004823 49.322204 0.519394 -65.418130 
0.7420000000000000 0.962814 -176.991221 0.005512 69.205530 0.004689 48.241870 0.519322 -65.532918 
0.7423750000000000 0.962677 -177.150837 0.005435 65.699145 0.004775 47.739976 0.519391 -65.654679 
0.7427500000000000 0.964623 -177.018652 0.005238 65.483521 0.004457 45.515816 0.519593 -65.760744 
0.7431250000000000 0.965122 -177.223363 0.005252 63.223244 0.004525 44.722513 0.518801 -65.939303 
0.7435000000000001 0.964585 -177.283519 0.005191 62.107376 0.004508 44.217874 0.517899 -65.939130 
0.7438750000000000 0.965912 -177.305375 0.005283 61.207107 0.004501 44.618001 0.518236 -66.221473 
0.7442500000000000 0.966112 -177.284191 0.005221 61.707749 0.004475 42.435074 0.518245 -66.303001 
0.7446250000000000 0.966789 -177.354898 0.005239 60.212427 0.004569 39.749682 0.518953 -66.443931 
0.7450000000000000 0.967433 -177.313235 0.005160 59.076200 0.004430 38.979577 0.517736 -66.499417 
0.7453750000000000 0.967138 -177.377571 0.005251 59.844680 0.004206 37.014742 0.517905 -66.702550 
0.7457500000000000 0.967693 -177.451425 0.005123 56.357265 0.004395 38.036084 0.517501 -66.712683 
0.7461250000000000 0.968330 -177.583235 0.004993 55.394813 0.004286 36.024561 0.517185 -66.966101 
0.7465000000000001 0.969596 -177.521414 0.005013 55.507192 0.004254 33.531536 0.517192 -67.050889 
0.7468750000000000 0.968901 -177.638849 0.005039 53.182146 0.004193 34.445438 0.517549 -67.261889 
0.7472500000000000 0.970141 -177.613006 0.004915 52.513090 0.004163 33.246850 0.516418 -67.359819 
0.7476250000000000 0.970145 -177.695992 0.004905 50.851287 0.004218 31.069272 0.516206 -67.478367 
0.7480000000000000 0.969598 -177.691082 0.004859 49.848166 0.004178 30.742244 0.515668 -67.640706 
0.7483750000000000 0.970911 -177.737462 0.004986 49.445064 0.004071 29.665385 0.515912 -67.780061 
0.7487500000000000 0.971609 -177.789517 0.004912 48.376621 0.004091 29.176221 0.514570 -67.858479 
0.7491250000000000 0.972592 -177.780957 0.004939 46.032667 0.004203 28.667536 0.514799 -67.931166 
0.7495000000000001 0.971201 -177.853449 0.004735 45.789575 0.004068 26.589081 0.514426 -68.115913 
0.7498750000000000 0.971432 -177.875573 0.004848 42.658101 0.003956 23.875538 0.513904 -68.151198 
0.7502500000000000 0.972272 -177.999779 0.004588 43.399624 0.003988 24.346447 0.514197 -68.427809 
0.7506250000000000 0.973551 -177.905360 0.004772 41.824439 0.004012 23.276835 0.513425 -68.627996 
0.7510000000000000 0.974239 -177.978677 0.004857 40.785864 0.003847 22.563603 0.513751 -68.675131 
0.7513750000000000 0.974688 -177.943707 0.004784 38.380641 0.004002 20.375063 0.512970 -68.758138 
0.7517500000000000 0.973688 -177.981126 0.004705 38.589521 0.003962 20.419653 0.512527 -69.057036 
0.7521250000000000 0.974439 -177.950365 0.004624 38.316526 0.003829 18.528570 0.512709 -69.061167 
0.7525000000000000 0.973608 -178.013307 0.004673 36.116783 0.003893 17.316340 0.511824 -69.206042 
0.7528750000000000 0.975061 -178.034212 0.004528 35.364769 0.003889 17.509523 0.512096 -69.308880 
0.7532500000000000 0.974148 -178.028778 0.004513 34.614371 0.003858 16.487259 0.511623 -69.420354 
0.7536250000000000 0.973605 -178.124712 0.004605 33.008076 0.003793 14.804062 0.511367 -69.555610 
0.7540000000000000 0.974853 -178.076865 0.004486 29.608903 0.003758 14.376514 0.509973 -69.760580 
0.7543750000000000 0.973505 -178.196401 0.004411 31.214473 0.003798 9.668120 0.510575 -69.854799 
0.7547500000000000 0.975356 -178.160366 0.004521 29.250943 0.003814 9.325702 0.510503 -69.946665 
0.7551250000000001 0.974595 -178.212779 0.004367 27.628287 0.003855 9.351051 0.509604 -70.114221 
0.7555000000000000 0.975758 -178.207739 0.004326 27.677802 0.003573 8.410169 0.509572 -70.215066 
0.7558750000000000 0.974967 -178.202695 0.004394 26.783324 0.003795 7.199570 0.509473 -70.378732 
0.7562500000000000 0.974523 -178.234188 0.004316 24.283892 0.003669 7.628345 0.508687 -70.453003 
0.7566250000000000 0.975497 -178.361478 0.004287 24.378278 0.003608 3.496508 0.508878 -70.588177 
0.7570000000000000 0.977430 -178.404091 0.004319 22.416955 0.003677 6.142425 0.507480 -70.788164 
0.7573750000000000 0.975629 -178.469274 0.004338 22.384414 0.003654 1.431998 0.507734 -70.936675 
0.7577500000000000 0.974791 -178.432070 0.004208 19.138214 0.003720 2.394965 0.507673 -71.083639 
0.7581250000000001 0.976453 -178.538635 0.004302 19.878936 0.003602 -1.039145 0.507212 -71.193310 
0.7585000000000000 0.976741 -178.578462 0.004246 19.922363 0.003636 0.563587 0.506262 -71.284355 
0.7588750000000000 0.976055 -178.613302 0.004247 17.638419 0.003500 0.269324 0.506025 -71.439388 
0.7592500000000000 0.977445 -178.647484 0.004222 17.169102 0.003530 -1.772506 0.505243 -71.540978 
0.7596250000000000 0.977778 -178.733803 0.004083 14.228570 0.003590 -3.296972 0.504732 -71.682267 
0.7600000000000000 0.978098 -178.694879 0.004190 15.851345 0.003503 -4.285945 0.504362 -71.865443 
0.7603750000000000 0.977595 -178.733566 0.004205 13.982673 0.003510 -4.967886 0.503996 -71.891990 
0.7607500000000000 0.977874 -178.805468 0.003939 10.367814 0.003388 -7.000005 0.504130 -72.035581 
0.7611250000000001 0.978560 -178.763413 0.004111 11.463718 0.003430 -7.878345 0.503878 -72.135688 
0.7615000000000000 0.977524 -178.937432 0.004151 10.092621 0.003469 -9.148300 0.503036 -72.309228 
0.7618750000000000 0.977067 -178.843859 0.004065 9.499891 0.003544 -13.023656 0.502740 -72.484552 
0.7622500000000000 0.980083 -178.954481 0.004072 9.574265 0.003347 -12.826696 0.502336 -72.491905 
0.7626250000000000 0.980622 -178.987158 0.004052 8.892531 0.003349 -9.722180 0.502059 -72.697293 
0.7630000000000000 0.980845 -179.058705 0.004000 6.544617 0.003341 -12.771827 0.501784 -72.775066 
0.7633750000000000 0.980018 -178.965119 0.003966 3.236196 0.003308 -13.696735 0.501501 -72.998520 
0.7637500000000000 0.982256 -179.035132 0.003971 2.756744 0.003252 -15.284773 0.500509 -73.095303 
0.7641250000000001 0.982493 -179.060284 0.003951 2.991709 0.003323 -17.167260 0.500205 -73.197964 
0.7645000000000000 0.980854 -179.026622 0.003949 1.542929 0.003253 -18.900474 0.499380 -73.293711 
0.7648750000000000 0.980918 -179.019553 0.004000 0.508837 0.003247 -19.430111 0.499836 -73.473650 
0.7652500000000000 0.981944 -179.059758 0.003878 -1.440723 0.003349 -21.203839 0.499053 -73.567555 
0.7656250000000000 0.981119 -179.176606 0.003952 -3.029685 0.003236 -20.939176 0.498490 -73.712999 
0.7660000000000000 0.979889 -179.214833 0.003931 -1.876852 0.003229 -19.133314 0.497925 -73.924369 
0.7663750000000000 0.982468 -179.152817 0.003864 -4.086373 0.003203 -23.978516 0.497333 -73.970573 
0.7667500000000000 0.981952 -179.269907 0.003903 -3.403658 0.003183 -23.255221 0.497006 -74.051219 
0.7671250000000000 0.982575 -179.213420 0.003860 -7.728185 0.003207 -24.567178 0.496484 -74.224409 
0.7675000000000000 0.981509 -179.347968 0.003906 -8.127133 0.003229 -24.028424 0.496358 -74.341060 
0.7678750000000000 0.982325 -179.241702 0.003903 -9.098642 0.003100 -26.915833 0.495128 -74.535819 
0.7682500000000000 0.983392 -179.395449 0.003671 -8.792420 0.003162 -28.231412 0.495548 -74.545579 
0.7686250000000000 0.982995 -179.245777 0.003701 -10.212909 0.003152 -29.484180 0.495411 -74.749829 
0.7690000000000000 0.982304 -179.337815 0.003811 -11.929273 0.003102 -29.044553 0.494440 -74.799776 
0.7693750000000000 0.982166 -179.426741 0.003760 -12.362323 0.003166 -31.162786 0.493779 -74.947685 
0.7697500000000001 0.983322 -179.448754 0.003768 -15.016183 0.003132 -32.556492 0.493809 -74.948604 
0.7701250000000000 0.983795 -179.548554 0.003780 -16.103007 0.003030 -33.478158 0.493825 -75.216605 
0.7705000000000000 0.980981 -179.597168 0.003730 -14.099756 0.002887 -33.789142 0.492259 -75.252999 
0.7708750000000000 0.984102 -179.538033 0.003775 -16.358913 0.003151 -35.039079 0.491585 -75.412497 
0.7712500000000000 0.981711 -179.622403 0.003654 -15.215938 0.003081 -37.780102 0.492271 -75.543351 
0.7716250000000000 0.983418 -179.633727 0.003612 -20.564680 0.002996 -38.831085 0.490753 -75.718342 
0.7720000000000000 0.983470 -179.729756 0.003610 -22.854304 0.003000 -39.992109 0.491432 -75.782540 
0.7723750000000000 0.982978 -179.782985 0.003540 -22.137890 0.002912 -39.556600 0.491252 -75.938728 
