!
! C:\Users\rflab\Downloads\Lab5_KD_ZW\Q2\728 MHz\80.S2P
!
! Touchstone 1.1 file saved by VNA.EXE V1.65 (www.ke5fx.com/gpib/readme.htm)
! 11/18/2024 9:13:15 PM
!
!    Source: HEWLETT PACKARD,8753D,0,6.14
!  Min freq: 7.000000E+008 Hz
!  Max freq: 1.000000E+009 Hz
!    Points: 801
!    Params: S11 S21 S12 S22
!
!!!!!
# GHZ S MA R 50
0.7000000000000000 0.814682 -165.593121 0.010785 -150.284026 0.010131 -168.986238 0.533891 -53.720277 
0.7003750000000000 0.820144 -165.823110 0.010816 -152.133457 0.010166 -171.002923 0.533573 -53.833365 
0.7007500000000000 0.823177 -166.047218 0.010686 -153.613313 0.009920 -171.850811 0.534180 -53.905238 
0.7011250000000000 0.827285 -166.218017 0.010603 -154.804087 0.009845 -174.162390 0.533531 -53.984194 
0.7015000000000000 0.830893 -166.478238 0.010453 -156.606479 0.009605 -175.507054 0.532980 -54.172098 
0.7018750000000000 0.834154 -166.769080 0.010223 -157.977752 0.009496 -176.914173 0.533128 -54.183617 
0.7022500000000000 0.837123 -166.872623 0.010028 -160.332983 0.009450 -179.288755 0.533025 -54.288815 
0.7026250000000001 0.840545 -167.157561 0.009881 -161.975129 0.009335 178.700373 0.532509 -54.366132 
0.7030000000000000 0.843740 -167.325988 0.009897 -163.574943 0.009089 178.701324 0.531579 -54.528856 
0.7033750000000000 0.847452 -167.585330 0.009740 -164.388652 0.009003 176.708567 0.532694 -54.569923 
0.7037500000000000 0.851667 -167.672949 0.009588 -166.189059 0.008886 174.670291 0.532798 -54.622168 
0.7041250000000000 0.853301 -167.843703 0.009565 -167.695179 0.008650 173.432054 0.531627 -54.726141 
0.7045000000000000 0.857542 -168.079839 0.009464 -168.129034 0.008677 171.804886 0.532202 -54.906510 
0.7048750000000000 0.859854 -168.237018 0.009378 -169.864268 0.008461 171.260221 0.532674 -54.954196 
0.7052500000000000 0.862641 -168.383180 0.009285 -171.877804 0.008344 169.066984 0.532113 -55.040286 
0.7056250000000000 0.865442 -168.668674 0.009076 -173.380557 0.008295 167.480124 0.532153 -55.183483 
0.7060000000000000 0.868399 -168.781680 0.009034 -174.842807 0.008128 165.978434 0.531847 -55.288631 
0.7063750000000000 0.870223 -168.899705 0.008999 -175.745888 0.007995 164.845591 0.530616 -55.312768 
0.7067500000000000 0.872437 -169.160951 0.008828 -177.157840 0.007995 163.645752 0.530864 -55.407336 
0.7071250000000000 0.875198 -169.366356 0.008773 -178.869432 0.007921 163.016965 0.531493 -55.506045 
0.7075000000000000 0.877482 -169.414622 0.008606 179.219045 0.007726 160.246509 0.530560 -55.588733 
0.7078750000000000 0.879654 -169.501720 0.008648 178.319126 0.007631 158.607492 0.530659 -55.695796 
0.7082500000000001 0.882560 -169.593086 0.008435 177.080337 0.007629 156.774373 0.530015 -55.792050 
0.7086250000000000 0.882222 -169.802578 0.008430 175.571964 0.007494 155.968657 0.530752 -55.897843 
0.7090000000000000 0.886457 -169.976022 0.008362 174.525747 0.007391 154.624460 0.530155 -55.981542 
0.7093750000000000 0.887933 -170.116816 0.008211 172.276946 0.007384 153.558221 0.530156 -56.164495 
0.7097500000000000 0.887676 -170.305814 0.008170 171.075358 0.007210 152.601211 0.529403 -56.149619 
0.7101250000000000 0.891347 -170.322250 0.008014 171.069555 0.007158 151.423656 0.529513 -56.161566 
0.7105000000000000 0.891130 -170.498971 0.008058 169.966876 0.007173 149.870779 0.528775 -56.275081 
0.7108750000000000 0.894192 -170.654695 0.007946 167.235511 0.006943 148.067819 0.529970 -56.444450 
0.7112500000000001 0.895825 -170.790534 0.007794 165.385617 0.007046 146.604055 0.529557 -56.517811 
0.7116250000000000 0.896137 -170.813544 0.007682 164.970075 0.006862 145.895843 0.529851 -56.661401 
0.7120000000000000 0.899507 -170.997862 0.007689 163.340574 0.006859 143.827526 0.529061 -56.743504 
0.7123750000000000 0.900506 -171.169102 0.007633 162.356232 0.006735 142.492381 0.528441 -56.924812 
0.7127500000000000 0.901922 -171.171300 0.007673 161.071314 0.006641 141.603624 0.528888 -57.062760 
0.7131250000000000 0.902828 -171.384004 0.007296 159.248696 0.006529 140.796124 0.528522 -56.966003 
0.7135000000000000 0.903657 -171.528935 0.007458 157.479888 0.006638 138.696955 0.527856 -57.132222 
0.7138750000000000 0.904715 -171.577989 0.007294 156.943788 0.006493 137.293226 0.528307 -57.215055 
0.7142500000000001 0.908211 -171.719607 0.007261 154.718165 0.006467 136.168101 0.528016 -57.356097 
0.7146250000000000 0.908692 -171.968954 0.007159 154.132965 0.006336 134.679829 0.527905 -57.442694 
0.7150000000000000 0.909886 -172.041653 0.007159 152.376727 0.006272 132.084834 0.528055 -57.429511 
0.7153750000000000 0.912026 -172.021732 0.006963 151.357755 0.006275 130.543444 0.527687 -57.584722 
0.7157500000000000 0.912386 -172.307339 0.006994 150.601285 0.006195 130.309513 0.527525 -57.773620 
0.7161250000000000 0.914688 -172.411671 0.006949 148.548069 0.006126 128.023220 0.527037 -57.751959 
0.7165000000000000 0.914458 -172.579475 0.006818 147.630836 0.006092 128.623736 0.527593 -57.911364 
0.7168750000000000 0.916090 -172.623564 0.006726 146.247414 0.005980 126.722333 0.527696 -58.012180 
0.7172500000000001 0.918263 -172.763979 0.006750 144.474321 0.005957 126.021809 0.527774 -58.111207 
0.7176250000000000 0.919503 -172.850455 0.006598 142.496544 0.005869 123.019278 0.527014 -58.231657 
0.7180000000000000 0.919792 -172.982977 0.006544 141.657409 0.005932 122.520640 0.527630 -58.249644 
0.7183750000000000 0.922240 -173.051355 0.006572 140.308863 0.005803 121.285506 0.526505 -58.333972 
0.7187500000000000 0.924587 -173.046217 0.006384 139.569753 0.005626 118.880793 0.526436 -58.504781 
0.7191250000000000 0.924111 -173.259874 0.006271 138.483138 0.005571 117.508192 0.526447 -58.560039 
0.7195000000000000 0.926645 -173.415172 0.006172 136.111274 0.005458 117.381080 0.526628 -58.661563 
0.7198750000000000 0.928203 -173.403517 0.006273 137.039032 0.005489 116.703059 0.525654 -58.772112 
0.7202500000000000 0.928425 -173.549162 0.006312 135.026016 0.005430 115.320567 0.526493 -58.897268 
0.7206250000000000 0.928463 -173.629031 0.006139 133.072244 0.005455 113.105529 0.526042 -58.953014 
0.7210000000000000 0.930864 -173.762693 0.006159 133.346671 0.005361 112.026163 0.526042 -59.108066 
0.7213750000000000 0.931492 -173.789577 0.006117 129.688342 0.005220 110.653134 0.526509 -59.204256 
0.7217500000000000 0.932861 -173.919374 0.006040 130.055753 0.005271 108.791429 0.525417 -59.365557 
0.7221250000000000 0.934809 -173.928335 0.005931 127.251780 0.005113 108.886148 0.526530 -59.336951 
0.7225000000000000 0.935540 -173.966928 0.005982 128.174415 0.005145 106.778330 0.526057 -59.476313 
0.7228750000000001 0.935442 -174.060263 0.005842 126.108517 0.005053 105.988472 0.526326 -59.570673 
0.7232500000000000 0.936133 -174.233650 0.005861 124.378518 0.005056 104.357303 0.525239 -59.647711 
0.7236250000000000 0.937907 -174.237095 0.005692 123.796565 0.004895 103.091256 0.525807 -59.726329 
0.7240000000000000 0.937421 -174.271590 0.005582 122.136906 0.004852 103.263892 0.525405 -59.900944 
0.7243750000000000 0.938146 -174.429612 0.005740 120.361781 0.004975 100.942672 0.525407 -60.020245 
0.7247500000000000 0.938118 -174.564262 0.005630 119.277792 0.004872 99.708470 0.524532 -60.045900 
0.7251250000000000 0.940418 -174.543979 0.005382 119.793676 0.004739 98.307426 0.524403 -60.237752 
0.7255000000000000 0.940004 -174.612575 0.005447 116.828618 0.004828 98.750679 0.525287 -60.384762 
0.7258750000000001 0.942261 -174.700064 0.005446 116.333950 0.004762 95.559317 0.524530 -60.510235 
0.7262500000000000 0.941408 -174.818351 0.005399 114.074756 0.004713 94.770863 0.525122 -60.470294 
0.7266250000000000 0.941641 -174.868110 0.005317 115.275789 0.004747 95.160821 0.524971 -60.560419 
0.7270000000000000 0.942420 -174.838830 0.005279 111.218480 0.004472 92.426130 0.525071 -60.799516 
0.7273750000000000 0.944644 -174.951367 0.005347 110.996795 0.004424 92.152637 0.524764 -60.880023 
0.7277500000000000 0.942981 -175.128567 0.005232 110.428318 0.004649 90.214491 0.524526 -60.926620 
0.7281250000000000 0.945697 -175.201964 0.005072 108.853971 0.004407 89.218833 0.524432 -61.027655 
0.7285000000000000 0.946134 -175.152254 0.005076 109.131051 0.004485 86.644805 0.523526 -61.186429 
0.7288750000000001 0.945196 -175.344204 0.005158 107.572231 0.004436 86.360859 0.523801 -61.298158 
0.7292500000000000 0.944891 -175.253570 0.005122 106.017191 0.004341 85.410142 0.523299 -61.412745 
0.7296250000000000 0.947163 -175.339075 0.004987 102.656261 0.004310 84.495964 0.523236 -61.439412 
0.7300000000000000 0.947853 -175.464621 0.004940 102.804143 0.004264 83.837740 0.523535 -61.624371 
0.7303750000000000 0.949143 -175.603838 0.005111 101.715088 0.004177 82.528541 0.523671 -61.723439 
0.7307500000000000 0.948586 -175.656713 0.004832 100.695028 0.004244 81.262156 0.522995 -61.797515 
0.7311250000000000 0.950304 -175.653509 0.004909 98.402809 0.004253 77.973213 0.523201 -61.961126 
0.7315000000000000 0.951107 -175.745679 0.004869 95.727624 0.004134 78.286982 0.524156 -62.084698 
0.7318750000000001 0.951686 -175.873542 0.004923 97.346342 0.004034 75.719026 0.523440 -62.111242 
0.7322500000000000 0.953751 -175.937633 0.004809 93.957304 0.003995 74.586253 0.523772 -62.300234 
0.7326250000000000 0.953382 -175.939733 0.004605 93.755077 0.004111 75.713927 0.522293 -62.407832 
0.7330000000000000 0.953808 -176.099589 0.004747 92.936706 0.003991 73.774841 0.523121 -62.523078 
0.7333750000000000 0.955306 -176.127728 0.004652 89.809145 0.004073 74.001154 0.523154 -62.683084 
0.7337500000000000 0.955817 -176.162805 0.004582 91.115178 0.003847 71.262991 0.522013 -62.757848 
0.7341250000000000 0.956491 -176.161848 0.004564 88.437455 0.003903 71.422295 0.522732 -62.948775 
0.7345000000000000 0.957243 -176.256398 0.004634 87.363574 0.003926 67.111156 0.523028 -63.017819 
0.7348749999999999 0.957526 -176.166004 0.004381 87.020968 0.003892 68.126895 0.522261 -63.057636 
0.7352500000000000 0.957536 -176.381976 0.004459 83.852302 0.003766 67.768837 0.522199 -63.211825 
0.7356250000000000 0.958355 -176.476473 0.004423 83.885266 0.003889 65.512146 0.521732 -63.321043 
0.7360000000000000 0.959064 -176.325634 0.004414 81.611686 0.003789 67.060361 0.522155 -63.542776 
0.7363750000000000 0.960646 -176.390058 0.004430 82.780516 0.003694 62.424378 0.522021 -63.632684 
0.7367500000000000 0.959599 -176.575973 0.004511 80.542163 0.003696 60.890102 0.521713 -63.784176 
0.7371250000000000 0.960487 -176.604676 0.004152 79.666901 0.003722 61.249505 0.521169 -63.814552 
0.7375000000000000 0.960621 -176.532211 0.004333 78.630716 0.003647 62.650934 0.521708 -63.907092 
0.7378750000000000 0.961973 -176.526163 0.004285 76.934171 0.003476 57.610496 0.521318 -64.117456 
0.7382500000000000 0.961233 -176.592735 0.004126 76.826963 0.003553 57.898858 0.521381 -64.303365 
0.7386250000000000 0.962566 -176.793972 0.004241 76.104373 0.003537 56.502739 0.521260 -64.408589 
0.7390000000000000 0.962160 -176.836299 0.004125 75.920384 0.003478 54.789198 0.520663 -64.429237 
0.7393750000000000 0.961169 -176.720067 0.003966 72.056274 0.003479 54.987714 0.520703 -64.654464 
0.7397500000000000 0.964449 -176.742130 0.003973 71.786872 0.003431 55.894675 0.520763 -64.750441 
0.7401250000000000 0.963722 -176.736033 0.003846 70.834989 0.003369 52.262293 0.520189 -64.932345 
0.7405000000000001 0.962811 -176.925743 0.003920 69.609942 0.003438 52.094696 0.519544 -64.973349 
0.7408750000000000 0.963626 -176.971953 0.003783 68.224067 0.003368 49.168580 0.519597 -65.128257 
0.7412500000000000 0.962532 -177.033997 0.003869 66.185215 0.003221 47.516642 0.520176 -65.198564 
0.7416250000000000 0.964662 -177.044182 0.003917 66.262384 0.003294 46.325536 0.519864 -65.345604 
0.7420000000000000 0.964204 -177.079094 0.003943 63.775806 0.003278 46.131625 0.519070 -65.472132 
0.7423750000000000 0.962726 -177.165530 0.003860 66.921746 0.003352 45.152725 0.519603 -65.595029 
0.7427500000000000 0.964550 -177.032946 0.003721 60.853408 0.003439 42.400629 0.519477 -65.666355 
0.7431250000000000 0.965140 -177.201649 0.003841 61.037616 0.003248 42.730079 0.518233 -65.848411 
0.7435000000000001 0.966040 -177.222378 0.003850 61.019147 0.003188 41.716812 0.518107 -65.945681 
0.7438750000000000 0.966119 -177.353060 0.003724 60.237375 0.003239 39.974579 0.518051 -66.109139 
0.7442500000000000 0.965851 -177.305205 0.003736 58.429150 0.003162 39.078772 0.518675 -66.287043 
0.7446250000000000 0.967487 -177.400228 0.003545 56.600655 0.003055 38.821840 0.518487 -66.384721 
0.7450000000000000 0.965912 -177.305375 0.003563 56.902205 0.003040 37.399258 0.517665 -66.466549 
0.7453750000000000 0.968219 -177.402194 0.003631 53.911212 0.003084 35.367243 0.517951 -66.631198 
0.7457500000000000 0.966234 -177.523653 0.003646 53.889986 0.003119 33.086294 0.517316 -66.700217 
0.7461250000000000 0.968724 -177.544474 0.003539 52.494006 0.003062 34.045232 0.516735 -66.893385 
0.7465000000000001 0.970568 -177.614056 0.003527 53.454667 0.003039 30.782583 0.517642 -67.071963 
0.7468750000000000 0.968967 -177.631785 0.003598 50.454964 0.003065 32.194334 0.516080 -67.230282 
0.7472500000000000 0.969196 -177.654012 0.003446 50.150273 0.002980 31.012504 0.516137 -67.302741 
0.7476250000000000 0.969418 -177.687042 0.003443 50.371706 0.003062 29.910895 0.516793 -67.498036 
0.7480000000000000 0.969514 -177.817226 0.003512 48.327372 0.002925 28.639158 0.515922 -67.527691 
0.7483750000000000 0.971384 -177.853854 0.003513 46.014642 0.002836 28.775768 0.515400 -67.731136 
0.7487500000000000 0.971186 -177.878637 0.003374 44.344351 0.002919 26.927078 0.514595 -67.815593 
0.7491250000000000 0.974347 -177.806506 0.003524 43.259146 0.002883 26.473950 0.514361 -67.970077 
0.7495000000000001 0.973146 -177.868529 0.003429 43.915251 0.002903 23.369117 0.514120 -68.109543 
0.7498750000000000 0.973689 -177.880499 0.003476 42.676293 0.002949 22.694693 0.513581 -68.195429 
0.7502500000000000 0.971945 -177.934301 0.003344 41.954414 0.002835 22.562423 0.513424 -68.349738 
0.7506250000000000 0.973447 -177.876377 0.003385 41.233744 0.002784 19.128440 0.513669 -68.539936 
0.7510000000000000 0.973873 -177.977918 0.003204 38.485327 0.002705 20.447867 0.513601 -68.624694 
0.7513750000000000 0.975326 -177.898411 0.003380 36.492404 0.002771 20.029004 0.513494 -68.711410 
0.7517500000000000 0.974553 -177.964966 0.003243 38.414405 0.002838 17.250103 0.512591 -68.877016 
0.7521250000000000 0.973509 -177.973567 0.003243 36.081268 0.002698 17.643989 0.513259 -69.015316 
0.7525000000000000 0.973040 -178.044511 0.003132 34.528282 0.002700 13.977952 0.511320 -69.133369 
0.7528750000000000 0.973991 -178.089532 0.003180 33.314733 0.002726 13.190302 0.511517 -69.335530 
0.7532500000000000 0.974164 -178.107830 0.003323 31.340912 0.002729 12.789720 0.510816 -69.437550 
0.7536250000000000 0.975337 -178.196203 0.003064 29.243845 0.002681 12.651243 0.510869 -69.480013 
0.7540000000000000 0.975970 -178.046799 0.003106 28.295987 0.002663 9.772653 0.509732 -69.724999 
0.7543750000000000 0.974685 -178.159099 0.003098 28.048363 0.002623 9.747462 0.509842 -69.780731 
0.7547500000000000 0.975655 -178.171689 0.002988 26.381048 0.002594 8.019141 0.509997 -69.962407 
0.7551250000000001 0.974593 -178.216366 0.003135 28.272127 0.002525 6.297166 0.509528 -70.107485 
0.7555000000000000 0.976823 -178.274163 0.003029 26.361377 0.002596 7.021883 0.509156 -70.132490 
0.7558750000000000 0.975579 -178.318582 0.002988 23.991743 0.002581 3.693686 0.508738 -70.334616 
0.7562500000000000 0.975172 -178.278416 0.002952 20.882667 0.002529 3.862219 0.508121 -70.488762 
0.7566250000000000 0.976241 -178.337642 0.003028 24.306542 0.002627 4.059118 0.508216 -70.561874 
0.7570000000000000 0.974700 -178.367316 0.002934 22.512062 0.002550 -1.368901 0.506957 -70.727367 
0.7573750000000000 0.975732 -178.379800 0.002908 22.206148 0.002607 1.606266 0.507438 -70.812072 
0.7577500000000000 0.974547 -178.431677 0.002996 18.264840 0.002614 1.275408 0.507141 -70.982823 
0.7581250000000001 0.977370 -178.536427 0.002993 17.320819 0.002563 -1.212865 0.506873 -71.070883 
0.7585000000000000 0.976918 -178.593043 0.002992 18.238569 0.002436 -3.746362 0.506289 -71.146766 
0.7588750000000000 0.975290 -178.544067 0.002935 15.622889 0.002482 -6.197978 0.505827 -71.300515 
0.7592500000000000 0.977528 -178.593921 0.002947 16.301373 0.002507 -2.387077 0.504761 -71.475223 
0.7596250000000000 0.976982 -178.739932 0.002944 13.639022 0.002401 -5.386266 0.504567 -71.606695 
0.7600000000000000 0.976743 -178.725299 0.002961 14.639313 0.002320 -11.112471 0.504271 -71.774488 
0.7603750000000000 0.977474 -178.729831 0.002913 10.954441 0.002408 -8.440581 0.503588 -71.821981 
0.7607500000000000 0.978673 -178.788574 0.002915 9.929644 0.002405 -11.686399 0.503768 -71.949214 
0.7611250000000001 0.978025 -178.726970 0.002866 11.235174 0.002463 -12.806722 0.503200 -71.979310 
0.7615000000000000 0.977709 -178.930479 0.002839 8.612253 0.002385 -12.144953 0.502160 -72.233434 
0.7618750000000000 0.979540 -178.932478 0.002814 6.915758 0.002433 -14.179208 0.501730 -72.364060 
0.7622500000000000 0.980682 -178.990786 0.002804 6.606789 0.002391 -12.086378 0.501815 -72.495073 
0.7626250000000000 0.981124 -178.941332 0.002787 6.765094 0.002356 -12.975280 0.501601 -72.549490 
0.7630000000000000 0.980597 -179.072734 0.002713 5.546768 0.002363 -17.490753 0.501053 -72.679702 
0.7633750000000000 0.980867 -178.983845 0.002848 0.877687 0.002455 -17.099458 0.500360 -72.852563 
0.7637500000000000 0.981525 -179.030850 0.002665 1.622658 0.002399 -16.887374 0.500161 -72.962555 
0.7641250000000001 0.982205 -178.999473 0.002836 0.052984 0.002311 -19.398559 0.498868 -73.052656 
0.7645000000000000 0.981484 -178.963102 0.002789 -0.991940 0.002245 -21.540453 0.499719 -73.104355 
0.7648750000000000 0.982362 -179.092202 0.002727 -3.132863 0.002257 -19.247623 0.498670 -73.346098 
0.7652500000000000 0.982055 -179.099041 0.002745 -3.407952 0.002312 -22.514646 0.498591 -73.475088 
0.7656250000000000 0.981787 -179.191415 0.002718 -5.870115 0.002204 -23.076540 0.497700 -73.598569 
0.7660000000000000 0.980384 -179.186690 0.002693 -2.323962 0.002335 -23.563540 0.498128 -73.843421 
0.7663750000000000 0.981283 -179.262281 0.002679 -6.186203 0.002314 -26.158457 0.496455 -73.864472 
0.7667500000000000 0.982615 -179.313110 0.002699 -7.471559 0.002105 -27.582264 0.496650 -73.977225 
0.7671250000000000 0.982263 -179.245215 0.002687 -7.774210 0.002262 -29.812671 0.496721 -74.012536 
0.7675000000000000 0.982370 -179.316499 0.002789 -7.953796 0.002189 -26.701773 0.495613 -74.269287 
0.7678750000000000 0.983288 -179.302910 0.002702 -10.969355 0.002154 -30.373318 0.495862 -74.310355 
0.7682500000000000 0.983587 -179.331568 0.002568 -11.672398 0.002060 -32.528653 0.494939 -74.456412 
0.7686250000000000 0.983228 -179.299310 0.002561 -14.128744 0.002267 -29.671253 0.494524 -74.630142 
0.7690000000000000 0.982791 -179.348819 0.002912 -14.413375 0.002263 -32.058493 0.493974 -74.675029 
0.7693750000000000 0.982290 -179.416132 0.002470 -14.926964 0.002197 -32.546073 0.493862 -74.843936 
0.7697500000000001 0.982530 -179.441191 0.002650 -18.638700 0.002134 -37.313893 0.493560 -74.838091 
0.7701250000000000 0.983497 -179.502190 0.002574 -17.359880 0.002077 -36.922200 0.493053 -75.167268 
0.7705000000000000 0.981471 -179.586679 0.002556 -20.739608 0.002152 -35.486924 0.491962 -75.078423 
0.7708750000000000 0.983848 -179.616114 0.002673 -19.586285 0.002154 -39.401540 0.491759 -75.292816 
0.7712500000000000 0.983053 -179.630034 0.002658 -19.960491 0.002104 -39.193834 0.491649 -75.355635 
0.7716250000000000 0.983909 -179.616138 0.002538 -23.920670 0.001980 -41.137403 0.491084 -75.481885 
0.7720000000000000 0.983715 -179.729823 0.002585 -24.349051 0.002268 -42.720455 0.491296 -75.657325 
0.7723750000000000 0.984017 -179.761891 0.002568 -21.196788 0.002040 -41.142317 0.490914 -75.759881 
