!
! C:\Users\rflab\Downloads\Lab5_KD_ZW\Q2\728 MHz\90.S2P
!
! Touchstone 1.1 file saved by VNA.EXE V1.65 (www.ke5fx.com/gpib/readme.htm)
! 11/18/2024 9:14:15 PM
!
!    Source: HEWLETT PACKARD,8753D,0,6.14
!  Min freq: 7.000000E+008 Hz
!  Max freq: 1.000000E+009 Hz
!    Points: 801
!    Params: S11 S21 S12 S22
!
!!!!!
# GHZ S MA R 50
0.7000000000000000 0.815160 -165.548598 0.008991 -147.983020 0.008407 -165.937750 0.533598 -53.652442 
0.7003750000000000 0.819848 -165.817886 0.008722 -149.238241 0.008256 -167.810019 0.533116 -53.728353 
0.7007500000000000 0.823813 -165.975082 0.008672 -150.978444 0.008199 -169.769067 0.533361 -53.942503 
0.7011250000000000 0.826128 -166.172174 0.008732 -153.016576 0.008057 -171.213359 0.533410 -53.990943 
0.7015000000000000 0.830817 -166.463993 0.008520 -154.093162 0.007834 -171.765833 0.533669 -54.092107 
0.7018750000000000 0.834069 -166.629838 0.008375 -155.044402 0.007790 -174.263234 0.532084 -54.142961 
0.7022500000000000 0.837408 -166.825719 0.008378 -157.190233 0.007584 -175.131056 0.532834 -54.278071 
0.7026250000000001 0.840469 -167.049668 0.008134 -158.686363 0.007564 -176.700561 0.533154 -54.258357 
0.7030000000000000 0.843432 -167.249031 0.007976 -159.427518 0.007388 -178.831389 0.531380 -54.456966 
0.7033750000000000 0.846498 -167.494939 0.007922 -162.221564 0.007399 179.047251 0.532150 -54.431381 
0.7037500000000000 0.850366 -167.611698 0.007868 -162.549028 0.007232 177.086288 0.533010 -54.590072 
0.7041250000000000 0.853416 -167.866322 0.007860 -164.647632 0.007178 176.648735 0.532651 -54.695485 
0.7045000000000000 0.856679 -168.017578 0.007548 -166.243807 0.007019 174.581806 0.532296 -54.829291 
0.7048750000000000 0.858197 -168.188992 0.007697 -167.229404 0.006804 172.740507 0.532324 -54.887690 
0.7052500000000000 0.861626 -168.348596 0.007534 -168.222835 0.006791 171.386278 0.532216 -55.076071 
0.7056250000000000 0.864749 -168.589348 0.007411 -169.819462 0.006698 170.009624 0.531474 -55.104473 
0.7060000000000000 0.868004 -168.747744 0.007357 -172.244868 0.006601 167.930250 0.531622 -55.219764 
0.7063750000000000 0.870772 -168.861766 0.007299 -172.907021 0.006556 167.043332 0.531052 -55.285269 
0.7067500000000000 0.871396 -169.049753 0.007091 -175.340665 0.006493 165.630051 0.530670 -55.396954 
0.7071250000000000 0.874747 -169.242821 0.007115 -176.015055 0.006338 163.612287 0.531028 -55.439586 
0.7075000000000000 0.877212 -169.313978 0.007037 -176.962316 0.006211 163.293590 0.530956 -55.538118 
0.7078750000000000 0.878616 -169.517508 0.006900 -179.263499 0.006197 162.440583 0.530289 -55.596593 
0.7082500000000001 0.881224 -169.560982 0.006891 179.845369 0.006210 159.527119 0.530624 -55.800865 
0.7086250000000000 0.882204 -169.741953 0.006816 177.903085 0.006075 158.095038 0.531141 -55.906366 
0.7090000000000000 0.885335 -169.842834 0.006769 177.892795 0.005985 156.447741 0.530266 -55.957828 
0.7093750000000000 0.887482 -170.031737 0.006647 175.371012 0.006027 155.392491 0.530346 -56.051152 
0.7097500000000000 0.887604 -170.193091 0.006693 173.906388 0.005880 155.003881 0.529838 -56.061887 
0.7101250000000000 0.889757 -170.244975 0.006531 173.059707 0.005791 153.651219 0.530089 -56.139768 
0.7105000000000000 0.891262 -170.424793 0.006653 171.901842 0.005671 151.901721 0.529985 -56.263272 
0.7108750000000000 0.894573 -170.627010 0.006415 170.629394 0.005594 150.899621 0.529970 -56.456339 
0.7112500000000001 0.895328 -170.694356 0.006222 168.410633 0.005688 150.236051 0.529649 -56.484813 
0.7116250000000000 0.895743 -170.773873 0.006399 166.083874 0.005605 148.761643 0.529323 -56.592113 
0.7120000000000000 0.897994 -171.010166 0.006218 165.622750 0.005573 146.240597 0.529822 -56.738303 
0.7123750000000000 0.900955 -171.087103 0.006370 164.322072 0.005540 144.994040 0.529120 -56.854364 
0.7127500000000000 0.901296 -171.149409 0.006073 163.398997 0.005333 143.929310 0.529251 -57.056737 
0.7131250000000000 0.901940 -171.316629 0.006051 161.667131 0.005359 142.297599 0.528541 -56.908180 
0.7135000000000000 0.903543 -171.394787 0.006053 160.810707 0.005381 141.125705 0.528579 -57.096225 
0.7138750000000000 0.905773 -171.443463 0.005988 160.149433 0.005310 139.809407 0.528447 -57.118446 
0.7142500000000001 0.908679 -171.677227 0.005934 157.315859 0.005266 139.373383 0.528953 -57.283637 
0.7146250000000000 0.907077 -171.810470 0.005783 156.543060 0.005287 136.741461 0.527655 -57.417485 
0.7150000000000000 0.910454 -172.007871 0.005739 153.512664 0.005070 133.719607 0.528357 -57.415096 
0.7153750000000000 0.911585 -171.998476 0.005708 153.143853 0.005079 133.955752 0.527537 -57.554737 
0.7157500000000000 0.911610 -172.238809 0.005613 152.384512 0.005004 132.466511 0.528090 -57.726127 
0.7161250000000000 0.914116 -172.333563 0.005575 149.782187 0.004968 130.523761 0.527090 -57.724211 
0.7165000000000000 0.914220 -172.400051 0.005578 148.785088 0.004818 128.960456 0.528182 -57.865483 
0.7168750000000000 0.916029 -172.534519 0.005447 148.617750 0.004790 128.799207 0.528145 -57.984085 
0.7172500000000001 0.917640 -172.647623 0.005355 145.649129 0.004858 127.053786 0.528149 -58.027254 
0.7176250000000000 0.919193 -172.790519 0.005351 147.481032 0.004734 125.803341 0.527661 -58.212744 
0.7180000000000000 0.920723 -172.978629 0.005459 144.149047 0.004751 124.600037 0.527385 -58.279988 
0.7183750000000000 0.921254 -172.990335 0.005187 140.682055 0.004563 122.364644 0.526605 -58.328979 
0.7187500000000000 0.923730 -173.013039 0.005219 141.367173 0.004629 121.960339 0.527028 -58.431403 
0.7191250000000000 0.922615 -173.111466 0.005134 139.187746 0.004551 120.598259 0.527088 -58.598737 
0.7195000000000000 0.925869 -173.272729 0.004974 138.445377 0.004532 119.312269 0.526812 -58.654294 
0.7198750000000000 0.926307 -173.431761 0.005019 135.459957 0.004471 118.464640 0.526637 -58.813603 
0.7202500000000000 0.927371 -173.454507 0.005102 135.143884 0.004388 116.106955 0.527117 -58.868419 
0.7206250000000000 0.928305 -173.514204 0.004986 136.612118 0.004298 114.312965 0.526298 -58.977561 
0.7210000000000000 0.929543 -173.575887 0.004921 133.692604 0.004336 113.929211 0.526581 -59.081235 
0.7213750000000000 0.930124 -173.799313 0.004940 133.406309 0.004210 114.281746 0.526782 -59.206450 
0.7217500000000000 0.931648 -173.805719 0.004755 130.868644 0.004257 110.756222 0.526371 -59.392299 
0.7221250000000000 0.934026 -173.990994 0.004946 128.794816 0.004112 110.579375 0.527110 -59.308743 
0.7225000000000000 0.933864 -173.907103 0.004777 130.005118 0.004226 110.663129 0.527257 -59.568592 
0.7228750000000001 0.934256 -174.000007 0.004671 127.620296 0.004146 108.963197 0.526174 -59.506993 
0.7232500000000000 0.934957 -174.166216 0.004676 125.391972 0.004089 106.673650 0.525575 -59.703813 
0.7236250000000000 0.936420 -174.171611 0.004630 126.889369 0.003989 106.567715 0.526381 -59.797362 
0.7240000000000000 0.937834 -174.206665 0.004545 123.014788 0.003947 103.955669 0.526066 -59.869650 
0.7243750000000000 0.937536 -174.351018 0.004497 120.795479 0.003998 104.654519 0.526248 -60.007845 
0.7247500000000000 0.938050 -174.451513 0.004423 121.316532 0.003879 101.233970 0.525805 -60.118178 
0.7251250000000000 0.939176 -174.323493 0.004442 121.634705 0.003874 100.686809 0.525694 -60.253060 
0.7255000000000000 0.939142 -174.536544 0.004393 119.278124 0.003704 97.731116 0.525857 -60.309148 
0.7258750000000001 0.941170 -174.611805 0.004463 118.088686 0.003732 97.336104 0.524989 -60.550077 
0.7262500000000000 0.941189 -174.679088 0.004356 116.834338 0.003793 98.300709 0.525871 -60.535562 
0.7266250000000000 0.940138 -174.766506 0.004256 114.737485 0.003702 94.509633 0.525494 -60.581164 
0.7270000000000000 0.942033 -174.851616 0.004240 115.658776 0.003661 94.246732 0.525459 -60.785089 
0.7273750000000000 0.943097 -174.961677 0.004172 112.684845 0.003683 93.106172 0.525532 -60.873333 
0.7277500000000000 0.942986 -174.953638 0.004293 109.608231 0.003701 92.118911 0.525117 -61.023342 
0.7281250000000000 0.945244 -175.088269 0.004342 112.646719 0.003666 90.640857 0.525109 -61.079934 
0.7285000000000000 0.944879 -175.086368 0.004142 112.869482 0.003647 90.134849 0.524544 -61.281795 
0.7288750000000001 0.945337 -175.196421 0.004030 106.395662 0.003510 87.855277 0.524407 -61.323018 
0.7292500000000000 0.944805 -175.182567 0.004120 107.388450 0.003536 87.530759 0.524074 -61.508299 
0.7296250000000000 0.947329 -175.306561 0.004016 106.854645 0.003472 86.468828 0.524049 -61.548515 
0.7300000000000000 0.946463 -175.450534 0.003980 104.420013 0.003389 83.402491 0.524679 -61.729720 
0.7303750000000000 0.946995 -175.512362 0.004109 101.744152 0.003435 84.827528 0.524471 -61.743954 
0.7307500000000000 0.947783 -175.471686 0.003811 102.498867 0.003447 81.672620 0.524145 -61.838424 
0.7311250000000000 0.950431 -175.698372 0.003837 101.612920 0.003386 79.874482 0.524151 -62.042902 
0.7315000000000000 0.950906 -175.759530 0.003930 98.941725 0.003234 78.811832 0.524343 -62.103075 
0.7318750000000001 0.950740 -175.795668 0.003908 98.720913 0.003217 79.020652 0.523923 -62.154253 
0.7322500000000000 0.952808 -175.856331 0.003755 97.412902 0.003422 77.385040 0.523768 -62.322626 
0.7326250000000000 0.953595 -175.966378 0.003699 95.844711 0.003257 77.407489 0.523489 -62.525213 
0.7330000000000000 0.953474 -176.017341 0.003611 94.707719 0.003177 74.836511 0.524096 -62.578498 
0.7333750000000000 0.953136 -176.045348 0.003656 93.574703 0.003010 75.691873 0.523996 -62.723102 
0.7337500000000000 0.954854 -176.041459 0.003714 92.038319 0.003184 73.559624 0.522646 -62.842459 
0.7341250000000000 0.955708 -176.096353 0.003664 90.007457 0.003195 71.227070 0.523164 -63.017928 
0.7345000000000000 0.956686 -176.206593 0.003650 91.197621 0.003073 69.289944 0.523473 -63.098844 
0.7348749999999999 0.955573 -176.161825 0.003570 87.948314 0.003030 69.212344 0.522680 -63.129749 
0.7352500000000000 0.958068 -176.285232 0.003484 87.736964 0.003017 66.707459 0.522633 -63.325730 
0.7356250000000000 0.956521 -176.301200 0.003462 86.889542 0.003064 66.359392 0.521649 -63.496408 
0.7360000000000000 0.959490 -176.327269 0.003492 84.444318 0.002940 65.637949 0.522935 -63.626355 
0.7363750000000000 0.959055 -176.449823 0.003493 85.575795 0.003011 65.728397 0.522719 -63.704219 
0.7367500000000000 0.958101 -176.545019 0.003353 83.376332 0.002913 61.878409 0.522467 -63.828583 
0.7371250000000000 0.959292 -176.516444 0.003411 80.510035 0.002898 62.355419 0.521220 -63.955546 
0.7375000000000000 0.960041 -176.442525 0.003559 81.696216 0.002870 59.579815 0.522393 -64.089106 
0.7378750000000000 0.961914 -176.405751 0.003382 77.340213 0.002796 59.275862 0.521567 -64.153113 
0.7382500000000000 0.961245 -176.519886 0.003265 80.235084 0.002813 59.896681 0.521585 -64.388487 
0.7386250000000000 0.961663 -176.590618 0.003297 74.862270 0.002899 58.086540 0.521364 -64.540401 
0.7390000000000000 0.962066 -176.741332 0.003199 79.230292 0.002736 56.470586 0.522035 -64.627383 
0.7393750000000000 0.960064 -176.661560 0.003220 72.649011 0.002762 55.556937 0.520685 -64.768675 
0.7397500000000000 0.961889 -176.609628 0.003252 73.882099 0.002705 54.076590 0.520888 -64.823713 
0.7401250000000000 0.962445 -176.728061 0.002971 73.190660 0.002799 56.507562 0.521190 -64.950478 
0.7405000000000001 0.961420 -176.713637 0.003127 71.547092 0.002681 51.901135 0.520268 -65.184718 
0.7408750000000000 0.962268 -176.785698 0.003150 72.193060 0.002629 52.538812 0.520159 -65.234723 
0.7412500000000000 0.962370 -176.873384 0.003051 69.084969 0.002657 52.855539 0.520573 -65.296411 
0.7416250000000000 0.963581 -176.953640 0.003140 66.124528 0.002659 46.634927 0.519167 -65.432571 
0.7420000000000000 0.964158 -176.991788 0.003031 67.736561 0.002697 48.522507 0.519676 -65.569132 
0.7423750000000000 0.961339 -176.931957 0.003176 66.543292 0.002609 46.362693 0.519198 -65.726345 
0.7427500000000000 0.964325 -177.010466 0.003218 66.713890 0.002620 44.815674 0.518961 -65.858589 
0.7431250000000000 0.964893 -177.131984 0.002984 63.713370 0.002566 45.357557 0.518810 -65.995076 
0.7435000000000001 0.964525 -177.207121 0.003080 63.083872 0.002572 41.716012 0.518146 -66.076916 
0.7438750000000000 0.965337 -177.260249 0.003046 62.462219 0.002586 42.545488 0.518277 -66.252980 
0.7442500000000000 0.963793 -177.204999 0.003031 60.046584 0.002549 40.854164 0.517915 -66.445438 
0.7446250000000000 0.966202 -177.404012 0.003166 60.158795 0.002526 39.331270 0.518457 -66.493634 
0.7450000000000000 0.966199 -177.251825 0.002818 60.246102 0.002486 37.996441 0.517330 -66.645638 
0.7453750000000000 0.967311 -177.312896 0.002802 57.927428 0.002551 37.557497 0.517941 -66.770374 
0.7457500000000000 0.967430 -177.476060 0.002924 55.707508 0.002429 36.667442 0.517320 -66.836474 
0.7461250000000000 0.968411 -177.554524 0.002863 55.457809 0.002372 35.867344 0.516845 -66.968435 
0.7465000000000001 0.968294 -177.546999 0.002808 52.475304 0.002454 34.343944 0.517394 -67.232740 
0.7468750000000000 0.969241 -177.506059 0.002816 56.027385 0.002503 31.129911 0.517327 -67.302914 
0.7472500000000000 0.969336 -177.629075 0.002856 49.774875 0.002334 31.894656 0.515935 -67.374142 
0.7476250000000000 0.968660 -177.547926 0.002727 51.200153 0.002484 29.952960 0.515997 -67.641059 
0.7480000000000000 0.969989 -177.569329 0.002852 49.261553 0.002384 29.000342 0.515691 -67.634438 
0.7483750000000000 0.971516 -177.656015 0.002747 46.044449 0.002320 26.164807 0.514931 -67.786837 
0.7487500000000000 0.971560 -177.771395 0.002781 47.063512 0.002340 26.773926 0.515074 -68.009475 
0.7491250000000000 0.971955 -177.729091 0.002609 44.441020 0.002324 26.413893 0.514517 -68.054073 
0.7495000000000001 0.971682 -177.771675 0.002663 44.829505 0.002352 24.729290 0.513575 -68.224515 
0.7498750000000000 0.971537 -177.807362 0.002598 42.121256 0.002091 22.495255 0.513769 -68.317408 
0.7502500000000000 0.972110 -177.866255 0.002681 42.015234 0.002229 22.541831 0.513213 -68.483294 
0.7506250000000000 0.971907 -177.800997 0.002627 39.760962 0.002289 20.798034 0.513003 -68.664430 
0.7510000000000000 0.974091 -177.920892 0.002526 42.033230 0.002190 24.277231 0.513492 -68.758835 
0.7513750000000000 0.974785 -177.789543 0.002452 39.355842 0.002247 22.060440 0.512237 -68.799514 
0.7517500000000000 0.973346 -177.940871 0.002652 37.491176 0.002031 17.045128 0.511791 -69.014486 
0.7521250000000000 0.972056 -177.952537 0.002440 34.098466 0.002336 15.844194 0.511980 -69.073810 
0.7525000000000000 0.973027 -177.864671 0.002589 34.100595 0.002112 16.039112 0.511564 -69.311940 
0.7528750000000000 0.973067 -177.897126 0.002548 34.197079 0.002019 18.108648 0.511766 -69.397170 
0.7532500000000000 0.974043 -177.999826 0.002584 32.945318 0.002149 13.371898 0.510161 -69.644129 
0.7536250000000000 0.973987 -178.096709 0.002443 31.517020 0.002299 13.860429 0.509537 -69.665658 
0.7540000000000000 0.974294 -177.989565 0.002552 31.205219 0.002002 11.321977 0.509655 -69.758362 
0.7543750000000000 0.974104 -177.999951 0.002350 30.685576 0.002104 8.426727 0.509443 -69.862947 
0.7547500000000000 0.975581 -178.085474 0.002405 28.830589 0.002134 8.580456 0.509726 -70.046201 
0.7551250000000001 0.973721 -178.135715 0.002561 27.510870 0.002204 10.468114 0.508537 -70.275396 
0.7555000000000000 0.975232 -178.163720 0.002451 28.742784 0.002106 8.353894 0.508445 -70.253416 
0.7558750000000000 0.974703 -178.126825 0.002365 27.562269 0.002090 4.668130 0.508178 -70.439913 
0.7562500000000000 0.975396 -178.199899 0.002302 25.376089 0.002028 5.141988 0.507312 -70.478333 
0.7566250000000000 0.976170 -178.237168 0.002323 22.660790 0.001983 4.644930 0.506837 -70.682436 
0.7570000000000000 0.976232 -178.355545 0.002413 21.252130 0.001922 5.953563 0.505916 -70.792320 
0.7573750000000000 0.977847 -178.301017 0.002329 20.457519 0.002063 -1.900330 0.506441 -70.842264 
0.7577500000000000 0.974149 -178.369985 0.002332 21.037931 0.001984 -2.180232 0.506144 -71.013355 
0.7581250000000001 0.975696 -178.455038 0.002325 19.669839 0.001947 1.097929 0.506308 -71.151148 
0.7585000000000000 0.975749 -178.473048 0.002263 20.083681 0.001939 -3.729714 0.505296 -71.316653 
0.7588750000000000 0.974942 -178.504076 0.002331 15.156184 0.002010 -0.499423 0.504984 -71.388768 
0.7592500000000000 0.976573 -178.542397 0.002267 16.020303 0.002025 -3.762929 0.503785 -71.533222 
0.7596250000000000 0.977531 -178.586769 0.002444 13.497355 0.001955 -4.823702 0.503824 -71.629797 
0.7600000000000000 0.977655 -178.583370 0.002287 14.521610 0.001900 -7.535251 0.502747 -71.790516 
0.7603750000000000 0.977075 -178.657712 0.002200 12.236162 0.001833 -6.528686 0.502637 -71.918169 
0.7607500000000000 0.977743 -178.665785 0.002282 11.475434 0.001919 -7.583592 0.502382 -72.018514 
0.7611250000000001 0.978209 -178.723634 0.002209 8.390269 0.001847 -8.968586 0.502201 -72.048400 
0.7615000000000000 0.977870 -178.816194 0.002179 11.500473 0.001951 -11.860705 0.501574 -72.259583 
0.7618750000000000 0.976398 -178.835903 0.002220 6.795731 0.001859 -10.755946 0.501461 -72.368905 
0.7622500000000000 0.980113 -178.861729 0.002181 6.096718 0.001832 -12.452975 0.500403 -72.542999 
0.7626250000000000 0.980189 -178.818995 0.002117 5.547521 0.001825 -13.352709 0.500472 -72.669941 
0.7630000000000000 0.980512 -178.947805 0.002183 3.387765 0.001822 -14.705874 0.500557 -72.662023 
0.7633750000000000 0.981202 -178.891510 0.002104 8.009358 0.001745 -16.846592 0.499899 -73.000906 
0.7637500000000000 0.980995 -178.966150 0.002097 5.354822 0.001689 -18.648537 0.498899 -72.885155 
0.7641250000000001 0.981788 -178.966985 0.002104 -0.412333 0.001749 -17.389548 0.499040 -73.047714 
0.7645000000000000 0.981263 -178.891579 0.002177 2.224895 0.001815 -20.763520 0.498815 -73.157048 
0.7648750000000000 0.981434 -178.927411 0.002019 -1.326008 0.001777 -19.820861 0.497934 -73.372058 
0.7652500000000000 0.980381 -178.976206 0.002196 -0.870737 0.001670 -18.248711 0.497130 -73.498517 
0.7656250000000000 0.981344 -179.023543 0.002083 -1.708493 0.001755 -21.663017 0.496894 -73.615230 
0.7660000000000000 0.979552 -179.100308 0.001997 -1.782112 0.001741 -22.917369 0.496921 -73.729802 
0.7663750000000000 0.980966 -179.062387 0.002113 -3.399300 0.001661 -21.358965 0.496559 -73.911911 
0.7667500000000000 0.982508 -179.241843 0.002099 -5.609247 0.001737 -23.366925 0.495614 -73.997904 
0.7671250000000000 0.982780 -179.128175 0.002098 -4.167258 0.001720 -27.429765 0.495492 -74.059933 
0.7675000000000000 0.983253 -179.189063 0.002110 -7.241457 0.001833 -26.061084 0.495012 -74.216656 
0.7678750000000000 0.982143 -179.238001 0.002174 -11.376461 0.001688 -29.351576 0.494502 -74.361565 
0.7682500000000000 0.982629 -179.245496 0.002008 -9.068649 0.001778 -26.668997 0.494096 -74.385153 
0.7686250000000000 0.982527 -179.163547 0.001919 -12.861125 0.001640 -30.864450 0.494227 -74.595010 
0.7690000000000000 0.982254 -179.284374 0.001864 -11.039054 0.001756 -32.954225 0.493634 -74.565002 
0.7693750000000000 0.982241 -179.348454 0.002090 -10.338173 0.001593 -29.476861 0.493233 -74.721249 
0.7697500000000001 0.982139 -179.255802 0.002082 -14.210468 0.001632 -33.422460 0.492812 -74.928482 
0.7701250000000000 0.983523 -179.349303 0.002075 -15.284278 0.001704 -35.562150 0.491987 -75.053472 
0.7705000000000000 0.980864 -179.561466 0.001836 -17.579059 0.001632 -35.598009 0.491390 -75.149042 
0.7708750000000000 0.982523 -179.480341 0.001981 -16.339924 0.001666 -38.389051 0.491394 -75.244844 
0.7712500000000000 0.982715 -179.427061 0.001960 -20.329496 0.001663 -38.537313 0.491707 -75.456622 
0.7716250000000000 0.982826 -179.498292 0.002046 -21.182903 0.001614 -39.481872 0.490122 -75.474883 
0.7720000000000000 0.983847 -179.626778 0.001959 -19.569037 0.001582 -43.894589 0.490516 -75.567786 
0.7723750000000000 0.981581 -179.697171 0.001998 -23.687305 0.001718 -43.172242 0.490056 -75.734429 
