!
! C:\Users\rflab\Downloads\Lab5_KD_ZW\Q2\0.S1P
!
! Touchstone 1.1 file saved by VNA.EXE V1.65 (www.ke5fx.com/gpib/readme.htm)
! 11/12/2024 1:15:44 AM
!
!    Source: HEWLETT PACKARD,8753D,0,6.14
!  Min freq: 1.150000E+009 Hz
!  Max freq: 1.650000E+009 Hz
!    Points: 801
!    Params: S21
!
!!!!!
# GHZ S RI R 50
1.1499999999999999 -0.000135 0.000188 
1.1506250000000000 -0.000117 0.000200 
1.1512500000000001 -0.000091 0.000188 
1.1518750000000000 -0.000104 0.000217 
1.1525000000000001 -0.000062 0.000208 
1.1531250000000000 -0.000052 0.000208 
1.1537500000000001 -0.000042 0.000190 
1.1543749999999999 -0.000047 0.000194 
1.1550000000000000 -0.000043 0.000163 
1.1556249999999999 -0.000018 0.000170 
1.1562500000000000 -0.000029 0.000163 
1.1568750000000001 -0.000034 0.000161 
1.1575000000000000 -0.000041 0.000147 
1.1581250000000001 -0.000022 0.000140 
1.1587499999999999 -0.000046 0.000134 
1.1593750000000000 -0.000042 0.000163 
1.1599999999999999 -0.000035 0.000155 
1.1606250000000000 -0.000038 0.000143 
1.1612499999999999 -0.000044 0.000133 
1.1618750000000000 -0.000051 0.000141 
1.1625000000000001 -0.000073 0.000159 
1.1631250000000000 -0.000042 0.000167 
1.1637500000000001 -0.000026 0.000166 
1.1643749999999999 -0.000030 0.000176 
1.1650000000000000 -0.000002 0.000185 
1.1656249999999999 -0.000027 0.000184 
1.1662500000000000 0.000020 0.000183 
1.1668750000000001 0.000006 0.000172 
1.1675000000000000 0.000040 0.000191 
1.1681250000000001 0.000034 0.000156 
1.1687500000000000 0.000029 0.000149 
1.1693750000000001 0.000049 0.000157 
1.1699999999999999 0.000048 0.000141 
1.1706250000000000 0.000061 0.000136 
1.1712499999999999 0.000054 0.000118 
1.1718750000000000 0.000049 0.000116 
1.1725000000000001 0.000056 0.000118 
1.1731250000000000 0.000046 0.000106 
1.1737500000000001 0.000033 0.000110 
1.1743749999999999 0.000034 0.000127 
1.1750000000000000 0.000014 0.000123 
1.1756249999999999 0.000041 0.000114 
1.1762500000000000 0.000029 0.000128 
1.1768749999999999 0.000025 0.000131 
1.1775000000000000 0.000033 0.000133 
1.1781250000000001 0.000038 0.000143 
1.1787500000000000 0.000032 0.000152 
1.1793750000000001 0.000054 0.000138 
1.1799999999999999 0.000076 0.000141 
1.1806250000000000 0.000064 0.000158 
1.1812499999999999 0.000082 0.000128 
1.1818750000000000 0.000082 0.000148 
1.1825000000000001 0.000098 0.000126 
1.1831250000000000 0.000110 0.000112 
1.1837500000000001 0.000124 0.000105 
1.1843750000000000 0.000129 0.000098 
1.1850000000000001 0.000111 0.000084 
1.1856249999999999 0.000105 0.000082 
1.1862500000000000 0.000106 0.000069 
1.1868749999999999 0.000099 0.000054 
1.1875000000000000 0.000106 0.000056 
1.1881250000000001 0.000086 0.000052 
1.1887500000000000 0.000073 0.000054 
1.1893750000000001 0.000068 0.000039 
1.1899999999999999 0.000050 0.000055 
1.1906250000000000 0.000046 0.000048 
1.1912499999999999 0.000051 0.000068 
1.1918750000000000 0.000043 0.000074 
1.1924999999999999 0.000042 0.000081 
1.1931250000000000 0.000044 0.000095 
1.1937500000000001 0.000043 0.000102 
1.1943750000000000 0.000059 0.000122 
1.1950000000000001 0.000063 0.000137 
1.1956249999999999 0.000079 0.000118 
1.1962500000000000 0.000086 0.000120 
1.1968749999999999 0.000093 0.000133 
1.1975000000000000 0.000104 0.000142 
1.1981250000000001 0.000132 0.000128 
1.1987500000000000 0.000138 0.000115 
1.1993750000000001 0.000135 0.000095 
1.2000000000000000 0.000145 0.000094 
1.2006250000000001 0.000154 0.000108 
1.2012499999999999 0.000173 0.000083 
1.2018750000000000 0.000158 0.000070 
1.2024999999999999 0.000175 0.000083 
1.2031250000000000 0.000152 0.000053 
1.2037500000000001 0.000166 0.000039 
1.2043750000000000 0.000141 0.000053 
1.2050000000000001 0.000140 0.000054 
1.2056249999999999 0.000139 0.000053 
1.2062500000000000 0.000121 0.000048 
1.2068749999999999 0.000129 0.000054 
1.2075000000000000 0.000131 0.000045 
1.2081249999999999 0.000130 0.000072 
1.2087500000000000 0.000135 0.000079 
1.2093750000000001 0.000142 0.000070 
1.2100000000000000 0.000161 0.000083 
1.2106250000000001 0.000159 0.000087 
1.2112499999999999 0.000165 0.000097 
1.2118750000000000 0.000193 0.000082 
1.2124999999999999 0.000178 0.000065 
1.2131250000000000 0.000245 0.000062 
1.2137500000000001 0.000186 0.000056 
1.2143750000000000 0.000203 0.000035 
1.2150000000000001 0.000232 0.000020 
1.2156250000000000 0.000256 0.000009 
1.2162500000000001 0.000242 -0.000021 
1.2168749999999999 0.000253 -0.000026 
1.2175000000000000 0.000240 -0.000018 
1.2181249999999999 0.000218 -0.000045 
1.2187500000000000 0.000204 -0.000033 
1.2193750000000001 0.000199 -0.000055 
1.2200000000000000 0.000189 -0.000055 
1.2206250000000001 0.000169 -0.000056 
1.2212499999999999 0.000172 -0.000062 
1.2218750000000000 0.000176 -0.000049 
1.2224999999999999 0.000177 -0.000043 
1.2231250000000000 0.000193 -0.000044 
1.2237499999999999 0.000189 -0.000037 
1.2243750000000000 0.000196 -0.000031 
1.2250000000000001 0.000220 -0.000051 
1.2256250000000000 0.000217 -0.000037 
1.2262500000000001 0.000236 -0.000057 
1.2268749999999999 0.000263 -0.000069 
1.2275000000000000 0.000261 -0.000083 
1.2281249999999999 0.000270 -0.000099 
1.2287500000000000 0.000287 -0.000097 
1.2293750000000001 0.000288 -0.000125 
1.2300000000000000 0.000272 -0.000181 
1.2306250000000001 0.000283 -0.000159 
1.2312500000000000 0.000295 -0.000213 
1.2318750000000001 0.000239 -0.000249 
1.2324999999999999 0.000253 -0.000252 
1.2331250000000000 0.000239 -0.000233 
1.2337499999999999 0.000214 -0.000286 
1.2343750000000000 0.000208 -0.000254 
1.2350000000000001 0.000165 -0.000287 
1.2356250000000000 0.000161 -0.000257 
1.2362500000000001 0.000116 -0.000263 
1.2368749999999999 0.000103 -0.000257 
1.2375000000000000 0.000140 -0.000285 
1.2381249999999999 0.000133 -0.000269 
1.2387500000000000 0.000116 -0.000281 
1.2393749999999999 0.000135 -0.000251 
1.2400000000000000 0.000131 -0.000253 
1.2406250000000001 0.000112 -0.000272 
1.2412500000000000 0.000131 -0.000272 
1.2418750000000001 0.000155 -0.000298 
1.2424999999999999 0.000149 -0.000323 
1.2431250000000000 0.000139 -0.000333 
1.2437499999999999 0.000154 -0.000356 
1.2443750000000000 0.000159 -0.000402 
1.2450000000000001 0.000110 -0.000406 
1.2456250000000000 0.000128 -0.000418 
1.2462500000000001 0.000038 -0.000448 
1.2468750000000000 0.000031 -0.000475 
1.2475000000000001 -0.000012 -0.000498 
1.2481249999999999 -0.000084 -0.000517 
1.2487500000000000 -0.000124 -0.000494 
1.2493749999999999 -0.000149 -0.000500 
1.2500000000000000 -0.000175 -0.000443 
1.2506250000000001 -0.000256 -0.000479 
1.2512500000000000 -0.000237 -0.000450 
1.2518750000000001 -0.000289 -0.000388 
1.2524999999999999 -0.000304 -0.000362 
1.2531250000000000 -0.000289 -0.000340 
1.2537499999999999 -0.000319 -0.000281 
1.2543750000000000 -0.000291 -0.000230 
1.2549999999999999 -0.000281 -0.000232 
1.2556250000000000 -0.000288 -0.000191 
1.2562500000000001 -0.000256 -0.000202 
1.2568750000000000 -0.000238 -0.000182 
1.2575000000000001 -0.000219 -0.000191 
1.2581249999999999 -0.000210 -0.000211 
1.2587500000000000 -0.000223 -0.000219 
1.2593749999999999 -0.000196 -0.000258 
1.2600000000000000 -0.000230 -0.000269 
1.2606250000000001 -0.000271 -0.000303 
1.2612500000000000 -0.000272 -0.000301 
1.2618750000000001 -0.000315 -0.000288 
1.2625000000000000 -0.000373 -0.000296 
1.2631250000000001 -0.000381 -0.000291 
1.2637499999999999 -0.000460 -0.000239 
1.2643750000000000 -0.000497 -0.000258 
1.2649999999999999 -0.000540 -0.000176 
1.2656250000000000 -0.000549 -0.000135 
1.2662500000000001 -0.000530 -0.000052 
1.2668750000000000 -0.000549 -0.000013 
1.2675000000000001 -0.000537 0.000078 
1.2681249999999999 -0.000515 0.000120 
1.2687500000000000 -0.000452 0.000156 
1.2693749999999999 -0.000418 0.000175 
1.2700000000000000 -0.000344 0.000233 
1.2706249999999999 -0.000295 0.000224 
1.2712500000000000 -0.000224 0.000209 
1.2718750000000001 -0.000183 0.000181 
1.2725000000000000 -0.000135 0.000122 
1.2731250000000001 -0.000113 0.000070 
1.2737499999999999 -0.000100 -0.000001 
1.2743750000000000 -0.000124 -0.000066 
1.2749999999999999 -0.000172 -0.000127 
1.2756250000000000 -0.000252 -0.000192 
1.2762500000000001 -0.000331 -0.000209 
1.2768750000000000 -0.000444 -0.000201 
1.2775000000000001 -0.000530 -0.000162 
1.2781250000000000 -0.000663 -0.000103 
1.2787500000000001 -0.000705 -0.000007 
1.2793749999999999 -0.000777 0.000125 
1.2800000000000000 -0.000813 0.000324 
1.2806249999999999 -0.000793 0.000480 
1.2812500000000000 -0.000716 0.000632 
1.2818750000000001 -0.000561 0.000755 
1.2825000000000000 -0.000370 0.000871 
1.2831250000000001 -0.000172 0.000893 
1.2837499999999999 0.000058 0.000796 
1.2843750000000000 0.000248 0.000650 
1.2849999999999999 0.000331 0.000418 
1.2856250000000000 0.000310 0.000160 
1.2862499999999999 0.000200 -0.000025 
1.2868750000000000 0.000003 -0.000148 
1.2875000000000001 -0.000211 -0.000170 
1.2881250000000000 -0.000417 -0.000074 
1.2887500000000001 -0.000537 0.000036 
1.2893749999999999 -0.000644 0.000263 
1.2900000000000000 -0.000641 0.000430 
1.2906249999999999 -0.000568 0.000555 
1.2912500000000000 -0.000478 0.000744 
1.2918750000000001 -0.000374 0.000886 
1.2925000000000000 -0.000187 0.000940 
1.2931250000000001 -0.000051 0.000867 
1.2937500000000000 0.000092 0.000902 
1.2943750000000001 0.000293 0.000843 
1.2949999999999999 0.000363 0.000827 
1.2956250000000000 0.000468 0.000680 
1.2962499999999999 0.000535 0.000589 
1.2968750000000000 0.000555 0.000488 
1.2975000000000001 0.000604 0.000382 
1.2981250000000000 0.000555 0.000307 
1.2987500000000001 0.000541 0.000230 
1.2993749999999999 0.000492 0.000177 
1.3000000000000000 0.000435 0.000148 
1.3006249999999999 0.000416 0.000115 
1.3012500000000000 0.000373 0.000093 
1.3018749999999999 0.000329 0.000071 
1.3025000000000000 0.000288 0.000068 
1.3031250000000001 0.000269 0.000085 
1.3037500000000000 0.000269 0.000077 
1.3043750000000001 0.000249 0.000125 
1.3049999999999999 0.000254 0.000117 
1.3056250000000000 0.000271 0.000138 
1.3062499999999999 0.000265 0.000106 
1.3068750000000000 0.000294 0.000115 
1.3075000000000001 0.000318 0.000119 
1.3081250000000000 0.000324 0.000127 
1.3087500000000001 0.000312 0.000078 
1.3093750000000000 0.000326 0.000056 
1.3100000000000001 0.000372 0.000029 
1.3106249999999999 0.000348 0.000014 
1.3112500000000000 0.000339 -0.000049 
1.3118749999999999 0.000399 -0.000046 
1.3125000000000000 0.000342 -0.000075 
1.3131250000000001 0.000326 -0.000122 
1.3137500000000000 0.000321 -0.000179 
1.3143750000000001 0.000260 -0.000190 
1.3149999999999999 0.000273 -0.000148 
1.3156250000000000 0.000233 -0.000189 
1.3162499999999999 0.000199 -0.000158 
1.3168750000000000 0.000170 -0.000199 
1.3174999999999999 0.000198 -0.000178 
1.3181250000000000 0.000158 -0.000187 
1.3187500000000001 0.000138 -0.000169 
1.3193750000000000 0.000115 -0.000158 
1.3200000000000001 0.000091 -0.000172 
1.3206249999999999 0.000099 -0.000174 
1.3212500000000000 0.000092 -0.000168 
1.3218749999999999 0.000077 -0.000158 
1.3225000000000000 0.000089 -0.000166 
1.3231250000000001 0.000097 -0.000148 
1.3237500000000000 0.000082 -0.000144 
1.3243750000000001 0.000065 -0.000169 
1.3250000000000000 0.000089 -0.000146 
1.3256250000000001 0.000067 -0.000167 
1.3262499999999999 0.000102 -0.000206 
1.3268750000000000 0.000042 -0.000170 
1.3274999999999999 0.000032 -0.000190 
1.3281250000000000 0.000007 -0.000168 
1.3287500000000001 -0.000025 -0.000192 
1.3293750000000000 -0.000032 -0.000172 
1.3300000000000001 -0.000011 -0.000144 
1.3306249999999999 -0.000045 -0.000180 
1.3312500000000000 -0.000036 -0.000153 
1.3318749999999999 -0.000062 -0.000127 
1.3325000000000000 -0.000072 -0.000116 
1.3331249999999999 -0.000068 -0.000102 
1.3337500000000000 -0.000063 -0.000117 
1.3343750000000001 -0.000072 -0.000085 
1.3350000000000000 -0.000080 -0.000086 
1.3356250000000001 -0.000078 -0.000094 
1.3362499999999999 -0.000041 -0.000081 
1.3368750000000000 -0.000056 -0.000082 
1.3374999999999999 -0.000071 -0.000054 
1.3381250000000000 -0.000061 -0.000048 
1.3387500000000001 -0.000067 -0.000056 
1.3393750000000000 -0.000065 -0.000058 
1.3400000000000001 -0.000047 -0.000094 
1.3406250000000000 -0.000087 -0.000057 
1.3412500000000001 -0.000056 -0.000061 
1.3418749999999999 -0.000100 -0.000046 
1.3425000000000000 -0.000082 -0.000035 
1.3431249999999999 -0.000097 -0.000074 
1.3437500000000000 -0.000103 -0.000067 
1.3443750000000001 -0.000107 -0.000031 
1.3450000000000000 -0.000125 -0.000009 
1.3456250000000001 -0.000105 -0.000004 
1.3462499999999999 -0.000103 -0.000010 
1.3468750000000000 -0.000090 0.000041 
1.3474999999999999 -0.000106 0.000006 
1.3481250000000000 -0.000083 0.000039 
1.3487499999999999 -0.000077 0.000034 
1.3493750000000000 -0.000031 0.000050 
1.3500000000000001 -0.000072 0.000049 
1.3506250000000000 -0.000053 0.000042 
1.3512500000000001 -0.000048 0.000046 
1.3518749999999999 -0.000023 0.000037 
1.3525000000000000 -0.000036 0.000039 
1.3531249999999999 -0.000023 0.000030 
1.3537500000000000 -0.000044 0.000042 
1.3543750000000001 -0.000015 0.000045 
1.3550000000000000 -0.000044 0.000025 
1.3556250000000001 -0.000027 0.000044 
1.3562500000000000 -0.000036 0.000025 
1.3568750000000001 -0.000035 0.000049 
1.3574999999999999 -0.000033 0.000054 
1.3581250000000000 -0.000034 0.000041 
1.3587499999999999 -0.000037 0.000054 
1.3593750000000000 -0.000030 0.000048 
1.3600000000000001 -0.000022 0.000049 
1.3606250000000000 -0.000016 0.000060 
1.3612500000000001 -0.000016 0.000092 
1.3618749999999999 0.000016 0.000079 
1.3625000000000000 -0.000009 0.000080 
1.3631249999999999 0.000022 0.000065 
1.3637500000000000 0.000043 0.000080 
1.3643749999999999 0.000014 0.000067 
1.3650000000000000 0.000043 0.000075 
1.3656250000000001 0.000037 0.000073 
1.3662500000000000 0.000085 0.000039 
1.3668750000000001 0.000042 0.000044 
1.3674999999999999 0.000033 0.000042 
1.3681250000000000 0.000041 0.000034 
1.3687499999999999 0.000050 0.000017 
1.3693750000000000 0.000033 0.000020 
1.3700000000000001 0.000040 0.000014 
1.3706250000000000 0.000029 0.000014 
1.3712500000000001 0.000033 0.000013 
1.3718750000000000 0.000033 0.000019 
1.3725000000000001 0.000021 0.000013 
1.3731249999999999 0.000028 0.000023 
1.3737500000000000 0.000026 0.000022 
1.3743749999999999 0.000039 0.000030 
1.3750000000000000 0.000033 0.000035 
1.3756250000000001 0.000037 0.000026 
1.3762500000000000 0.000055 0.000032 
1.3768750000000001 0.000036 0.000025 
1.3774999999999999 0.000045 0.000038 
1.3781250000000000 0.000041 0.000015 
1.3787499999999999 0.000058 0.000022 
1.3793750000000000 0.000053 0.000009 
1.3799999999999999 0.000060 0.000008 
1.3806250000000000 0.000065 -0.000009 
1.3812500000000001 0.000055 0.000004 
1.3818750000000000 0.000052 -0.000005 
1.3825000000000001 0.000047 -0.000015 
1.3831249999999999 0.000054 -0.000017 
1.3837500000000000 0.000041 -0.000009 
1.3843749999999999 0.000044 -0.000016 
1.3850000000000000 0.000029 -0.000008 
1.3856250000000001 0.000029 -0.000002 
1.3862500000000000 0.000024 -0.000006 
1.3868750000000001 0.000020 -0.000001 
1.3875000000000000 0.000028 0.000005 
1.3881250000000001 0.000026 0.000009 
1.3887499999999999 0.000033 0.000017 
1.3893750000000000 0.000038 0.000017 
1.3899999999999999 0.000040 0.000019 
1.3906250000000000 0.000052 0.000010 
1.3912500000000001 0.000058 0.000017 
1.3918750000000000 0.000062 0.000008 
1.3925000000000001 0.000066 0.000016 
1.3931249999999999 0.000061 -0.000002 
1.3937500000000000 0.000056 0.000003 
1.3943749999999999 0.000070 -0.000022 
1.3950000000000000 0.000071 -0.000017 
1.3956249999999999 0.000075 -0.000019 
1.3962500000000000 0.000071 -0.000004 
1.3968750000000001 0.000074 -0.000030 
1.3975000000000000 0.000066 -0.000029 
1.3981250000000001 0.000059 -0.000029 
1.3987499999999999 0.000051 -0.000033 
1.3993750000000000 0.000050 -0.000028 
1.3999999999999999 0.000041 -0.000032 
1.4006250000000000 0.000050 -0.000026 
1.4012500000000001 0.000049 -0.000021 
1.4018750000000000 0.000049 -0.000029 
1.4025000000000001 0.000068 -0.000021 
1.4031250000000000 0.000067 -0.000020 
1.4037500000000001 0.000091 -0.000025 
1.4043749999999999 0.000077 -0.000039 
1.4050000000000000 0.000093 -0.000017 
1.4056249999999999 0.000086 -0.000036 
1.4062500000000000 0.000080 -0.000033 
1.4068750000000001 0.000098 -0.000082 
1.4075000000000000 0.000113 -0.000060 
1.4081250000000001 0.000088 -0.000080 
1.4087499999999999 0.000097 -0.000088 
1.4093750000000000 0.000094 -0.000114 
1.4099999999999999 0.000088 -0.000105 
1.4106250000000000 0.000095 -0.000113 
1.4112499999999999 0.000076 -0.000143 
1.4118750000000000 0.000066 -0.000117 
1.4125000000000001 0.000060 -0.000139 
1.4131250000000000 0.000074 -0.000121 
1.4137500000000001 0.000033 -0.000118 
1.4143749999999999 0.000046 -0.000117 
1.4150000000000000 0.000053 -0.000129 
1.4156249999999999 0.000047 -0.000112 
1.4162500000000000 0.000020 -0.000109 
1.4168750000000001 0.000044 -0.000120 
1.4175000000000000 0.000017 -0.000124 
1.4181250000000001 0.000029 -0.000114 
1.4187500000000000 0.000036 -0.000135 
1.4193750000000001 0.000029 -0.000115 
1.4199999999999999 0.000040 -0.000150 
1.4206250000000000 0.000053 -0.000131 
1.4212499999999999 0.000013 -0.000137 
1.4218750000000000 0.000023 -0.000137 
1.4225000000000001 0.000014 -0.000139 
1.4231250000000000 0.000018 -0.000182 
1.4237500000000001 -0.000014 -0.000182 
1.4243749999999999 -0.000001 -0.000204 
1.4250000000000000 -0.000049 -0.000189 
1.4256249999999999 -0.000048 -0.000154 
1.4262500000000000 -0.000084 -0.000183 
1.4268749999999999 -0.000088 -0.000169 
1.4275000000000000 -0.000096 -0.000179 
1.4281250000000001 -0.000102 -0.000165 
1.4287500000000000 -0.000099 -0.000152 
1.4293750000000001 -0.000115 -0.000140 
1.4299999999999999 -0.000120 -0.000130 
1.4306250000000000 -0.000129 -0.000119 
1.4312499999999999 -0.000118 -0.000122 
1.4318750000000000 -0.000110 -0.000125 
1.4325000000000001 -0.000099 -0.000102 
1.4331250000000000 -0.000123 -0.000105 
1.4337500000000001 -0.000113 -0.000107 
1.4343750000000000 -0.000106 -0.000115 
1.4350000000000001 -0.000091 -0.000107 
1.4356249999999999 -0.000117 -0.000130 
1.4362500000000000 -0.000120 -0.000103 
1.4368749999999999 -0.000099 -0.000116 
1.4375000000000000 -0.000137 -0.000133 
1.4381250000000001 -0.000144 -0.000127 
1.4387500000000000 -0.000111 -0.000117 
1.4393750000000001 -0.000155 -0.000115 
1.4399999999999999 -0.000191 -0.000135 
1.4406250000000000 -0.000194 -0.000122 
1.4412499999999999 -0.000230 -0.000117 
1.4418750000000000 -0.000227 -0.000055 
1.4424999999999999 -0.000208 -0.000107 
1.4431250000000000 -0.000237 -0.000053 
1.4437500000000001 -0.000241 -0.000066 
1.4443750000000000 -0.000194 -0.000024 
1.4450000000000001 -0.000244 -0.000041 
1.4456249999999999 -0.000227 0.000020 
1.4462500000000000 -0.000223 0.000006 
1.4468749999999999 -0.000244 0.000013 
1.4475000000000000 -0.000234 0.000057 
1.4481250000000001 -0.000194 0.000041 
1.4487500000000000 -0.000212 0.000058 
1.4493750000000001 -0.000180 0.000048 
1.4500000000000000 -0.000180 0.000070 
1.4506250000000001 -0.000173 0.000071 
1.4512499999999999 -0.000141 0.000068 
1.4518750000000000 -0.000174 0.000053 
1.4524999999999999 -0.000142 0.000091 
1.4531250000000000 -0.000162 0.000071 
1.4537500000000001 -0.000160 0.000060 
1.4543750000000000 -0.000161 0.000048 
1.4550000000000001 -0.000182 0.000081 
1.4556249999999999 -0.000186 0.000093 
1.4562500000000000 -0.000181 0.000090 
1.4568749999999999 -0.000173 0.000100 
