!
! C:\Users\rflab\Downloads\Lab5_KD_ZW\Q2\0.S2P
!
! Touchstone 1.1 file saved by VNA.EXE V1.65 (www.ke5fx.com/gpib/readme.htm)
! 11/12/2024 1:15:15 AM
!
!    Source: HEWLETT PACKARD,8753D,0,6.14
!  Min freq: 1.150000E+009 Hz
!  Max freq: 1.650000E+009 Hz
!    Points: 801
!    Params: S11 S21 S12 S22
!
!!!!!
# GHZ S RI R 50
1.1499999999999999 0.676758 -0.498291 -0.000148 0.000169 -0.000105 0.000278 0.500061 -0.404571 
1.1506250000000000 0.676269 -0.498932 -0.000142 0.000219 -0.000093 0.000256 0.498474 -0.406006 
1.1512500000000001 0.675995 -0.498444 -0.000111 0.000204 -0.000101 0.000314 0.498077 -0.406158 
1.1518750000000000 0.675659 -0.498627 -0.000098 0.000218 -0.000108 0.000237 0.497253 -0.408081 
1.1525000000000001 0.675537 -0.498779 -0.000087 0.000196 -0.000125 0.000233 0.498383 -0.409393 
1.1531250000000000 0.674957 -0.499390 -0.000080 0.000185 -0.000151 0.000199 0.495972 -0.410706 
1.1537500000000001 0.676239 -0.498993 -0.000035 0.000193 -0.000141 0.000233 0.494598 -0.412201 
1.1543749999999999 0.676849 -0.499420 -0.000060 0.000204 -0.000188 0.000249 0.494537 -0.412048 
1.1550000000000000 0.675171 -0.499542 -0.000031 0.000193 -0.000211 0.000231 0.493744 -0.415832 
1.1556249999999999 0.676117 -0.499298 -0.000025 0.000164 -0.000254 0.000299 0.493011 -0.415497 
1.1562500000000000 0.674774 -0.499786 -0.000031 0.000153 -0.000269 0.000264 0.491699 -0.416534 
1.1568750000000001 0.675415 -0.500305 -0.000032 0.000143 -0.000296 0.000342 0.491272 -0.418304 
1.1575000000000000 0.674683 -0.500732 -0.000039 0.000148 -0.000293 0.000379 0.489716 -0.419312 
1.1581250000000001 0.675079 -0.500702 -0.000041 0.000143 -0.000255 0.000436 0.488983 -0.422058 
1.1587499999999999 0.675110 -0.500641 -0.000039 0.000150 -0.000220 0.000452 0.489868 -0.423340 
1.1593750000000000 0.674194 -0.501099 -0.000042 0.000154 -0.000235 0.000482 0.486908 -0.424957 
1.1599999999999999 0.673889 -0.501068 -0.000046 0.000140 -0.000171 0.000511 0.488251 -0.425385 
1.1606250000000000 0.674957 -0.502075 -0.000053 0.000151 -0.000165 0.000510 0.486755 -0.426727 
1.1612499999999999 0.674591 -0.500671 -0.000039 0.000143 -0.000155 0.000504 0.487122 -0.428680 
1.1618750000000000 0.674011 -0.502319 -0.000057 0.000166 -0.000110 0.000510 0.484619 -0.429352 
1.1625000000000001 0.674042 -0.502045 -0.000036 0.000154 -0.000043 0.000538 0.486054 -0.432434 
1.1631250000000000 0.673859 -0.502594 -0.000040 0.000170 -0.000101 0.000533 0.483307 -0.431763 
1.1637500000000001 0.674072 -0.503723 -0.000054 0.000168 -0.000059 0.000526 0.483124 -0.433991 
1.1643749999999999 0.673615 -0.502594 -0.000025 0.000147 -0.000014 0.000541 0.483154 -0.435120 
1.1650000000000000 0.673462 -0.503754 -0.000008 0.000181 -0.000053 0.000557 0.482239 -0.436493 
1.1656249999999999 0.674316 -0.503845 -0.000008 0.000194 -0.000066 0.000580 0.480499 -0.438110 
1.1662500000000000 0.674774 -0.502991 0.000015 0.000182 -0.000057 0.000530 0.480866 -0.439087 
1.1668750000000001 0.674011 -0.503754 0.000027 0.000169 -0.000028 0.000546 0.478699 -0.440430 
1.1675000000000000 0.673889 -0.503967 0.000014 0.000157 -0.000032 0.000551 0.478638 -0.442871 
1.1681250000000001 0.674225 -0.505371 0.000037 0.000164 -0.000031 0.000622 0.477722 -0.443848 
1.1687500000000000 0.673401 -0.504181 0.000033 0.000155 -0.000001 0.000544 0.475739 -0.444977 
1.1693750000000001 0.673615 -0.504456 0.000048 0.000139 0.000003 0.000643 0.473846 -0.447357 
1.1699999999999999 0.674072 -0.505341 0.000032 0.000150 0.000057 0.000668 0.472809 -0.447632 
1.1706250000000000 0.673981 -0.504425 0.000057 0.000135 0.000019 0.000658 0.472565 -0.450073 
1.1712499999999999 0.672485 -0.504822 0.000045 0.000132 0.000144 0.000683 0.471527 -0.451874 
1.1718750000000000 0.672394 -0.505615 0.000044 0.000116 0.000187 0.000732 0.469421 -0.453308 
1.1725000000000001 0.671967 -0.505585 0.000046 0.000110 0.000217 0.000716 0.468750 -0.453613 
1.1731250000000000 0.671783 -0.505066 0.000034 0.000128 0.000278 0.000745 0.467682 -0.457336 
1.1737500000000001 0.673462 -0.505829 0.000042 0.000121 0.000263 0.000670 0.467102 -0.457398 
1.1743749999999999 0.671753 -0.506592 0.000039 0.000111 0.000367 0.000753 0.465790 -0.459686 
1.1750000000000000 0.671722 -0.506988 0.000023 0.000117 0.000324 0.000703 0.464783 -0.461456 
1.1756249999999999 0.672272 -0.506836 0.000029 0.000131 0.000384 0.000566 0.462707 -0.462860 
1.1762500000000000 0.671204 -0.506134 0.000033 0.000110 0.000442 0.000600 0.461945 -0.464569 
1.1768749999999999 0.671417 -0.506836 0.000025 0.000124 0.000378 0.000598 0.461578 -0.465668 
1.1775000000000000 0.671692 -0.507080 0.000027 0.000129 0.000474 0.000572 0.460327 -0.467407 
1.1781250000000001 0.670960 -0.506653 0.000041 0.000150 0.000375 0.000532 0.458496 -0.469544 
1.1787500000000000 0.671814 -0.507324 0.000031 0.000124 0.000453 0.000560 0.457153 -0.470581 
1.1793750000000001 0.671021 -0.507202 0.000054 0.000153 0.000449 0.000507 0.453796 -0.473083 
1.1799999999999999 0.670960 -0.507996 0.000062 0.000137 0.000453 0.000508 0.455078 -0.473511 
1.1806250000000000 0.670593 -0.508057 0.000090 0.000141 0.000480 0.000630 0.453430 -0.475769 
1.1812499999999999 0.670776 -0.508606 0.000087 0.000150 0.000476 0.000505 0.450989 -0.476623 
1.1818750000000000 0.669861 -0.507629 0.000100 0.000155 0.000547 0.000573 0.449402 -0.478882 
1.1825000000000001 0.669617 -0.507996 0.000117 0.000144 0.000523 0.000570 0.448059 -0.478943 
1.1831250000000000 0.669495 -0.509338 0.000120 0.000114 0.000555 0.000619 0.445129 -0.480835 
1.1837500000000001 0.669617 -0.509216 0.000121 0.000103 0.000592 0.000655 0.444763 -0.483337 
1.1843750000000000 0.669495 -0.509460 0.000123 0.000100 0.000598 0.000418 0.445007 -0.484924 
1.1850000000000001 0.668762 -0.510071 0.000122 0.000090 0.000758 0.000457 0.440918 -0.484985 
1.1856249999999999 0.669250 -0.510620 0.000104 0.000079 0.000665 0.000455 0.439575 -0.487854 
1.1862500000000000 0.668945 -0.510254 0.000115 0.000073 0.000760 0.000393 0.440124 -0.489258 
1.1868749999999999 0.669189 -0.510132 0.000114 0.000057 0.000760 0.000478 0.436768 -0.492248 
1.1875000000000000 0.668335 -0.510193 0.000090 0.000054 0.000844 0.000352 0.435730 -0.493408 
1.1881250000000001 0.669006 -0.511292 0.000096 0.000042 0.000787 0.000332 0.433167 -0.494019 
1.1887500000000000 0.668823 -0.511352 0.000074 0.000040 0.000792 0.000266 0.430542 -0.495727 
1.1893750000000001 0.668823 -0.512329 0.000066 0.000046 0.000769 0.000223 0.429688 -0.496277 
1.1899999999999999 0.667908 -0.511719 0.000051 0.000046 0.000746 0.000130 0.428162 -0.501099 
1.1906250000000000 0.668457 -0.512695 0.000042 0.000055 0.000807 0.000104 0.426331 -0.501221 
1.1912499999999999 0.668579 -0.511841 0.000039 0.000066 0.000678 0.000162 0.425415 -0.502625 
1.1918750000000000 0.667175 -0.511414 0.000039 0.000080 0.000695 0.000209 0.423096 -0.504273 
1.1924999999999999 0.667725 -0.513489 0.000036 0.000082 0.000792 0.000140 0.421570 -0.505493 
1.1931250000000000 0.668335 -0.513123 0.000034 0.000101 0.000734 0.000168 0.420532 -0.505005 
1.1937500000000001 0.667602 -0.513367 0.000033 0.000123 0.000766 0.000153 0.419067 -0.508789 
1.1943750000000000 0.667725 -0.512390 0.000069 0.000128 0.000785 0.000105 0.415588 -0.507935 
1.1950000000000001 0.668457 -0.513245 0.000068 0.000133 0.000855 0.000109 0.415222 -0.510803 
1.1956249999999999 0.667542 -0.513550 0.000089 0.000121 0.000737 0.000098 0.410828 -0.511597 
1.1962500000000000 0.667786 -0.514404 0.000080 0.000140 0.000796 0.000108 0.411316 -0.513916 
1.1968749999999999 0.666870 -0.513794 0.000090 0.000149 0.000856 0.000071 0.408081 -0.514465 
1.1975000000000000 0.666687 -0.514587 0.000121 0.000121 0.000954 0.000054 0.406342 -0.515045 
1.1981250000000001 0.665771 -0.513977 0.000131 0.000128 0.000857 0.000062 0.405029 -0.517395 
1.1987500000000000 0.665955 -0.514343 0.000127 0.000110 0.000892 0.000008 0.401855 -0.518280 
1.1993750000000001 0.665649 -0.515991 0.000160 0.000123 0.000978 -0.000004 0.400177 -0.519745 
1.2000000000000000 0.665466 -0.515686 0.000172 0.000098 0.000892 -0.000050 0.398468 -0.519318 
1.2006250000000001 0.664978 -0.515564 0.000164 0.000087 0.001027 -0.000260 0.395477 -0.521973 
1.2012499999999999 0.665344 -0.516968 0.000167 0.000081 0.001032 -0.000368 0.394348 -0.522461 
1.2018750000000000 0.665649 -0.516907 0.000159 0.000071 0.001113 -0.000384 0.391754 -0.523377 
1.2024999999999999 0.664429 -0.518280 0.000161 0.000046 0.000974 -0.000504 0.388916 -0.525055 
1.2031250000000000 0.663696 -0.517792 0.000150 0.000051 0.000928 -0.000428 0.388367 -0.527161 
1.2037500000000001 0.665802 -0.518066 0.000153 0.000044 0.000782 -0.000510 0.386719 -0.528900 
1.2043750000000000 0.664948 -0.518585 0.000150 0.000043 0.000884 -0.000398 0.384094 -0.528748 
1.2050000000000001 0.665131 -0.518097 0.000134 0.000050 0.000886 -0.000515 0.381226 -0.529571 
1.2056249999999999 0.666321 -0.519012 0.000130 0.000044 0.000754 -0.000635 0.380249 -0.531372 
1.2062500000000000 0.664825 -0.518707 0.000128 0.000051 0.000743 -0.000688 0.377960 -0.532501 
1.2068749999999999 0.665283 -0.519165 0.000128 0.000058 0.000592 -0.000596 0.376740 -0.534546 
1.2075000000000000 0.664368 -0.519226 0.000123 0.000056 0.000618 -0.000552 0.372864 -0.534851 
1.2081249999999999 0.663574 -0.518799 0.000135 0.000050 0.000624 -0.000578 0.371399 -0.535644 
1.2087500000000000 0.664429 -0.519043 0.000140 0.000098 0.000608 -0.000505 0.368713 -0.536041 
1.2093750000000001 0.663208 -0.519714 0.000161 0.000078 0.000570 -0.000594 0.366211 -0.537842 
1.2100000000000000 0.664063 -0.520508 0.000148 0.000086 0.000591 -0.000559 0.366577 -0.537628 
1.2106250000000001 0.663818 -0.520630 0.000171 0.000086 0.000591 -0.000724 0.362885 -0.539429 
1.2112499999999999 0.664246 -0.519898 0.000191 0.000073 0.000611 -0.000690 0.360870 -0.542053 
1.2118750000000000 0.662903 -0.521301 0.000191 0.000081 0.000609 -0.000686 0.359985 -0.541840 
1.2124999999999999 0.663208 -0.522217 0.000190 0.000086 0.000526 -0.000715 0.356751 -0.543518 
1.2131250000000000 0.662659 -0.523498 0.000223 0.000072 0.000413 -0.000701 0.355102 -0.543518 
1.2137500000000001 0.663208 -0.522461 0.000232 0.000076 0.000379 -0.000766 0.352478 -0.543976 
1.2143750000000000 0.661743 -0.523315 0.000245 0.000055 0.000320 -0.000705 0.351135 -0.545105 
1.2150000000000001 0.662048 -0.524078 0.000237 0.000017 0.000315 -0.000794 0.348633 -0.547089 
1.2156250000000000 0.661163 -0.524506 0.000248 -0.000008 0.000334 -0.000773 0.346985 -0.546722 
1.2162500000000001 0.661682 -0.524139 0.000242 -0.000018 0.000279 -0.000821 0.345642 -0.549103 
1.2168749999999999 0.662628 -0.524750 0.000227 0.000013 0.000197 -0.000672 0.342804 -0.549225 
1.2175000000000000 0.663025 -0.525543 0.000260 -0.000018 0.000066 -0.000693 0.339447 -0.550385 
1.2181249999999999 0.662567 -0.526245 0.000205 -0.000045 0.000132 -0.000660 0.337128 -0.550934 
1.2187500000000000 0.662170 -0.525696 0.000222 -0.000038 0.000153 -0.000684 0.334351 -0.552033 
1.2193750000000001 0.661560 -0.527161 0.000216 -0.000045 0.000044 -0.000590 0.332886 -0.554688 
1.2200000000000000 0.662079 -0.526550 0.000188 -0.000061 0.000024 -0.000547 0.330597 -0.554352 
1.2206250000000001 0.662689 -0.527313 0.000186 -0.000056 0.000076 -0.000504 0.328369 -0.556091 
1.2212499999999999 0.662476 -0.527252 0.000180 -0.000053 0.000030 -0.000524 0.327026 -0.560028 
1.2218750000000000 0.662903 -0.527191 0.000157 -0.000023 0.000068 -0.000470 0.323425 -0.557770 
1.2224999999999999 0.662170 -0.527435 0.000174 -0.000034 0.000152 -0.000386 0.323059 -0.559875 
1.2231250000000000 0.661408 -0.527863 0.000192 -0.000044 0.000099 -0.000398 0.318573 -0.561707 
1.2237499999999999 0.661652 -0.528015 0.000175 -0.000043 0.000146 -0.000453 0.317291 -0.561737 
1.2243750000000000 0.660583 -0.528137 0.000190 -0.000046 0.000156 -0.000462 0.315399 -0.563232 
1.2250000000000001 0.661621 -0.528992 0.000214 -0.000049 0.000086 -0.000487 0.312439 -0.564758 
1.2256250000000000 0.660278 -0.528778 0.000226 -0.000039 0.000141 -0.000437 0.311676 -0.565948 
1.2262500000000001 0.660248 -0.530182 0.000246 -0.000043 0.000098 -0.000460 0.309143 -0.566681 
1.2268749999999999 0.659851 -0.530212 0.000232 -0.000038 0.000103 -0.000537 0.306519 -0.569122 
1.2275000000000000 0.660156 -0.530365 0.000272 -0.000069 0.000107 -0.000481 0.304352 -0.570190 
1.2281249999999999 0.660583 -0.531464 0.000278 -0.000112 0.000056 -0.000509 0.300964 -0.571228 
1.2287500000000000 0.660248 -0.532135 0.000255 -0.000110 0.000025 -0.000513 0.298096 -0.570313 
1.2293750000000001 0.659363 -0.532074 0.000281 -0.000154 0.000053 -0.000453 0.295807 -0.573303 
1.2300000000000000 0.658081 -0.532959 0.000274 -0.000146 -0.000002 -0.000442 0.293457 -0.573212 
1.2306250000000001 0.659882 -0.534332 0.000265 -0.000168 0.000048 -0.000373 0.290527 -0.575043 
1.2312500000000000 0.658997 -0.534485 0.000252 -0.000206 0.000025 -0.000356 0.287811 -0.577423 
1.2318750000000001 0.660095 -0.535248 0.000275 -0.000207 0.000046 -0.000312 0.284180 -0.577911 
1.2324999999999999 0.660675 -0.535950 0.000231 -0.000229 0.000086 -0.000252 0.281097 -0.579193 
1.2331250000000000 0.660614 -0.535919 0.000247 -0.000206 0.000133 -0.000243 0.279907 -0.580597 
1.2337499999999999 0.660187 -0.536865 0.000217 -0.000263 0.000218 -0.000158 0.276062 -0.582916 
1.2343750000000000 0.660797 -0.536804 0.000211 -0.000251 0.000290 -0.000164 0.272003 -0.585297 
1.2350000000000001 0.660706 -0.536957 0.000120 -0.000271 0.000390 -0.000229 0.270020 -0.586212 
1.2356250000000000 0.661285 -0.536926 0.000143 -0.000256 0.000493 -0.000241 0.267670 -0.586273 
1.2362500000000001 0.659607 -0.537811 0.000164 -0.000302 0.000564 -0.000237 0.260834 -0.589050 
1.2368749999999999 0.661072 -0.537689 0.000139 -0.000286 0.000701 -0.000353 0.258759 -0.588531 
1.2375000000000000 0.659943 -0.537720 0.000116 -0.000292 0.000753 -0.000437 0.257690 -0.591950 
1.2381249999999999 0.660675 -0.539642 0.000124 -0.000282 0.000624 -0.000557 0.251923 -0.593903 
1.2387500000000000 0.659210 -0.540222 0.000130 -0.000271 0.000734 -0.000598 0.249237 -0.595184 
1.2393749999999999 0.660065 -0.540283 0.000130 -0.000271 0.000750 -0.000803 0.243591 -0.598511 
1.2400000000000000 0.659821 -0.541077 0.000130 -0.000263 0.000763 -0.000853 0.239960 -0.597809 
1.2406250000000001 0.659515 -0.541565 0.000160 -0.000265 0.000730 -0.001033 0.239227 -0.601593 
1.2412500000000000 0.659149 -0.541870 0.000150 -0.000294 0.000697 -0.001024 0.233551 -0.601227 
1.2418750000000001 0.659668 -0.541809 0.000161 -0.000315 0.000498 -0.001137 0.230713 -0.602844 
1.2424999999999999 0.658814 -0.543579 0.000157 -0.000344 0.000507 -0.001233 0.225891 -0.603729 
1.2431250000000000 0.659485 -0.544617 0.000154 -0.000357 0.000323 -0.001274 0.221191 -0.604889 
1.2437499999999999 0.659973 -0.544922 0.000153 -0.000362 0.000357 -0.001214 0.216156 -0.605957 
1.2443750000000000 0.659363 -0.545288 0.000117 -0.000414 0.000250 -0.001203 0.211945 -0.608978 
1.2450000000000001 0.658325 -0.545960 0.000097 -0.000424 0.000298 -0.001204 0.208740 -0.608734 
1.2456250000000000 0.659485 -0.546936 0.000093 -0.000427 0.000178 -0.001321 0.200378 -0.609283 
1.2462500000000001 0.658814 -0.548645 0.000074 -0.000466 0.000224 -0.001242 0.197571 -0.611481 
1.2468750000000000 0.659790 -0.549316 0.000016 -0.000489 0.000281 -0.001347 0.191437 -0.611420 
1.2475000000000001 0.659058 -0.549866 -0.000031 -0.000509 0.000290 -0.001415 0.187378 -0.611298 
1.2481249999999999 0.658936 -0.549561 -0.000028 -0.000487 0.000224 -0.001548 0.178009 -0.614319 
1.2487500000000000 0.658447 -0.550842 -0.000151 -0.000534 0.000225 -0.001703 0.174286 -0.614166 
1.2493749999999999 0.658325 -0.550842 -0.000183 -0.000467 0.000143 -0.001659 0.166107 -0.615845 
1.2500000000000000 0.658295 -0.552277 -0.000176 -0.000474 0.000147 -0.001879 0.161774 -0.614014 
1.2506250000000001 0.658020 -0.554138 -0.000230 -0.000474 -0.000016 -0.001811 0.154755 -0.612885 
1.2512500000000000 0.658691 -0.554321 -0.000290 -0.000468 -0.000069 -0.001989 0.146515 -0.617981 
1.2518750000000001 0.658356 -0.555298 -0.000289 -0.000395 -0.000230 -0.002053 0.141602 -0.616516 
1.2524999999999999 0.657562 -0.556854 -0.000275 -0.000350 -0.000526 -0.002200 0.135864 -0.616302 
1.2531250000000000 0.659027 -0.557434 -0.000319 -0.000301 -0.000534 -0.001985 0.127838 -0.618164 
1.2537499999999999 0.659088 -0.558411 -0.000310 -0.000292 -0.000800 -0.002342 0.120789 -0.616913 
1.2543750000000000 0.658661 -0.560211 -0.000318 -0.000258 -0.000982 -0.002029 0.112885 -0.619110 
1.2549999999999999 0.658325 -0.561554 -0.000289 -0.000206 -0.001145 -0.002200 0.105225 -0.618469 
1.2556250000000000 0.658417 -0.562744 -0.000280 -0.000219 -0.001159 -0.001936 0.102783 -0.615417 
1.2562500000000001 0.658325 -0.564270 -0.000246 -0.000167 -0.001353 -0.001803 0.089416 -0.615021 
1.2568750000000000 0.657410 -0.565308 -0.000245 -0.000184 -0.001543 -0.001871 0.083710 -0.611328 
1.2575000000000001 0.658386 -0.566467 -0.000216 -0.000193 -0.001472 -0.002086 0.074280 -0.607971 
1.2581249999999999 0.658417 -0.568481 -0.000232 -0.000205 -0.001517 -0.001840 0.068726 -0.608734 
1.2587500000000000 0.657990 -0.569641 -0.000203 -0.000223 -0.001608 -0.001851 0.060883 -0.604828 
1.2593749999999999 0.657684 -0.571472 -0.000222 -0.000238 -0.001582 -0.001967 0.053741 -0.602051 
1.2600000000000000 0.657471 -0.572266 -0.000225 -0.000267 -0.001671 -0.001834 0.045715 -0.598785 
1.2606250000000001 0.657196 -0.572998 -0.000256 -0.000267 -0.001888 -0.001890 0.038116 -0.596924 
1.2612500000000000 0.657593 -0.575653 -0.000300 -0.000285 -0.001871 -0.002018 0.027741 -0.592987 
1.2618750000000001 0.657135 -0.576660 -0.000332 -0.000308 -0.002223 -0.002216 0.022034 -0.587097 
1.2625000000000000 0.657898 -0.577850 -0.000358 -0.000302 -0.002459 -0.002185 0.010895 -0.580963 
1.2631250000000001 0.657501 -0.580933 -0.000389 -0.000281 -0.002734 -0.001985 0.004944 -0.574554 
1.2637499999999999 0.656250 -0.582519 -0.000463 -0.000253 -0.002980 -0.001923 -0.004303 -0.568939 
1.2643750000000000 0.656006 -0.584473 -0.000529 -0.000207 -0.003372 -0.001684 -0.014435 -0.565033 
1.2649999999999999 0.656464 -0.585877 -0.000524 -0.000200 -0.003800 -0.001788 -0.020386 -0.558533 
1.2656250000000000 0.654694 -0.588959 -0.000558 -0.000105 -0.004127 -0.001285 -0.026123 -0.552002 
1.2662500000000001 0.654266 -0.592041 -0.000554 -0.000049 -0.004299 -0.000903 -0.035645 -0.542023 
1.2668750000000000 0.652954 -0.594574 -0.000560 -0.000002 -0.004507 -0.000457 -0.042511 -0.535644 
1.2675000000000001 0.653137 -0.598755 -0.000525 0.000113 -0.004705 -0.000058 -0.050140 -0.528412 
1.2681249999999999 0.652527 -0.602600 -0.000499 0.000117 -0.004595 0.000501 -0.054810 -0.520233 
1.2687500000000000 0.651794 -0.606079 -0.000466 0.000174 -0.004650 0.000814 -0.063507 -0.510529 
1.2693749999999999 0.649658 -0.609436 -0.000429 0.000215 -0.004556 0.001075 -0.069031 -0.498962 
1.2700000000000000 0.650146 -0.612793 -0.000352 0.000217 -0.004029 0.001307 -0.072342 -0.490311 
1.2706249999999999 0.649628 -0.617554 -0.000285 0.000226 -0.003966 0.001764 -0.080353 -0.481598 
1.2712500000000000 0.647492 -0.622498 -0.000216 0.000229 -0.003775 0.001864 -0.085388 -0.472946 
1.2718750000000001 0.646118 -0.626190 -0.000170 0.000180 -0.003543 0.002069 -0.086166 -0.462799 
1.2725000000000000 0.644165 -0.632446 -0.000128 0.000131 -0.003231 0.002225 -0.092453 -0.452591 
1.2731250000000001 0.642487 -0.637756 -0.000106 0.000070 -0.003319 0.002509 -0.092560 -0.442017 
1.2737499999999999 0.640747 -0.643127 -0.000103 0.000004 -0.003178 0.002298 -0.096771 -0.429001 
1.2743750000000000 0.638611 -0.649414 -0.000119 -0.000065 -0.002989 0.002635 -0.095764 -0.417877 
1.2749999999999999 0.635742 -0.658508 -0.000167 -0.000123 -0.003191 0.002563 -0.097885 -0.409668 
1.2756250000000000 0.629273 -0.664307 -0.000256 -0.000173 -0.003215 0.002647 -0.099106 -0.398102 
1.2762500000000001 0.625244 -0.672852 -0.000331 -0.000205 -0.003339 0.003027 -0.098526 -0.389999 
