!
! C:\Users\rflab\Downloads\dp2_kdzw\0.S1P
!
! Touchstone 1.1 file saved by VNA.EXE V1.65 (www.ke5fx.com/gpib/readme.htm)
! 12/12/2024 6:41:43 PM
!
!    Source: HEWLETT PACKARD,8753D,0,6.14
!  Min freq: 2.000000E+009 Hz
!  Max freq: 2.500000E+009 Hz
!    Points: 801
!    Params: S21
!
!!!!!
# GHZ S MA R 50
2.0000000000000000 0.004845 -137.446779 
2.0006249999999999 0.004601 -137.192110 
2.0012500000000002 0.004430 -137.163389 
2.0018750000000001 0.004323 -137.749482 
2.0024999999999999 0.004142 -137.961926 
2.0031249999999998 0.004052 -136.275573 
2.0037500000000001 0.003929 -135.551885 
2.0043750000000000 0.003878 -135.073480 
2.0049999999999999 0.003816 -133.799977 
2.0056250000000002 0.003740 -132.179706 
2.0062500000000001 0.003771 -132.063536 
2.0068750000000000 0.003764 -131.537547 
2.0074999999999998 0.003795 -132.107338 
2.0081250000000002 0.003700 -131.122361 
2.0087500000000000 0.003650 -132.066222 
2.0093749999999999 0.003724 -133.251570 
2.0099999999999998 0.003712 -133.272018 
2.0106250000000001 0.003675 -135.139288 
2.0112500000000000 0.003623 -137.210693 
2.0118749999999999 0.003511 -138.124127 
2.0125000000000002 0.003442 -140.531868 
2.0131250000000001 0.003407 -142.970930 
2.0137499999999999 0.003279 -144.287971 
2.0143749999999998 0.003146 -146.237070 
2.0150000000000001 0.003135 -148.493994 
2.0156250000000000 0.002965 -150.048823 
2.0162499999999999 0.002873 -150.711520 
2.0168750000000002 0.002764 -151.534705 
2.0175000000000001 0.002652 -151.792059 
2.0181249999999999 0.002550 -151.065319 
2.0187499999999998 0.002426 -150.996803 
2.0193750000000001 0.002329 -149.586947 
2.0200000000000000 0.002275 -149.186067 
2.0206249999999999 0.002219 -147.264589 
2.0212500000000002 0.002170 -145.059028 
2.0218750000000001 0.002144 -143.403448 
2.0225000000000000 0.002143 -141.319787 
2.0231249999999998 0.002169 -140.425026 
2.0237500000000002 0.002189 -139.585172 
2.0243750000000000 0.002213 -139.162730 
2.0249999999999999 0.002238 -138.716180 
2.0256249999999998 0.002281 -139.400646 
2.0262500000000001 0.002338 -140.370603 
2.0268750000000000 0.002360 -141.761012 
2.0274999999999999 0.002386 -142.902216 
2.0281250000000002 0.002398 -145.448059 
2.0287500000000001 0.002418 -146.340490 
2.0293749999999999 0.002435 -148.168294 
2.0299999999999998 0.002436 -149.011232 
2.0306250000000001 0.002444 -151.604592 
2.0312500000000000 0.002373 -152.334468 
2.0318749999999999 0.002369 -152.479324 
2.0325000000000002 0.002311 -154.221499 
2.0331250000000001 0.002260 -152.626612 
2.0337499999999999 0.002215 -152.403444 
2.0343749999999998 0.002196 -152.469494 
2.0350000000000001 0.002151 -152.256244 
2.0356250000000000 0.002169 -150.899531 
2.0362499999999999 0.002172 -148.546580 
2.0368750000000002 0.002208 -148.089705 
2.0375000000000001 0.002254 -146.767073 
2.0381250000000000 0.002322 -146.094518 
2.0387499999999998 0.002406 -145.473639 
2.0393750000000002 0.002511 -145.445240 
2.0400000000000000 0.002613 -146.865240 
2.0406249999999999 0.002726 -148.033394 
2.0412499999999998 0.002843 -148.729662 
2.0418750000000001 0.002943 -150.246477 
2.0425000000000000 0.003055 -152.059026 
2.0431249999999999 0.003171 -154.290335 
2.0437500000000002 0.003264 -157.297716 
2.0443750000000001 0.003328 -158.735900 
2.0449999999999999 0.003426 -161.201885 
2.0456249999999998 0.003467 -163.326042 
2.0462500000000001 0.003471 -166.035350 
2.0468750000000000 0.003502 -167.742849 
2.0474999999999999 0.003526 -170.443404 
2.0481250000000002 0.003507 -171.359846 
2.0487500000000001 0.003447 -173.223721 
2.0493749999999999 0.003384 -174.827500 
2.0499999999999998 0.003352 -175.693980 
2.0506250000000001 0.003284 -176.220099 
2.0512500000000000 0.003223 -176.564720 
2.0518749999999999 0.003172 -176.263558 
2.0525000000000002 0.003139 -176.040739 
2.0531250000000001 0.003115 -175.542097 
2.0537500000000000 0.003132 -174.361673 
2.0543749999999998 0.003166 -173.277181 
2.0550000000000002 0.003246 -171.975541 
2.0556250000000000 0.003354 -170.801467 
2.0562499999999999 0.003474 -169.649433 
2.0568749999999998 0.003644 -169.412815 
2.0575000000000001 0.003841 -169.275922 
2.0581250000000000 0.004009 -169.272126 
2.0587499999999999 0.004279 -169.755119 
2.0593750000000002 0.004461 -170.723451 
2.0600000000000001 0.004738 -171.498885 
2.0606249999999999 0.004972 -172.627932 
2.0612499999999998 0.005186 -173.615306 
2.0618750000000001 0.005387 -175.005766 
2.0625000000000000 0.005639 -176.640367 
2.0631249999999999 0.005822 -178.225920 
2.0637500000000002 0.005943 -178.949473 
2.0643750000000001 0.006114 179.267143 
2.0649999999999999 0.006307 177.915936 
2.0656249999999998 0.006375 176.784034 
2.0662500000000001 0.006505 175.830004 
2.0668750000000000 0.006611 174.735600 
2.0674999999999999 0.006751 174.132166 
2.0681250000000002 0.006858 173.508472 
2.0687500000000001 0.007057 173.500972 
2.0693750000000000 0.007189 172.587927 
2.0699999999999998 0.007389 173.367054 
2.0706250000000002 0.007622 172.656682 
2.0712500000000000 0.007887 173.267701 
2.0718749999999999 0.008178 173.064350 
2.0724999999999998 0.008508 173.780383 
2.0731250000000001 0.008809 174.268420 
2.0737500000000000 0.009244 174.802895 
2.0743749999999999 0.009566 175.348304 
2.0750000000000002 0.009973 175.280263 
2.0756250000000001 0.010364 175.973920 
2.0762499999999999 0.010634 176.802358 
2.0768749999999998 0.011061 177.118847 
2.0775000000000001 0.011407 177.426801 
2.0781250000000000 0.011572 177.952652 
2.0787499999999999 0.011750 178.346623 
2.0793750000000002 0.011782 177.898645 
2.0800000000000001 0.011837 178.605744 
2.0806249999999999 0.011937 178.821194 
2.0812499999999998 0.011972 179.141939 
2.0818750000000001 0.011804 179.150534 
2.0825000000000000 0.011719 179.356517 
2.0831249999999999 0.011688 -179.967276 
2.0837500000000002 0.011457 -179.379965 
2.0843750000000001 0.011265 -178.966794 
2.0850000000000000 0.010952 -177.534504 
2.0856249999999998 0.010826 -176.656804 
2.0862500000000002 0.010669 -174.874423 
2.0868750000000000 0.010375 -172.840040 
2.0874999999999999 0.010164 -171.194367 
2.0881249999999998 0.009877 -169.113742 
2.0887500000000001 0.009589 -167.801564 
2.0893750000000000 0.009348 -165.326504 
2.0899999999999999 0.009296 -163.872527 
2.0906250000000002 0.009110 -162.428072 
2.0912500000000001 0.008979 -161.880666 
2.0918749999999999 0.008929 -161.286391 
2.0924999999999998 0.008851 -160.739234 
2.0931250000000001 0.008674 -161.542142 
2.0937500000000000 0.008725 -161.731400 
2.0943749999999999 0.008645 -162.141675 
2.0950000000000002 0.008506 -162.961737 
2.0956250000000001 0.008432 -164.310079 
2.0962499999999999 0.008352 -164.895792 
2.0968749999999998 0.008214 -166.446175 
2.0975000000000001 0.008080 -167.906187 
2.0981250000000000 0.007974 -169.759202 
2.0987499999999999 0.007814 -170.619870 
2.0993750000000002 0.007515 -171.384022 
2.1000000000000001 0.007304 -172.644868 
2.1006250000000000 0.007064 -174.546101 
2.1012499999999998 0.006762 -174.500482 
2.1018750000000002 0.006491 -175.662630 
2.1025000000000000 0.006198 -175.682438 
2.1031249999999999 0.005896 -176.838035 
2.1037499999999998 0.005679 -177.003775 
2.1043750000000001 0.005433 -177.640957 
2.1050000000000000 0.005285 -177.409175 
2.1056249999999999 0.005144 -177.497527 
2.1062500000000002 0.005030 -176.924411 
2.1068750000000001 0.004896 -176.968294 
2.1074999999999999 0.004887 -177.298686 
2.1081249999999998 0.004819 -177.739983 
2.1087500000000001 0.004911 -178.169518 
2.1093750000000000 0.004905 -178.752154 
2.1099999999999999 0.004965 179.466240 
2.1106250000000002 0.005030 178.182947 
2.1112500000000001 0.005046 177.243174 
2.1118749999999999 0.005062 174.383650 
2.1124999999999998 0.005101 172.401996 
2.1131250000000001 0.005111 169.798188 
2.1137500000000000 0.005061 167.330676 
2.1143749999999999 0.004996 163.869069 
2.1150000000000002 0.004908 161.168944 
2.1156250000000001 0.004769 158.652804 
2.1162500000000000 0.004658 155.346117 
2.1168749999999998 0.004470 151.668815 
2.1175000000000002 0.004253 149.136483 
2.1181250000000000 0.004051 146.433395 
2.1187499999999999 0.003835 143.313921 
2.1193749999999998 0.003632 140.753990 
2.1200000000000001 0.003336 138.581400 
2.1206250000000000 0.003167 136.720186 
2.1212499999999999 0.002939 135.604751 
2.1218750000000002 0.002799 134.979286 
2.1225000000000001 0.002634 135.634524 
2.1231249999999999 0.002503 137.999802 
2.1237499999999998 0.002363 139.169807 
2.1243750000000001 0.002330 141.221182 
2.1250000000000000 0.002429 142.444085 
2.1256249999999999 0.002437 144.252487 
2.1262500000000002 0.002497 146.256820 
2.1268750000000001 0.002553 146.885726 
2.1274999999999999 0.002712 145.119798 
2.1281249999999998 0.002847 142.739494 
2.1287500000000001 0.002811 139.803021 
2.1293750000000000 0.002868 137.782697 
2.1299999999999999 0.002914 134.940317 
2.1306250000000002 0.002817 131.445051 
2.1312500000000001 0.002906 127.190523 
2.1318750000000000 0.002791 122.484326 
2.1324999999999998 0.002691 117.355000 
2.1331250000000002 0.002506 111.570602 
2.1337500000000000 0.002358 106.508885 
2.1343749999999999 0.002149 99.631627 
2.1349999999999998 0.001938 94.233269 
2.1356250000000001 0.001757 87.814437 
2.1362500000000000 0.001461 81.060172 
2.1368749999999999 0.001217 74.530263 
2.1375000000000002 0.000942 70.361788 
2.1381250000000001 0.000689 66.992191 
2.1387499999999999 0.000362 66.434007 
2.1393749999999998 0.000110 147.500214 
2.1400000000000001 0.000335 -159.015128 
2.1406250000000000 0.000660 -151.753773 
2.1412499999999999 0.000962 -157.426541 
2.1418750000000002 0.001290 -161.451993 
2.1425000000000001 0.001554 -165.536225 
2.1431249999999999 0.001852 -170.663805 
2.1437499999999998 0.002052 -176.776413 
2.1443750000000001 0.002222 178.914665 
2.1450000000000000 0.002367 174.086738 
2.1456249999999999 0.002461 168.937199 
2.1462500000000002 0.002499 164.458177 
2.1468750000000001 0.002467 160.710471 
2.1475000000000000 0.002341 156.949677 
2.1481249999999998 0.002233 153.481465 
2.1487500000000002 0.002036 151.287809 
2.1493750000000000 0.001814 151.345956 
2.1499999999999999 0.001616 152.850901 
2.1506249999999998 0.001427 160.536078 
2.1512500000000001 0.001299 171.816746 
2.1518750000000000 0.001401 -172.603074 
2.1524999999999999 0.001695 -161.924998 
2.1531250000000002 0.002067 -155.316725 
2.1537500000000001 0.002567 -151.570924 
2.1543749999999999 0.003109 -152.208605 
2.1549999999999998 0.003690 -153.948125 
2.1556250000000001 0.004455 -157.888244 
2.1562500000000000 0.005112 -161.178044 
2.1568749999999999 0.005911 -165.293369 
2.1575000000000002 0.006611 -169.571508 
2.1581250000000001 0.007318 -173.702477 
2.1587499999999999 0.008007 -178.737431 
2.1593749999999998 0.008580 177.607956 
2.1600000000000001 0.009211 172.943412 
2.1606250000000000 0.009686 167.906227 
2.1612499999999999 0.010058 164.197879 
2.1618750000000002 0.010311 160.054925 
2.1625000000000001 0.010558 157.156808 
2.1631250000000000 0.010634 153.298223 
2.1637499999999998 0.010708 150.215562 
2.1643750000000002 0.010531 147.438273 
2.1650000000000000 0.010441 145.439729 
2.1656249999999999 0.010262 145.135791 
2.1662499999999998 0.009986 145.255191 
2.1668750000000001 0.009846 147.160399 
2.1675000000000000 0.009749 150.881156 
2.1681249999999999 0.009857 155.404884 
2.1687500000000002 0.010402 161.834158 
2.1693750000000001 0.011380 166.799894 
2.1699999999999999 0.012587 172.647481 
2.1706249999999998 0.014306 175.553546 
2.1712500000000001 0.016361 179.301950 
2.1718750000000000 0.018586 -179.000380 
2.1724999999999999 0.020564 -177.887066 
2.1731250000000002 0.022973 -177.606530 
2.1737500000000001 0.024983 -178.696358 
2.1743749999999999 0.026978 -179.833914 
2.1749999999999998 0.028910 -179.977319 
2.1756250000000001 0.030312 178.561330 
2.1762500000000000 0.031561 176.653260 
2.1768749999999999 0.032501 174.524280 
2.1775000000000002 0.033027 172.457185 
2.1781250000000001 0.033195 170.701677 
2.1787500000000000 0.032940 169.088916 
2.1793749999999998 0.032316 166.917684 
2.1800000000000002 0.031161 165.621401 
2.1806250000000000 0.029656 164.431698 
2.1812499999999999 0.027707 162.988329 
2.1818749999999998 0.026079 162.438354 
2.1825000000000001 0.024030 162.497723 
2.1831250000000000 0.021769 162.834355 
2.1837499999999999 0.019677 164.263631 
2.1843750000000002 0.017909 165.946756 
2.1850000000000001 0.016184 169.120461 
2.1856249999999999 0.015115 172.843595 
2.1862499999999998 0.014132 177.156902 
2.1868750000000001 0.013814 -179.325568 
2.1875000000000000 0.013643 -175.644301 
2.1881249999999999 0.013929 -172.762584 
2.1887500000000002 0.014400 -171.445686 
2.1893750000000001 0.014813 -171.275710 
2.1899999999999999 0.015210 -172.194546 
2.1906249999999998 0.015689 -174.229626 
2.1912500000000001 0.015775 -176.443761 
2.1918750000000000 0.016000 -179.228179 
2.1924999999999999 0.015949 177.484543 
2.1931250000000002 0.015864 174.196528 
2.1937500000000001 0.015698 170.149699 
2.1943750000000000 0.015289 166.395420 
2.1949999999999998 0.014862 162.323125 
2.1956250000000002 0.014169 158.960548 
2.1962500000000000 0.013437 154.859055 
2.1968749999999999 0.012689 151.063550 
2.1974999999999998 0.011807 148.030172 
2.1981250000000001 0.010942 144.597867 
2.1987500000000000 0.010088 141.978458 
2.1993749999999999 0.009210 139.840809 
2.2000000000000002 0.008332 138.795873 
2.2006250000000001 0.007623 138.324494 
2.2012499999999999 0.006983 138.865239 
2.2018749999999998 0.006484 140.255664 
2.2025000000000001 0.006093 143.187049 
2.2031250000000000 0.005900 146.277185 
2.2037499999999999 0.005852 149.142722 
2.2043750000000002 0.005901 150.451211 
2.2050000000000001 0.006184 151.986510 
2.2056249999999999 0.006417 152.390575 
2.2062499999999998 0.006599 151.776637 
2.2068750000000001 0.007043 149.305017 
2.2075000000000000 0.007189 146.612970 
2.2081249999999999 0.007429 143.731037 
2.2087500000000002 0.007485 140.296076 
2.2093750000000001 0.007588 136.991255 
2.2100000000000000 0.007604 132.344258 
2.2106249999999998 0.007534 127.705457 
2.2112500000000002 0.007384 122.738781 
2.2118750000000000 0.007194 118.013956 
2.2124999999999999 0.006869 112.855458 
2.2131249999999998 0.006535 108.421070 
2.2137500000000001 0.006177 103.320166 
2.2143750000000000 0.005754 99.511892 
2.2149999999999999 0.005255 94.851288 
2.2156250000000002 0.004773 90.712690 
2.2162500000000001 0.004248 87.539086 
2.2168749999999999 0.003681 85.709743 
2.2174999999999998 0.003170 85.005705 
2.2181250000000001 0.002699 85.043860 
2.2187500000000000 0.002262 89.459445 
2.2193749999999999 0.001911 97.375704 
2.2200000000000002 0.001741 109.508387 
2.2206250000000001 0.001740 123.205106 
2.2212499999999999 0.001907 134.801139 
2.2218749999999998 0.002211 140.079317 
2.2225000000000001 0.002521 143.412358 
2.2231250000000000 0.002879 143.632536 
2.2237499999999999 0.003133 142.806960 
2.2243750000000002 0.003443 140.309736 
2.2250000000000001 0.003708 137.507097 
2.2256250000000000 0.003870 134.287376 
2.2262499999999998 0.003957 130.412404 
2.2268750000000002 0.004014 126.107932 
2.2275000000000000 0.004054 122.921378 
2.2281249999999999 0.004005 118.369017 
2.2287499999999998 0.003818 116.094572 
2.2293750000000001 0.003667 113.427275 
2.2300000000000000 0.003413 110.044675 
2.2306249999999999 0.003221 109.203479 
2.2312500000000002 0.002928 109.626207 
2.2318750000000001 0.002706 111.683310 
2.2324999999999999 0.002530 116.444326 
2.2331249999999998 0.002426 123.644787 
2.2337500000000001 0.002408 132.297158 
2.2343750000000000 0.002519 140.608319 
2.2349999999999999 0.002880 146.399397 
2.2356250000000002 0.003343 150.306823 
2.2362500000000001 0.003704 151.737712 
2.2368749999999999 0.004311 152.063022 
2.2374999999999998 0.004807 150.748592 
2.2381250000000001 0.005343 148.827515 
2.2387500000000000 0.005902 145.683391 
2.2393749999999999 0.006408 142.667953 
2.2400000000000002 0.006845 139.514730 
2.2406250000000001 0.007272 135.985696 
2.2412500000000000 0.007664 132.163146 
2.2418749999999998 0.008009 128.407826 
2.2425000000000002 0.008252 124.969237 
2.2431250000000000 0.008478 121.562325 
2.2437499999999999 0.008560 117.798381 
2.2443749999999998 0.008625 114.595487 
2.2450000000000001 0.008588 112.940440 
2.2456250000000000 0.008559 110.124915 
2.2462499999999999 0.008507 109.367351 
2.2468750000000002 0.008430 109.021171 
2.2475000000000001 0.008514 109.738008 
2.2481249999999999 0.008571 112.250098 
2.2487499999999998 0.008832 114.090642 
2.2493750000000001 0.009088 116.371457 
2.2500000000000000 0.009709 117.564310 
2.2506249999999999 0.010401 120.150180 
2.2512500000000002 0.011480 121.144150 
2.2518750000000001 0.012589 122.583709 
2.2524999999999999 0.014251 123.539065 
2.2531249999999998 0.015930 123.197281 
2.2537500000000001 0.017735 122.727824 
2.2543750000000000 0.019569 121.671530 
2.2549999999999999 0.021584 119.625563 
2.2556250000000002 0.023966 117.809094 
2.2562500000000001 0.026141 114.955142 
2.2568750000000000 0.028230 113.132511 
2.2574999999999998 0.030752 110.428349 
2.2581250000000002 0.033055 107.981220 
2.2587500000000000 0.035392 105.311718 
2.2593749999999999 0.037823 102.893914 
2.2599999999999998 0.040440 101.025868 
2.2606250000000001 0.042876 99.763180 
2.2612500000000000 0.045246 98.425908 
2.2618749999999999 0.048217 97.994839 
2.2625000000000002 0.051768 97.487927 
2.2631250000000001 0.055369 100.028216 
2.2637499999999999 0.059430 102.447428 
2.2643749999999998 0.063159 107.390358 
2.2650000000000001 0.067447 113.414320 
2.2656250000000000 0.071389 120.158805 
2.2662499999999999 0.076644 129.689098 
2.2668750000000002 0.077485 139.750553 
2.2675000000000001 0.079181 148.346023 
2.2681249999999999 0.078631 157.229182 
2.2687499999999998 0.077494 166.764808 
2.2693750000000001 0.077487 171.720707 
2.2700000000000000 0.074426 176.594397 
2.2706249999999999 0.072014 -179.811827 
2.2712500000000002 0.069131 -177.650251 
2.2718750000000001 0.066832 -176.341250 
2.2725000000000000 0.065020 -174.897177 
2.2731249999999998 0.062266 -175.660792 
2.2737500000000002 0.059641 -175.296616 
2.2743750000000000 0.057404 -176.693237 
2.2749999999999999 0.053981 -178.238419 
2.2756249999999998 0.051228 -179.684277 
2.2762500000000001 0.048207 177.988815 
2.2768750000000000 0.044950 175.885279 
2.2774999999999999 0.042168 173.475783 
2.2781250000000002 0.039228 171.116586 
2.2787500000000001 0.036196 168.852310 
2.2793749999999999 0.033578 166.431858 
2.2799999999999998 0.031033 164.403120 
2.2806250000000001 0.028588 162.353847 
2.2812500000000000 0.026448 161.248834 
2.2818749999999999 0.024623 160.277219 
2.2825000000000002 0.023021 159.608701 
2.2831250000000001 0.021584 159.551226 
2.2837499999999999 0.020640 159.422268 
2.2843749999999998 0.019817 160.137514 
2.2850000000000001 0.019401 160.511376 
2.2856250000000000 0.019139 161.355613 
2.2862499999999999 0.019067 161.777125 
2.2868750000000002 0.019159 161.883425 
2.2875000000000001 0.019572 161.075044 
2.2881250000000000 0.019854 159.413988 
2.2887499999999998 0.020176 157.702220 
2.2893750000000002 0.020550 155.674671 
2.2900000000000000 0.020644 152.954358 
2.2906249999999999 0.020698 150.382827 
2.2912499999999998 0.020722 146.971840 
2.2918750000000001 0.020757 143.252241 
2.2925000000000000 0.020705 139.586196 
2.2931249999999999 0.020436 135.845160 
2.2937500000000002 0.020161 132.168329 
2.2943750000000001 0.019676 127.820532 
2.2949999999999999 0.019185 124.218538 
2.2956249999999998 0.018614 120.817251 
2.2962500000000001 0.017959 117.118852 
