!
! C:\Users\rflab\Downloads\dp2_kdzw\0.S2P
!
! Touchstone 1.1 file saved by VNA.EXE V1.65 (www.ke5fx.com/gpib/readme.htm)
! 12/12/2024 6:41:22 PM
!
!    Source: HEWLETT PACKARD,8753D,0,6.14
!  Min freq: 2.000000E+009 Hz
!  Max freq: 2.500000E+009 Hz
!    Points: 801
!    Params: S11 S21 S12 S22
!
!!!!!
# GHZ S MA R 50
2.0000000000000000 1.031028 3.261297 0.004776 -137.437900 0.009736 1.043920 0.359126 -4.442395 
2.0006249999999999 1.016854 3.613445 0.004662 -137.642930 0.009581 -2.216188 0.363997 -4.720158 
2.0012500000000002 1.003491 3.906104 0.004390 -137.945251 0.009572 -4.571645 0.362487 -5.178051 
2.0018750000000001 0.990223 4.259485 0.004289 -137.529864 0.009614 -7.151451 0.364982 -5.799496 
2.0024999999999999 0.977628 4.457967 0.004138 -138.081864 0.009568 -9.246375 0.364973 -6.199462 
2.0031249999999998 0.962940 4.733786 0.004032 -135.966719 0.009444 -12.743747 0.369645 -6.772982 
2.0037500000000001 0.949005 4.929201 0.003899 -135.495447 0.009592 -14.978568 0.369506 -6.930445 
2.0043750000000000 0.936043 5.158915 0.003869 -134.665496 0.009467 -17.893761 0.369189 -7.664592 
2.0049999999999999 0.922228 5.224985 0.003835 -133.692775 0.009301 -20.952098 0.372257 -7.911556 
2.0056250000000002 0.907297 5.156394 0.003765 -131.859379 0.009317 -23.720721 0.374505 -8.717766 
2.0062500000000001 0.895687 5.392027 0.003764 -132.262209 0.009148 -26.725317 0.373422 -9.108216 
2.0068750000000000 0.882217 5.319318 0.003731 -132.218529 0.009006 -28.880173 0.376044 -9.477612 
2.0074999999999998 0.871055 5.315105 0.003781 -131.756259 0.008892 -31.978679 0.376583 -9.930247 
2.0081250000000002 0.858558 4.910106 0.003679 -131.266266 0.008791 -34.807184 0.378571 -10.558086 
2.0087500000000000 0.850178 4.673802 0.003658 -131.800689 0.008605 -37.470633 0.379782 -10.781713 
2.0093749999999999 0.839305 4.797204 0.003674 -132.901672 0.008385 -39.100496 0.381094 -11.361222 
2.0099999999999998 0.825726 4.553323 0.003686 -134.030220 0.008235 -41.450591 0.382059 -11.883475 
2.0106250000000001 0.815463 4.296745 0.003664 -134.807571 0.008146 -42.390335 0.383636 -12.202034 
2.0112500000000000 0.810174 4.214473 0.003652 -136.958983 0.008103 -44.117866 0.385157 -12.638860 
2.0118749999999999 0.801902 3.927931 0.003523 -138.309945 0.008007 -45.805839 0.387211 -13.068572 
2.0125000000000002 0.793953 3.700247 0.003462 -140.145409 0.007920 -46.847924 0.388218 -13.415762 
2.0131250000000001 0.787054 3.574674 0.003403 -142.532847 0.007971 -48.001962 0.388474 -13.876863 
2.0137499999999999 0.778300 3.223322 0.003301 -143.966852 0.007951 -49.566801 0.390220 -14.062869 
2.0143749999999998 0.774738 3.034731 0.003137 -146.991194 0.007979 -51.120662 0.391775 -14.602378 
2.0150000000000001 0.765101 3.020353 0.003113 -148.458186 0.008137 -53.292276 0.392655 -15.001838 
2.0156250000000000 0.761263 2.766518 0.002921 -150.270200 0.008265 -55.474279 0.392785 -15.183480 
2.0162499999999999 0.750888 2.483077 0.002846 -151.836602 0.008200 -57.281192 0.393506 -15.548966 
2.0168750000000002 0.742915 2.194097 0.002735 -151.349286 0.008316 -59.106109 0.393830 -16.360101 
2.0175000000000001 0.735382 1.881111 0.002626 -152.052966 0.008351 -61.517218 0.397359 -16.630549 
2.0181249999999999 0.728712 1.430239 0.002510 -151.137820 0.008471 -65.207064 0.396494 -16.872854 
2.0187499999999998 0.721490 1.151235 0.002439 -151.525890 0.008409 -67.073369 0.399199 -16.967964 
2.0193750000000001 0.715442 0.667223 0.002361 -150.032336 0.008474 -69.897903 0.396903 -17.290425 
2.0200000000000000 0.709510 0.248909 0.002284 -149.061882 0.008400 -72.886748 0.401979 -17.785690 
2.0206249999999999 0.703737 -0.126716 0.002232 -147.474361 0.008466 -75.627985 0.398793 -18.387121 
2.0212500000000002 0.699578 -0.712349 0.002190 -145.096134 0.008317 -77.944015 0.399890 -18.270405 
2.0218750000000001 0.694948 -1.079453 0.002148 -143.557454 0.008355 -80.218372 0.398504 -19.017023 
2.0225000000000000 0.691372 -1.603640 0.002137 -142.018497 0.008275 -81.256853 0.401158 -19.331594 
2.0231249999999998 0.686971 -1.995898 0.002161 -140.450598 0.008081 -83.205427 0.399967 -19.674409 
2.0237500000000002 0.683324 -2.490553 0.002182 -139.866961 0.008015 -84.835811 0.402087 -20.246338 
2.0243750000000000 0.681122 -2.971501 0.002216 -139.055642 0.008047 -86.123142 0.403231 -20.454539 
2.0249999999999999 0.678882 -3.419850 0.002248 -139.232270 0.008135 -87.416499 0.402420 -21.164788 
2.0256249999999998 0.675816 -3.738693 0.002287 -138.905382 0.008203 -88.317762 0.401781 -21.356521 
2.0262500000000001 0.672183 -4.053554 0.002347 -141.227020 0.008202 -89.510362 0.403604 -21.506569 
2.0268750000000000 0.669882 -4.433939 0.002352 -141.925807 0.008325 -91.037092 0.403049 -21.754678 
2.0274999999999999 0.668042 -4.942531 0.002399 -142.233370 0.008461 -92.234988 0.403125 -22.089358 
2.0281250000000002 0.663803 -5.257149 0.002413 -145.091463 0.008698 -93.422532 0.403362 -22.417633 
2.0287500000000001 0.661129 -5.639801 0.002433 -146.036654 0.008971 -95.490284 0.403812 -22.667832 
2.0293749999999999 0.656986 -6.055395 0.002430 -148.464505 0.009274 -97.929697 0.403638 -22.894278 
2.0299999999999998 0.653510 -6.607297 0.002429 -149.269668 0.009512 -99.991173 0.404202 -23.236646 
2.0306250000000001 0.648832 -6.921118 0.002420 -150.990359 0.009741 -102.288486 0.404576 -23.446868 
2.0312500000000000 0.649597 -7.477247 0.002379 -152.654249 0.010077 -105.136456 0.404049 -23.670510 
2.0318749999999999 0.644967 -8.146972 0.002353 -152.448185 0.010266 -108.501430 0.404708 -23.839658 
2.0325000000000002 0.644489 -8.438201 0.002303 -154.463073 0.010517 -111.607486 0.404844 -24.031993 
2.0331250000000001 0.643898 -9.281516 0.002255 -152.800962 0.010541 -114.743822 0.402450 -24.200700 
2.0337499999999999 0.642934 -9.993489 0.002226 -152.286460 0.010878 -118.383763 0.403858 -24.636193 
2.0343749999999998 0.641843 -10.315081 0.002195 -152.652693 0.011007 -122.076161 0.403151 -24.935541 
2.0350000000000001 0.641958 -10.551389 0.002160 -151.480375 0.011006 -124.923281 0.404060 -24.961478 
2.0356250000000000 0.639719 -11.201118 0.002183 -150.653675 0.011062 -128.122133 0.403433 -25.180017 
2.0362499999999999 0.638760 -11.807595 0.002172 -149.278965 0.011365 -130.923587 0.401736 -25.928547 
2.0368750000000002 0.639705 -12.231448 0.002203 -148.286467 0.011222 -134.555856 0.402017 -25.469890 
2.0375000000000001 0.638802 -12.714367 0.002262 -146.822467 0.011271 -136.868612 0.403164 -25.829937 
2.0381250000000000 0.640025 -13.154951 0.002312 -145.795432 0.011439 -139.876403 0.403617 -26.189195 
2.0387499999999998 0.639261 -13.657440 0.002388 -145.580154 0.011552 -142.075234 0.404454 -26.244109 
2.0393750000000002 0.638455 -14.117944 0.002504 -145.223423 0.011579 -145.218293 0.402137 -26.754645 
2.0400000000000000 0.638019 -14.441707 0.002623 -146.282488 0.011692 -148.009478 0.401415 -26.329348 
2.0406249999999999 0.636646 -14.848268 0.002703 -147.314876 0.011795 -150.064348 0.403231 -27.104165 
2.0412499999999998 0.637302 -15.423800 0.002836 -148.514951 0.011733 -153.330821 0.405055 -26.609453 
2.0418750000000001 0.637464 -15.912620 0.002927 -150.595474 0.011924 -155.454030 0.406764 -26.782284 
2.0425000000000000 0.636684 -16.361487 0.003065 -152.282969 0.012053 -159.204646 0.406469 -26.919031 
2.0431249999999999 0.637062 -17.085171 0.003150 -153.756901 0.012273 -161.684726 0.409751 -27.505933 
2.0437500000000002 0.637619 -17.595482 0.003242 -156.852850 0.012258 -165.229666 0.408763 -27.332186 
2.0443750000000001 0.637694 -18.152277 0.003329 -158.547630 0.012489 -168.315951 0.410134 -27.516488 
2.0449999999999999 0.637219 -18.837576 0.003412 -161.147201 0.012543 -171.641338 0.410769 -27.676862 
2.0456249999999998 0.638620 -19.467070 0.003466 -163.796874 0.012451 -175.021705 0.412676 -27.542844 
2.0462500000000001 0.639759 -20.034941 0.003491 -165.910604 0.012582 -178.657986 0.410997 -27.645791 
2.0468750000000000 0.643618 -20.712165 0.003474 -167.248544 0.012622 177.442747 0.412044 -27.713285 
2.0474999999999999 0.646383 -21.291545 0.003512 -169.715331 0.012551 174.709398 0.413559 -27.712857 
2.0481250000000002 0.649368 -21.906917 0.003481 -171.897092 0.012449 171.377643 0.413901 -27.893314 
2.0487500000000001 0.652426 -22.467307 0.003445 -173.333364 0.012388 168.399404 0.414785 -27.871631 
2.0493749999999999 0.657057 -22.917303 0.003373 -174.609014 0.012271 165.227207 0.416244 -28.017378 
2.0499999999999998 0.659198 -23.493598 0.003339 -175.694479 0.012200 162.761931 0.416913 -28.287119 
2.0506250000000001 0.663383 -23.963826 0.003270 -176.922006 0.012030 159.769311 0.418466 -28.144260 
2.0512500000000000 0.668066 -24.424891 0.003211 -176.667263 0.011974 157.123175 0.419469 -28.302739 
2.0518749999999999 0.671093 -24.851936 0.003191 -176.860891 0.011892 154.846806 0.420837 -28.311029 
2.0525000000000002 0.675065 -25.250204 0.003134 -176.284062 0.011916 152.013688 0.422644 -28.477562 
2.0531250000000001 0.678994 -25.761173 0.003109 -175.275041 0.011750 149.423046 0.423386 -28.653471 
2.0537500000000000 0.681928 -26.232506 0.003122 -174.188848 0.011697 147.477395 0.425488 -28.597184 
2.0543749999999998 0.686380 -26.637967 0.003175 -172.839230 0.011669 145.508600 0.427372 -28.951685 
2.0550000000000002 0.691383 -27.155457 0.003263 -171.636062 0.011698 142.276188 0.428212 -28.884848 
2.0556250000000000 0.695840 -27.765326 0.003325 -170.781521 0.011765 140.756997 0.429263 -29.138082 
2.0562499999999999 0.699042 -28.238752 0.003471 -170.376591 0.011934 138.009046 0.431274 -29.342073 
2.0568749999999998 0.705797 -28.896758 0.003638 -169.110502 0.011809 135.997971 0.436098 -29.151576 
2.0575000000000001 0.710777 -29.486130 0.003839 -169.069716 0.011892 133.853003 0.438455 -29.537627 
2.0581250000000000 0.717099 -30.008609 0.004023 -169.386604 0.011904 130.171129 0.436944 -29.447559 
2.0587499999999999 0.726020 -30.549073 0.004269 -169.982196 0.011997 127.724384 0.439312 -29.661939 
2.0593750000000002 0.732975 -31.127406 0.004483 -170.707512 0.012089 125.304912 0.443229 -29.650442 
2.0600000000000001 0.741470 -31.635928 0.004699 -171.491229 0.012089 123.026902 0.444248 -29.824948 
2.0606249999999999 0.751386 -31.974305 0.004958 -172.575958 0.012067 119.812839 0.450658 -30.253090 
2.0612499999999998 0.763117 -32.490169 0.005204 -173.962418 0.012200 117.031751 0.451367 -30.407017 
2.0618750000000001 0.773931 -32.870428 0.005365 -175.143960 0.012055 114.600383 0.452820 -30.361774 
2.0625000000000000 0.784568 -33.298180 0.005639 -176.458572 0.012059 111.537199 0.454667 -30.439418 
2.0631249999999999 0.796384 -33.591419 0.005745 -177.771356 0.012072 108.731233 0.458850 -30.433087 
2.0637500000000002 0.809590 -33.842218 0.005970 -179.199065 0.012015 106.472307 0.461660 -30.518157 
2.0643750000000001 0.822364 -34.023841 0.006121 179.415275 0.012034 104.048352 0.463536 -30.666172 
2.0649999999999999 0.834106 -34.131941 0.006249 178.211595 0.012026 101.750587 0.465283 -31.041741 
2.0656249999999998 0.847930 -34.326065 0.006389 176.752812 0.011964 99.097042 0.467125 -31.220540 
2.0662500000000001 0.861144 -34.468367 0.006528 175.827605 0.011932 97.483430 0.470507 -31.362089 
2.0668750000000000 0.874309 -34.516561 0.006663 174.974485 0.011912 94.474517 0.472730 -31.561945 
2.0674999999999999 0.890590 -34.632693 0.006717 174.235173 0.011943 92.514790 0.475664 -31.830630 
2.0681250000000002 0.903882 -34.702006 0.006878 173.291320 0.011960 90.520856 0.477675 -32.027884 
2.0687500000000001 0.920709 -34.753047 0.006993 173.469111 0.012032 89.107593 0.479967 -32.265269 
2.0693750000000000 0.938120 -34.745726 0.007164 172.642494 0.012022 87.146786 0.484137 -32.504990 
2.0699999999999998 0.955391 -34.829193 0.007362 172.852891 0.012142 84.584945 0.487211 -32.837007 
2.0706250000000002 0.975095 -34.709670 0.007601 173.096126 0.012272 82.992338 0.490482 -33.027603 
2.0712500000000000 0.995408 -34.639162 0.007832 172.935989 0.012382 80.664643 0.493087 -33.271086 
2.0718749999999999 1.018951 -34.417313 0.008174 173.653167 0.012528 78.915473 0.496599 -33.451788 
2.0724999999999998 1.040927 -34.155026 0.008495 174.007155 0.012708 76.757883 0.499692 -33.714815 
2.0731250000000001 1.064685 -33.675946 0.008838 174.324163 0.012829 74.799979 0.504041 -33.985923 
2.0737500000000000 1.089089 -33.123211 0.009190 174.784036 0.012997 72.394672 0.507573 -34.099483 
2.0743749999999999 1.115286 -32.544663 0.009533 175.188042 0.013184 70.313974 0.510666 -34.394251 
2.0750000000000002 1.140367 -31.707951 0.009915 175.000659 0.013342 67.907682 0.513665 -34.664899 
2.0756250000000001 1.167350 -30.725882 0.010278 176.305104 0.013473 65.451322 0.517291 -34.814659 
2.0762499999999999 1.190134 -29.655947 0.010666 176.911817 0.013564 63.293527 0.518754 -35.154663 
2.0768749999999998 1.211788 -28.590419 0.010936 176.975789 0.013614 62.100327 0.523777 -35.366150 
2.0775000000000001 1.236965 -27.337578 0.011461 177.247950 0.013851 59.429641 0.526297 -35.591359 
2.0781250000000000 1.254737 -25.885739 0.011504 178.004688 0.013841 57.859444 0.528615 -35.794152 
2.0787499999999999 1.272063 -24.579108 0.011614 178.249545 0.013804 55.575971 0.531948 -36.127669 
2.0793750000000002 1.285576 -23.121440 0.011819 178.330813 0.014003 53.616301 0.534398 -36.215497 
2.0800000000000001 1.298812 -21.580911 0.011934 178.232401 0.013982 51.533065 0.535703 -36.433173 
2.0806249999999999 1.310851 -20.114848 0.011993 178.854056 0.014017 49.973312 0.540259 -36.910679 
2.0812499999999998 1.318958 -18.575808 0.011881 179.123831 0.013947 48.914684 0.546143 -37.256649 
2.0818750000000001 1.323966 -17.135157 0.011892 178.860394 0.013998 46.885519 0.546285 -37.434521 
2.0825000000000000 1.328247 -15.613037 0.011715 179.603546 0.014033 45.239544 0.552245 -37.715311 
2.0831249999999999 1.331104 -14.054083 0.011772 -179.981433 0.013939 43.339350 0.554570 -38.152619 
2.0837500000000002 1.328012 -12.455974 0.011369 -179.653966 0.014071 41.980863 0.556785 -38.401342 
2.0843750000000001 1.324080 -11.098604 0.011238 -179.290099 0.014196 40.717371 0.559048 -38.753109 
2.0850000000000000 1.319688 -9.423116 0.011009 -177.693817 0.014116 38.554015 0.563179 -39.121419 
2.0856249999999998 1.314301 -7.941203 0.010826 -175.956277 0.014442 38.013357 0.565836 -39.417030 
2.0862500000000002 1.301595 -6.410510 0.010577 -174.984943 0.014452 35.513950 0.570739 -39.782826 
2.0868750000000000 1.288210 -4.865090 0.010360 -172.945967 0.014481 33.628329 0.575512 -40.143227 
2.0874999999999999 1.273121 -3.496146 0.010084 -170.484674 0.014363 31.501707 0.577864 -40.521546 
2.0881249999999998 1.253811 -2.220713 0.009809 -169.034204 0.014428 29.465850 0.581671 -40.719330 
2.0887500000000001 1.236199 -0.967522 0.009670 -167.330227 0.014405 27.445499 0.586113 -41.157861 
2.0893750000000000 1.212281 0.060577 0.009398 -165.174758 0.014362 24.795205 0.589638 -41.351070 
2.0899999999999999 1.191981 1.073842 0.009291 -163.790845 0.014510 22.638842 0.593567 -41.815552 
2.0906250000000002 1.170920 1.971537 0.009017 -162.335437 0.014297 20.246275 0.597590 -42.122926 
2.0912500000000001 1.150509 2.764048 0.008956 -161.706865 0.014368 17.598483 0.601295 -42.404166 
2.0918749999999999 1.130203 3.433507 0.008845 -161.254431 0.014307 15.099191 0.604459 -42.718710 
2.0924999999999998 1.109952 4.051946 0.008876 -161.112455 0.014220 12.621339 0.607571 -42.984952 
2.0931250000000001 1.091355 4.606373 0.008737 -161.268388 0.014170 10.054107 0.611296 -43.262335 
2.0937500000000000 1.072244 5.140392 0.008688 -161.571018 0.013995 7.878588 0.613353 -43.697685 
2.0943749999999999 1.053596 5.625054 0.008668 -162.335538 0.013997 5.269890 0.616900 -44.074017 
2.0950000000000002 1.036060 5.961479 0.008529 -163.406916 0.013922 3.188539 0.619438 -44.441114 
2.0956250000000001 1.018181 6.519216 0.008438 -164.275194 0.013873 0.259952 0.622474 -44.900686 
2.0962499999999999 1.000134 6.827499 0.008372 -165.671699 0.013710 -2.296266 0.625301 -45.096883 
2.0968749999999998 0.983406 7.202204 0.008300 -166.588896 0.013656 -4.173139 0.630073 -45.698595 
2.0975000000000001 0.965500 7.511828 0.008150 -168.138448 0.013650 -6.956205 0.629436 -46.025417 
2.0981250000000000 0.948625 7.676009 0.007965 -169.350005 0.013581 -8.721844 0.632202 -46.629313 
2.0987499999999999 0.929784 7.927448 0.007765 -170.291840 0.013651 -11.219268 0.635189 -46.962456 
2.0993750000000002 0.912939 7.861948 0.007476 -171.682285 0.013656 -13.346255 0.638682 -47.313976 
2.1000000000000001 0.897283 7.972468 0.007294 -172.778353 0.013499 -15.519780 0.643987 -47.813799 
2.1006250000000000 0.879766 7.879385 0.007002 -173.776145 0.013556 -18.459800 0.645810 -48.193104 
2.1012499999999998 0.865346 7.730036 0.006781 -174.662225 0.013555 -20.381240 0.651292 -48.597887 
2.1018750000000002 0.850006 7.542446 0.006483 -175.245108 0.013480 -22.407363 0.652963 -49.139035 
2.1025000000000000 0.835300 7.369857 0.006209 -176.460033 0.013398 -25.758883 0.655733 -49.656697 
2.1031249999999999 0.824677 7.010093 0.005917 -176.872546 0.013465 -27.940835 0.658256 -50.002612 
2.1037499999999998 0.812073 6.742038 0.005650 -176.954554 0.013412 -29.737815 0.663232 -50.564047 
2.1043750000000001 0.802634 6.337062 0.005449 -177.800774 0.013244 -31.989428 0.665034 -50.973099 
2.1050000000000000 0.793047 6.087940 0.005233 -177.103964 0.013384 -33.422827 0.668724 -51.386336 
2.1056249999999999 0.784838 5.820323 0.005093 -177.351890 0.013589 -36.009778 0.673700 -51.773093 
2.1062500000000002 0.774685 5.499931 0.005016 -177.212937 0.013485 -37.071279 0.677293 -52.299816 
2.1068750000000001 0.767023 5.184108 0.004902 -176.955725 0.013748 -39.320577 0.679054 -52.635191 
2.1074999999999999 0.759621 4.934343 0.004894 -177.439767 0.013718 -41.493935 0.680197 -52.963528 
2.1081249999999998 0.752796 4.575959 0.004830 -177.838494 0.014092 -43.535756 0.683542 -53.426837 
2.1087500000000001 0.744816 4.375476 0.004906 -178.663314 0.014121 -45.556835 0.686911 -53.874933 
2.1093750000000000 0.737346 4.084607 0.004913 -179.165897 0.014389 -47.691577 0.689943 -54.292926 
2.1099999999999999 0.728542 3.703438 0.004993 179.433650 0.014721 -49.374343 0.690804 -54.751268 
2.1106250000000002 0.720558 3.508672 0.005041 178.658584 0.014738 -52.207287 0.694422 -55.155473 
2.1112500000000001 0.712759 3.077768 0.005044 176.436173 0.015144 -54.465260 0.696138 -55.717082 
2.1118749999999999 0.704917 2.704723 0.005095 174.899507 0.015360 -57.295128 0.695637 -56.186537 
2.1124999999999998 0.698057 2.204815 0.005111 172.069088 0.015386 -60.305339 0.696852 -56.689908 
2.1131250000000001 0.689833 1.741618 0.005118 169.943930 0.015874 -63.678937 0.700168 -57.222163 
2.1137500000000000 0.683058 1.141767 0.005075 167.493678 0.015877 -66.672625 0.703575 -57.601052 
2.1143749999999999 0.678595 0.595229 0.004978 164.724420 0.016083 -69.036760 0.704215 -58.479684 
2.1150000000000002 0.673829 0.088227 0.004904 161.397699 0.016188 -71.994149 0.705626 -58.648665 
2.1156250000000001 0.667940 -0.560217 0.004807 158.426547 0.016259 -74.670895 0.707295 -59.336411 
2.1162500000000000 0.664004 -1.111326 0.004614 155.263728 0.016265 -77.670148 0.705332 -59.518365 
2.1168749999999998 0.662137 -1.642761 0.004442 152.450274 0.016599 -80.769294 0.707224 -60.884402 
2.1175000000000002 0.658925 -2.181793 0.004237 148.859877 0.016506 -81.956034 0.715430 -61.071214 
2.1181250000000000 0.656413 -2.782060 0.004024 145.966304 0.016609 -84.854414 0.714202 -61.474725 
2.1187499999999999 0.653814 -3.141261 0.003829 143.471138 0.016854 -86.983453 0.720256 -62.307941 
2.1193749999999998 0.652742 -3.463044 0.003585 140.552966 0.017196 -88.868717 0.715996 -62.718490 
2.1200000000000001 0.651371 -3.927641 0.003363 138.295965 0.017432 -90.394964 0.724015 -62.985648 
2.1206250000000000 0.648152 -4.331254 0.003125 137.043317 0.017845 -92.634263 0.724840 -63.542832 
2.1212499999999999 0.646406 -4.706583 0.002938 136.045450 0.018313 -94.989126 0.725840 -63.850797 
