!
! C:\Users\rflab\Downloads\dp2_kdzw\100.S1P
!
! Touchstone 1.1 file saved by VNA.EXE V1.65 (www.ke5fx.com/gpib/readme.htm)
! 12/12/2024 7:17:37 PM
!
!    Source: HEWLETT PACKARD,8753D,0,6.14
!  Min freq: 2.000000E+009 Hz
!  Max freq: 2.500000E+009 Hz
!    Points: 801
!    Params: S21
!
!!!!!
# GHZ S MA R 50
2.0000000000000000 0.001889 125.330507 
2.0006249999999999 0.001867 126.125571 
2.0012500000000002 0.001748 125.910153 
2.0018750000000001 0.001694 124.637516 
2.0024999999999999 0.001664 125.402634 
2.0031249999999998 0.001570 125.878982 
2.0037500000000001 0.001532 126.758418 
2.0043750000000000 0.001531 126.190059 
2.0049999999999999 0.001467 129.030621 
2.0056250000000002 0.001453 130.128147 
2.0062500000000001 0.001479 130.509151 
2.0068750000000000 0.001476 129.185207 
2.0074999999999998 0.001493 129.962566 
2.0081250000000002 0.001445 130.171138 
2.0087500000000000 0.001451 129.306612 
2.0093749999999999 0.001461 127.875395 
2.0099999999999998 0.001439 126.606865 
2.0106250000000001 0.001468 124.646579 
2.0112500000000000 0.001453 122.764055 
2.0118749999999999 0.001397 121.182114 
2.0125000000000002 0.001378 118.748705 
2.0131250000000001 0.001337 115.223836 
2.0137499999999999 0.001331 114.780338 
2.0143749999999998 0.001251 112.448722 
2.0150000000000001 0.001232 109.052276 
2.0156250000000000 0.001195 108.764927 
2.0162499999999999 0.001134 106.925751 
2.0168750000000002 0.001088 107.374053 
2.0175000000000001 0.001093 104.437979 
2.0181249999999999 0.001040 106.374342 
2.0187499999999998 0.001006 105.780078 
2.0193750000000001 0.000941 108.717833 
2.0200000000000000 0.000935 108.344897 
2.0206249999999999 0.000893 108.772242 
2.0212500000000002 0.000895 111.311847 
2.0218750000000001 0.000900 112.810547 
2.0225000000000000 0.000866 114.344683 
2.0231249999999998 0.000897 115.421519 
2.0237500000000002 0.000913 116.442901 
2.0243750000000000 0.000920 117.082366 
2.0249999999999999 0.000941 113.628131 
2.0256249999999998 0.000955 115.377204 
2.0262500000000001 0.000980 113.009707 
2.0268750000000000 0.001002 113.229473 
2.0274999999999999 0.001018 111.267614 
2.0281250000000002 0.001013 108.466930 
2.0287500000000001 0.001023 107.441821 
2.0293749999999999 0.001039 104.391839 
2.0299999999999998 0.001045 104.086177 
2.0306250000000001 0.001050 101.133845 
2.0312500000000000 0.000996 99.528822 
2.0318749999999999 0.001035 98.701496 
2.0325000000000002 0.000984 98.048140 
2.0331250000000001 0.000970 98.258289 
2.0337499999999999 0.000964 98.208243 
2.0343749999999998 0.000947 98.228250 
2.0350000000000001 0.000922 97.893611 
2.0356250000000000 0.000932 99.792616 
2.0362499999999999 0.000936 100.049596 
2.0368750000000002 0.000962 101.298797 
2.0375000000000001 0.000990 102.443522 
2.0381250000000000 0.001031 102.909490 
2.0387499999999998 0.001071 102.678284 
2.0393750000000002 0.001121 103.408027 
2.0400000000000000 0.001146 101.745922 
2.0406249999999999 0.001211 101.014612 
2.0412499999999998 0.001274 99.481720 
2.0418750000000001 0.001322 97.202579 
2.0425000000000000 0.001383 96.604785 
2.0431249999999999 0.001427 92.547142 
2.0437500000000002 0.001477 90.818654 
2.0443750000000001 0.001530 87.427640 
2.0449999999999999 0.001518 84.704939 
2.0456249999999998 0.001559 83.290673 
2.0462500000000001 0.001583 80.223459 
2.0468750000000000 0.001595 78.409545 
2.0474999999999999 0.001586 75.141813 
2.0481250000000002 0.001577 73.739973 
2.0487500000000001 0.001567 71.861494 
2.0493749999999999 0.001536 69.984603 
2.0499999999999998 0.001533 69.125322 
2.0506250000000001 0.001515 68.848905 
2.0512500000000000 0.001473 68.357070 
2.0518749999999999 0.001470 67.548845 
2.0525000000000002 0.001424 67.064667 
2.0531250000000001 0.001429 68.813585 
2.0537500000000000 0.001440 69.825167 
2.0543749999999998 0.001448 70.142998 
2.0550000000000002 0.001458 71.630959 
2.0556250000000000 0.001555 72.552817 
2.0562499999999999 0.001598 74.029076 
2.0568749999999998 0.001689 73.093177 
2.0575000000000001 0.001764 73.348231 
2.0581250000000000 0.001865 72.962968 
2.0587499999999999 0.001985 73.025816 
2.0593750000000002 0.002083 71.252957 
2.0600000000000001 0.002218 70.608810 
2.0606249999999999 0.002295 69.863615 
2.0612499999999998 0.002429 67.801146 
2.0618750000000001 0.002472 66.196578 
2.0625000000000000 0.002632 65.555408 
2.0631249999999999 0.002665 62.907792 
2.0637500000000002 0.002772 62.217257 
2.0643750000000001 0.002806 60.378610 
2.0649999999999999 0.002904 59.556507 
2.0656249999999998 0.002967 58.771328 
2.0662500000000001 0.002986 56.927145 
2.0668750000000000 0.003033 55.599794 
2.0674999999999999 0.003093 54.767539 
2.0681250000000002 0.003185 54.826307 
2.0687500000000001 0.003219 53.539149 
2.0693750000000000 0.003308 53.639272 
2.0699999999999998 0.003416 53.575226 
2.0706250000000002 0.003487 54.195870 
2.0712500000000000 0.003581 52.878741 
2.0718749999999999 0.003739 52.547792 
2.0724999999999998 0.003804 54.105814 
2.0731250000000001 0.003967 54.370056 
2.0737500000000000 0.004222 54.485638 
2.0743749999999999 0.004408 54.382719 
2.0750000000000002 0.004560 54.494014 
2.0756250000000001 0.004678 56.298589 
2.0762499999999999 0.004914 56.518856 
2.0768749999999998 0.004992 56.700022 
2.0775000000000001 0.005192 55.820246 
2.0781250000000000 0.005293 56.271996 
2.0787499999999999 0.005353 57.134455 
2.0793750000000002 0.005356 56.191095 
2.0800000000000001 0.005387 57.246793 
2.0806249999999999 0.005398 57.726378 
2.0812499999999998 0.005359 57.402912 
2.0818750000000001 0.005277 57.843694 
2.0825000000000000 0.005356 58.221722 
2.0831249999999999 0.005349 59.003836 
2.0837500000000002 0.005172 59.829882 
2.0843750000000001 0.005126 60.038952 
2.0850000000000000 0.004936 62.989369 
2.0856249999999998 0.004832 63.450127 
2.0862500000000002 0.004773 64.127398 
2.0868750000000000 0.004539 66.173490 
2.0874999999999999 0.004529 67.958845 
2.0881249999999998 0.004313 70.608456 
2.0887500000000001 0.004259 71.738509 
2.0893750000000000 0.004111 74.464503 
2.0899999999999999 0.004044 74.946062 
2.0906250000000002 0.003986 76.698549 
2.0912500000000001 0.003889 77.311559 
2.0918749999999999 0.003890 78.757894 
2.0924999999999998 0.003826 79.053181 
2.0931250000000001 0.003755 78.860568 
2.0937500000000000 0.003723 79.685970 
2.0943749999999999 0.003696 77.400037 
2.0950000000000002 0.003633 77.021581 
2.0956250000000001 0.003530 76.046337 
2.0962499999999999 0.003477 74.820844 
2.0968749999999998 0.003479 73.418467 
2.0975000000000001 0.003339 72.870658 
2.0981250000000000 0.003257 72.301276 
2.0987499999999999 0.003152 70.805781 
2.0993750000000002 0.003015 69.145434 
2.1000000000000001 0.002913 68.803038 
2.1006250000000000 0.002857 68.187037 
2.1012499999999998 0.002616 66.917614 
2.1018750000000002 0.002514 66.545955 
2.1025000000000000 0.002419 65.943759 
2.1031249999999999 0.002269 65.443945 
2.1037499999999998 0.002189 63.596845 
2.1043750000000001 0.002071 65.510185 
2.1050000000000000 0.001986 64.367799 
2.1056249999999999 0.001923 65.578674 
2.1062500000000002 0.001828 67.554923 
2.1068750000000001 0.001814 65.535327 
2.1074999999999999 0.001778 66.163306 
2.1081249999999998 0.001709 66.055568 
2.1087500000000001 0.001736 64.755942 
2.1093750000000000 0.001740 64.989860 
2.1099999999999999 0.001798 64.002323 
2.1106250000000002 0.001773 62.644339 
2.1112500000000001 0.001752 61.437779 
2.1118749999999999 0.001722 58.232165 
2.1124999999999998 0.001773 56.686056 
2.1131250000000001 0.001715 54.229436 
2.1137500000000000 0.001692 52.947596 
2.1143749999999999 0.001639 50.853986 
2.1150000000000002 0.001594 48.949884 
2.1156250000000001 0.001524 44.581688 
2.1162500000000000 0.001485 40.751467 
2.1168749999999998 0.001414 38.290176 
2.1175000000000002 0.001348 34.422168 
2.1181250000000000 0.001252 32.451946 
2.1187499999999999 0.001174 30.413036 
2.1193749999999998 0.001103 27.221462 
2.1200000000000001 0.001036 25.577034 
2.1206250000000000 0.000952 25.746824 
2.1212499999999999 0.000860 24.938465 
2.1218750000000002 0.000800 23.894029 
2.1225000000000001 0.000760 24.801825 
2.1231249999999999 0.000741 29.134685 
2.1237499999999998 0.000675 29.546555 
2.1243750000000001 0.000680 32.038928 
2.1250000000000000 0.000690 33.184568 
2.1256249999999999 0.000690 33.584388 
2.1262500000000002 0.000715 37.080107 
2.1268750000000001 0.000723 39.137602 
2.1274999999999999 0.000761 35.202060 
2.1281249999999998 0.000761 34.918157 
2.1287500000000001 0.000732 31.592828 
2.1293750000000000 0.000767 29.741021 
2.1299999999999999 0.000760 27.132039 
2.1306250000000002 0.000745 22.292822 
2.1312500000000001 0.000756 19.906682 
2.1318750000000000 0.000702 13.884135 
2.1324999999999998 0.000681 10.240934 
2.1331250000000002 0.000639 5.146016 
2.1337500000000000 0.000583 1.986851 
2.1343749999999999 0.000524 -5.328957 
2.1349999999999998 0.000474 -10.887023 
2.1356250000000001 0.000429 -14.683740 
2.1362500000000000 0.000363 -20.018043 
2.1368749999999999 0.000293 -25.909348 
2.1375000000000002 0.000236 -28.016847 
2.1381250000000001 0.000173 -29.423707 
2.1387499999999999 0.000098 -22.640672 
2.1393749999999998 0.000057 28.326486 
2.1400000000000001 0.000089 72.607733 
2.1406250000000000 0.000149 88.522687 
2.1412499999999999 0.000209 85.527160 
2.1418750000000002 0.000279 85.659934 
2.1425000000000001 0.000337 82.724787 
2.1431249999999999 0.000378 80.329496 
2.1437499999999998 0.000438 74.566573 
2.1443750000000001 0.000474 69.260245 
2.1450000000000000 0.000500 65.952611 
2.1456249999999999 0.000496 60.311090 
2.1462500000000002 0.000515 56.456230 
2.1468750000000001 0.000513 53.252706 
2.1475000000000000 0.000476 46.533616 
2.1481249999999998 0.000452 44.794283 
2.1487500000000002 0.000400 42.278566 
2.1493750000000000 0.000351 40.978882 
2.1499999999999999 0.000317 42.527678 
2.1506249999999998 0.000268 48.458617 
2.1512500000000001 0.000228 58.910238 
2.1518750000000000 0.000230 77.060095 
2.1524999999999999 0.000283 91.951756 
2.1531250000000002 0.000333 99.407995 
2.1537500000000001 0.000431 104.077135 
2.1543749999999999 0.000538 102.004346 
2.1549999999999998 0.000618 101.071621 
2.1556250000000001 0.000763 98.022240 
2.1562500000000000 0.000892 95.930835 
2.1568749999999999 0.000972 90.729004 
2.1575000000000002 0.001128 86.828901 
2.1581250000000001 0.001224 81.647016 
2.1587499999999999 0.001340 77.143101 
2.1593749999999998 0.001417 72.936776 
2.1600000000000001 0.001511 69.140006 
2.1606250000000000 0.001593 62.541239 
2.1612499999999999 0.001619 59.231578 
2.1618750000000002 0.001669 53.924179 
2.1625000000000001 0.001664 50.170771 
2.1631250000000000 0.001708 45.695786 
2.1637499999999998 0.001756 42.361464 
2.1643750000000002 0.001688 39.273057 
2.1650000000000000 0.001608 41.114186 
2.1656249999999999 0.001594 37.804712 
2.1662499999999998 0.001553 37.355834 
2.1668750000000001 0.001452 40.190229 
2.1675000000000000 0.001428 42.557745 
2.1681249999999999 0.001481 48.721036 
2.1687500000000002 0.001582 54.012932 
2.1693750000000001 0.001753 56.882062 
2.1699999999999999 0.001900 62.357667 
2.1706249999999998 0.002145 66.281623 
2.1712500000000001 0.002492 66.610282 
2.1718750000000000 0.002892 70.277547 
2.1724999999999999 0.003138 70.655101 
2.1731250000000002 0.003526 68.808668 
2.1737500000000001 0.003756 68.928018 
2.1743749999999999 0.004153 66.569901 
2.1749999999999998 0.004459 64.515981 
2.1756250000000001 0.004779 61.140869 
2.1762500000000000 0.004936 58.942265 
2.1768749999999999 0.004837 57.398840 
2.1775000000000002 0.004945 54.113579 
2.1781250000000001 0.005017 52.783725 
2.1787500000000000 0.004970 48.716851 
2.1793749999999998 0.004927 47.512032 
2.1800000000000002 0.004667 45.579560 
2.1806250000000000 0.004583 43.866039 
2.1812499999999999 0.004509 42.027302 
2.1818749999999998 0.004021 41.415725 
2.1825000000000001 0.003616 41.717624 
2.1831250000000000 0.003345 41.327298 
2.1837499999999999 0.002991 42.373244 
2.1843750000000002 0.002696 41.683829 
2.1850000000000001 0.002472 47.932472 
2.1856249999999999 0.002311 52.563700 
2.1862499999999998 0.002218 54.729776 
2.1868750000000001 0.002173 58.337734 
2.1875000000000000 0.002185 63.574763 
2.1881249999999999 0.002226 61.750798 
2.1887500000000002 0.002265 65.850085 
2.1893750000000001 0.002312 63.535360 
2.1899999999999999 0.002483 63.690825 
2.1906249999999998 0.002385 60.328647 
2.1912500000000001 0.002401 58.011504 
2.1918750000000000 0.002474 55.615464 
2.1924999999999999 0.002444 51.665382 
2.1931250000000002 0.002474 50.316038 
2.1937500000000001 0.002506 43.492575 
2.1943750000000000 0.002423 42.681500 
2.1949999999999998 0.002259 37.113025 
2.1956250000000002 0.002140 31.469491 
2.1962500000000000 0.002154 28.045818 
2.1968749999999999 0.001923 27.281397 
2.1974999999999998 0.001869 22.488745 
2.1981250000000001 0.001782 19.577135 
2.1987500000000000 0.001562 16.094936 
2.1993749999999999 0.001413 14.973452 
2.2000000000000002 0.001326 14.520331 
2.2006250000000001 0.001205 12.881794 
2.2012499999999999 0.001133 12.412722 
2.2018749999999998 0.001054 14.220086 
2.2025000000000001 0.001018 17.653906 
2.2031250000000000 0.000968 19.103498 
2.2037499999999999 0.000935 21.578968 
2.2043750000000002 0.001016 24.228436 
2.2050000000000001 0.001028 21.044552 
2.2056249999999999 0.001083 24.920300 
2.2062499999999998 0.001111 20.333282 
2.2068750000000001 0.001154 21.770635 
2.2075000000000000 0.001191 19.286536 
2.2081249999999999 0.001244 15.042287 
2.2087500000000002 0.001240 10.674955 
2.2093750000000001 0.001244 7.028957 
2.2100000000000000 0.001250 3.284287 
2.2106249999999998 0.001258 -1.541997 
2.2112500000000002 0.001240 -6.546380 
2.2118750000000000 0.001229 -9.099496 
2.2124999999999999 0.001192 -17.035729 
2.2131249999999998 0.001106 -20.729536 
2.2137500000000001 0.001047 -23.367914 
2.2143750000000000 0.000973 -30.164452 
2.2149999999999999 0.000903 -34.387326 
2.2156250000000002 0.000835 -38.025268 
2.2162500000000001 0.000731 -41.189665 
2.2168749999999999 0.000658 -46.207794 
2.2174999999999998 0.000534 -44.823690 
2.2181250000000001 0.000481 -44.726129 
2.2187500000000000 0.000401 -42.139850 
2.2193749999999999 0.000316 -36.484716 
2.2200000000000002 0.000297 -23.517713 
2.2206250000000001 0.000281 -11.441609 
2.2212499999999999 0.000311 1.609489 
2.2218749999999998 0.000357 9.644582 
2.2225000000000001 0.000409 12.920422 
2.2231250000000000 0.000459 13.069839 
2.2237499999999999 0.000516 12.737996 
2.2243750000000002 0.000586 10.651346 
2.2250000000000001 0.000609 8.513288 
2.2256250000000000 0.000635 3.747853 
2.2262499999999998 0.000677 1.521171 
2.2268750000000002 0.000665 -1.534708 
2.2275000000000000 0.000695 -5.590514 
2.2281249999999999 0.000671 -10.881011 
2.2287499999999998 0.000625 -13.008554 
2.2293750000000001 0.000619 -13.375496 
2.2300000000000000 0.000570 -16.820137 
2.2306249999999999 0.000542 -17.717999 
2.2312500000000002 0.000489 -16.935643 
2.2318750000000001 0.000429 -16.275346 
2.2324999999999999 0.000400 -12.106981 
2.2331249999999998 0.000392 -2.778280 
2.2337500000000001 0.000381 6.048444 
2.2343750000000000 0.000424 16.890506 
2.2349999999999999 0.000460 23.309773 
2.2356250000000002 0.000546 25.426230 
2.2362500000000001 0.000626 28.010512 
2.2368749999999999 0.000716 27.773858 
2.2374999999999998 0.000793 27.791212 
2.2381250000000001 0.000907 25.286333 
2.2387500000000000 0.000990 21.986457 
2.2393749999999999 0.001062 19.809764 
2.2400000000000002 0.001165 15.222733 
2.2406250000000001 0.001239 13.523506 
2.2412500000000000 0.001282 9.608556 
2.2418749999999998 0.001312 6.146663 
2.2425000000000002 0.001370 1.244280 
2.2431250000000000 0.001422 -1.837083 
2.2437499999999999 0.001412 -5.487693 
2.2443749999999998 0.001437 -8.619140 
2.2450000000000001 0.001429 -9.480390 
2.2456250000000000 0.001356 -13.571535 
2.2462499999999999 0.001348 -12.780799 
2.2468750000000002 0.001390 -11.808067 
2.2475000000000001 0.001348 -11.607504 
2.2481249999999999 0.001347 -7.022466 
2.2487499999999998 0.001430 -7.752793 
2.2493750000000001 0.001533 -5.326774 
2.2500000000000000 0.001571 -1.795681 
2.2506249999999999 0.001659 -0.808843 
2.2512500000000002 0.001850 2.510004 
2.2518750000000001 0.002004 2.218831 
2.2524999999999999 0.002274 3.940940 
2.2531249999999998 0.002551 3.520055 
2.2537500000000001 0.002723 1.422573 
2.2543750000000000 0.003006 1.886147 
2.2549999999999999 0.003435 -0.338013 
2.2556250000000002 0.003653 -0.665722 
2.2562500000000001 0.003977 -2.223061 
2.2568750000000000 0.004265 -6.248929 
2.2574999999999998 0.004538 -9.111918 
2.2581250000000002 0.004823 -11.511006 
2.2587500000000000 0.005126 -11.197562 
2.2593749999999999 0.005485 -15.103082 
2.2599999999999998 0.005843 -16.098248 
2.2606250000000001 0.006064 -19.309818 
2.2612500000000000 0.006491 -20.742264 
2.2618749999999999 0.006636 -21.421460 
2.2625000000000002 0.007275 -20.426373 
2.2631250000000001 0.007589 -19.417466 
2.2637499999999999 0.008259 -16.405219 
2.2643749999999998 0.008671 -15.207035 
2.2650000000000001 0.009169 -8.870538 
2.2656250000000000 0.009739 -2.508806 
2.2662499999999999 0.010672 6.521692 
2.2668750000000002 0.011370 14.181942 
2.2675000000000001 0.011953 23.372073 
2.2681249999999999 0.012082 33.085494 
2.2687499999999998 0.011848 45.081530 
2.2693750000000001 0.012062 50.914272 
2.2700000000000000 0.011687 56.178961 
2.2706249999999999 0.011585 62.293745 
2.2712500000000002 0.011286 66.235622 
2.2718750000000001 0.010543 67.620148 
2.2725000000000000 0.010367 71.906741 
2.2731249999999998 0.009583 70.611199 
2.2737500000000002 0.008976 71.294586 
2.2743750000000000 0.008519 71.662404 
2.2749999999999999 0.008280 72.754626 
2.2756249999999998 0.007550 69.757805 
2.2762500000000001 0.007031 69.579025 
2.2768750000000000 0.006398 67.058222 
2.2774999999999999 0.006051 66.492527 
2.2781250000000002 0.005632 62.050776 
2.2787500000000001 0.004878 62.144943 
2.2793749999999999 0.004646 61.079064 
2.2799999999999998 0.004220 59.286885 
2.2806250000000001 0.003952 58.048660 
2.2812500000000000 0.003414 56.350437 
2.2818749999999999 0.003288 57.687474 
2.2825000000000002 0.002971 55.028707 
2.2831250000000001 0.002868 55.873311 
2.2837499999999999 0.002650 56.102628 
2.2843749999999998 0.002576 58.172548 
2.2850000000000001 0.002507 57.432695 
2.2856250000000000 0.002342 58.377970 
2.2862499999999999 0.002424 60.751855 
2.2868750000000002 0.002421 58.854787 
2.2875000000000001 0.002336 60.813319 
2.2881250000000000 0.002493 58.852526 
2.2887499999999998 0.002480 55.612611 
2.2893750000000002 0.002434 55.827445 
2.2900000000000000 0.002397 53.008127 
2.2906249999999999 0.002471 52.053739 
2.2912499999999998 0.002533 47.992940 
2.2918750000000001 0.002387 44.449600 
2.2925000000000000 0.002387 42.899278 
2.2931249999999999 0.002371 39.147109 
2.2937500000000002 0.002264 33.370422 
2.2943750000000001 0.002188 28.391019 
2.2949999999999999 0.002133 25.356227 
2.2956249999999998 0.002081 23.184365 
2.2962500000000001 0.001932 20.983943 
2.2968750000000000 0.001943 17.383377 
2.2974999999999999 0.001854 16.152345 
2.2981250000000002 0.001718 13.307224 
2.2987500000000001 0.001608 8.460195 
2.2993749999999999 0.001530 8.133262 
2.2999999999999998 0.001412 10.112345 
2.3006250000000001 0.001449 6.491963 
2.3012500000000000 0.001277 5.096648 
2.3018749999999999 0.001319 6.999732 
2.3025000000000002 0.001264 9.432119 
2.3031250000000001 0.001247 10.580631 
2.3037500000000000 0.001176 10.134982 
2.3043749999999998 0.001263 11.782085 
2.3050000000000002 0.001324 10.672724 
