!
! C:\Users\rflab\Downloads\dp2_kdzw\120.S1P
!
! Touchstone 1.1 file saved by VNA.EXE V1.65 (www.ke5fx.com/gpib/readme.htm)
! 12/12/2024 7:01:30 PM
!
!    Source: HEWLETT PACKARD,8753D,0,6.14
!  Min freq: 2.000000E+009 Hz
!  Max freq: 2.500000E+009 Hz
!    Points: 801
!    Params: S21
!
!!!!!
# GHZ S MA R 50
2.0000000000000000 0.001569 102.910417 
2.0006249999999999 0.001548 102.581463 
2.0012500000000002 0.001477 103.563923 
2.0018750000000001 0.001444 102.443640 
2.0024999999999999 0.001357 104.127816 
2.0031249999999998 0.001340 104.342784 
2.0037500000000001 0.001294 104.220556 
2.0043750000000000 0.001267 105.610571 
2.0049999999999999 0.001276 109.045846 
2.0056250000000002 0.001221 111.122472 
2.0062500000000001 0.001273 109.888713 
2.0068750000000000 0.001265 110.299416 
2.0074999999999998 0.001253 110.866335 
2.0081250000000002 0.001220 112.877773 
2.0087500000000000 0.001209 112.551180 
2.0093749999999999 0.001221 109.245166 
2.0099999999999998 0.001234 108.802453 
2.0106250000000001 0.001218 108.466859 
2.0112500000000000 0.001210 106.221376 
2.0118749999999999 0.001145 104.908375 
2.0125000000000002 0.001173 103.420964 
2.0131250000000001 0.001136 100.384724 
2.0137499999999999 0.001095 100.364560 
2.0143749999999998 0.001040 99.647501 
2.0150000000000001 0.001055 94.557793 
2.0156250000000000 0.000988 94.244437 
2.0162499999999999 0.000974 92.573261 
2.0168750000000002 0.000945 92.399177 
2.0175000000000001 0.000900 92.524249 
2.0181249999999999 0.000863 94.045283 
2.0187499999999998 0.000813 92.262158 
2.0193750000000001 0.000786 93.860919 
2.0200000000000000 0.000765 94.870759 
2.0206249999999999 0.000757 97.780104 
2.0212500000000002 0.000721 100.690843 
2.0218750000000001 0.000726 101.500861 
2.0225000000000000 0.000739 103.799129 
2.0231249999999998 0.000741 105.203784 
2.0237500000000002 0.000721 103.708923 
2.0243750000000000 0.000760 105.671481 
2.0249999999999999 0.000755 104.738732 
2.0256249999999998 0.000773 104.447531 
2.0262500000000001 0.000807 104.406670 
2.0268750000000000 0.000795 103.071598 
2.0274999999999999 0.000828 102.354324 
2.0281250000000002 0.000833 98.274673 
2.0287500000000001 0.000821 97.848265 
2.0293749999999999 0.000846 93.343459 
2.0299999999999998 0.000844 92.966752 
2.0306250000000001 0.000805 93.138650 
2.0312500000000000 0.000796 90.298268 
2.0318749999999999 0.000797 89.680756 
2.0325000000000002 0.000787 87.867815 
2.0331250000000001 0.000766 88.909911 
2.0337499999999999 0.000766 89.204000 
2.0343749999999998 0.000739 89.216694 
2.0350000000000001 0.000708 90.878213 
2.0356250000000000 0.000734 90.537568 
2.0362499999999999 0.000756 92.544705 
2.0368750000000002 0.000741 92.241046 
2.0375000000000001 0.000775 94.716430 
2.0381250000000000 0.000777 94.064324 
2.0387499999999998 0.000813 94.437378 
2.0393750000000002 0.000847 94.170688 
2.0400000000000000 0.000887 93.344525 
2.0406249999999999 0.000907 92.895484 
2.0412499999999998 0.000960 90.526483 
2.0418750000000001 0.001011 88.520117 
2.0425000000000000 0.001023 85.796408 
2.0431249999999999 0.001075 84.059853 
2.0437500000000002 0.001101 81.177395 
2.0443750000000001 0.001113 78.047509 
2.0449999999999999 0.001133 76.436037 
2.0456249999999998 0.001143 71.856045 
2.0462500000000001 0.001189 70.069904 
2.0468750000000000 0.001167 68.110593 
2.0474999999999999 0.001200 66.017288 
2.0481250000000002 0.001144 63.290753 
2.0487500000000001 0.001141 61.718704 
2.0493749999999999 0.001135 60.744239 
2.0499999999999998 0.001091 57.861258 
2.0506250000000001 0.001093 57.629425 
2.0512500000000000 0.001069 57.142546 
2.0518749999999999 0.001049 55.758870 
2.0525000000000002 0.001020 55.925416 
2.0531250000000001 0.001031 56.556039 
2.0537500000000000 0.001052 56.861657 
2.0543749999999998 0.001043 57.570753 
2.0550000000000002 0.001072 57.831326 
2.0556250000000000 0.001094 58.991260 
2.0562499999999999 0.001118 59.684850 
2.0568749999999998 0.001180 61.006112 
2.0575000000000001 0.001257 59.048355 
2.0581250000000000 0.001304 58.279627 
2.0587499999999999 0.001376 58.334274 
2.0593750000000002 0.001457 58.111411 
2.0600000000000001 0.001552 55.758745 
2.0606249999999999 0.001608 53.505089 
2.0612499999999998 0.001664 52.234643 
2.0618750000000001 0.001746 50.535532 
2.0625000000000000 0.001825 47.933102 
2.0631249999999999 0.001885 45.749589 
2.0637500000000002 0.001941 43.537003 
2.0643750000000001 0.001947 42.225547 
2.0649999999999999 0.002025 39.327609 
2.0656249999999998 0.002126 39.433646 
2.0662500000000001 0.002106 35.826106 
2.0668750000000000 0.002207 35.206739 
2.0674999999999999 0.002174 32.683234 
2.0681250000000002 0.002239 33.134608 
2.0687500000000001 0.002288 32.519853 
2.0693750000000000 0.002289 30.895192 
2.0699999999999998 0.002366 30.078979 
2.0706250000000002 0.002482 29.880416 
2.0712500000000000 0.002509 30.126122 
2.0718749999999999 0.002678 29.757854 
2.0724999999999998 0.002779 28.793243 
2.0731250000000001 0.002878 29.021421 
2.0737500000000000 0.003008 29.208568 
2.0743749999999999 0.003096 28.748833 
2.0750000000000002 0.003239 28.086508 
2.0756250000000001 0.003389 28.100347 
2.0762499999999999 0.003492 29.207327 
2.0768749999999998 0.003566 28.735028 
2.0775000000000001 0.003775 28.662297 
2.0781250000000000 0.003707 28.271808 
2.0787499999999999 0.003861 27.252518 
2.0793750000000002 0.003840 27.037577 
2.0800000000000001 0.003919 26.278208 
2.0806249999999999 0.003943 25.409284 
2.0812499999999998 0.004004 24.872833 
2.0818750000000001 0.003978 26.041359 
2.0825000000000000 0.003901 25.230760 
2.0831249999999999 0.003918 25.492281 
2.0837500000000002 0.003776 25.469576 
2.0843750000000001 0.003765 24.555954 
2.0850000000000000 0.003618 26.617410 
2.0856249999999998 0.003598 26.738227 
2.0862500000000002 0.003574 27.811239 
2.0868750000000000 0.003464 28.739008 
2.0874999999999999 0.003387 28.654875 
2.0881249999999998 0.003284 31.289380 
2.0887500000000001 0.003278 33.338693 
2.0893750000000000 0.003145 33.634041 
2.0899999999999999 0.003086 33.855787 
2.0906250000000002 0.003132 36.152778 
2.0912500000000001 0.002952 36.436789 
2.0918749999999999 0.003017 34.815443 
2.0924999999999998 0.002972 36.325134 
2.0931250000000001 0.002975 33.585000 
2.0937500000000000 0.002943 33.916000 
2.0943749999999999 0.002949 33.551303 
2.0950000000000002 0.002880 31.889225 
2.0956250000000001 0.002800 29.792987 
2.0962499999999999 0.002810 27.353079 
2.0968749999999998 0.002811 25.756420 
2.0975000000000001 0.002725 23.669274 
2.0981250000000000 0.002745 22.443208 
2.0987499999999999 0.002608 20.166128 
2.0993750000000002 0.002555 18.048597 
2.1000000000000001 0.002509 17.251858 
2.1006250000000000 0.002354 15.144445 
2.1012499999999998 0.002310 13.598878 
2.1018750000000002 0.002168 13.200285 
2.1025000000000000 0.002052 12.366018 
2.1031249999999999 0.001976 11.662516 
2.1037499999999998 0.001881 9.938768 
2.1043750000000001 0.001795 8.583266 
2.1050000000000000 0.001774 8.641951 
2.1056249999999999 0.001726 7.140230 
2.1062500000000002 0.001645 6.719176 
2.1068750000000001 0.001658 8.026139 
2.1074999999999999 0.001625 7.714802 
2.1081249999999998 0.001617 6.994277 
2.1087500000000001 0.001627 4.238646 
2.1093750000000000 0.001598 3.870215 
2.1099999999999999 0.001655 3.010510 
2.1106250000000002 0.001671 -0.656194 
2.1112500000000001 0.001661 -2.048198 
2.1118749999999999 0.001657 -4.405499 
2.1124999999999998 0.001684 -6.391929 
2.1131250000000001 0.001662 -9.932772 
2.1137500000000000 0.001621 -12.955779 
2.1143749999999999 0.001639 -15.932235 
2.1150000000000002 0.001589 -18.109453 
2.1156250000000001 0.001535 -22.702672 
2.1162500000000000 0.001488 -24.926778 
2.1168749999999998 0.001426 -29.826864 
2.1175000000000002 0.001361 -31.880096 
2.1181250000000000 0.001270 -37.007063 
2.1187499999999999 0.001224 -38.231631 
2.1193749999999998 0.001129 -42.865451 
2.1200000000000001 0.001082 -45.435356 
2.1206250000000000 0.000999 -46.634646 
2.1212499999999999 0.000930 -47.875504 
2.1218750000000002 0.000866 -47.978179 
2.1225000000000001 0.000818 -48.723776 
2.1231249999999999 0.000781 -44.329453 
2.1237499999999998 0.000735 -43.623639 
2.1243750000000001 0.000726 -42.705138 
2.1250000000000000 0.000756 -41.569750 
2.1256249999999999 0.000758 -41.629053 
2.1262500000000002 0.000771 -38.381806 
2.1268750000000001 0.000783 -38.068087 
2.1274999999999999 0.000818 -38.931789 
2.1281249999999998 0.000887 -42.663692 
2.1287500000000001 0.000853 -44.170831 
2.1293750000000000 0.000871 -49.194906 
2.1299999999999999 0.000880 -50.415088 
2.1306250000000002 0.000863 -54.520265 
2.1312500000000001 0.000865 -59.472216 
2.1318750000000000 0.000825 -63.623839 
2.1324999999999998 0.000775 -67.561138 
2.1331250000000002 0.000743 -73.500703 
2.1337500000000000 0.000694 -80.718084 
2.1343749999999999 0.000629 -86.097046 
2.1349999999999998 0.000583 -92.055229 
2.1356250000000001 0.000508 -96.052977 
2.1362500000000000 0.000437 -102.983205 
2.1368749999999999 0.000357 -107.056592 
2.1375000000000002 0.000281 -110.823131 
2.1381250000000001 0.000217 -112.530397 
2.1387499999999999 0.000127 -106.347916 
2.1393749999999998 0.000063 -60.634504 
2.1400000000000001 0.000099 -8.679154 
2.1406250000000000 0.000177 6.600876 
2.1412499999999999 0.000258 5.980914 
2.1418750000000002 0.000350 4.647613 
2.1425000000000001 0.000408 -0.133800 
2.1431249999999999 0.000496 -3.630714 
2.1437499999999998 0.000544 -7.706900 
2.1443750000000001 0.000603 -11.956224 
2.1450000000000000 0.000619 -18.763623 
2.1456249999999999 0.000644 -20.958301 
2.1462500000000002 0.000666 -27.680393 
2.1468750000000001 0.000642 -30.023487 
2.1475000000000000 0.000605 -35.238225 
2.1481249999999998 0.000557 -37.058674 
2.1487500000000002 0.000516 -40.188958 
2.1493750000000000 0.000461 -42.881036 
2.1499999999999999 0.000400 -41.203983 
2.1506249999999998 0.000349 -33.308642 
2.1512500000000001 0.000296 -20.509834 
2.1518750000000000 0.000309 -3.177533 
2.1524999999999999 0.000361 10.348387 
2.1531250000000002 0.000445 18.502328 
2.1537500000000001 0.000586 21.961091 
2.1543749999999999 0.000706 23.702212 
2.1549999999999998 0.000844 21.855143 
2.1556250000000001 0.001038 15.766365 
2.1562500000000000 0.001165 14.395381 
2.1568749999999999 0.001317 9.254212 
2.1575000000000002 0.001526 4.176042 
2.1581250000000001 0.001685 2.545883 
2.1587499999999999 0.001858 -3.641219 
2.1593749999999998 0.001935 -7.701253 
2.1600000000000001 0.002140 -12.543348 
2.1606250000000000 0.002261 -18.060471 
2.1612499999999999 0.002297 -22.169202 
2.1618750000000002 0.002373 -24.394415 
2.1625000000000001 0.002399 -28.948983 
2.1631250000000000 0.002436 -31.438343 
2.1637499999999998 0.002437 -34.585618 
2.1643750000000002 0.002360 -38.058137 
2.1650000000000000 0.002291 -37.560420 
2.1656249999999999 0.002252 -39.185490 
2.1662499999999998 0.002221 -38.550306 
2.1668750000000001 0.002091 -36.364972 
2.1675000000000000 0.002133 -31.103272 
2.1681249999999999 0.002151 -26.212867 
2.1687500000000002 0.002213 -20.759019 
2.1693750000000001 0.002503 -15.634680 
2.1699999999999999 0.002792 -9.254028 
2.1706249999999998 0.003108 -5.329708 
2.1712500000000001 0.003527 -2.274047 
2.1718750000000000 0.004010 -0.929978 
2.1724999999999999 0.004499 -1.624610 
2.1731250000000002 0.005049 0.635778 
2.1737500000000001 0.005513 -1.829075 
2.1743749999999999 0.005959 -2.724567 
2.1749999999999998 0.006386 -2.263849 
2.1756250000000001 0.006759 -4.820208 
2.1762500000000000 0.006736 -7.539830 
2.1768749999999999 0.007042 -7.705145 
2.1775000000000002 0.006923 -9.374418 
2.1781250000000001 0.006946 -12.021548 
2.1787500000000000 0.007007 -14.965825 
2.1793749999999998 0.006749 -14.835976 
2.1800000000000002 0.006441 -17.829990 
2.1806250000000000 0.006207 -17.205144 
2.1812499999999999 0.005664 -20.712148 
2.1818749999999998 0.005416 -19.290879 
2.1825000000000001 0.004992 -19.924429 
2.1831250000000000 0.004509 -16.729427 
2.1837499999999999 0.003941 -15.422621 
2.1843750000000002 0.003617 -13.563090 
2.1850000000000001 0.003321 -10.557757 
2.1856249999999999 0.003075 -7.948229 
2.1862499999999998 0.002869 -3.455917 
2.1868750000000001 0.002753 2.054612 
2.1875000000000000 0.002715 3.846541 
2.1881249999999999 0.002827 7.071681 
2.1887500000000002 0.002912 8.848519 
2.1893750000000001 0.002940 10.299445 
2.1899999999999999 0.002988 6.280619 
2.1906249999999998 0.003078 4.511368 
2.1912500000000001 0.003206 4.038704 
2.1918750000000000 0.003123 1.229398 
2.1924999999999999 0.003103 -1.893168 
2.1931250000000002 0.003066 -6.259978 
2.1937500000000001 0.002943 -9.051778 
2.1943750000000000 0.002959 -13.836926 
2.1949999999999998 0.002856 -17.690731 
2.1956250000000002 0.002716 -22.345941 
2.1962500000000000 0.002564 -24.570072 
2.1968749999999999 0.002361 -28.509588 
2.1974999999999998 0.002265 -33.125511 
2.1981250000000001 0.002009 -33.982375 
2.1987500000000000 0.001880 -38.709158 
2.1993749999999999 0.001686 -39.246524 
2.2000000000000002 0.001558 -40.838156 
2.2006250000000001 0.001434 -41.186152 
2.2012499999999999 0.001322 -39.437744 
2.2018749999999998 0.001259 -39.519020 
2.2025000000000001 0.001130 -36.597301 
2.2031250000000000 0.001105 -33.774906 
2.2037499999999999 0.001111 -32.614113 
2.2043750000000002 0.001110 -30.245812 
2.2050000000000001 0.001123 -29.091825 
2.2056249999999999 0.001144 -29.615661 
2.2062499999999998 0.001195 -28.518753 
2.2068750000000001 0.001258 -33.215581 
2.2075000000000000 0.001273 -33.756324 
2.2081249999999999 0.001338 -37.661012 
2.2087500000000002 0.001343 -41.737866 
2.2093750000000001 0.001343 -44.331867 
2.2100000000000000 0.001301 -49.925611 
2.2106249999999998 0.001345 -54.562066 
2.2112500000000002 0.001292 -59.219424 
2.2118750000000000 0.001265 -64.791123 
2.2124999999999999 0.001187 -69.440248 
2.2131249999999998 0.001161 -73.307234 
2.2137500000000001 0.001089 -78.400967 
2.2143750000000000 0.000997 -83.630309 
2.2149999999999999 0.000898 -87.242744 
2.2156250000000002 0.000822 -94.581460 
2.2162500000000001 0.000738 -96.779295 
2.2168749999999999 0.000640 -100.536008 
2.2174999999999998 0.000549 -100.344906 
2.2181250000000001 0.000473 -101.702158 
2.2187500000000000 0.000384 -97.864693 
2.2193749999999999 0.000314 -90.144198 
2.2200000000000002 0.000276 -80.880182 
2.2206250000000001 0.000274 -66.034345 
2.2212499999999999 0.000293 -55.757191 
2.2218749999999998 0.000342 -47.512869 
2.2225000000000001 0.000387 -44.433354 
2.2231250000000000 0.000432 -45.037709 
2.2237499999999999 0.000475 -44.931300 
2.2243750000000002 0.000526 -47.654318 
2.2250000000000001 0.000565 -50.126077 
2.2256250000000000 0.000568 -52.315050 
2.2262499999999998 0.000610 -57.248299 
2.2268750000000002 0.000598 -61.441265 
2.2275000000000000 0.000622 -67.178201 
2.2281249999999999 0.000612 -69.471716 
2.2287499999999998 0.000566 -74.931621 
2.2293750000000001 0.000556 -75.830400 
2.2300000000000000 0.000510 -78.544307 
2.2306249999999999 0.000463 -83.042576 
2.2312500000000002 0.000432 -81.277116 
2.2318750000000001 0.000378 -78.087122 
2.2324999999999999 0.000360 -75.356954 
2.2331249999999998 0.000329 -66.983473 
2.2337500000000001 0.000329 -57.432387 
2.2343750000000000 0.000359 -49.892198 
2.2349999999999999 0.000390 -44.302782 
2.2356250000000002 0.000480 -37.625645 
2.2362500000000001 0.000537 -39.683059 
2.2368749999999999 0.000631 -37.470379 
2.2374999999999998 0.000672 -42.386176 
2.2381250000000001 0.000740 -44.442291 
2.2387500000000000 0.000825 -47.614659 
2.2393749999999999 0.000904 -50.972502 
2.2400000000000002 0.000964 -56.214594 
2.2406250000000001 0.000994 -57.571492 
2.2412500000000000 0.001073 -62.868191 
2.2418749999999998 0.001089 -69.148049 
2.2425000000000002 0.001121 -71.696079 
2.2431250000000000 0.001134 -73.894941 
2.2437499999999999 0.001121 -77.140107 
2.2443749999999998 0.001106 -80.537676 
2.2450000000000001 0.001119 -85.195287 
2.2456250000000000 0.001134 -87.071422 
2.2462499999999999 0.001127 -87.847493 
2.2468750000000002 0.001083 -85.055119 
2.2475000000000001 0.001072 -87.738158 
2.2481249999999999 0.001085 -85.741287 
2.2487499999999998 0.001108 -85.004768 
2.2493750000000001 0.001177 -84.874920 
2.2500000000000000 0.001242 -80.249356 
2.2506249999999999 0.001334 -81.538335 
2.2512500000000002 0.001443 -77.712500 
2.2518750000000001 0.001533 -78.538952 
2.2524999999999999 0.001697 -76.488925 
2.2531249999999998 0.001926 -77.534264 
2.2537500000000001 0.002134 -77.547562 
2.2543750000000000 0.002276 -80.520903 
2.2549999999999999 0.002597 -81.601360 
2.2556250000000002 0.002821 -83.580397 
2.2562500000000001 0.003069 -89.554956 
2.2568750000000000 0.003243 -89.879948 
2.2574999999999998 0.003490 -94.009894 
2.2581250000000002 0.003626 -96.931342 
2.2587500000000000 0.003980 -95.765579 
2.2593749999999999 0.003986 -99.564294 
2.2599999999999998 0.004347 -103.117090 
2.2606250000000001 0.004662 -105.699475 
2.2612500000000000 0.004996 -105.312187 
2.2618749999999999 0.005116 -107.708763 
2.2625000000000002 0.005486 -107.216615 
2.2631250000000001 0.005917 -105.114795 
2.2637499999999999 0.005902 -106.622539 
2.2643749999999998 0.006428 -97.806417 
2.2650000000000001 0.007130 -92.077274 
2.2656250000000000 0.007321 -86.863847 
2.2662499999999999 0.007879 -77.437342 
2.2668750000000002 0.007923 -69.460095 
2.2675000000000001 0.008093 -58.561469 
2.2681249999999999 0.008310 -48.810981 
2.2687499999999998 0.007867 -36.469110 
2.2693750000000001 0.007783 -31.869202 
2.2700000000000000 0.007202 -25.217881 
2.2706249999999999 0.006890 -21.903024 
2.2712500000000002 0.006267 -23.758435 
2.2718750000000001 0.005998 -22.995836 
2.2725000000000000 0.005815 -18.650375 
2.2731249999999998 0.005542 -19.476405 
2.2737500000000002 0.005153 -20.481588 
2.2743750000000000 0.004554 -17.849690 
2.2749999999999999 0.004475 -23.742114 
2.2756249999999998 0.004256 -26.504758 
2.2762500000000001 0.003934 -24.306289 
2.2768750000000000 0.003700 -26.233182 
2.2774999999999999 0.003348 -30.211946 
2.2781250000000002 0.003106 -32.577607 
2.2787500000000001 0.002723 -35.278125 
2.2793749999999999 0.002490 -40.659599 
2.2799999999999998 0.002286 -40.183294 
2.2806250000000001 0.002124 -42.232479 
2.2812500000000000 0.001910 -40.996358 
2.2818749999999999 0.001771 -46.871607 
2.2825000000000002 0.001574 -43.582540 
2.2831250000000001 0.001480 -43.929714 
2.2837499999999999 0.001420 -41.816504 
2.2843749999999998 0.001336 -44.343035 
2.2850000000000001 0.001221 -43.850066 
2.2856250000000000 0.001221 -41.802619 
2.2862499999999999 0.001245 -40.135360 
2.2868750000000002 0.001265 -42.274776 
2.2875000000000001 0.001203 -39.617173 
2.2881250000000000 0.001198 -40.293023 
2.2887499999999998 0.001237 -45.606072 
2.2893750000000002 0.001248 -43.421835 
2.2900000000000000 0.001241 -47.476958 
2.2906249999999999 0.001203 -53.276016 
2.2912499999999998 0.001245 -55.441902 
2.2918750000000001 0.001223 -57.814608 
2.2925000000000000 0.001176 -61.597508 
2.2931249999999999 0.001134 -61.309767 
2.2937500000000002 0.001039 -65.704678 
2.2943750000000001 0.001092 -70.334179 
2.2949999999999999 0.000941 -72.503018 
2.2956249999999998 0.000974 -77.375394 
2.2962500000000001 0.000846 -82.176822 
2.2968750000000000 0.000948 -81.431835 
2.2974999999999999 0.000800 -86.800287 
2.2981250000000002 0.000734 -92.183635 
2.2987500000000001 0.000759 -90.389195 
2.2993749999999999 0.000711 -94.571050 
2.2999999999999998 0.000628 -90.861873 
2.3006250000000001 0.000689 -94.980799 
2.3012500000000000 0.000653 -86.762464 
2.3018749999999999 0.000481 -88.335346 
