!
! C:\Users\rflab\Downloads\dp2_kdzw\140.S1P
!
! Touchstone 1.1 file saved by VNA.EXE V1.65 (www.ke5fx.com/gpib/readme.htm)
! 12/12/2024 6:56:10 PM
!
!    Source: HEWLETT PACKARD,8753D,0,6.14
!  Min freq: 2.000000E+009 Hz
!  Max freq: 2.500000E+009 Hz
!    Points: 801
!    Params: S21
!
!!!!!
# GHZ S MA R 50
2.0000000000000000 0.001438 51.255251 
2.0006249999999999 0.001379 52.435637 
2.0012500000000002 0.001312 52.457105 
2.0018750000000001 0.001263 52.222018 
2.0024999999999999 0.001252 53.896022 
2.0031249999999998 0.001224 55.340470 
2.0037500000000001 0.001158 54.537719 
2.0043750000000000 0.001121 56.877893 
2.0049999999999999 0.001117 57.899684 
2.0056250000000002 0.001120 60.567163 
2.0062500000000001 0.001092 60.252794 
2.0068750000000000 0.001095 60.121649 
2.0074999999999998 0.001098 62.869983 
2.0081250000000002 0.001085 60.909308 
2.0087500000000000 0.001053 61.160509 
2.0093749999999999 0.001033 60.391301 
2.0099999999999998 0.001049 60.818307 
2.0106250000000001 0.001046 59.142083 
2.0112500000000000 0.001067 57.668784 
2.0118749999999999 0.000992 54.348257 
2.0125000000000002 0.001006 55.284229 
2.0131250000000001 0.000964 51.293727 
2.0137499999999999 0.000935 51.254894 
2.0143749999999998 0.000860 49.025899 
2.0150000000000001 0.000902 47.137949 
2.0156250000000000 0.000841 45.595864 
2.0162499999999999 0.000796 46.044658 
2.0168750000000002 0.000768 45.899896 
2.0175000000000001 0.000749 45.177418 
2.0181249999999999 0.000710 44.542380 
2.0187499999999998 0.000702 45.402277 
2.0193750000000001 0.000658 47.472981 
2.0200000000000000 0.000628 50.686103 
2.0206249999999999 0.000602 49.721195 
2.0212500000000002 0.000619 51.950411 
2.0218750000000001 0.000591 54.107950 
2.0225000000000000 0.000605 55.349982 
2.0231249999999998 0.000606 56.275551 
2.0237500000000002 0.000625 59.118691 
2.0243750000000000 0.000621 59.130050 
2.0249999999999999 0.000646 57.126339 
2.0256249999999998 0.000650 58.735947 
2.0262500000000001 0.000624 56.068552 
2.0268750000000000 0.000624 55.973171 
2.0274999999999999 0.000683 53.806398 
2.0281250000000002 0.000671 52.894591 
2.0287500000000001 0.000678 50.926652 
2.0293749999999999 0.000674 49.601118 
2.0299999999999998 0.000684 47.442772 
2.0306250000000001 0.000673 46.735164 
2.0312500000000000 0.000670 44.144204 
2.0318749999999999 0.000664 44.059437 
2.0325000000000002 0.000655 43.714516 
2.0331250000000001 0.000641 43.501640 
2.0337499999999999 0.000617 43.566193 
2.0343749999999998 0.000610 41.844970 
2.0350000000000001 0.000601 43.560022 
2.0356250000000000 0.000615 45.431672 
2.0362499999999999 0.000595 46.733986 
2.0368750000000002 0.000641 46.806041 
2.0375000000000001 0.000639 48.067223 
2.0381250000000000 0.000658 47.736779 
2.0387499999999998 0.000681 48.983506 
2.0393750000000002 0.000708 48.548021 
2.0400000000000000 0.000743 47.106660 
2.0406249999999999 0.000766 45.658907 
2.0412499999999998 0.000808 46.102452 
2.0418750000000001 0.000867 42.952699 
2.0425000000000000 0.000869 40.378314 
2.0431249999999999 0.000899 37.913966 
2.0437500000000002 0.000908 35.817656 
2.0443750000000001 0.000939 33.012127 
2.0449999999999999 0.000964 31.365925 
2.0456249999999998 0.000976 29.273129 
2.0462500000000001 0.001018 23.817764 
2.0468750000000000 0.001035 22.278880 
2.0474999999999999 0.001016 20.860592 
2.0481250000000002 0.001021 17.973695 
2.0487500000000001 0.001020 16.448700 
2.0493749999999999 0.001004 14.558354 
2.0499999999999998 0.001012 13.425491 
2.0506250000000001 0.000965 12.806307 
2.0512500000000000 0.000946 10.927533 
2.0518749999999999 0.000966 12.143663 
2.0525000000000002 0.000957 9.232024 
2.0531250000000001 0.000951 11.655832 
2.0537500000000000 0.000953 13.255183 
2.0543749999999998 0.000951 12.382298 
2.0550000000000002 0.001005 14.613726 
2.0556250000000000 0.001009 14.307861 
2.0562499999999999 0.001038 16.075075 
2.0568749999999998 0.001145 14.909135 
2.0575000000000001 0.001173 14.422544 
2.0581250000000000 0.001273 12.191617 
2.0587499999999999 0.001341 12.211435 
2.0593750000000002 0.001380 11.705822 
2.0600000000000001 0.001486 10.655806 
2.0606249999999999 0.001558 9.470608 
2.0612499999999998 0.001639 7.416498 
2.0618750000000001 0.001734 4.854578 
2.0625000000000000 0.001762 4.235820 
2.0631249999999999 0.001881 1.274403 
2.0637500000000002 0.001964 1.300917 
2.0643750000000001 0.001950 -1.527339 
2.0649999999999999 0.002074 -3.410357 
2.0656249999999998 0.002046 -4.289651 
2.0662500000000001 0.002165 -6.083135 
2.0668750000000000 0.002205 -8.250985 
2.0674999999999999 0.002298 -9.840473 
2.0681250000000002 0.002300 -10.553240 
2.0687500000000001 0.002354 -9.642179 
2.0693750000000000 0.002435 -11.502989 
2.0699999999999998 0.002462 -13.408561 
2.0706250000000002 0.002587 -13.009658 
2.0712500000000000 0.002692 -12.705195 
2.0718749999999999 0.002822 -13.041237 
2.0724999999999998 0.002951 -13.234555 
2.0731250000000001 0.003080 -14.428872 
2.0737500000000000 0.003223 -13.037659 
2.0743749999999999 0.003395 -13.829372 
2.0750000000000002 0.003504 -12.905191 
2.0756250000000001 0.003777 -12.427589 
2.0762499999999999 0.003934 -14.505818 
2.0768749999999998 0.004023 -14.396107 
2.0775000000000001 0.004223 -14.040956 
2.0781250000000000 0.004268 -13.266911 
2.0787499999999999 0.004339 -12.654813 
2.0793750000000002 0.004348 -13.727661 
2.0800000000000001 0.004480 -13.282598 
2.0806249999999999 0.004554 -12.844417 
2.0812499999999998 0.004483 -14.286034 
2.0818750000000001 0.004630 -14.275955 
2.0825000000000000 0.004482 -14.643830 
2.0831249999999999 0.004420 -14.487473 
2.0837500000000002 0.004339 -14.802039 
2.0843750000000001 0.004318 -14.052353 
2.0850000000000000 0.004324 -12.669981 
2.0856249999999998 0.004267 -12.546168 
2.0862500000000002 0.004214 -11.897338 
2.0868750000000000 0.004084 -9.356202 
2.0874999999999999 0.004019 -8.597318 
2.0881249999999998 0.003903 -8.353358 
2.0887500000000001 0.003852 -4.444125 
2.0893750000000000 0.003821 -4.778487 
2.0899999999999999 0.003704 -3.435766 
2.0906250000000002 0.003752 -2.026372 
2.0912500000000001 0.003703 -2.110854 
2.0918749999999999 0.003609 -1.016373 
2.0924999999999998 0.003672 -1.486250 
2.0931250000000001 0.003613 -2.456380 
2.0937500000000000 0.003595 -2.272916 
2.0943749999999999 0.003566 -4.722763 
2.0950000000000002 0.003590 -5.701507 
2.0956250000000001 0.003610 -7.075264 
2.0962499999999999 0.003524 -8.337577 
2.0968749999999998 0.003491 -10.153837 
2.0975000000000001 0.003480 -11.968219 
2.0981250000000000 0.003379 -13.003100 
2.0987499999999999 0.003342 -15.163887 
2.0993750000000002 0.003189 -16.635855 
2.1000000000000001 0.003120 -17.924060 
2.1006250000000000 0.003002 -19.293266 
2.1012499999999998 0.002925 -21.007505 
2.1018750000000002 0.002795 -22.242024 
2.1025000000000000 0.002658 -23.851596 
2.1031249999999999 0.002569 -24.070735 
2.1037499999999998 0.002424 -24.680875 
2.1043750000000001 0.002357 -25.249547 
2.1050000000000000 0.002333 -25.528157 
2.1056249999999999 0.002274 -26.798757 
2.1062500000000002 0.002224 -26.722965 
2.1068750000000001 0.002149 -25.936895 
2.1074999999999999 0.002130 -26.174999 
2.1081249999999998 0.002122 -27.993548 
2.1087500000000001 0.002187 -28.895171 
2.1093750000000000 0.002122 -29.293048 
2.1099999999999999 0.002210 -31.344825 
2.1106250000000002 0.002229 -33.282090 
2.1112500000000001 0.002233 -34.467315 
2.1118749999999999 0.002263 -37.227818 
2.1124999999999998 0.002244 -40.031985 
2.1131250000000001 0.002217 -42.742492 
2.1137500000000000 0.002273 -44.738654 
2.1143749999999999 0.002193 -48.786683 
2.1150000000000002 0.002140 -51.334225 
2.1156250000000001 0.002129 -54.773323 
2.1162500000000000 0.002066 -57.674636 
2.1168749999999998 0.001979 -61.546834 
2.1175000000000002 0.001877 -64.642234 
2.1181250000000000 0.001765 -67.369125 
2.1187499999999999 0.001701 -70.679823 
2.1193749999999998 0.001582 -75.647554 
2.1200000000000001 0.001489 -76.162921 
2.1206250000000000 0.001381 -79.121572 
2.1212499999999999 0.001315 -80.304594 
2.1218750000000002 0.001216 -79.671539 
2.1225000000000001 0.001140 -79.992021 
2.1231249999999999 0.001089 -78.787206 
2.1237499999999998 0.001026 -76.533789 
2.1243750000000001 0.001019 -75.463145 
2.1250000000000000 0.001065 -74.576769 
2.1256249999999999 0.001068 -73.429353 
2.1262500000000002 0.001109 -71.502716 
2.1268750000000001 0.001129 -71.096123 
2.1274999999999999 0.001184 -72.000919 
2.1281249999999998 0.001202 -74.687056 
2.1287500000000001 0.001220 -76.620992 
2.1293750000000000 0.001242 -80.512354 
2.1299999999999999 0.001266 -82.866285 
2.1306250000000002 0.001223 -86.150272 
2.1312500000000001 0.001248 -91.138648 
2.1318750000000000 0.001201 -95.610997 
2.1324999999999998 0.001129 -101.632584 
2.1331250000000002 0.001065 -106.461557 
2.1337500000000000 0.001002 -112.760912 
2.1343749999999999 0.000920 -118.744624 
2.1349999999999998 0.000829 -123.462581 
2.1356250000000001 0.000743 -132.053840 
2.1362500000000000 0.000628 -137.151286 
2.1368749999999999 0.000524 -143.111869 
2.1375000000000002 0.000404 -146.434272 
2.1381250000000001 0.000302 -148.327897 
2.1387499999999999 0.000169 -148.768620 
2.1393749999999998 0.000064 -86.701184 
2.1400000000000001 0.000137 -30.559232 
2.1406250000000000 0.000263 -17.969389 
2.1412499999999999 0.000378 -21.463949 
2.1418750000000002 0.000515 -25.881630 
2.1425000000000001 0.000614 -28.481948 
2.1431249999999999 0.000732 -34.405254 
2.1437499999999998 0.000815 -39.744943 
2.1443750000000001 0.000890 -44.107751 
2.1450000000000000 0.000941 -48.822264 
2.1456249999999999 0.000970 -53.433723 
2.1462500000000002 0.000982 -57.835005 
2.1468750000000001 0.000968 -62.060355 
2.1475000000000000 0.000923 -66.522530 
2.1481249999999998 0.000865 -69.188041 
2.1487500000000002 0.000794 -71.960766 
2.1493750000000000 0.000703 -71.809177 
2.1499999999999999 0.000619 -70.260024 
2.1506249999999998 0.000536 -63.886366 
2.1512500000000001 0.000480 -52.009163 
2.1518750000000000 0.000499 -35.026759 
2.1524999999999999 0.000606 -23.029389 
2.1531250000000002 0.000755 -16.773299 
2.1537500000000001 0.000930 -11.429438 
2.1543749999999999 0.001144 -12.836930 
2.1549999999999998 0.001351 -14.206676 
2.1556250000000001 0.001612 -17.837195 
2.1562500000000000 0.001849 -21.767805 
2.1568749999999999 0.002134 -25.070462 
2.1575000000000002 0.002399 -30.017872 
2.1581250000000001 0.002717 -34.681005 
2.1587499999999999 0.002903 -39.126836 
2.1593749999999998 0.003100 -43.129885 
2.1600000000000001 0.003370 -48.300976 
2.1606250000000000 0.003422 -52.938473 
2.1612499999999999 0.003596 -57.694601 
2.1618750000000002 0.003692 -61.655898 
2.1625000000000001 0.003821 -64.152841 
2.1631250000000000 0.003756 -67.283056 
2.1637499999999998 0.003782 -71.433692 
2.1643750000000002 0.003748 -73.958721 
2.1650000000000000 0.003676 -75.095392 
2.1656249999999999 0.003618 -76.536499 
2.1662499999999998 0.003495 -76.307448 
2.1668750000000001 0.003404 -73.365522 
2.1675000000000000 0.003465 -68.851661 
2.1681249999999999 0.003401 -65.440179 
2.1687500000000002 0.003604 -56.839791 
2.1693750000000001 0.003915 -52.827230 
2.1699999999999999 0.004477 -46.093832 
2.1706249999999998 0.005021 -44.161270 
2.1712500000000001 0.005802 -39.596049 
2.1718750000000000 0.006296 -37.559465 
2.1724999999999999 0.007100 -38.091308 
2.1731250000000002 0.007928 -37.187644 
2.1737500000000001 0.008684 -38.192037 
2.1743749999999999 0.009430 -38.665240 
2.1749999999999998 0.009813 -39.694712 
2.1756250000000001 0.010249 -40.677340 
2.1762500000000000 0.010814 -42.480184 
2.1768749999999999 0.010985 -44.906792 
2.1775000000000002 0.011183 -47.638880 
2.1781250000000001 0.011416 -49.317457 
2.1787500000000000 0.011001 -50.199836 
2.1793749999999998 0.010717 -52.458608 
2.1800000000000002 0.010412 -54.835368 
2.1806250000000000 0.010100 -54.515778 
2.1812499999999999 0.009147 -57.163200 
2.1818749999999998 0.008352 -56.149354 
2.1825000000000001 0.007783 -56.235942 
2.1831250000000000 0.007023 -55.861114 
2.1837499999999999 0.006257 -54.044543 
2.1843750000000002 0.005713 -51.952629 
2.1850000000000001 0.005264 -50.137279 
2.1856249999999999 0.004792 -44.925419 
2.1862499999999998 0.004578 -41.493032 
2.1868750000000001 0.004343 -36.216297 
2.1875000000000000 0.004364 -33.932301 
2.1881249999999999 0.004357 -30.478743 
2.1887500000000002 0.004592 -30.630105 
2.1893750000000001 0.004650 -30.377810 
2.1899999999999999 0.004774 -31.889824 
2.1906249999999998 0.004799 -32.076000 
2.1912500000000001 0.004914 -34.716253 
2.1918750000000000 0.004885 -38.010370 
2.1924999999999999 0.004932 -41.608006 
2.1931250000000002 0.004790 -44.745907 
2.1937500000000001 0.004751 -47.896109 
2.1943750000000000 0.004573 -53.836905 
2.1949999999999998 0.004454 -55.860793 
2.1956250000000002 0.004295 -60.546625 
2.1962500000000000 0.004100 -63.333620 
2.1968749999999999 0.003814 -68.104133 
2.1974999999999998 0.003562 -71.702712 
2.1981250000000001 0.003208 -74.098478 
2.1987500000000000 0.002995 -77.356434 
2.1993749999999999 0.002741 -78.188099 
2.2000000000000002 0.002509 -80.402526 
2.2006250000000001 0.002240 -80.511610 
2.2012499999999999 0.002123 -81.229624 
2.2018749999999998 0.001965 -79.556046 
2.2025000000000001 0.001815 -76.854493 
2.2031250000000000 0.001762 -73.669092 
2.2037499999999999 0.001760 -71.833267 
2.2043750000000002 0.001763 -68.353281 
2.2050000000000001 0.001865 -68.490310 
2.2056249999999999 0.001908 -68.663665 
2.2062499999999998 0.001976 -69.061013 
2.2068750000000001 0.002065 -71.431179 
2.2075000000000000 0.002107 -74.557263 
2.2081249999999999 0.002179 -77.190740 
2.2087500000000002 0.002216 -81.603525 
2.2093750000000001 0.002165 -84.242013 
2.2100000000000000 0.002205 -88.457454 
2.2106249999999998 0.002199 -94.521649 
2.2112500000000002 0.002199 -99.091015 
2.2118750000000000 0.002078 -102.597252 
2.2124999999999999 0.002011 -109.492776 
2.2131249999999998 0.001913 -114.173526 
2.2137500000000001 0.001744 -118.939506 
2.2143750000000000 0.001672 -123.734815 
2.2149999999999999 0.001518 -128.205111 
2.2156250000000002 0.001378 -132.455636 
2.2162500000000001 0.001247 -134.496671 
2.2168749999999999 0.001075 -139.942696 
2.2174999999999998 0.000926 -139.465090 
2.2181250000000001 0.000793 -139.760861 
2.2187500000000000 0.000640 -135.179207 
2.2193749999999999 0.000548 -129.602820 
2.2200000000000002 0.000493 -115.331255 
2.2206250000000001 0.000478 -105.586249 
2.2212499999999999 0.000532 -91.831686 
2.2218749999999998 0.000606 -86.180683 
2.2225000000000001 0.000682 -84.098406 
2.2231250000000000 0.000783 -83.633804 
2.2237499999999999 0.000867 -83.449377 
2.2243750000000002 0.000954 -85.978652 
2.2250000000000001 0.000990 -89.341416 
2.2256250000000000 0.001044 -92.967072 
2.2262499999999998 0.001085 -96.912649 
2.2268750000000002 0.001098 -101.525231 
2.2275000000000000 0.001086 -105.054942 
2.2281249999999999 0.001097 -108.868111 
2.2287499999999998 0.001018 -112.527745 
2.2293750000000001 0.000997 -115.786567 
2.2300000000000000 0.000936 -119.151749 
2.2306249999999999 0.000865 -119.777209 
2.2312500000000002 0.000791 -121.112953 
2.2318750000000001 0.000727 -118.473748 
2.2324999999999999 0.000677 -113.062852 
2.2331249999999998 0.000637 -106.810193 
2.2337500000000001 0.000635 -97.157043 
2.2343750000000000 0.000670 -88.444681 
2.2349999999999999 0.000741 -81.759695 
2.2356250000000002 0.000875 -78.566061 
2.2362500000000001 0.000988 -77.929876 
2.2368749999999999 0.001120 -77.601516 
2.2374999999999998 0.001289 -79.047443 
2.2381250000000001 0.001434 -81.610554 
2.2387500000000000 0.001559 -84.945995 
2.2393749999999999 0.001703 -87.778140 
2.2400000000000002 0.001805 -92.112132 
2.2406250000000001 0.001899 -96.082807 
2.2412500000000000 0.002054 -99.878915 
2.2418749999999998 0.002115 -103.265662 
2.2425000000000002 0.002154 -108.747779 
2.2431250000000000 0.002190 -109.662216 
2.2437499999999999 0.002255 -114.844118 
2.2443749999999998 0.002226 -118.604583 
2.2450000000000001 0.002213 -120.458180 
2.2456250000000000 0.002253 -124.485417 
2.2462499999999999 0.002182 -125.325164 
2.2468750000000002 0.002192 -125.410899 
2.2475000000000001 0.002202 -124.979824 
2.2481249999999999 0.002240 -123.619042 
2.2487499999999998 0.002284 -121.890968 
2.2493750000000001 0.002336 -118.972830 
2.2500000000000000 0.002539 -119.803268 
2.2506249999999999 0.002675 -116.559343 
2.2512500000000002 0.002920 -115.697702 
2.2518750000000001 0.003237 -114.911321 
2.2524999999999999 0.003696 -114.663886 
2.2531249999999998 0.004023 -115.565822 
2.2537500000000001 0.004425 -116.018367 
2.2543750000000000 0.004942 -118.689441 
2.2549999999999999 0.005504 -120.567091 
2.2556250000000002 0.006015 -121.130834 
2.2562500000000001 0.006573 -124.370773 
2.2568750000000000 0.007094 -126.914953 
2.2574999999999998 0.007613 -131.063716 
2.2581250000000002 0.008314 -132.740780 
2.2587500000000000 0.008825 -135.831901 
2.2593749999999999 0.009360 -137.155320 
2.2599999999999998 0.010105 -140.885025 
2.2606250000000001 0.010716 -142.510532 
2.2612500000000000 0.011486 -143.249505 
2.2618749999999999 0.012414 -145.178172 
2.2625000000000002 0.012994 -144.917196 
2.2631250000000001 0.014013 -143.498581 
2.2637499999999999 0.015533 -140.163340 
2.2643749999999998 0.016523 -136.467481 
2.2650000000000001 0.018219 -129.931330 
2.2656250000000000 0.019738 -122.568232 
2.2662499999999999 0.021492 -111.725872 
2.2668750000000002 0.021866 -98.371121 
2.2675000000000001 0.021864 -88.310330 
2.2681249999999999 0.020605 -77.745593 
2.2687499999999998 0.020087 -68.106651 
2.2693750000000001 0.018985 -61.342913 
2.2700000000000000 0.017871 -56.252266 
2.2706249999999999 0.017111 -53.581007 
2.2712500000000002 0.016122 -51.412178 
2.2718750000000001 0.015144 -50.857830 
2.2725000000000000 0.014869 -50.287589 
2.2731249999999998 0.013848 -50.023147 
2.2737500000000002 0.012913 -51.537143 
2.2743750000000000 0.012224 -53.738953 
2.2749999999999999 0.011638 -54.276744 
2.2756249999999998 0.011052 -57.667595 
2.2762500000000001 0.010298 -56.735230 
2.2768750000000000 0.009566 -61.256651 
2.2774999999999999 0.008863 -63.960166 
2.2781250000000002 0.008145 -66.437169 
2.2787500000000001 0.007507 -69.747640 
2.2793749999999999 0.006838 -70.316075 
2.2799999999999998 0.006122 -74.177519 
2.2806250000000001 0.005736 -76.791528 
2.2812500000000000 0.005235 -77.670149 
2.2818749999999999 0.004900 -77.754529 
2.2825000000000002 0.004521 -79.538675 
2.2831250000000001 0.004172 -80.127456 
2.2837499999999999 0.003965 -78.240348 
2.2843749999999998 0.003748 -79.545027 
2.2850000000000001 0.003712 -78.660478 
2.2856250000000000 0.003567 -77.627773 
2.2862499999999999 0.003624 -76.479340 
2.2868750000000002 0.003592 -78.943311 
2.2875000000000001 0.003720 -78.188123 
2.2881250000000000 0.003612 -80.465564 
2.2887499999999998 0.003740 -83.097893 
2.2893750000000002 0.003752 -83.657392 
2.2900000000000000 0.003722 -86.172499 
2.2906249999999999 0.003790 -90.216250 
2.2912499999999998 0.003823 -93.337608 
2.2918750000000001 0.003618 -96.571413 
2.2925000000000000 0.003595 -100.867300 
2.2931249999999999 0.003628 -103.961361 
2.2937500000000002 0.003457 -106.724222 
2.2943750000000001 0.003394 -111.270731 
2.2949999999999999 0.003371 -117.307178 
2.2956249999999998 0.003217 -119.961893 
2.2962500000000001 0.003022 -123.732697 
2.2968750000000000 0.002919 -126.974734 
2.2974999999999999 0.002822 -128.531309 
2.2981250000000002 0.002657 -132.141769 
2.2987500000000001 0.002514 -133.874071 
2.2993749999999999 0.002458 -134.245314 
