!
! C:\Users\rflab\Downloads\dp2_kdzw\160.S1P
!
! Touchstone 1.1 file saved by VNA.EXE V1.65 (www.ke5fx.com/gpib/readme.htm)
! 12/12/2024 6:59:00 PM
!
!    Source: HEWLETT PACKARD,8753D,0,6.14
!  Min freq: 2.000000E+009 Hz
!  Max freq: 2.500000E+009 Hz
!    Points: 801
!    Params: S21
!
!!!!!
# GHZ S MA R 50
2.0000000000000000 0.001861 28.202805 
2.0006249999999999 0.001802 27.696656 
2.0012500000000002 0.001707 28.475835 
2.0018750000000001 0.001623 29.263068 
2.0024999999999999 0.001593 27.849012 
2.0031249999999998 0.001563 30.350977 
2.0037500000000001 0.001527 31.007477 
2.0043750000000000 0.001471 31.636402 
2.0049999999999999 0.001463 34.132858 
2.0056250000000002 0.001398 36.693025 
2.0062500000000001 0.001400 34.835725 
2.0068750000000000 0.001388 34.583291 
2.0074999999999998 0.001403 36.586588 
2.0081250000000002 0.001359 38.263788 
2.0087500000000000 0.001345 35.148266 
2.0093749999999999 0.001326 33.658644 
2.0099999999999998 0.001334 35.699282 
2.0106250000000001 0.001353 33.885404 
2.0112500000000000 0.001325 31.234762 
2.0118749999999999 0.001263 30.235812 
2.0125000000000002 0.001262 27.976640 
2.0131250000000001 0.001241 25.415547 
2.0137499999999999 0.001171 26.917269 
2.0143749999999998 0.001150 22.976790 
2.0150000000000001 0.001110 19.829666 
2.0156250000000000 0.001054 19.519312 
2.0162499999999999 0.001056 18.346008 
2.0168750000000002 0.000960 16.569095 
2.0175000000000001 0.000934 17.797125 
2.0181249999999999 0.000867 18.602505 
2.0187499999999998 0.000854 19.689186 
2.0193750000000001 0.000829 20.495771 
2.0200000000000000 0.000817 21.422661 
2.0206249999999999 0.000787 24.307167 
2.0212500000000002 0.000773 25.204771 
2.0218750000000001 0.000748 25.540452 
2.0225000000000000 0.000774 28.713464 
2.0231249999999998 0.000760 28.729754 
2.0237500000000002 0.000736 30.847557 
2.0243750000000000 0.000786 31.125456 
2.0249999999999999 0.000783 31.630633 
2.0256249999999998 0.000795 30.791092 
2.0262500000000001 0.000824 29.497851 
2.0268750000000000 0.000828 27.123627 
2.0274999999999999 0.000832 27.393476 
2.0281250000000002 0.000829 23.583871 
2.0287500000000001 0.000839 22.859131 
2.0293749999999999 0.000830 21.343984 
2.0299999999999998 0.000831 21.386851 
2.0306250000000001 0.000843 19.063311 
2.0312500000000000 0.000838 17.176435 
2.0318749999999999 0.000827 17.572703 
2.0325000000000002 0.000803 14.623020 
2.0331250000000001 0.000785 15.388100 
2.0337499999999999 0.000783 17.961623 
2.0343749999999998 0.000762 16.576050 
2.0350000000000001 0.000741 17.250408 
2.0356250000000000 0.000777 18.016645 
2.0362499999999999 0.000767 19.402396 
2.0368750000000002 0.000773 20.352898 
2.0375000000000001 0.000796 21.735253 
2.0381250000000000 0.000840 22.536685 
2.0387499999999998 0.000840 22.623309 
2.0393750000000002 0.000903 22.345773 
2.0400000000000000 0.000929 21.662119 
2.0406249999999999 0.000967 19.691111 
2.0412499999999998 0.001013 17.810059 
2.0418750000000001 0.001060 15.775973 
2.0425000000000000 0.001109 12.684060 
2.0431249999999999 0.001138 11.619546 
2.0437500000000002 0.001180 8.310152 
2.0443750000000001 0.001194 7.315137 
2.0449999999999999 0.001217 5.030863 
2.0456249999999998 0.001249 1.364903 
2.0462500000000001 0.001292 0.301372 
2.0468750000000000 0.001291 -2.307742 
2.0474999999999999 0.001264 -6.333927 
2.0481250000000002 0.001261 -7.182143 
2.0487500000000001 0.001252 -8.390007 
2.0493749999999999 0.001241 -8.965621 
2.0499999999999998 0.001249 -12.260481 
2.0506250000000001 0.001234 -13.720010 
2.0512500000000000 0.001181 -13.435349 
2.0518749999999999 0.001174 -14.218981 
2.0525000000000002 0.001173 -13.536167 
2.0531250000000001 0.001192 -12.826102 
2.0537500000000000 0.001198 -12.190902 
2.0543749999999998 0.001186 -11.842392 
2.0550000000000002 0.001254 -11.375081 
2.0556250000000000 0.001278 -9.083623 
2.0562499999999999 0.001329 -9.997115 
2.0568749999999998 0.001410 -9.590578 
2.0575000000000001 0.001496 -8.146895 
2.0581250000000000 0.001600 -9.392827 
2.0587499999999999 0.001676 -9.558786 
2.0593750000000002 0.001765 -10.832457 
2.0600000000000001 0.001875 -12.064989 
2.0606249999999999 0.001986 -13.275381 
2.0612499999999998 0.002043 -15.076806 
2.0618750000000001 0.002182 -17.477649 
2.0625000000000000 0.002251 -19.151722 
2.0631249999999999 0.002380 -20.954461 
2.0637500000000002 0.002438 -22.163467 
2.0643750000000001 0.002529 -23.701440 
2.0649999999999999 0.002578 -25.460840 
2.0656249999999998 0.002651 -27.159666 
2.0662500000000001 0.002718 -28.531860 
2.0668750000000000 0.002752 -29.009760 
2.0674999999999999 0.002826 -30.117793 
2.0681250000000002 0.002874 -31.257637 
2.0687500000000001 0.002956 -32.048239 
2.0693750000000000 0.003074 -32.405747 
2.0699999999999998 0.003147 -33.225318 
2.0706250000000002 0.003254 -33.148649 
2.0712500000000000 0.003332 -33.363731 
2.0718749999999999 0.003581 -34.127056 
2.0724999999999998 0.003725 -33.460223 
2.0731250000000001 0.003887 -33.001470 
2.0737500000000000 0.004062 -32.304082 
2.0743749999999999 0.004223 -32.420582 
2.0750000000000002 0.004385 -32.078529 
2.0756250000000001 0.004623 -32.289448 
2.0762499999999999 0.004790 -32.619728 
2.0768749999999998 0.004961 -32.710910 
2.0775000000000001 0.005304 -32.143262 
2.0781250000000000 0.005331 -32.072205 
2.0787499999999999 0.005456 -32.023164 
2.0793750000000002 0.005505 -32.688555 
2.0800000000000001 0.005535 -31.758182 
2.0806249999999999 0.005700 -32.212930 
2.0812499999999998 0.005626 -33.114966 
2.0818750000000001 0.005665 -33.154989 
2.0825000000000000 0.005635 -32.566397 
2.0831249999999999 0.005573 -32.492065 
2.0837500000000002 0.005469 -31.706181 
2.0843750000000001 0.005497 -32.250875 
2.0850000000000000 0.005389 -31.381135 
2.0856249999999998 0.005358 -30.241385 
2.0862500000000002 0.005172 -29.355019 
2.0868750000000000 0.005172 -26.465835 
2.0874999999999999 0.005030 -25.411278 
2.0881249999999998 0.004899 -23.493343 
2.0887500000000001 0.004831 -22.616390 
2.0893750000000000 0.004723 -19.731058 
2.0899999999999999 0.004751 -19.185971 
2.0906250000000002 0.004641 -18.829587 
2.0912500000000001 0.004590 -17.215191 
2.0918749999999999 0.004615 -17.875241 
2.0924999999999998 0.004567 -16.620453 
2.0931250000000001 0.004547 -17.444896 
2.0937500000000000 0.004541 -18.408318 
2.0943749999999999 0.004526 -19.364536 
2.0950000000000002 0.004471 -20.244929 
2.0956250000000001 0.004458 -22.472796 
2.0962499999999999 0.004462 -23.179692 
2.0968749999999998 0.004429 -25.257274 
2.0975000000000001 0.004345 -26.318999 
2.0981250000000000 0.004321 -27.749849 
2.0987499999999999 0.004236 -28.986005 
2.0993750000000002 0.004011 -30.459153 
2.1000000000000001 0.003924 -32.739097 
2.1006250000000000 0.003810 -33.367866 
2.1012499999999998 0.003655 -34.599772 
2.1018750000000002 0.003518 -35.914173 
2.1025000000000000 0.003370 -36.170273 
2.1031249999999999 0.003273 -37.293129 
2.1037499999999998 0.003101 -38.487452 
2.1043750000000001 0.002986 -38.147853 
2.1050000000000000 0.002891 -38.328126 
2.1056249999999999 0.002833 -38.831897 
2.1062500000000002 0.002751 -39.306869 
2.1068750000000001 0.002718 -38.821137 
2.1074999999999999 0.002694 -39.802002 
2.1081249999999998 0.002647 -40.169366 
2.1087500000000001 0.002691 -40.757115 
2.1093750000000000 0.002712 -42.338251 
2.1099999999999999 0.002758 -43.185584 
2.1106250000000002 0.002792 -45.179874 
2.1112500000000001 0.002818 -47.298545 
2.1118749999999999 0.002886 -49.091468 
2.1124999999999998 0.002847 -52.689604 
2.1131250000000001 0.002882 -54.425683 
2.1137500000000000 0.002807 -56.168233 
2.1143749999999999 0.002769 -60.087777 
2.1150000000000002 0.002764 -63.249311 
2.1156250000000001 0.002641 -65.436178 
2.1162500000000000 0.002574 -69.480602 
2.1168749999999998 0.002469 -73.054310 
2.1175000000000002 0.002368 -76.916732 
2.1181250000000000 0.002279 -79.432990 
2.1187499999999999 0.002127 -82.399411 
2.1193749999999998 0.002028 -85.476290 
2.1200000000000001 0.001881 -87.653661 
2.1206250000000000 0.001740 -89.120528 
2.1212499999999999 0.001636 -90.784825 
2.1218750000000002 0.001563 -91.232072 
2.1225000000000001 0.001438 -90.826462 
2.1231249999999999 0.001374 -88.195338 
2.1237499999999998 0.001324 -87.275896 
2.1243750000000001 0.001308 -85.807968 
2.1250000000000000 0.001351 -84.455415 
2.1256249999999999 0.001368 -82.989518 
2.1262500000000002 0.001389 -80.533636 
2.1268750000000001 0.001438 -81.165698 
2.1274999999999999 0.001495 -82.382117 
2.1281249999999998 0.001570 -84.624822 
2.1287500000000001 0.001549 -87.821798 
2.1293750000000000 0.001569 -89.547284 
2.1299999999999999 0.001594 -93.525535 
2.1306250000000002 0.001565 -96.409132 
2.1312500000000001 0.001584 -100.284786 
2.1318750000000000 0.001546 -106.264091 
2.1324999999999998 0.001459 -111.459715 
2.1331250000000002 0.001346 -116.805602 
2.1337500000000000 0.001299 -122.732060 
2.1343749999999999 0.001190 -127.050171 
2.1349999999999998 0.001064 -133.035863 
2.1356250000000001 0.000950 -140.649637 
2.1362500000000000 0.000802 -145.602644 
2.1368749999999999 0.000670 -152.345318 
2.1375000000000002 0.000516 -155.228793 
2.1381250000000001 0.000390 -157.742244 
2.1387499999999999 0.000217 -154.802444 
2.1393749999999998 0.000091 -96.536924 
2.1400000000000001 0.000181 -41.145043 
2.1406250000000000 0.000345 -28.292703 
2.1412499999999999 0.000503 -31.648779 
2.1418750000000002 0.000652 -34.601210 
2.1425000000000001 0.000807 -38.821780 
2.1431249999999999 0.000957 -42.734390 
2.1437499999999998 0.001051 -48.365921 
2.1443750000000001 0.001141 -53.662819 
2.1450000000000000 0.001232 -57.968763 
2.1456249999999999 0.001259 -63.493187 
2.1462500000000002 0.001298 -67.815411 
2.1468750000000001 0.001274 -71.320937 
2.1475000000000000 0.001187 -75.384696 
2.1481249999999998 0.001134 -78.807005 
2.1487500000000002 0.001037 -81.029938 
2.1493750000000000 0.000916 -82.357293 
2.1499999999999999 0.000813 -80.543896 
2.1506249999999998 0.000695 -73.642647 
2.1512500000000001 0.000613 -61.431308 
2.1518750000000000 0.000646 -44.798048 
2.1524999999999999 0.000790 -31.955419 
2.1531250000000002 0.000963 -24.778854 
2.1537500000000001 0.001213 -21.490961 
2.1543749999999999 0.001481 -21.293498 
2.1549999999999998 0.001763 -21.776956 
2.1556250000000001 0.002118 -27.449257 
2.1562500000000000 0.002482 -30.015197 
2.1568749999999999 0.002744 -34.702709 
2.1575000000000002 0.003129 -38.383675 
2.1581250000000001 0.003553 -43.326631 
2.1587499999999999 0.003830 -47.967317 
2.1593749999999998 0.004064 -51.250961 
2.1600000000000001 0.004410 -56.336989 
2.1606250000000000 0.004560 -61.309692 
2.1612499999999999 0.004827 -64.537387 
2.1618750000000002 0.004952 -69.800070 
2.1625000000000001 0.005042 -73.125333 
2.1631250000000000 0.005055 -76.505108 
2.1637499999999998 0.004973 -79.486316 
2.1643750000000002 0.004961 -81.327097 
2.1650000000000000 0.004918 -84.106429 
2.1656249999999999 0.004736 -84.913690 
2.1662499999999998 0.004611 -83.212284 
2.1668750000000001 0.004576 -82.376549 
2.1675000000000000 0.004531 -78.092866 
2.1681249999999999 0.004564 -72.721862 
2.1687500000000002 0.004816 -67.304213 
2.1693750000000001 0.005264 -61.440895 
2.1699999999999999 0.005844 -56.056452 
2.1706249999999998 0.006688 -53.267371 
2.1712500000000001 0.007595 -49.328086 
2.1718750000000000 0.008695 -47.315649 
2.1724999999999999 0.009545 -47.182371 
2.1731250000000002 0.010713 -46.717024 
2.1737500000000001 0.011665 -48.030544 
2.1743749999999999 0.012536 -49.315972 
2.1749999999999998 0.013262 -49.302639 
2.1756250000000001 0.013687 -51.158762 
2.1762500000000000 0.014634 -53.850746 
2.1768749999999999 0.014834 -53.936064 
2.1775000000000002 0.014866 -56.507710 
2.1781250000000001 0.015171 -58.458098 
2.1787500000000000 0.014828 -60.237747 
2.1793749999999998 0.014582 -62.628888 
2.1800000000000002 0.014160 -63.736952 
2.1806250000000000 0.013389 -65.105142 
2.1812499999999999 0.012522 -66.504051 
2.1818749999999998 0.011761 -66.340838 
2.1825000000000001 0.010550 -66.985712 
2.1831250000000000 0.009660 -65.752655 
2.1837499999999999 0.008865 -64.559707 
2.1843750000000002 0.007949 -61.977652 
2.1850000000000001 0.007231 -59.226111 
2.1856249999999999 0.006697 -55.298397 
2.1862499999999998 0.006324 -50.758614 
2.1868750000000001 0.006159 -47.323331 
2.1875000000000000 0.006051 -44.046940 
2.1881249999999999 0.006205 -41.610501 
2.1887500000000002 0.006276 -39.456647 
2.1893750000000001 0.006462 -39.856999 
2.1899999999999999 0.006738 -41.399520 
2.1906249999999998 0.006887 -42.968609 
2.1912500000000001 0.006964 -45.721288 
2.1918750000000000 0.006925 -48.089919 
2.1924999999999999 0.006915 -50.391724 
2.1931250000000002 0.006972 -54.691450 
2.1937500000000001 0.006725 -58.694843 
2.1943750000000000 0.006627 -62.004141 
2.1949999999999998 0.006325 -65.862068 
2.1956250000000002 0.006123 -70.372589 
2.1962500000000000 0.005812 -74.091407 
2.1968749999999999 0.005358 -77.386842 
2.1974999999999998 0.005047 -80.790852 
2.1981250000000001 0.004687 -84.556210 
2.1987500000000000 0.004279 -85.548903 
2.1993749999999999 0.003920 -88.539691 
2.2000000000000002 0.003590 -89.275181 
2.2006250000000001 0.003227 -89.837014 
2.2012499999999999 0.002955 -89.382944 
2.2018749999999998 0.002766 -88.323375 
2.2025000000000001 0.002570 -86.411900 
2.2031250000000000 0.002486 -82.309324 
2.2037499999999999 0.002491 -80.211342 
2.2043750000000002 0.002497 -78.166988 
2.2050000000000001 0.002603 -76.329106 
2.2056249999999999 0.002684 -77.275805 
2.2062499999999998 0.002801 -78.087111 
2.2068750000000001 0.002922 -80.475035 
2.2075000000000000 0.003033 -82.483036 
2.2081249999999999 0.003089 -85.336245 
2.2087500000000002 0.003155 -89.796473 
2.2093750000000001 0.003177 -93.456719 
2.2100000000000000 0.003214 -97.538889 
2.2106249999999998 0.003117 -103.189077 
2.2112500000000002 0.003050 -107.219781 
2.2118750000000000 0.003019 -112.453479 
2.2124999999999999 0.002881 -116.482364 
2.2131249999999998 0.002710 -120.926165 
2.2137500000000001 0.002590 -127.152102 
2.2143750000000000 0.002413 -131.590753 
2.2149999999999999 0.002198 -136.896496 
2.2156250000000002 0.001997 -140.007423 
2.2162500000000001 0.001812 -143.526757 
2.2168749999999999 0.001557 -145.671948 
2.2174999999999998 0.001347 -147.136833 
2.2181250000000001 0.001150 -147.141681 
2.2187500000000000 0.000947 -143.335616 
2.2193749999999999 0.000793 -135.619763 
2.2200000000000002 0.000718 -124.952098 
2.2206250000000001 0.000695 -112.066603 
2.2212499999999999 0.000760 -99.310487 
2.2218749999999998 0.000865 -91.641818 
2.2225000000000001 0.000995 -90.024021 
2.2231250000000000 0.001159 -89.472366 
2.2237499999999999 0.001264 -90.564832 
2.2243750000000002 0.001381 -92.666563 
2.2250000000000001 0.001461 -95.268491 
2.2256250000000000 0.001549 -99.385845 
2.2262499999999998 0.001609 -103.669805 
2.2268750000000002 0.001612 -107.678391 
2.2275000000000000 0.001626 -110.853341 
2.2281249999999999 0.001595 -115.220949 
2.2287499999999998 0.001514 -118.110710 
2.2293750000000001 0.001439 -120.690991 
2.2300000000000000 0.001362 -123.932722 
2.2306249999999999 0.001295 -125.155603 
2.2312500000000002 0.001154 -125.142799 
2.2318750000000001 0.001065 -122.916327 
2.2324999999999999 0.000983 -119.500885 
2.2331249999999998 0.000931 -110.286450 
2.2337500000000001 0.000935 -102.080974 
2.2343750000000000 0.000995 -93.164606 
2.2349999999999999 0.001137 -87.584804 
2.2356250000000002 0.001310 -84.825398 
2.2362500000000001 0.001493 -82.553798 
2.2368749999999999 0.001718 -82.105411 
2.2374999999999998 0.001921 -83.929199 
2.2381250000000001 0.002165 -86.172903 
2.2387500000000000 0.002331 -89.296809 
2.2393749999999999 0.002570 -92.946018 
2.2400000000000002 0.002735 -96.431194 
2.2406250000000001 0.002881 -99.665759 
2.2412500000000000 0.003031 -104.205661 
2.2418749999999998 0.003216 -107.603580 
2.2425000000000002 0.003249 -111.478209 
2.2431250000000000 0.003335 -115.183679 
2.2437499999999999 0.003380 -119.788979 
2.2443749999999998 0.003377 -122.268627 
2.2450000000000001 0.003358 -124.508106 
2.2456250000000000 0.003358 -126.816188 
2.2462499999999999 0.003330 -128.514369 
2.2468750000000002 0.003280 -128.697531 
2.2475000000000001 0.003274 -127.606752 
2.2481249999999999 0.003360 -125.844431 
2.2487499999999998 0.003432 -123.846811 
2.2493750000000001 0.003523 -122.120874 
2.2500000000000000 0.003800 -121.349115 
2.2506249999999999 0.004111 -118.648907 
2.2512500000000002 0.004455 -117.344048 
2.2518750000000001 0.004938 -116.735792 
2.2524999999999999 0.005496 -116.914068 
2.2531249999999998 0.006234 -116.386689 
2.2537500000000001 0.006927 -117.215911 
2.2543750000000000 0.007567 -118.911875 
2.2549999999999999 0.008448 -121.273801 
2.2556250000000002 0.009074 -122.436089 
2.2562500000000001 0.010037 -125.582297 
2.2568750000000000 0.010854 -128.019808 
2.2574999999999998 0.011803 -131.073566 
2.2581250000000002 0.012524 -133.471178 
2.2587500000000000 0.013487 -136.310707 
2.2593749999999999 0.014326 -138.565063 
2.2599999999999998 0.015248 -140.082025 
2.2606250000000001 0.016101 -142.496163 
2.2612500000000000 0.017065 -143.786191 
2.2618749999999999 0.018171 -144.788470 
2.2625000000000002 0.019235 -145.526723 
2.2631250000000001 0.020713 -143.002419 
2.2637499999999999 0.022287 -141.204639 
2.2643749999999998 0.024243 -135.933978 
2.2650000000000001 0.025747 -130.050674 
2.2656250000000000 0.027779 -123.895202 
2.2662499999999999 0.029653 -113.732354 
2.2668750000000002 0.030255 -103.422116 
2.2675000000000001 0.030983 -93.649600 
2.2681249999999999 0.030749 -84.493453 
2.2687499999999998 0.029950 -75.196453 
2.2693750000000001 0.029419 -69.518302 
2.2700000000000000 0.028028 -64.824811 
2.2706249999999999 0.026685 -61.139496 
2.2712500000000002 0.025298 -59.457791 
2.2718750000000001 0.024797 -57.495677 
2.2725000000000000 0.023441 -56.846552 
2.2731249999999998 0.022866 -56.113742 
2.2737500000000002 0.021745 -56.563614 
2.2743750000000000 0.020585 -57.963665 
2.2749999999999999 0.019561 -59.616874 
2.2756249999999998 0.018115 -62.308484 
2.2762500000000001 0.017291 -64.196723 
2.2768750000000000 0.016061 -65.677393 
2.2774999999999999 0.014850 -68.200303 
2.2781250000000002 0.013786 -70.726504 
2.2787500000000001 0.012595 -73.762619 
2.2793749999999999 0.011663 -75.647293 
2.2799999999999998 0.010698 -77.172298 
2.2806250000000001 0.009899 -79.631954 
2.2812500000000000 0.009097 -80.669996 
2.2818749999999999 0.008409 -82.128593 
2.2825000000000002 0.007825 -83.092818 
2.2831250000000001 0.007408 -83.030523 
2.2837499999999999 0.006935 -83.150108 
2.2843749999999998 0.006597 -82.720096 
2.2850000000000001 0.006535 -81.488254 
2.2856250000000000 0.006460 -82.008651 
2.2862499999999999 0.006371 -81.497856 
2.2868750000000002 0.006417 -80.577928 
2.2875000000000001 0.006555 -81.742292 
2.2881250000000000 0.006624 -82.975252 
2.2887499999999998 0.006662 -85.148659 
2.2893750000000002 0.006764 -87.830540 
2.2900000000000000 0.006840 -90.035946 
2.2906249999999999 0.006779 -93.514368 
2.2912499999999998 0.006805 -96.154855 
2.2918750000000001 0.006718 -100.016221 
2.2925000000000000 0.006681 -104.142862 
2.2931249999999999 0.006610 -106.764363 
2.2937500000000002 0.006455 -111.409609 
2.2943750000000001 0.006303 -114.943312 
2.2949999999999999 0.006131 -119.278374 
2.2956249999999998 0.005818 -122.995221 
2.2962500000000001 0.005753 -126.334647 
2.2968750000000000 0.005485 -129.189530 
2.2974999999999999 0.005274 -132.013389 
2.2981250000000002 0.004967 -134.706339 
2.2987500000000001 0.004754 -136.873683 
