!
! C:\Users\rflab\Downloads\dp2_kdzw\180.S1P
!
! Touchstone 1.1 file saved by VNA.EXE V1.65 (www.ke5fx.com/gpib/readme.htm)
! 12/12/2024 7:00:14 PM
!
!    Source: HEWLETT PACKARD,8753D,0,6.14
!  Min freq: 2.000000E+009 Hz
!  Max freq: 2.500000E+009 Hz
!    Points: 801
!    Params: S21
!
!!!!!
# GHZ S MA R 50
2.0000000000000000 0.002012 10.256879 
2.0006249999999999 0.001904 9.044152 
2.0012500000000002 0.001850 10.446029 
2.0018750000000001 0.001789 10.125408 
2.0024999999999999 0.001674 11.014611 
2.0031249999999998 0.001645 12.834915 
2.0037500000000001 0.001602 12.530891 
2.0043750000000000 0.001557 14.815569 
2.0049999999999999 0.001549 14.485922 
2.0056250000000002 0.001503 17.110417 
2.0062500000000001 0.001510 18.194691 
2.0068750000000000 0.001500 18.884277 
2.0074999999999998 0.001471 16.927423 
2.0081250000000002 0.001485 17.505720 
2.0087500000000000 0.001414 16.905610 
2.0093749999999999 0.001417 16.248053 
2.0099999999999998 0.001448 16.234927 
2.0106250000000001 0.001450 14.375660 
2.0112500000000000 0.001396 12.884951 
2.0118749999999999 0.001340 11.675772 
2.0125000000000002 0.001362 9.285526 
2.0131250000000001 0.001290 6.677658 
2.0137499999999999 0.001259 7.722057 
2.0143749999999998 0.001211 4.264830 
2.0150000000000001 0.001209 2.348195 
2.0156250000000000 0.001107 0.496680 
2.0162499999999999 0.001066 0.355630 
2.0168750000000002 0.001027 -1.047307 
2.0175000000000001 0.000994 -1.543237 
2.0181249999999999 0.000963 -1.127473 
2.0187499999999998 0.000911 -1.114964 
2.0193750000000001 0.000867 1.942822 
2.0200000000000000 0.000835 1.984666 
2.0206249999999999 0.000817 4.697538 
2.0212500000000002 0.000817 6.006603 
2.0218750000000001 0.000806 7.840209 
2.0225000000000000 0.000793 9.988647 
2.0231249999999998 0.000799 10.894244 
2.0237500000000002 0.000809 12.475491 
2.0243750000000000 0.000809 11.977950 
2.0249999999999999 0.000823 10.696873 
2.0256249999999998 0.000836 11.640278 
2.0262500000000001 0.000858 10.503212 
2.0268750000000000 0.000883 9.729319 
2.0274999999999999 0.000867 7.959436 
2.0281250000000002 0.000883 5.251324 
2.0287500000000001 0.000900 4.550539 
2.0293749999999999 0.000902 1.643171 
2.0299999999999998 0.000907 2.432887 
2.0306250000000001 0.000909 -0.048854 
2.0312500000000000 0.000897 -1.688097 
2.0318749999999999 0.000890 -1.450071 
2.0325000000000002 0.000865 -3.550484 
2.0331250000000001 0.000834 -1.960044 
2.0337499999999999 0.000816 -2.649141 
2.0343749999999998 0.000798 -1.131901 
2.0350000000000001 0.000798 -1.320626 
2.0356250000000000 0.000791 -0.511479 
2.0362499999999999 0.000813 -0.480866 
2.0368750000000002 0.000825 2.041420 
2.0375000000000001 0.000853 2.627467 
2.0381250000000000 0.000871 3.335596 
2.0387499999999998 0.000917 3.966455 
2.0393750000000002 0.000944 4.845038 
2.0400000000000000 0.000995 2.125163 
2.0406249999999999 0.001038 1.069195 
2.0412499999999998 0.001087 0.141408 
2.0418750000000001 0.001123 -1.125091 
2.0425000000000000 0.001176 -3.312740 
2.0431249999999999 0.001211 -4.817957 
2.0437500000000002 0.001244 -8.816313 
2.0443750000000001 0.001290 -9.366135 
2.0449999999999999 0.001298 -13.235253 
2.0456249999999998 0.001352 -16.801107 
2.0462500000000001 0.001363 -18.002969 
2.0468750000000000 0.001344 -20.296495 
2.0474999999999999 0.001407 -22.680362 
2.0481250000000002 0.001391 -25.583084 
2.0487500000000001 0.001352 -27.098272 
2.0493749999999999 0.001335 -28.367960 
2.0499999999999998 0.001303 -30.466341 
2.0506250000000001 0.001303 -29.276818 
2.0512500000000000 0.001297 -31.865242 
2.0518749999999999 0.001290 -30.357233 
2.0525000000000002 0.001254 -30.319933 
2.0531250000000001 0.001252 -31.134441 
2.0537500000000000 0.001280 -29.750179 
2.0543749999999998 0.001289 -28.017638 
2.0550000000000002 0.001332 -28.675546 
2.0556250000000000 0.001390 -27.079272 
2.0562499999999999 0.001435 -26.013782 
2.0568749999999998 0.001539 -24.776999 
2.0575000000000001 0.001617 -26.474382 
2.0581250000000000 0.001720 -26.742606 
2.0587499999999999 0.001817 -26.674301 
2.0593750000000002 0.001887 -27.366503 
2.0600000000000001 0.002012 -28.947772 
2.0606249999999999 0.002080 -29.788056 
2.0612499999999998 0.002230 -31.286835 
2.0618750000000001 0.002340 -33.338639 
2.0625000000000000 0.002403 -36.439028 
2.0631249999999999 0.002546 -35.914956 
2.0637500000000002 0.002605 -37.690090 
2.0643750000000001 0.002676 -40.476733 
2.0649999999999999 0.002797 -41.197878 
2.0656249999999998 0.002842 -43.167740 
2.0662500000000001 0.002921 -43.614260 
2.0668750000000000 0.002950 -44.914854 
2.0674999999999999 0.003016 -45.185771 
2.0681250000000002 0.003126 -46.895813 
2.0687500000000001 0.003205 -47.639853 
2.0693750000000000 0.003268 -48.470596 
2.0699999999999998 0.003418 -47.065982 
2.0706250000000002 0.003501 -47.645469 
2.0712500000000000 0.003670 -48.456562 
2.0718749999999999 0.003799 -48.041384 
2.0724999999999998 0.003927 -48.699541 
2.0731250000000001 0.004102 -48.745169 
2.0737500000000000 0.004412 -47.522651 
2.0743749999999999 0.004523 -46.541061 
2.0750000000000002 0.004714 -47.241068 
2.0756250000000001 0.004947 -47.567416 
2.0762499999999999 0.005144 -47.121515 
2.0768749999999998 0.005324 -46.796538 
2.0775000000000001 0.005575 -46.242389 
2.0781250000000000 0.005669 -46.133188 
2.0787499999999999 0.005854 -45.975277 
2.0793750000000002 0.005913 -44.980397 
2.0800000000000001 0.005975 -45.510832 
2.0806249999999999 0.006009 -46.477456 
2.0812499999999998 0.006047 -45.860957 
2.0818750000000001 0.006105 -46.753439 
2.0825000000000000 0.006046 -45.841940 
2.0831249999999999 0.005950 -45.389610 
2.0837500000000002 0.005889 -44.895032 
2.0843750000000001 0.005772 -44.677016 
2.0850000000000000 0.005795 -43.421221 
2.0856249999999998 0.005720 -42.614900 
2.0862500000000002 0.005560 -42.048575 
2.0868750000000000 0.005585 -39.366506 
2.0874999999999999 0.005390 -38.217293 
2.0881249999999998 0.005238 -36.373297 
2.0887500000000001 0.005162 -35.764711 
2.0893750000000000 0.005094 -32.815457 
2.0899999999999999 0.005104 -31.603646 
2.0906250000000002 0.004992 -30.820163 
2.0912500000000001 0.004950 -30.554824 
2.0918749999999999 0.004927 -29.388263 
2.0924999999999998 0.004916 -29.526693 
2.0931250000000001 0.004823 -29.585027 
2.0937500000000000 0.004846 -30.606472 
2.0943749999999999 0.004777 -30.168348 
2.0950000000000002 0.004768 -32.086461 
2.0956250000000001 0.004767 -33.881602 
2.0962499999999999 0.004796 -34.928783 
2.0968749999999998 0.004693 -36.257438 
2.0975000000000001 0.004632 -37.761699 
2.0981250000000000 0.004550 -39.915132 
2.0987499999999999 0.004424 -39.812294 
2.0993750000000002 0.004294 -41.895596 
2.1000000000000001 0.004204 -43.462706 
2.1006250000000000 0.004071 -44.170743 
2.1012499999999998 0.003894 -46.219300 
2.1018750000000002 0.003742 -46.418581 
2.1025000000000000 0.003622 -47.515971 
2.1031249999999999 0.003459 -48.444833 
2.1037499999999998 0.003317 -49.648650 
2.1043750000000001 0.003188 -49.398009 
2.1050000000000000 0.003030 -48.846530 
2.1056249999999999 0.002952 -49.334217 
2.1062500000000002 0.002953 -49.380392 
2.1068750000000001 0.002876 -49.897649 
2.1074999999999999 0.002887 -50.299230 
2.1081249999999998 0.002861 -50.227750 
2.1087500000000001 0.002903 -51.152421 
2.1093750000000000 0.002889 -51.277426 
2.1099999999999999 0.002937 -53.679012 
2.1106250000000002 0.002962 -55.690172 
2.1112500000000001 0.002989 -56.475946 
2.1118749999999999 0.002999 -60.013881 
2.1124999999999998 0.003013 -61.661308 
2.1131250000000001 0.003050 -64.640935 
2.1137500000000000 0.003004 -67.105687 
2.1143749999999999 0.002967 -69.444759 
2.1150000000000002 0.002922 -73.129265 
2.1156250000000001 0.002845 -76.358576 
2.1162500000000000 0.002755 -78.528636 
2.1168749999999998 0.002648 -82.528786 
2.1175000000000002 0.002495 -86.285344 
2.1181250000000000 0.002383 -88.606726 
2.1187499999999999 0.002240 -91.988807 
2.1193749999999998 0.002145 -94.820229 
2.1200000000000001 0.001948 -97.311108 
2.1206250000000000 0.001867 -99.001541 
2.1212499999999999 0.001739 -100.271834 
2.1218750000000002 0.001628 -100.613987 
2.1225000000000001 0.001535 -99.447692 
2.1231249999999999 0.001482 -97.787998 
2.1237499999999998 0.001403 -97.367174 
2.1243750000000001 0.001382 -94.771034 
2.1250000000000000 0.001448 -93.548390 
2.1256249999999999 0.001426 -92.486848 
2.1262500000000002 0.001487 -89.026019 
2.1268750000000001 0.001514 -89.783418 
2.1274999999999999 0.001584 -91.388351 
2.1281249999999998 0.001662 -93.181654 
2.1287500000000001 0.001653 -96.193269 
2.1293750000000000 0.001671 -99.201647 
2.1299999999999999 0.001703 -101.965908 
2.1306250000000002 0.001641 -105.149634 
2.1312500000000001 0.001664 -109.617643 
2.1318750000000000 0.001603 -113.758234 
2.1324999999999998 0.001522 -119.385367 
2.1331250000000002 0.001441 -124.909733 
2.1337500000000000 0.001342 -130.189423 
2.1343749999999999 0.001248 -135.897953 
2.1349999999999998 0.001121 -143.144730 
2.1356250000000001 0.000988 -149.114527 
2.1362500000000000 0.000839 -154.820326 
2.1368749999999999 0.000708 -160.433436 
2.1375000000000002 0.000536 -164.432436 
2.1381250000000001 0.000396 -166.512402 
2.1387499999999999 0.000219 -164.534024 
2.1393749999999998 0.000088 -101.537622 
2.1400000000000001 0.000190 -45.556580 
2.1406250000000000 0.000363 -35.270886 
2.1412499999999999 0.000517 -38.579138 
2.1418750000000002 0.000706 -41.949079 
2.1425000000000001 0.000835 -45.607354 
2.1431249999999999 0.001006 -49.884612 
2.1437499999999998 0.001129 -55.976012 
2.1443750000000001 0.001208 -60.880048 
2.1450000000000000 0.001320 -65.319578 
2.1456249999999999 0.001347 -70.097897 
2.1462500000000002 0.001360 -73.677913 
2.1468750000000001 0.001327 -78.791001 
2.1475000000000000 0.001254 -81.912266 
2.1481249999999998 0.001189 -85.304808 
2.1487500000000002 0.001089 -86.433839 
2.1493750000000000 0.000970 -88.739173 
2.1499999999999999 0.000854 -85.856533 
2.1506249999999998 0.000755 -78.918117 
2.1512500000000001 0.000671 -67.134026 
2.1518750000000000 0.000709 -50.326456 
2.1524999999999999 0.000858 -39.659768 
2.1531250000000002 0.001031 -32.436897 
2.1537500000000001 0.001297 -28.410412 
2.1543749999999999 0.001581 -29.190940 
2.1549999999999998 0.001880 -29.720092 
2.1556250000000001 0.002233 -34.335699 
2.1562500000000000 0.002599 -37.329340 
2.1568749999999999 0.002981 -41.784229 
2.1575000000000002 0.003326 -45.633202 
2.1581250000000001 0.003667 -50.729072 
2.1587499999999999 0.004087 -54.854360 
2.1593749999999998 0.004318 -59.154508 
2.1600000000000001 0.004609 -63.330220 
2.1606250000000000 0.004818 -67.957446 
2.1612499999999999 0.005105 -71.547276 
2.1618750000000002 0.005140 -76.746996 
2.1625000000000001 0.005286 -79.831081 
2.1631250000000000 0.005265 -82.687374 
2.1637499999999998 0.005281 -85.844906 
2.1643750000000002 0.005245 -88.924283 
2.1650000000000000 0.005184 -90.144939 
2.1656249999999999 0.005049 -91.052496 
2.1662499999999998 0.004897 -90.839612 
2.1668750000000001 0.004803 -88.372932 
2.1675000000000000 0.004760 -84.732306 
2.1681249999999999 0.004790 -79.738264 
2.1687500000000002 0.005045 -74.288922 
2.1693750000000001 0.005499 -68.609161 
2.1699999999999999 0.006128 -62.853722 
2.1706249999999998 0.006970 -58.846351 
2.1712500000000001 0.007916 -56.154865 
2.1718750000000000 0.009005 -53.837011 
2.1724999999999999 0.010058 -53.418032 
2.1731250000000002 0.011335 -53.519135 
2.1737500000000001 0.012162 -54.249760 
2.1743749999999999 0.013162 -55.297243 
2.1749999999999998 0.014111 -55.586601 
2.1756250000000001 0.014807 -57.058134 
2.1762500000000000 0.015260 -58.540050 
2.1768749999999999 0.015470 -61.020534 
2.1775000000000002 0.015979 -63.763745 
2.1781250000000001 0.015920 -65.309484 
2.1787500000000000 0.015963 -66.899845 
2.1793749999999998 0.015485 -67.967276 
2.1800000000000002 0.015001 -70.030586 
2.1806250000000000 0.014323 -70.954614 
2.1812499999999999 0.013274 -71.978999 
2.1818749999999998 0.012510 -72.447679 
2.1825000000000001 0.011494 -72.506170 
2.1831250000000000 0.010458 -72.035963 
2.1837499999999999 0.009276 -69.979656 
2.1843750000000002 0.008511 -67.987574 
2.1850000000000001 0.007708 -64.619094 
2.1856249999999999 0.007050 -60.614168 
2.1862499999999998 0.006660 -57.143884 
2.1868750000000001 0.006505 -51.745231 
2.1875000000000000 0.006494 -50.035521 
2.1881249999999999 0.006566 -46.530196 
2.1887500000000002 0.006685 -44.997109 
2.1893750000000001 0.006964 -45.710200 
2.1899999999999999 0.007201 -45.719047 
2.1906249999999998 0.007308 -47.771577 
2.1912500000000001 0.007407 -49.527539 
2.1918750000000000 0.007436 -53.130842 
2.1924999999999999 0.007487 -56.112589 
2.1931250000000002 0.007484 -59.801897 
2.1937500000000001 0.007354 -63.675863 
2.1943750000000000 0.007060 -67.026503 
2.1949999999999998 0.006768 -71.022556 
2.1956250000000002 0.006497 -74.709103 
2.1962500000000000 0.006182 -78.968264 
2.1968749999999999 0.005831 -82.862490 
2.1974999999999998 0.005424 -85.461634 
2.1981250000000001 0.005001 -88.890835 
2.1987500000000000 0.004616 -91.651708 
2.1993749999999999 0.004170 -92.851444 
2.2000000000000002 0.003829 -94.713123 
2.2006250000000001 0.003528 -95.250169 
2.2012499999999999 0.003202 -93.800025 
2.2018749999999998 0.003019 -92.706619 
2.2025000000000001 0.002774 -90.822536 
2.2031250000000000 0.002688 -87.486276 
2.2037499999999999 0.002672 -84.993506 
2.2043750000000002 0.002678 -82.463334 
2.2050000000000001 0.002779 -81.102870 
2.2056249999999999 0.002883 -81.785484 
2.2062499999999998 0.002994 -82.524435 
2.2068750000000001 0.003159 -84.135160 
2.2075000000000000 0.003246 -87.181209 
2.2081249999999999 0.003372 -89.961519 
2.2087500000000002 0.003386 -93.225486 
2.2093750000000001 0.003399 -97.522016 
2.2100000000000000 0.003445 -101.895500 
2.2106249999999998 0.003390 -106.697701 
2.2112500000000002 0.003362 -111.414371 
2.2118750000000000 0.003296 -116.464946 
2.2124999999999999 0.003136 -121.595798 
2.2131249999999998 0.002948 -125.720572 
2.2137500000000001 0.002765 -130.935424 
2.2143750000000000 0.002560 -135.152839 
2.2149999999999999 0.002397 -140.200638 
2.2156250000000002 0.002141 -143.606178 
2.2162500000000001 0.001949 -147.450307 
2.2168749999999999 0.001681 -149.336257 
2.2174999999999998 0.001450 -149.903736 
2.2181250000000001 0.001238 -150.538532 
2.2187500000000000 0.001033 -145.712252 
2.2193749999999999 0.000864 -139.294903 
2.2200000000000002 0.000778 -127.538753 
2.2206250000000001 0.000750 -114.293901 
2.2212499999999999 0.000846 -102.260488 
2.2218749999999998 0.000955 -96.868539 
2.2225000000000001 0.001099 -92.985016 
2.2231250000000000 0.001268 -92.787783 
2.2237499999999999 0.001387 -94.545059 
2.2243750000000002 0.001517 -95.865374 
2.2250000000000001 0.001605 -99.122637 
2.2256250000000000 0.001709 -102.983685 
2.2262499999999998 0.001745 -107.250029 
2.2268750000000002 0.001768 -110.893307 
2.2275000000000000 0.001767 -113.618757 
2.2281249999999999 0.001748 -118.644752 
2.2287499999999998 0.001665 -121.854971 
2.2293750000000001 0.001608 -123.779579 
2.2300000000000000 0.001511 -126.954880 
2.2306249999999999 0.001404 -128.445185 
2.2312500000000002 0.001300 -127.976156 
2.2318750000000001 0.001184 -125.830640 
2.2324999999999999 0.001106 -121.784222 
2.2331249999999998 0.001038 -114.212442 
2.2337500000000001 0.001022 -106.153802 
2.2343750000000000 0.001098 -96.530390 
2.2349999999999999 0.001242 -90.313359 
2.2356250000000002 0.001450 -86.111359 
2.2362500000000001 0.001652 -84.866584 
2.2368749999999999 0.001865 -84.784347 
2.2374999999999998 0.002088 -86.635465 
2.2381250000000001 0.002321 -88.546144 
2.2387500000000000 0.002603 -92.031733 
2.2393749999999999 0.002827 -94.512467 
2.2400000000000002 0.002979 -98.311707 
2.2406250000000001 0.003180 -102.328463 
2.2412500000000000 0.003359 -106.708981 
2.2418749999999998 0.003559 -110.273945 
2.2425000000000002 0.003653 -113.572213 
2.2431250000000000 0.003685 -116.836926 
2.2437499999999999 0.003742 -120.907404 
2.2443749999999998 0.003744 -123.844872 
2.2450000000000001 0.003696 -125.781723 
2.2456250000000000 0.003732 -129.121736 
2.2462499999999999 0.003634 -130.009659 
2.2468750000000002 0.003672 -129.810817 
2.2475000000000001 0.003683 -130.257703 
2.2481249999999999 0.003734 -127.995316 
2.2487499999999998 0.003807 -126.348930 
2.2493750000000001 0.003889 -123.531282 
2.2500000000000000 0.004213 -122.497549 
2.2506249999999999 0.004582 -120.235622 
2.2512500000000002 0.004984 -119.543632 
2.2518750000000001 0.005494 -117.760514 
2.2524999999999999 0.006173 -116.593748 
2.2531249999999998 0.006848 -117.598181 
2.2537500000000001 0.007668 -118.723068 
2.2543750000000000 0.008523 -119.794978 
2.2549999999999999 0.009283 -121.510905 
2.2556250000000002 0.010212 -123.911189 
2.2562500000000001 0.011092 -125.943710 
2.2568750000000000 0.012142 -128.869244 
2.2574999999999998 0.013219 -131.278084 
2.2581250000000002 0.014067 -134.114162 
2.2587500000000000 0.015009 -136.665847 
2.2593749999999999 0.016097 -139.512475 
2.2599999999999998 0.017239 -141.085266 
2.2606250000000001 0.017964 -143.201274 
2.2612500000000000 0.019030 -144.313451 
2.2618749999999999 0.020361 -145.381728 
2.2625000000000002 0.021464 -145.418838 
2.2631250000000001 0.023370 -143.375610 
2.2637499999999999 0.024743 -141.250865 
2.2643749999999998 0.026750 -136.999416 
2.2650000000000001 0.029096 -130.722690 
2.2656250000000000 0.030882 -123.961943 
2.2662499999999999 0.032503 -113.962833 
2.2668750000000002 0.033420 -104.003728 
2.2675000000000001 0.034460 -95.695447 
2.2681249999999999 0.033676 -85.914160 
2.2687499999999998 0.033023 -76.356245 
2.2693750000000001 0.033299 -71.311822 
2.2700000000000000 0.032092 -65.636077 
2.2706249999999999 0.030569 -62.485219 
2.2712500000000002 0.029142 -60.075580 
2.2718750000000001 0.028082 -59.167059 
2.2725000000000000 0.027132 -57.371269 
2.2731249999999998 0.026022 -57.542332 
2.2737500000000002 0.024870 -58.437123 
2.2743750000000000 0.023651 -58.618620 
2.2749999999999999 0.022634 -60.585690 
2.2756249999999998 0.020876 -62.346292 
2.2762500000000001 0.019781 -64.363984 
2.2768750000000000 0.018346 -67.160409 
2.2774999999999999 0.016965 -68.488660 
2.2781250000000002 0.015869 -71.519317 
2.2787500000000001 0.014745 -73.655003 
2.2793749999999999 0.013509 -75.970626 
2.2799999999999998 0.012390 -78.003346 
2.2806250000000001 0.011491 -80.289093 
2.2812500000000000 0.010580 -81.835565 
2.2818749999999999 0.009741 -82.589027 
2.2825000000000002 0.009213 -83.207870 
2.2831250000000001 0.008477 -82.803832 
2.2837499999999999 0.008063 -83.073788 
2.2843749999999998 0.007868 -82.250471 
2.2850000000000001 0.007674 -81.720873 
2.2856250000000000 0.007513 -81.359998 
2.2862499999999999 0.007433 -80.968516 
2.2868750000000002 0.007401 -80.815023 
2.2875000000000001 0.007562 -81.483617 
2.2881250000000000 0.007631 -83.087699 
2.2887499999999998 0.007754 -85.133654 
2.2893750000000002 0.007826 -87.583539 
2.2900000000000000 0.007824 -90.048887 
2.2906249999999999 0.007878 -92.678308 
2.2912499999999998 0.007950 -96.039227 
2.2918750000000001 0.007871 -99.596702 
2.2925000000000000 0.007771 -102.989877 
2.2931249999999999 0.007718 -107.394462 
2.2937500000000002 0.007590 -110.864628 
2.2943750000000001 0.007435 -114.801575 
2.2949999999999999 0.007134 -118.624213 
2.2956249999999998 0.006933 -122.273542 
2.2962500000000001 0.006714 -125.522068 
2.2968750000000000 0.006374 -129.051441 
2.2974999999999999 0.006171 -132.093507 
2.2981250000000002 0.005909 -134.673083 
2.2987500000000001 0.005662 -136.040756 
