!
! C:\Users\rflab\Downloads\dp2_kdzw\20.S1P
!
! Touchstone 1.1 file saved by VNA.EXE V1.65 (www.ke5fx.com/gpib/readme.htm)
! 12/12/2024 6:49:08 PM
!
!    Source: HEWLETT PACKARD,8753D,0,6.14
!  Min freq: 2.000000E+009 Hz
!  Max freq: 2.500000E+009 Hz
!    Points: 801
!    Params: S21
!
!!!!!
# GHZ S MA R 50
2.0000000000000000 0.004701 -143.309090 
2.0006249999999999 0.004510 -143.267605 
2.0012500000000002 0.004369 -143.569738 
2.0018750000000001 0.004220 -143.719272 
2.0024999999999999 0.004014 -143.325795 
2.0031249999999998 0.003909 -141.973295 
2.0037500000000001 0.003822 -141.167148 
2.0043750000000000 0.003777 -140.808698 
2.0049999999999999 0.003724 -139.723358 
2.0056250000000002 0.003640 -138.193659 
2.0062500000000001 0.003708 -137.623857 
2.0068750000000000 0.003667 -137.476733 
2.0074999999999998 0.003667 -137.803478 
2.0081250000000002 0.003636 -136.405348 
2.0087500000000000 0.003562 -137.104827 
2.0093749999999999 0.003634 -138.497247 
2.0099999999999998 0.003634 -139.453737 
2.0106250000000001 0.003601 -140.619848 
2.0112500000000000 0.003542 -143.150916 
2.0118749999999999 0.003450 -144.344951 
2.0125000000000002 0.003398 -146.018964 
2.0131250000000001 0.003309 -148.660646 
2.0137499999999999 0.003196 -149.748023 
2.0143749999999998 0.003052 -152.130643 
2.0150000000000001 0.003017 -154.124380 
2.0156250000000000 0.002855 -155.949082 
2.0162499999999999 0.002779 -157.088362 
2.0168750000000002 0.002668 -157.058559 
2.0175000000000001 0.002553 -157.957161 
2.0181249999999999 0.002466 -157.543950 
2.0187499999999998 0.002370 -157.135879 
2.0193750000000001 0.002286 -155.213803 
2.0200000000000000 0.002220 -154.911365 
2.0206249999999999 0.002180 -153.346659 
2.0212500000000002 0.002105 -151.008121 
2.0218750000000001 0.002085 -150.245360 
2.0225000000000000 0.002077 -147.438245 
2.0231249999999998 0.002103 -146.450437 
2.0237500000000002 0.002118 -145.852792 
2.0243750000000000 0.002176 -145.079714 
2.0249999999999999 0.002175 -145.293528 
2.0256249999999998 0.002237 -145.982169 
2.0262500000000001 0.002269 -147.055369 
2.0268750000000000 0.002313 -148.222220 
2.0274999999999999 0.002329 -148.881317 
2.0281250000000002 0.002378 -151.207323 
2.0287500000000001 0.002347 -152.095622 
2.0293749999999999 0.002353 -154.635868 
2.0299999999999998 0.002361 -154.895897 
2.0306250000000001 0.002353 -157.102851 
2.0312500000000000 0.002314 -158.399717 
2.0318749999999999 0.002302 -158.635024 
2.0325000000000002 0.002257 -160.405830 
2.0331250000000001 0.002205 -159.503767 
2.0337499999999999 0.002175 -158.544336 
2.0343749999999998 0.002128 -158.771433 
2.0350000000000001 0.002094 -157.998750 
2.0356250000000000 0.002102 -157.140650 
2.0362499999999999 0.002106 -155.687536 
2.0368750000000002 0.002152 -154.459699 
2.0375000000000001 0.002189 -152.790385 
2.0381250000000000 0.002257 -152.014010 
2.0387499999999998 0.002366 -151.991355 
2.0393750000000002 0.002444 -151.497479 
2.0400000000000000 0.002522 -151.903608 
2.0406249999999999 0.002655 -153.524693 
2.0412499999999998 0.002775 -154.485013 
2.0418750000000001 0.002878 -156.922307 
2.0425000000000000 0.002965 -158.436461 
2.0431249999999999 0.003050 -159.957196 
2.0437500000000002 0.003155 -162.735865 
2.0443750000000001 0.003217 -164.964633 
2.0449999999999999 0.003304 -167.180157 
2.0456249999999998 0.003345 -169.938791 
2.0462500000000001 0.003410 -171.969610 
2.0468750000000000 0.003401 -174.051971 
2.0474999999999999 0.003360 -177.051000 
2.0481250000000002 0.003401 -178.033372 
2.0487500000000001 0.003338 -179.850643 
2.0493749999999999 0.003266 178.648722 
2.0499999999999998 0.003265 178.012085 
2.0506250000000001 0.003157 177.509224 
2.0512500000000000 0.003106 176.765265 
2.0518749999999999 0.003068 176.705946 
2.0525000000000002 0.003028 177.203951 
2.0531250000000001 0.003004 178.201061 
2.0537500000000000 0.003009 179.096677 
2.0543749999999998 0.003067 -179.710450 
2.0550000000000002 0.003118 -178.120040 
2.0556250000000000 0.003213 -177.529282 
2.0562499999999999 0.003308 -176.297449 
2.0568749999999998 0.003518 -175.915491 
2.0575000000000001 0.003702 -175.693275 
2.0581250000000000 0.003904 -175.867263 
2.0587499999999999 0.004087 -176.083212 
2.0593750000000002 0.004296 -177.251301 
2.0600000000000001 0.004506 -178.408354 
2.0606249999999999 0.004712 -179.408596 
2.0612499999999998 0.004993 179.600562 
2.0618750000000001 0.005207 178.438730 
2.0625000000000000 0.005379 177.134172 
2.0631249999999999 0.005603 175.075992 
2.0637500000000002 0.005703 174.203131 
2.0643750000000001 0.005854 173.136652 
2.0649999999999999 0.005985 171.652980 
2.0656249999999998 0.006101 170.153372 
2.0662500000000001 0.006228 169.326719 
2.0668750000000000 0.006312 168.389561 
2.0674999999999999 0.006445 167.753058 
2.0681250000000002 0.006556 166.863274 
2.0687500000000001 0.006688 166.407107 
2.0693750000000000 0.006882 166.370551 
2.0699999999999998 0.007064 166.167307 
2.0706250000000002 0.007236 166.470194 
2.0712500000000000 0.007516 166.692040 
2.0718749999999999 0.007856 167.075501 
2.0724999999999998 0.008065 167.763291 
2.0731250000000001 0.008457 167.375877 
2.0737500000000000 0.008799 168.277180 
2.0743749999999999 0.009162 168.851480 
2.0750000000000002 0.009523 169.107540 
2.0756250000000001 0.009909 169.597989 
2.0762499999999999 0.010266 170.554739 
2.0768749999999998 0.010568 170.709382 
2.0775000000000001 0.010855 171.081807 
2.0781250000000000 0.011031 171.148017 
2.0787499999999999 0.011265 171.658954 
2.0793750000000002 0.011433 171.398817 
2.0800000000000001 0.011486 172.586434 
2.0806249999999999 0.011487 172.649904 
2.0812499999999998 0.011458 172.765259 
2.0818750000000001 0.011449 173.132778 
2.0825000000000000 0.011278 173.384275 
2.0831249999999999 0.011198 174.256633 
2.0837500000000002 0.010895 174.466823 
2.0843750000000001 0.010833 174.455778 
2.0850000000000000 0.010550 176.426414 
2.0856249999999998 0.010325 177.421830 
2.0862500000000002 0.010156 179.241338 
2.0868750000000000 0.009848 -178.929124 
2.0874999999999999 0.009728 -177.491172 
2.0881249999999998 0.009383 -175.563775 
2.0887500000000001 0.009229 -173.291373 
2.0893750000000000 0.008952 -171.117173 
2.0899999999999999 0.008810 -169.629699 
2.0906250000000002 0.008683 -168.520995 
2.0912500000000001 0.008586 -167.602342 
2.0918749999999999 0.008486 -166.978115 
2.0924999999999998 0.008458 -166.711204 
2.0931250000000001 0.008352 -167.131647 
2.0937500000000000 0.008339 -167.751929 
2.0943749999999999 0.008211 -168.059076 
2.0950000000000002 0.008220 -168.556436 
2.0956250000000001 0.008060 -169.983775 
2.0962499999999999 0.008015 -170.881183 
2.0968749999999998 0.007897 -172.621387 
2.0975000000000001 0.007824 -173.947860 
2.0981250000000000 0.007616 -174.924759 
2.0987499999999999 0.007476 -176.086496 
2.0993750000000002 0.007211 -177.377310 
2.1000000000000001 0.006987 -178.494313 
2.1006250000000000 0.006720 -179.552767 
2.1012499999999998 0.006436 179.516077 
2.1018750000000002 0.006162 178.811593 
2.1025000000000000 0.005937 178.488146 
2.1031249999999999 0.005633 177.688161 
2.1037499999999998 0.005431 177.428727 
2.1043750000000001 0.005181 176.797208 
2.1050000000000000 0.005034 176.421123 
2.1056249999999999 0.004898 177.081181 
2.1062500000000002 0.004786 176.927208 
2.1068750000000001 0.004664 177.330948 
2.1074999999999999 0.004640 176.801057 
2.1081249999999998 0.004619 177.064784 
2.1087500000000001 0.004637 175.748368 
2.1093750000000000 0.004646 174.721189 
2.1099999999999999 0.004735 173.845874 
2.1106250000000002 0.004801 172.378472 
2.1112500000000001 0.004873 170.780072 
2.1118749999999999 0.004874 168.395437 
2.1124999999999998 0.004877 166.397171 
2.1131250000000001 0.004905 164.222154 
2.1137500000000000 0.004799 161.552454 
2.1143749999999999 0.004754 159.045419 
2.1150000000000002 0.004677 156.094158 
2.1156250000000001 0.004550 152.735447 
2.1162500000000000 0.004415 149.661373 
2.1168749999999998 0.004192 146.600974 
2.1175000000000002 0.004024 143.185098 
2.1181250000000000 0.003818 140.576924 
2.1187499999999999 0.003630 137.515204 
2.1193749999999998 0.003399 134.738553 
2.1200000000000001 0.003165 132.609351 
2.1206250000000000 0.003009 131.366990 
2.1212499999999999 0.002796 130.268500 
2.1218750000000002 0.002620 129.824924 
2.1225000000000001 0.002481 129.955718 
2.1231249999999999 0.002368 132.033099 
2.1237499999999998 0.002252 133.824729 
2.1243750000000001 0.002211 135.559211 
2.1250000000000000 0.002303 136.954699 
2.1256249999999999 0.002316 138.835145 
2.1262500000000002 0.002357 141.208054 
2.1268750000000001 0.002464 141.304697 
2.1274999999999999 0.002592 140.257175 
2.1281249999999998 0.002691 137.595886 
2.1287500000000001 0.002655 134.967254 
2.1293750000000000 0.002741 133.265789 
2.1299999999999999 0.002795 129.226126 
2.1306250000000002 0.002661 126.277571 
2.1312500000000001 0.002746 121.860383 
2.1318750000000000 0.002649 117.386208 
2.1324999999999998 0.002527 112.110542 
2.1331250000000002 0.002386 106.290670 
2.1337500000000000 0.002238 101.482273 
2.1343749999999999 0.002064 94.591603 
2.1349999999999998 0.001853 89.505957 
2.1356250000000001 0.001657 83.423567 
2.1362500000000000 0.001391 76.752170 
2.1368749999999999 0.001150 70.141220 
2.1375000000000002 0.000885 66.616500 
2.1381250000000001 0.000667 64.790973 
2.1387499999999999 0.000356 65.882551 
2.1393749999999998 0.000133 137.866272 
2.1400000000000001 0.000338 -169.699442 
2.1406250000000000 0.000636 -160.783833 
2.1412499999999999 0.000908 -165.186355 
2.1418750000000002 0.001239 -168.944212 
2.1425000000000001 0.001479 -172.972641 
2.1431249999999999 0.001770 -177.421617 
2.1437499999999998 0.001964 176.666839 
2.1443750000000001 0.002126 172.114760 
2.1450000000000000 0.002249 166.930941 
2.1456249999999999 0.002344 162.975257 
2.1462500000000002 0.002402 158.322669 
2.1468750000000001 0.002360 154.388946 
2.1475000000000000 0.002270 150.324905 
2.1481249999999998 0.002137 146.949881 
2.1487500000000002 0.001970 144.639275 
2.1493750000000000 0.001743 144.946018 
2.1499999999999999 0.001545 145.629448 
2.1506249999999998 0.001370 153.017987 
2.1512500000000001 0.001223 164.394870 
2.1518750000000000 0.001307 -179.367645 
2.1524999999999999 0.001571 -167.963687 
2.1531250000000002 0.001922 -161.732484 
2.1537500000000001 0.002402 -157.159035 
2.1543749999999999 0.002888 -157.871370 
2.1549999999999998 0.003507 -158.897739 
2.1556250000000001 0.004175 -163.328332 
2.1562500000000000 0.004838 -167.213628 
2.1568749999999999 0.005571 -170.632418 
2.1575000000000002 0.006300 -175.221772 
2.1581250000000001 0.006943 -179.498298 
2.1587499999999999 0.007538 175.686635 
2.1593749999999998 0.008056 171.414736 
2.1600000000000001 0.008697 167.440526 
2.1606250000000000 0.009202 162.537759 
2.1612499999999999 0.009648 158.102891 
2.1618750000000002 0.009834 154.379230 
2.1625000000000001 0.010118 150.521043 
2.1631250000000000 0.010192 147.538264 
2.1637499999999998 0.010259 144.555505 
2.1643750000000002 0.010164 141.776797 
2.1650000000000000 0.010003 140.153689 
2.1656249999999999 0.009818 139.417116 
2.1662499999999998 0.009559 139.132412 
2.1668750000000001 0.009424 141.208894 
2.1675000000000000 0.009349 145.035750 
2.1681249999999999 0.009488 150.029394 
2.1687500000000002 0.009992 156.372034 
2.1693750000000001 0.010990 161.717554 
2.1699999999999999 0.012204 167.358762 
2.1706249999999998 0.013853 170.297747 
2.1712500000000001 0.015828 174.339578 
2.1718750000000000 0.018039 175.269316 
2.1724999999999999 0.020159 176.547423 
2.1731250000000002 0.022065 175.853329 
2.1737500000000001 0.024598 176.076124 
2.1743749999999999 0.026589 175.032930 
2.1749999999999998 0.028026 174.528790 
2.1756250000000001 0.029538 172.844688 
2.1762500000000000 0.030997 170.947462 
2.1768749999999999 0.031706 169.036174 
2.1775000000000002 0.032193 166.849666 
2.1781250000000001 0.032454 165.378989 
2.1787500000000000 0.032251 163.041272 
2.1793749999999998 0.031348 161.271803 
2.1800000000000002 0.030386 159.830372 
2.1806250000000000 0.028948 158.649718 
2.1812499999999999 0.027284 157.565606 
2.1818749999999998 0.025348 157.049652 
2.1825000000000001 0.023384 156.630189 
2.1831250000000000 0.021216 157.668193 
2.1837499999999999 0.019153 159.318080 
2.1843750000000002 0.017312 161.219708 
2.1850000000000001 0.015735 163.737639 
2.1856249999999999 0.014705 167.743037 
2.1862499999999998 0.013854 172.245847 
2.1868750000000001 0.013475 176.032982 
2.1875000000000000 0.013289 179.303035 
2.1881249999999999 0.013543 -178.214312 
2.1887500000000002 0.013925 -176.342403 
2.1893750000000001 0.014303 -176.770159 
2.1899999999999999 0.014749 -177.969335 
2.1906249999999998 0.015201 -178.802917 
2.1912500000000001 0.015302 178.553625 
2.1918750000000000 0.015668 175.440538 
2.1924999999999999 0.015501 172.107193 
2.1931250000000002 0.015493 168.600148 
2.1937500000000001 0.015118 164.984538 
2.1943750000000000 0.014910 161.631109 
2.1949999999999998 0.014227 157.058108 
2.1956250000000002 0.013641 153.452868 
2.1962500000000000 0.012896 149.762174 
2.1968749999999999 0.012111 146.068444 
2.1974999999999998 0.011372 142.991247 
2.1981250000000001 0.010484 139.097957 
2.1987500000000000 0.009671 136.868092 
2.1993749999999999 0.008772 134.808405 
2.2000000000000002 0.008008 133.484820 
2.2006250000000001 0.007287 133.289672 
2.2012499999999999 0.006699 133.922882 
2.2018749999999998 0.006238 135.336002 
2.2025000000000001 0.005845 137.737628 
2.2031250000000000 0.005698 140.951144 
2.2037499999999999 0.005568 143.999690 
2.2043750000000002 0.005687 145.690299 
2.2050000000000001 0.005916 146.529594 
2.2056249999999999 0.006143 146.883558 
2.2062499999999998 0.006362 146.277180 
2.2068750000000001 0.006697 144.110902 
2.2075000000000000 0.006880 141.455550 
2.2081249999999999 0.007134 138.159255 
2.2087500000000002 0.007153 134.974343 
2.2093750000000001 0.007242 131.577923 
2.2100000000000000 0.007268 126.822531 
2.2106249999999998 0.007195 121.667084 
2.2112500000000002 0.007027 116.825878 
2.2118750000000000 0.006879 112.793392 
2.2124999999999999 0.006558 107.526617 
2.2131249999999998 0.006271 103.239027 
2.2137500000000001 0.005872 98.433788 
2.2143750000000000 0.005488 93.823844 
2.2149999999999999 0.005044 89.233507 
2.2156250000000002 0.004577 85.545442 
2.2162500000000001 0.004083 82.554164 
2.2168749999999999 0.003528 80.006485 
2.2174999999999998 0.003036 79.132994 
2.2181250000000001 0.002581 79.831035 
2.2187500000000000 0.002177 83.885390 
2.2193749999999999 0.001815 91.827168 
2.2200000000000002 0.001632 103.297909 
2.2206250000000001 0.001622 117.549084 
2.2212499999999999 0.001791 128.499906 
2.2218749999999998 0.002067 135.236002 
2.2225000000000001 0.002343 138.451555 
2.2231250000000000 0.002724 138.209045 
2.2237499999999999 0.002993 137.103301 
2.2243750000000002 0.003256 134.562384 
2.2250000000000001 0.003468 132.296080 
2.2256250000000000 0.003638 128.676520 
2.2262499999999998 0.003772 124.585665 
2.2268750000000002 0.003762 120.560185 
2.2275000000000000 0.003831 117.878456 
2.2281249999999999 0.003782 113.183414 
2.2287499999999998 0.003607 110.776781 
2.2293750000000001 0.003487 107.672947 
2.2300000000000000 0.003235 105.031396 
2.2306249999999999 0.003066 104.248558 
2.2312500000000002 0.002797 104.013738 
2.2318750000000001 0.002546 106.941016 
2.2324999999999999 0.002395 111.472004 
2.2331249999999998 0.002250 119.293100 
2.2337500000000001 0.002258 127.727745 
2.2343750000000000 0.002414 135.540275 
2.2349999999999999 0.002706 141.975164 
2.2356250000000002 0.003134 145.605076 
2.2362500000000001 0.003557 147.227156 
2.2368749999999999 0.004075 147.611585 
2.2374999999999998 0.004600 146.589120 
2.2381250000000001 0.005089 144.124983 
2.2387500000000000 0.005593 140.917512 
2.2393749999999999 0.006121 137.731114 
2.2400000000000002 0.006561 134.826275 
2.2406250000000001 0.006957 131.129036 
2.2412500000000000 0.007308 127.465797 
2.2418749999999998 0.007684 123.560891 
2.2425000000000002 0.007849 120.068267 
2.2431250000000000 0.008077 116.136959 
2.2437499999999999 0.008162 112.948937 
2.2443749999999998 0.008193 109.601332 
2.2450000000000001 0.008187 107.827057 
2.2456250000000000 0.008193 105.196046 
2.2462499999999999 0.008125 104.041138 
2.2468750000000002 0.008029 104.131152 
2.2475000000000001 0.008067 104.742701 
2.2481249999999999 0.008160 106.754406 
2.2487499999999998 0.008501 108.656503 
2.2493750000000001 0.008684 110.854316 
2.2500000000000000 0.009347 112.500021 
2.2506249999999999 0.009993 114.287830 
2.2512500000000002 0.011028 115.756247 
2.2518750000000001 0.012140 117.231321 
2.2524999999999999 0.013504 117.690692 
2.2531249999999998 0.015325 117.773820 
2.2537500000000001 0.016982 116.818305 
2.2543750000000000 0.018882 115.527041 
2.2549999999999999 0.020756 113.292615 
2.2556250000000002 0.022812 111.835662 
2.2562500000000001 0.024964 108.821178 
2.2568750000000000 0.027029 107.026485 
2.2574999999999998 0.029356 104.125178 
2.2581250000000002 0.031639 101.919255 
2.2587500000000000 0.034030 99.103849 
2.2593749999999999 0.036087 96.479311 
2.2599999999999998 0.038447 94.090882 
2.2606250000000001 0.041228 93.041766 
2.2612500000000000 0.043642 91.587803 
2.2618749999999999 0.046906 90.617413 
2.2625000000000002 0.049988 90.472225 
2.2631250000000001 0.053751 92.886265 
2.2637499999999999 0.058218 94.871360 
2.2643749999999998 0.062563 99.103937 
2.2650000000000001 0.067371 104.949807 
2.2656250000000000 0.073500 111.204470 
2.2662499999999999 0.078193 121.097502 
2.2668750000000002 0.081797 131.667047 
2.2675000000000001 0.082151 141.578280 
2.2681249999999999 0.082024 152.209812 
2.2687499999999998 0.079983 162.367869 
2.2693750000000001 0.079702 167.638059 
2.2700000000000000 0.076308 172.915838 
2.2706249999999999 0.072930 176.890656 
2.2712500000000002 0.069773 178.887872 
2.2718750000000001 0.067066 -179.384045 
2.2725000000000000 0.064761 -178.156960 
2.2731249999999998 0.061940 -178.567198 
2.2737500000000002 0.059222 -179.125295 
2.2743750000000000 0.056285 -179.398094 
2.2749999999999999 0.053104 179.082125 
2.2756249999999998 0.050190 176.841181 
2.2762500000000001 0.046738 175.248006 
2.2768750000000000 0.043852 172.592768 
2.2774999999999999 0.040665 170.584069 
2.2781250000000002 0.038048 167.883978 
2.2787500000000001 0.035028 165.378075 
2.2793749999999999 0.032316 163.111593 
2.2799999999999998 0.029941 160.724767 
2.2806250000000001 0.027567 158.780903 
2.2812500000000000 0.025333 157.573747 
2.2818749999999999 0.023528 156.607464 
2.2825000000000002 0.022079 155.654553 
2.2831250000000001 0.020689 155.198658 
2.2837499999999999 0.019613 155.335393 
2.2843749999999998 0.018970 156.370608 
2.2850000000000001 0.018638 156.566182 
2.2856250000000000 0.018240 157.364683 
2.2862499999999999 0.018132 157.675907 
2.2868750000000002 0.018356 157.486606 
2.2875000000000001 0.018745 156.860357 
2.2881250000000000 0.019071 155.290711 
2.2887499999999998 0.019283 153.522397 
2.2893750000000002 0.019553 151.398691 
2.2900000000000000 0.019765 148.735173 
2.2906249999999999 0.019692 145.700426 
2.2912499999999998 0.019756 142.575255 
2.2918750000000001 0.019804 139.100617 
2.2925000000000000 0.019559 135.280528 
2.2931249999999999 0.019450 131.450876 
2.2937500000000002 0.019138 127.215637 
2.2943750000000001 0.018639 123.745348 
2.2949999999999999 0.018221 119.860563 
2.2956249999999998 0.017713 116.236719 
2.2962500000000001 0.017156 112.633582 
2.2968750000000000 0.016407 109.382863 
2.2974999999999999 0.015789 106.321189 
