!
! C:\Users\rflab\Downloads\dp2_kdzw\200.S1P
!
! Touchstone 1.1 file saved by VNA.EXE V1.65 (www.ke5fx.com/gpib/readme.htm)
! 12/12/2024 7:13:18 PM
!
!    Source: HEWLETT PACKARD,8753D,0,6.14
!  Min freq: 2.000000E+009 Hz
!  Max freq: 2.500000E+009 Hz
!    Points: 801
!    Params: S21
!
!!!!!
# GHZ S MA R 50
2.0000000000000000 0.002170 0.701927 
2.0006249999999999 0.002080 -0.663413 
2.0012500000000002 0.002012 -1.979028 
2.0018750000000001 0.001918 -1.549408 
2.0024999999999999 0.001870 -1.483125 
2.0031249999999998 0.001786 1.216273 
2.0037500000000001 0.001732 0.461417 
2.0043750000000000 0.001790 1.148739 
2.0049999999999999 0.001732 1.822558 
2.0056250000000002 0.001717 3.048962 
2.0062500000000001 0.001695 3.079921 
2.0068750000000000 0.001747 4.360315 
2.0074999999999998 0.001740 2.729487 
2.0081250000000002 0.001657 4.124965 
2.0087500000000000 0.001673 3.124354 
2.0093749999999999 0.001714 1.653646 
2.0099999999999998 0.001683 0.580447 
2.0106250000000001 0.001712 0.251401 
2.0112500000000000 0.001689 -3.280983 
2.0118749999999999 0.001619 -3.986704 
2.0125000000000002 0.001589 -6.324049 
2.0131250000000001 0.001572 -7.891746 
2.0137499999999999 0.001541 -10.860913 
2.0143749999999998 0.001450 -12.293199 
2.0150000000000001 0.001466 -15.453763 
2.0156250000000000 0.001356 -16.230090 
2.0162499999999999 0.001331 -17.041968 
2.0168750000000002 0.001251 -19.006469 
2.0175000000000001 0.001237 -18.883545 
2.0181249999999999 0.001162 -17.742545 
2.0187499999999998 0.001147 -18.669396 
2.0193750000000001 0.001070 -17.584712 
2.0200000000000000 0.001063 -16.746955 
2.0206249999999999 0.001048 -16.174668 
2.0212500000000002 0.000992 -13.125308 
2.0218750000000001 0.001026 -10.526855 
2.0225000000000000 0.000990 -9.708060 
2.0231249999999998 0.001009 -8.553367 
2.0237500000000002 0.001037 -8.982557 
2.0243750000000000 0.001063 -8.843367 
2.0249999999999999 0.001073 -7.815354 
2.0256249999999998 0.001065 -8.690582 
2.0262500000000001 0.001097 -9.856068 
2.0268750000000000 0.001104 -9.890201 
2.0274999999999999 0.001109 -11.966820 
2.0281250000000002 0.001121 -14.567431 
2.0287500000000001 0.001121 -15.642130 
2.0293749999999999 0.001151 -18.096335 
2.0299999999999998 0.001157 -17.958966 
2.0306250000000001 0.001139 -21.567602 
2.0312500000000000 0.001114 -22.143954 
2.0318749999999999 0.001115 -22.737852 
2.0325000000000002 0.001096 -24.467949 
2.0331250000000001 0.001059 -22.485189 
2.0337499999999999 0.001035 -22.996122 
2.0343749999999998 0.001006 -23.323890 
2.0350000000000001 0.001023 -23.434260 
2.0356250000000000 0.001006 -21.919630 
2.0362499999999999 0.001010 -20.588700 
2.0368750000000002 0.001037 -19.790699 
2.0375000000000001 0.001054 -17.886941 
2.0381250000000000 0.001077 -17.966699 
2.0387499999999998 0.001139 -18.432113 
2.0393750000000002 0.001174 -16.051266 
2.0400000000000000 0.001233 -17.716080 
2.0406249999999999 0.001290 -19.600059 
2.0412499999999998 0.001359 -20.447231 
2.0418750000000001 0.001364 -23.553083 
2.0425000000000000 0.001432 -25.365123 
2.0431249999999999 0.001507 -26.617737 
2.0437500000000002 0.001510 -29.093275 
2.0443750000000001 0.001548 -31.648540 
2.0449999999999999 0.001618 -34.742947 
2.0456249999999998 0.001588 -37.738036 
2.0462500000000001 0.001641 -40.341223 
2.0468750000000000 0.001629 -41.694494 
2.0474999999999999 0.001611 -44.943024 
2.0481250000000002 0.001603 -44.647560 
2.0487500000000001 0.001582 -47.581075 
2.0493749999999999 0.001572 -48.702070 
2.0499999999999998 0.001537 -49.928071 
2.0506250000000001 0.001506 -51.288483 
2.0512500000000000 0.001468 -52.026239 
2.0518749999999999 0.001458 -52.115984 
2.0525000000000002 0.001440 -51.748447 
2.0531250000000001 0.001435 -50.991573 
2.0537500000000000 0.001459 -49.864240 
2.0543749999999998 0.001448 -49.439360 
2.0550000000000002 0.001504 -46.785588 
2.0556250000000000 0.001534 -46.454527 
2.0562499999999999 0.001584 -46.177234 
2.0568749999999998 0.001695 -46.487344 
2.0575000000000001 0.001759 -45.186733 
2.0581250000000000 0.001869 -46.165440 
2.0587499999999999 0.001985 -46.260695 
2.0593750000000002 0.002128 -47.751794 
2.0600000000000001 0.002159 -48.971809 
2.0606249999999999 0.002279 -49.974154 
2.0612499999999998 0.002388 -51.367895 
2.0618750000000001 0.002447 -52.574022 
2.0625000000000000 0.002580 -52.867507 
2.0631249999999999 0.002681 -54.743706 
2.0637500000000002 0.002747 -56.758253 
2.0643750000000001 0.002837 -56.832034 
2.0649999999999999 0.002892 -59.055676 
2.0656249999999998 0.002903 -60.318736 
2.0662500000000001 0.002979 -62.629055 
2.0668750000000000 0.003028 -62.907393 
2.0674999999999999 0.003115 -64.341050 
2.0681250000000002 0.003140 -64.323230 
2.0687500000000001 0.003243 -66.491350 
2.0693750000000000 0.003350 -66.230646 
2.0699999999999998 0.003415 -65.929673 
2.0706250000000002 0.003533 -66.292127 
2.0712500000000000 0.003605 -66.147558 
2.0718749999999999 0.003753 -66.759598 
2.0724999999999998 0.003966 -65.685026 
2.0731250000000001 0.004065 -65.663536 
2.0737500000000000 0.004238 -65.828394 
2.0743749999999999 0.004421 -64.735238 
2.0750000000000002 0.004723 -64.057146 
2.0756250000000001 0.004781 -63.226668 
2.0762499999999999 0.004945 -64.525849 
2.0768749999999998 0.005070 -63.318056 
2.0775000000000001 0.005332 -63.093496 
2.0781250000000000 0.005358 -63.416705 
2.0787499999999999 0.005562 -62.726472 
2.0793750000000002 0.005767 -62.486818 
2.0800000000000001 0.005618 -62.381107 
2.0806249999999999 0.005695 -62.482412 
2.0812499999999998 0.005691 -61.620564 
2.0818750000000001 0.005690 -62.110963 
2.0825000000000000 0.005550 -62.235161 
2.0831249999999999 0.005570 -62.033114 
2.0837500000000002 0.005436 -60.392270 
2.0843750000000001 0.005427 -60.132739 
2.0850000000000000 0.005378 -58.615469 
2.0856249999999998 0.005275 -57.890307 
2.0862500000000002 0.005098 -55.856615 
2.0868750000000000 0.005026 -54.642396 
2.0874999999999999 0.004912 -51.673760 
2.0881249999999998 0.004803 -51.943417 
2.0887500000000001 0.004639 -48.437374 
2.0893750000000000 0.004604 -46.817309 
2.0899999999999999 0.004436 -45.905785 
2.0906250000000002 0.004435 -44.836644 
2.0912500000000001 0.004355 -43.784525 
2.0918749999999999 0.004322 -43.102095 
2.0924999999999998 0.004284 -42.800956 
2.0931250000000001 0.004252 -43.945811 
2.0937500000000000 0.004256 -43.951436 
2.0943749999999999 0.004201 -43.889400 
2.0950000000000002 0.004155 -45.555575 
2.0956250000000001 0.004101 -47.009677 
2.0962499999999999 0.004086 -47.989181 
2.0968749999999998 0.004049 -49.765719 
2.0975000000000001 0.003968 -50.647985 
2.0981250000000000 0.003822 -53.100804 
2.0987499999999999 0.003768 -53.644607 
2.0993750000000002 0.003684 -54.997045 
2.1000000000000001 0.003557 -56.584712 
2.1006250000000000 0.003330 -58.413997 
2.1012499999999998 0.003206 -58.409661 
2.1018750000000002 0.003145 -59.065295 
2.1025000000000000 0.002987 -60.312416 
2.1031249999999999 0.002846 -61.049809 
2.1037499999999998 0.002734 -61.187344 
2.1043750000000001 0.002627 -61.719678 
2.1050000000000000 0.002542 -62.156239 
2.1056249999999999 0.002457 -61.624297 
2.1062500000000002 0.002401 -62.669191 
2.1068750000000001 0.002318 -61.746352 
2.1074999999999999 0.002286 -62.987388 
2.1081249999999998 0.002323 -63.079901 
2.1087500000000001 0.002297 -63.652996 
2.1093750000000000 0.002308 -65.550651 
2.1099999999999999 0.002340 -65.060172 
2.1106250000000002 0.002329 -67.938857 
2.1112500000000001 0.002409 -69.593647 
2.1118749999999999 0.002370 -71.323540 
2.1124999999999998 0.002328 -73.295967 
2.1131250000000001 0.002370 -77.182959 
2.1137500000000000 0.002356 -80.089244 
2.1143749999999999 0.002302 -82.437708 
2.1150000000000002 0.002233 -85.964726 
2.1156250000000001 0.002219 -89.267290 
2.1162500000000000 0.002138 -92.345252 
2.1168749999999998 0.002027 -96.143738 
2.1175000000000002 0.001949 -99.350538 
2.1181250000000000 0.001864 -101.554259 
2.1187499999999999 0.001730 -104.356094 
2.1193749999999998 0.001631 -106.906970 
2.1200000000000001 0.001538 -109.448905 
2.1206250000000000 0.001401 -111.177543 
2.1212499999999999 0.001326 -112.599258 
2.1218750000000002 0.001250 -113.187823 
2.1225000000000001 0.001182 -111.684489 
2.1231249999999999 0.001116 -110.197045 
2.1237499999999998 0.001055 -108.793364 
2.1243750000000001 0.001042 -106.291144 
2.1250000000000000 0.001079 -105.818484 
2.1256249999999999 0.001077 -103.324040 
2.1262500000000002 0.001117 -101.937154 
2.1268750000000001 0.001153 -100.858006 
2.1274999999999999 0.001210 -104.023929 
2.1281249999999998 0.001236 -104.089850 
2.1287500000000001 0.001231 -108.601638 
2.1293750000000000 0.001288 -110.217261 
2.1299999999999999 0.001289 -113.447660 
2.1306250000000002 0.001240 -116.885411 
2.1312500000000001 0.001233 -120.791742 
2.1318750000000000 0.001222 -126.130078 
2.1324999999999998 0.001148 -130.510295 
2.1331250000000002 0.001079 -136.502194 
2.1337500000000000 0.001015 -140.618006 
2.1343749999999999 0.000932 -147.908354 
2.1349999999999998 0.000836 -152.645242 
2.1356250000000001 0.000738 -159.345916 
2.1362500000000000 0.000623 -164.352371 
2.1368749999999999 0.000510 -169.376440 
2.1375000000000002 0.000393 -173.375424 
2.1381250000000001 0.000291 -172.959434 
2.1387499999999999 0.000161 -166.124170 
2.1393749999999998 0.000095 -101.705837 
2.1400000000000001 0.000175 -60.825748 
2.1406250000000000 0.000300 -50.542130 
2.1412499999999999 0.000419 -53.537179 
2.1418750000000002 0.000561 -55.686473 
2.1425000000000001 0.000661 -59.248069 
2.1431249999999999 0.000792 -63.519823 
2.1437499999999998 0.000879 -69.151243 
2.1443750000000001 0.000956 -73.403704 
2.1450000000000000 0.000999 -77.480456 
2.1456249999999999 0.001038 -83.005610 
2.1462500000000002 0.001047 -88.283373 
2.1468750000000001 0.001049 -90.407085 
2.1475000000000000 0.000982 -95.050502 
2.1481249999999998 0.000940 -99.030026 
2.1487500000000002 0.000858 -100.390621 
2.1493750000000000 0.000765 -100.740221 
2.1499999999999999 0.000694 -99.839150 
2.1506249999999998 0.000600 -94.662981 
2.1512500000000001 0.000533 -83.661577 
2.1518750000000000 0.000546 -67.604557 
2.1524999999999999 0.000650 -54.415312 
2.1531250000000002 0.000783 -47.379395 
2.1537500000000001 0.000987 -41.010221 
2.1543749999999999 0.001197 -41.162309 
2.1549999999999998 0.001436 -42.912887 
2.1556250000000001 0.001711 -46.637213 
2.1562500000000000 0.001978 -50.593248 
2.1568749999999999 0.002314 -53.677285 
2.1575000000000002 0.002593 -57.631848 
2.1581250000000001 0.002846 -61.128857 
2.1587499999999999 0.003165 -65.849091 
2.1593749999999998 0.003384 -69.974126 
2.1600000000000001 0.003595 -75.355546 
2.1606250000000000 0.003845 -78.470568 
2.1612499999999999 0.004002 -83.280992 
2.1618750000000002 0.004141 -87.743015 
2.1625000000000001 0.004260 -91.006942 
2.1631250000000000 0.004218 -94.691297 
2.1637499999999998 0.004298 -96.938570 
2.1643750000000002 0.004200 -100.159092 
2.1650000000000000 0.004124 -101.556811 
2.1656249999999999 0.004153 -102.440318 
2.1662499999999998 0.004016 -102.051757 
2.1668750000000001 0.003966 -99.586342 
2.1675000000000000 0.003878 -96.754909 
2.1681249999999999 0.003986 -92.166507 
2.1687500000000002 0.004220 -84.894671 
2.1693750000000001 0.004568 -78.880667 
2.1699999999999999 0.005126 -73.062836 
2.1706249999999998 0.005954 -69.896940 
2.1712500000000001 0.006848 -66.411627 
2.1718750000000000 0.007683 -64.931550 
2.1724999999999999 0.008752 -63.661122 
2.1731250000000002 0.009985 -64.014948 
2.1737500000000001 0.010771 -64.735019 
2.1743749999999999 0.012013 -65.441981 
2.1749999999999998 0.012739 -67.310842 
2.1756250000000001 0.013610 -68.393176 
2.1762500000000000 0.014361 -69.603387 
2.1768749999999999 0.014654 -71.010861 
2.1775000000000002 0.014877 -73.467860 
2.1781250000000001 0.015243 -75.569897 
2.1787500000000000 0.015131 -76.420974 
2.1793749999999998 0.014799 -79.221573 
2.1800000000000002 0.014234 -80.291559 
2.1806250000000000 0.013803 -81.256849 
2.1812499999999999 0.012966 -81.822222 
2.1818749999999998 0.012112 -82.352885 
2.1825000000000001 0.011243 -81.699444 
2.1831250000000000 0.010159 -80.953273 
2.1837499999999999 0.009078 -79.076058 
2.1843750000000002 0.008414 -76.574862 
2.1850000000000001 0.007591 -73.404513 
2.1856249999999999 0.007008 -68.993135 
2.1862499999999998 0.006669 -64.773471 
2.1868750000000001 0.006407 -59.900725 
2.1875000000000000 0.006378 -56.158445 
2.1881249999999999 0.006618 -54.365383 
2.1887500000000002 0.006792 -52.912879 
2.1893750000000001 0.007032 -52.870581 
2.1899999999999999 0.007201 -53.546683 
2.1906249999999998 0.007410 -56.313001 
2.1912500000000001 0.007523 -56.868953 
2.1918750000000000 0.007513 -60.338568 
2.1924999999999999 0.007686 -63.361827 
2.1931250000000002 0.007504 -67.012707 
2.1937500000000001 0.007392 -70.668620 
2.1943750000000000 0.007309 -74.115706 
2.1949999999999998 0.007026 -77.711605 
2.1956250000000002 0.006656 -81.064718 
2.1962500000000000 0.006378 -85.162008 
2.1968749999999999 0.005992 -88.606875 
2.1974999999999998 0.005582 -91.997454 
2.1981250000000001 0.005209 -95.091158 
2.1987500000000000 0.004717 -97.395828 
2.1993749999999999 0.004375 -99.241096 
2.2000000000000002 0.004045 -100.295180 
2.2006250000000001 0.003622 -101.147207 
2.2012499999999999 0.003321 -100.767747 
2.2018749999999998 0.003148 -98.322509 
2.2025000000000001 0.002946 -96.249550 
2.2031250000000000 0.002900 -92.924274 
2.2037499999999999 0.002867 -90.562219 
2.2043750000000002 0.002901 -88.040809 
2.2050000000000001 0.003044 -86.829870 
2.2056249999999999 0.003119 -88.010952 
2.2062499999999998 0.003194 -88.055656 
2.2068750000000001 0.003414 -90.048022 
2.2075000000000000 0.003505 -92.272774 
2.2081249999999999 0.003657 -96.466624 
2.2087500000000002 0.003644 -99.111306 
2.2093750000000001 0.003700 -103.068773 
2.2100000000000000 0.003718 -107.368263 
2.2106249999999998 0.003719 -111.995782 
2.2112500000000002 0.003618 -117.230408 
2.2118750000000000 0.003543 -121.801002 
2.2124999999999999 0.003402 -126.363086 
2.2131249999999998 0.003252 -131.627955 
2.2137500000000001 0.003071 -135.976565 
2.2143750000000000 0.002844 -140.407237 
2.2149999999999999 0.002631 -144.792761 
2.2156250000000002 0.002399 -148.215855 
2.2162500000000001 0.002151 -151.369266 
2.2168749999999999 0.001881 -153.823055 
2.2174999999999998 0.001614 -154.555399 
2.2181250000000001 0.001387 -155.750021 
2.2187500000000000 0.001176 -151.072835 
2.2193749999999999 0.000977 -143.615503 
2.2200000000000002 0.000887 -133.518990 
2.2206250000000001 0.000858 -121.007789 
2.2212499999999999 0.000932 -108.383406 
2.2218749999999998 0.001080 -102.784925 
2.2225000000000001 0.001217 -98.508569 
2.2231250000000000 0.001415 -98.655703 
2.2237499999999999 0.001545 -98.501472 
2.2243750000000002 0.001667 -101.520522 
2.2250000000000001 0.001801 -104.148010 
2.2256250000000000 0.001879 -107.296455 
2.2262499999999998 0.001946 -111.515883 
2.2268750000000002 0.001986 -115.011074 
2.2275000000000000 0.001994 -118.596520 
2.2281249999999999 0.001935 -123.458048 
2.2287499999999998 0.001873 -125.729736 
2.2293750000000001 0.001793 -127.681496 
2.2300000000000000 0.001672 -131.647781 
2.2306249999999999 0.001578 -132.398487 
2.2312500000000002 0.001430 -132.136002 
2.2318750000000001 0.001291 -130.110496 
2.2324999999999999 0.001208 -125.079067 
2.2331249999999998 0.001132 -117.557684 
2.2337500000000001 0.001127 -108.477126 
2.2343750000000000 0.001195 -98.813956 
2.2349999999999999 0.001355 -93.849624 
2.2356250000000002 0.001574 -90.377483 
2.2362500000000001 0.001806 -88.085808 
2.2368749999999999 0.002054 -88.423273 
2.2374999999999998 0.002309 -88.319313 
2.2381250000000001 0.002577 -91.680944 
2.2387500000000000 0.002860 -94.249979 
2.2393749999999999 0.003143 -96.546077 
2.2400000000000002 0.003311 -100.517772 
2.2406250000000001 0.003492 -103.855998 
2.2412500000000000 0.003680 -108.073362 
2.2418749999999998 0.003893 -111.874389 
2.2425000000000002 0.003984 -115.353675 
2.2431250000000000 0.004030 -119.073038 
2.2437499999999999 0.004051 -122.869773 
2.2443749999999998 0.004121 -125.289130 
2.2450000000000001 0.004050 -127.487152 
2.2456250000000000 0.004042 -130.603864 
2.2462499999999999 0.003990 -131.094453 
2.2468750000000002 0.003996 -131.119344 
2.2475000000000001 0.004008 -130.718116 
2.2481249999999999 0.004023 -128.251442 
2.2487499999999998 0.004161 -126.486448 
2.2493750000000001 0.004238 -124.462537 
2.2500000000000000 0.004535 -123.278198 
2.2506249999999999 0.004850 -120.445984 
2.2512500000000002 0.005340 -119.797231 
2.2518750000000001 0.005882 -118.581354 
2.2524999999999999 0.006584 -117.658144 
2.2531249999999998 0.007399 -117.296606 
2.2537500000000001 0.008108 -118.310343 
2.2543750000000000 0.009044 -119.836307 
2.2549999999999999 0.009912 -121.365542 
2.2556250000000002 0.010895 -124.016962 
2.2562500000000001 0.011855 -126.646349 
2.2568750000000000 0.012616 -129.055834 
2.2574999999999998 0.013728 -130.427079 
2.2581250000000002 0.014753 -133.707474 
2.2587500000000000 0.015700 -135.915560 
2.2593749999999999 0.016471 -139.064055 
2.2599999999999998 0.017520 -140.550616 
2.2606250000000001 0.018592 -142.670444 
2.2612500000000000 0.019682 -143.837492 
2.2618749999999999 0.021054 -145.138728 
2.2625000000000002 0.022005 -145.183119 
2.2631250000000001 0.023603 -142.955089 
2.2637499999999999 0.025041 -141.053591 
2.2643749999999998 0.027430 -137.365714 
2.2650000000000001 0.029185 -131.545215 
2.2656250000000000 0.031716 -125.174373 
2.2662499999999999 0.033778 -116.081789 
2.2668750000000002 0.035164 -106.616487 
2.2675000000000001 0.036249 -96.783986 
2.2681249999999999 0.036317 -86.398700 
2.2687499999999998 0.036072 -76.437690 
2.2693750000000001 0.035973 -70.550529 
2.2700000000000000 0.034472 -64.902488 
2.2706249999999999 0.033377 -60.722149 
2.2712500000000002 0.031559 -56.352194 
2.2718750000000001 0.030278 -55.497047 
2.2725000000000000 0.029626 -53.835394 
2.2731249999999998 0.027983 -53.794034 
2.2737500000000002 0.026929 -53.600855 
2.2743750000000000 0.024792 -54.958867 
2.2749999999999999 0.023359 -55.515797 
2.2756249999999998 0.022134 -56.642689 
2.2762500000000001 0.020883 -58.535452 
2.2768750000000000 0.019188 -60.593840 
2.2774999999999999 0.017704 -61.706561 
2.2781250000000002 0.016538 -64.244678 
2.2787500000000001 0.015117 -66.354794 
2.2793749999999999 0.013913 -69.126311 
2.2799999999999998 0.012761 -69.989450 
2.2806250000000001 0.011832 -72.745843 
2.2812500000000000 0.010931 -73.245699 
2.2818749999999999 0.009901 -73.561096 
2.2825000000000002 0.009273 -74.284894 
2.2831250000000001 0.008709 -74.547593 
2.2837499999999999 0.008191 -74.054144 
2.2843749999999998 0.007934 -72.733592 
2.2850000000000001 0.007664 -72.184502 
2.2856250000000000 0.007688 -71.431316 
2.2862499999999999 0.007506 -71.025178 
2.2868750000000002 0.007501 -70.120048 
2.2875000000000001 0.007629 -70.333892 
2.2881250000000000 0.007831 -72.502889 
2.2887499999999998 0.007779 -74.242755 
2.2893750000000002 0.007910 -75.359726 
2.2900000000000000 0.008035 -78.661391 
2.2906249999999999 0.007913 -80.741169 
2.2912499999999998 0.007884 -83.729074 
2.2918750000000001 0.007896 -87.144331 
2.2925000000000000 0.007911 -90.901378 
2.2931249999999999 0.007640 -94.327262 
2.2937500000000002 0.007607 -97.994223 
2.2943750000000001 0.007395 -101.639591 
2.2949999999999999 0.007181 -105.697422 
2.2956249999999998 0.007032 -108.110584 
2.2962500000000001 0.006751 -111.207343 
2.2968750000000000 0.006442 -114.970644 
2.2974999999999999 0.006170 -117.290815 
