!
! C:\Users\rflab\Downloads\dp2_kdzw\220.S1P
!
! Touchstone 1.1 file saved by VNA.EXE V1.65 (www.ke5fx.com/gpib/readme.htm)
! 12/12/2024 7:05:40 PM
!
!    Source: HEWLETT PACKARD,8753D,0,6.14
!  Min freq: 2.000000E+009 Hz
!  Max freq: 2.500000E+009 Hz
!    Points: 801
!    Params: S21
!
!!!!!
# GHZ S MA R 50
2.0000000000000000 0.001720 8.412276 
2.0006249999999999 0.001653 6.070970 
2.0012500000000002 0.001591 6.915808 
2.0018750000000001 0.001507 7.913400 
2.0024999999999999 0.001501 6.978293 
2.0031249999999998 0.001452 7.732965 
2.0037500000000001 0.001399 8.956766 
2.0043750000000000 0.001357 9.401504 
2.0049999999999999 0.001355 10.480005 
2.0056250000000002 0.001342 10.707376 
2.0062500000000001 0.001341 10.757744 
2.0068750000000000 0.001352 10.067550 
2.0074999999999998 0.001379 11.646404 
2.0081250000000002 0.001359 12.435015 
2.0087500000000000 0.001316 10.829461 
2.0093749999999999 0.001300 8.323242 
2.0099999999999998 0.001310 7.157353 
2.0106250000000001 0.001302 6.389997 
2.0112500000000000 0.001344 3.503739 
2.0118749999999999 0.001282 3.351916 
2.0125000000000002 0.001250 -1.671996 
2.0131250000000001 0.001248 -2.336748 
2.0137499999999999 0.001194 -4.832506 
2.0143749999999998 0.001169 -5.779193 
2.0150000000000001 0.001128 -7.986697 
2.0156250000000000 0.001082 -10.905197 
2.0162499999999999 0.001051 -12.087721 
2.0168750000000002 0.000996 -13.130570 
2.0175000000000001 0.000950 -13.906366 
2.0181249999999999 0.000903 -11.492039 
2.0187499999999998 0.000881 -11.509822 
2.0193750000000001 0.000863 -12.759028 
2.0200000000000000 0.000822 -10.924448 
2.0206249999999999 0.000814 -8.011675 
2.0212500000000002 0.000789 -7.668867 
2.0218750000000001 0.000788 -4.886881 
2.0225000000000000 0.000770 -4.549876 
2.0231249999999998 0.000766 -2.092209 
2.0237500000000002 0.000789 -2.923369 
2.0243750000000000 0.000822 -0.558753 
2.0249999999999999 0.000838 -2.627545 
2.0256249999999998 0.000831 -2.851936 
2.0262500000000001 0.000850 -5.176777 
2.0268750000000000 0.000843 -4.881685 
2.0274999999999999 0.000873 -6.785552 
2.0281250000000002 0.000856 -8.286985 
2.0287500000000001 0.000875 -10.670365 
2.0293749999999999 0.000866 -12.568791 
2.0299999999999998 0.000897 -14.990025 
2.0306250000000001 0.000861 -15.694432 
2.0312500000000000 0.000849 -17.553626 
2.0318749999999999 0.000839 -17.387636 
2.0325000000000002 0.000837 -18.443340 
2.0331250000000001 0.000810 -17.582082 
2.0337499999999999 0.000779 -18.113379 
2.0343749999999998 0.000776 -18.140498 
2.0350000000000001 0.000757 -17.099914 
2.0356250000000000 0.000762 -17.255402 
2.0362499999999999 0.000764 -15.600824 
2.0368750000000002 0.000772 -14.110241 
2.0375000000000001 0.000805 -13.708875 
2.0381250000000000 0.000812 -13.013216 
2.0387499999999998 0.000837 -13.812689 
2.0393750000000002 0.000891 -12.536289 
2.0400000000000000 0.000926 -12.715301 
2.0406249999999999 0.000960 -14.957087 
2.0412499999999998 0.000983 -16.391499 
2.0418750000000001 0.001033 -18.617835 
2.0425000000000000 0.001080 -19.698072 
2.0431249999999999 0.001105 -21.738278 
2.0437500000000002 0.001137 -25.133348 
2.0443750000000001 0.001160 -26.060948 
2.0449999999999999 0.001160 -28.783177 
2.0456249999999998 0.001205 -31.382556 
2.0462500000000001 0.001206 -34.335578 
2.0468750000000000 0.001211 -36.136640 
2.0474999999999999 0.001199 -38.977499 
2.0481250000000002 0.001180 -41.912128 
2.0487500000000001 0.001174 -42.123214 
2.0493749999999999 0.001161 -43.250943 
2.0499999999999998 0.001124 -44.888255 
2.0506250000000001 0.001091 -45.351995 
2.0512500000000000 0.001086 -45.727307 
2.0518749999999999 0.001064 -45.556074 
2.0525000000000002 0.001070 -44.433496 
2.0531250000000001 0.001035 -46.264838 
2.0537500000000000 0.001066 -43.508722 
2.0543749999999998 0.001057 -43.605215 
2.0550000000000002 0.001066 -40.854426 
2.0556250000000000 0.001111 -40.616964 
2.0562499999999999 0.001171 -39.862331 
2.0568749999999998 0.001206 -39.878817 
2.0575000000000001 0.001283 -39.654247 
2.0581250000000000 0.001310 -39.537119 
2.0587499999999999 0.001401 -40.432117 
2.0593750000000002 0.001443 -40.254712 
2.0600000000000001 0.001530 -41.726985 
2.0606249999999999 0.001602 -41.950439 
2.0612499999999998 0.001700 -44.784131 
2.0618750000000001 0.001734 -46.434956 
2.0625000000000000 0.001787 -47.958237 
2.0631249999999999 0.001878 -49.018368 
2.0637500000000002 0.001902 -50.412393 
2.0643750000000001 0.001963 -51.310856 
2.0649999999999999 0.002021 -50.847800 
2.0656249999999998 0.002055 -55.177639 
2.0662500000000001 0.002114 -54.253157 
2.0668750000000000 0.002100 -56.778992 
2.0674999999999999 0.002162 -57.286779 
2.0681250000000002 0.002158 -58.629459 
2.0687500000000001 0.002195 -57.791106 
2.0693750000000000 0.002287 -57.326682 
2.0699999999999998 0.002344 -57.243587 
2.0706250000000002 0.002404 -58.716057 
2.0712500000000000 0.002460 -58.738206 
2.0718749999999999 0.002593 -57.178671 
2.0724999999999998 0.002687 -58.057664 
2.0731250000000001 0.002760 -56.680623 
2.0737500000000000 0.002887 -57.959249 
2.0743749999999999 0.002969 -55.207206 
2.0750000000000002 0.003205 -56.441754 
2.0756250000000001 0.003224 -55.333795 
2.0762499999999999 0.003389 -56.335089 
2.0768749999999998 0.003482 -55.942686 
2.0775000000000001 0.003663 -54.955730 
2.0781250000000000 0.003641 -53.941594 
2.0787499999999999 0.003805 -54.118203 
2.0793750000000002 0.003758 -54.019929 
2.0800000000000001 0.003786 -53.214521 
2.0806249999999999 0.003860 -52.904339 
2.0812499999999998 0.003835 -52.852282 
2.0818750000000001 0.003797 -52.230717 
2.0825000000000000 0.003691 -53.113824 
2.0831249999999999 0.003738 -51.725989 
2.0837500000000002 0.003611 -51.812809 
2.0843750000000001 0.003540 -51.216658 
2.0850000000000000 0.003536 -48.934374 
2.0856249999999998 0.003448 -47.589336 
2.0862500000000002 0.003366 -46.256834 
2.0868750000000000 0.003322 -43.909420 
2.0874999999999999 0.003200 -42.297801 
2.0881249999999998 0.003060 -40.393110 
2.0887500000000001 0.003149 -39.318406 
2.0893750000000000 0.002960 -37.878628 
2.0899999999999999 0.002945 -37.476675 
2.0906250000000002 0.002949 -35.316340 
2.0912500000000001 0.002837 -33.578538 
2.0918749999999999 0.002832 -34.306903 
2.0924999999999998 0.002810 -32.245791 
2.0931250000000001 0.002774 -33.063821 
2.0937500000000000 0.002787 -34.336574 
2.0943749999999999 0.002734 -34.958242 
2.0950000000000002 0.002662 -35.269870 
2.0956250000000001 0.002697 -36.334984 
2.0962499999999999 0.002617 -36.910600 
2.0968749999999998 0.002552 -39.265493 
2.0975000000000001 0.002526 -41.695756 
2.0981250000000000 0.002412 -42.229872 
2.0987499999999999 0.002380 -41.954573 
2.0993750000000002 0.002312 -44.855842 
2.1000000000000001 0.002233 -44.436524 
2.1006250000000000 0.002136 -46.430074 
2.1012499999999998 0.002090 -48.099889 
2.1018750000000002 0.001983 -49.410653 
2.1025000000000000 0.001891 -48.162973 
2.1031249999999999 0.001774 -50.074111 
2.1037499999999998 0.001731 -50.156788 
2.1043750000000001 0.001604 -51.706241 
2.1050000000000000 0.001563 -50.847097 
2.1056249999999999 0.001488 -50.280498 
2.1062500000000002 0.001434 -50.462206 
2.1068750000000001 0.001436 -51.913053 
2.1074999999999999 0.001420 -49.032913 
2.1081249999999998 0.001434 -51.111087 
2.1087500000000001 0.001447 -51.348662 
2.1093750000000000 0.001451 -53.907894 
2.1099999999999999 0.001438 -53.923550 
2.1106250000000002 0.001483 -56.242894 
2.1112500000000001 0.001485 -56.646007 
2.1118749999999999 0.001490 -60.862127 
2.1124999999999998 0.001461 -62.533531 
2.1131250000000001 0.001424 -65.714424 
2.1137500000000000 0.001475 -68.110450 
2.1143749999999999 0.001384 -70.486597 
2.1150000000000002 0.001414 -73.439741 
2.1156250000000001 0.001346 -75.760661 
2.1162500000000000 0.001338 -79.239822 
2.1168749999999998 0.001220 -83.052733 
2.1175000000000002 0.001164 -85.888880 
2.1181250000000000 0.001109 -89.026994 
2.1187499999999999 0.001040 -91.070272 
2.1193749999999998 0.001005 -95.841799 
2.1200000000000001 0.000931 -97.238768 
2.1206250000000000 0.000864 -101.148649 
2.1212499999999999 0.000794 -99.677209 
2.1218750000000002 0.000760 -100.911501 
2.1225000000000001 0.000685 -99.055819 
2.1231249999999999 0.000663 -98.041231 
2.1237499999999998 0.000636 -97.258909 
2.1243750000000001 0.000633 -95.084505 
2.1250000000000000 0.000635 -93.584050 
2.1256249999999999 0.000647 -92.314255 
2.1262500000000002 0.000655 -89.160317 
2.1268750000000001 0.000665 -89.347479 
2.1274999999999999 0.000704 -90.737257 
2.1281249999999998 0.000726 -93.366737 
2.1287500000000001 0.000716 -95.823050 
2.1293750000000000 0.000754 -97.658425 
2.1299999999999999 0.000753 -101.948697 
2.1306250000000002 0.000714 -104.143006 
2.1312500000000001 0.000728 -108.998399 
2.1318750000000000 0.000715 -113.778331 
2.1324999999999998 0.000645 -117.038852 
2.1331250000000002 0.000632 -124.376824 
2.1337500000000000 0.000579 -129.985282 
2.1343749999999999 0.000540 -134.307464 
2.1349999999999998 0.000480 -140.715850 
2.1356250000000001 0.000436 -146.501214 
2.1362500000000000 0.000355 -152.804078 
2.1368749999999999 0.000291 -156.513721 
2.1375000000000002 0.000224 -161.977261 
2.1381250000000001 0.000163 -162.171131 
2.1387499999999999 0.000090 -156.542864 
2.1393749999999998 0.000048 -90.175106 
2.1400000000000001 0.000093 -45.858688 
2.1406250000000000 0.000162 -36.350025 
2.1412499999999999 0.000237 -38.666567 
2.1418750000000002 0.000316 -41.391221 
2.1425000000000001 0.000363 -43.994797 
2.1431249999999999 0.000436 -51.543858 
2.1437499999999998 0.000494 -54.951007 
2.1443750000000001 0.000519 -57.719966 
2.1450000000000000 0.000561 -62.509586 
2.1456249999999999 0.000566 -68.084358 
2.1462500000000002 0.000584 -73.588335 
2.1468750000000001 0.000585 -75.398537 
2.1475000000000000 0.000536 -80.176779 
2.1481249999999998 0.000514 -82.282244 
2.1487500000000002 0.000466 -87.032685 
2.1493750000000000 0.000431 -85.887024 
2.1499999999999999 0.000376 -84.523250 
2.1506249999999998 0.000327 -76.972095 
2.1512500000000001 0.000286 -67.685001 
2.1518750000000000 0.000303 -51.447958 
2.1524999999999999 0.000360 -36.974257 
2.1531250000000002 0.000438 -30.163475 
2.1537500000000001 0.000534 -25.673541 
2.1543749999999999 0.000649 -25.546750 
2.1549999999999998 0.000788 -27.684706 
2.1556250000000001 0.000959 -30.857535 
2.1562500000000000 0.001082 -32.588615 
2.1568749999999999 0.001278 -38.713235 
2.1575000000000002 0.001409 -42.051509 
2.1581250000000001 0.001569 -45.440067 
2.1587499999999999 0.001787 -50.390675 
2.1593749999999998 0.001843 -54.210336 
2.1600000000000001 0.002010 -58.546346 
2.1606250000000000 0.002121 -62.606237 
2.1612499999999999 0.002210 -66.609483 
2.1618750000000002 0.002297 -71.157947 
2.1625000000000001 0.002372 -74.160987 
2.1631250000000000 0.002351 -78.201261 
2.1637499999999998 0.002424 -80.278761 
2.1643750000000002 0.002337 -83.871837 
2.1650000000000000 0.002305 -84.553909 
2.1656249999999999 0.002301 -84.952338 
2.1662499999999998 0.002200 -84.855050 
2.1668750000000001 0.002244 -81.320238 
2.1675000000000000 0.002195 -79.177697 
2.1681249999999999 0.002246 -71.809343 
2.1687500000000002 0.002334 -67.310560 
2.1693750000000001 0.002610 -61.208468 
2.1699999999999999 0.002982 -55.055089 
2.1706249999999998 0.003354 -52.216831 
2.1712500000000001 0.003918 -47.962500 
2.1718750000000000 0.004421 -45.989760 
2.1724999999999999 0.005003 -45.561877 
2.1731250000000002 0.005559 -44.499549 
2.1737500000000001 0.005948 -45.998766 
2.1743749999999999 0.006471 -47.368048 
2.1749999999999998 0.007232 -47.229652 
2.1756250000000001 0.007650 -48.574370 
2.1762500000000000 0.007856 -50.062624 
2.1768749999999999 0.008157 -51.443764 
2.1775000000000002 0.008269 -55.052640 
2.1781250000000001 0.008434 -56.194039 
2.1787500000000000 0.008421 -56.255942 
2.1793749999999998 0.008315 -59.036807 
2.1800000000000002 0.008186 -61.588252 
2.1806250000000000 0.007738 -60.656289 
2.1812499999999999 0.007564 -62.373678 
2.1818749999999998 0.007154 -61.971093 
2.1825000000000001 0.006531 -63.272187 
2.1831250000000000 0.005876 -60.178993 
2.1837499999999999 0.005295 -60.572539 
2.1843750000000002 0.004774 -57.092497 
2.1850000000000001 0.004420 -52.887802 
2.1856249999999999 0.004076 -49.018073 
2.1862499999999998 0.003949 -45.792456 
2.1868750000000001 0.003686 -40.687721 
2.1875000000000000 0.003770 -37.990962 
2.1881249999999999 0.003866 -36.308744 
2.1887500000000002 0.004008 -33.627683 
2.1893750000000001 0.004096 -34.899957 
2.1899999999999999 0.004202 -35.327571 
2.1906249999999998 0.004466 -35.925961 
2.1912500000000001 0.004427 -38.057920 
2.1918750000000000 0.004508 -41.406285 
2.1924999999999999 0.004578 -44.685638 
2.1931250000000002 0.004556 -48.489716 
2.1937500000000001 0.004463 -51.681511 
2.1943750000000000 0.004390 -55.685894 
2.1949999999999998 0.004218 -58.867384 
2.1956250000000002 0.004064 -62.956920 
2.1962500000000000 0.003874 -66.087986 
2.1968749999999999 0.003623 -71.801100 
2.1974999999999998 0.003411 -72.697940 
2.1981250000000001 0.003126 -77.623102 
2.1987500000000000 0.002869 -79.671948 
2.1993749999999999 0.002654 -80.987894 
2.2000000000000002 0.002474 -81.854271 
2.2006250000000001 0.002249 -82.521573 
2.2012499999999999 0.002094 -81.755040 
2.2018749999999998 0.001919 -80.920266 
2.2025000000000001 0.001810 -78.446549 
2.2031250000000000 0.001773 -75.734351 
2.2037499999999999 0.001760 -71.728248 
2.2043750000000002 0.001800 -70.151782 
2.2050000000000001 0.001849 -69.621632 
2.2056249999999999 0.001980 -69.398122 
2.2062499999999998 0.002036 -70.041827 
2.2068750000000001 0.002151 -72.023908 
2.2075000000000000 0.002195 -75.704917 
2.2081249999999999 0.002255 -78.628285 
2.2087500000000002 0.002268 -82.025805 
2.2093750000000001 0.002341 -84.553863 
2.2100000000000000 0.002372 -89.985601 
2.2106249999999998 0.002314 -94.689853 
2.2112500000000002 0.002284 -99.369401 
2.2118750000000000 0.002197 -103.840961 
2.2124999999999999 0.002164 -109.671445 
2.2131249999999998 0.002042 -113.770306 
2.2137500000000001 0.001950 -118.448193 
2.2143750000000000 0.001826 -122.728143 
2.2149999999999999 0.001658 -126.501565 
2.2156250000000002 0.001477 -131.707689 
2.2162500000000001 0.001365 -134.573656 
2.2168749999999999 0.001201 -136.566188 
2.2174999999999998 0.001016 -137.495333 
2.2181250000000001 0.000873 -138.149691 
2.2187500000000000 0.000733 -132.982584 
2.2193749999999999 0.000634 -127.055259 
2.2200000000000002 0.000566 -115.219910 
2.2206250000000001 0.000535 -101.711029 
2.2212499999999999 0.000597 -90.191653 
2.2218749999999998 0.000704 -84.826884 
2.2225000000000001 0.000783 -81.487022 
2.2231250000000000 0.000897 -80.493554 
2.2237499999999999 0.000987 -80.746344 
2.2243750000000002 0.001068 -82.951558 
2.2250000000000001 0.001169 -86.797490 
2.2256250000000000 0.001210 -90.739405 
2.2262499999999998 0.001237 -93.476584 
2.2268750000000002 0.001238 -96.944675 
2.2275000000000000 0.001296 -99.762077 
2.2281249999999999 0.001265 -104.878903 
2.2287499999999998 0.001188 -108.254998 
2.2293750000000001 0.001146 -110.299442 
2.2300000000000000 0.001057 -113.922128 
2.2306249999999999 0.001029 -114.489549 
2.2312500000000002 0.000924 -113.996255 
2.2318750000000001 0.000845 -111.829915 
2.2324999999999999 0.000779 -106.819267 
2.2331249999999998 0.000747 -100.287256 
2.2337500000000001 0.000726 -91.387548 
2.2343750000000000 0.000775 -81.560279 
2.2349999999999999 0.000872 -75.495455 
2.2356250000000002 0.001007 -69.944158 
2.2362500000000001 0.001165 -70.521260 
2.2368749999999999 0.001319 -70.063346 
2.2374999999999998 0.001500 -70.629167 
2.2381250000000001 0.001665 -72.864996 
2.2387500000000000 0.001826 -76.545142 
2.2393749999999999 0.002020 -79.032225 
2.2400000000000002 0.002122 -80.996925 
2.2406250000000001 0.002267 -84.688812 
2.2412500000000000 0.002419 -90.175043 
2.2418749999999998 0.002475 -93.152890 
2.2425000000000002 0.002557 -95.795106 
2.2431250000000000 0.002606 -100.315631 
2.2437499999999999 0.002649 -104.390235 
2.2443749999999998 0.002646 -106.712101 
2.2450000000000001 0.002626 -108.201332 
2.2456250000000000 0.002634 -111.053147 
2.2462499999999999 0.002588 -111.743577 
2.2468750000000002 0.002572 -111.714633 
2.2475000000000001 0.002565 -111.312829 
2.2481249999999999 0.002584 -108.874631 
2.2487499999999998 0.002674 -106.475158 
2.2493750000000001 0.002729 -104.183120 
2.2500000000000000 0.002928 -101.404187 
2.2506249999999999 0.003127 -100.347825 
2.2512500000000002 0.003383 -99.106543 
2.2518750000000001 0.003823 -97.824386 
2.2524999999999999 0.004185 -96.736343 
2.2531249999999998 0.004688 -96.089224 
2.2537500000000001 0.005286 -97.052570 
2.2543750000000000 0.005801 -98.561741 
2.2549999999999999 0.006355 -99.723821 
2.2556250000000002 0.007065 -102.048299 
2.2562500000000001 0.007583 -103.774962 
2.2568750000000000 0.008224 -106.592013 
2.2574999999999998 0.008972 -108.415689 
2.2581250000000002 0.009621 -110.772073 
2.2587500000000000 0.010016 -112.874801 
2.2593749999999999 0.010873 -114.829722 
2.2599999999999998 0.011457 -117.232652 
2.2606250000000001 0.012037 -118.720610 
2.2612500000000000 0.012628 -119.124993 
2.2618749999999999 0.013766 -119.102607 
2.2625000000000002 0.014626 -119.778698 
2.2631250000000001 0.015005 -117.859879 
2.2637499999999999 0.016631 -114.561961 
2.2643749999999998 0.017780 -110.807821 
2.2650000000000001 0.018950 -104.290803 
2.2656250000000000 0.020260 -97.418736 
2.2662499999999999 0.021783 -88.685439 
2.2668750000000002 0.022637 -78.788995 
2.2675000000000001 0.022701 -68.916012 
2.2681249999999999 0.022782 -58.629457 
2.2687499999999998 0.022289 -49.045850 
2.2693750000000001 0.022477 -42.682188 
2.2700000000000000 0.021694 -36.469416 
2.2706249999999999 0.020682 -33.310507 
2.2712500000000002 0.019609 -29.939121 
2.2718750000000001 0.019194 -27.341678 
2.2725000000000000 0.018257 -26.559696 
2.2731249999999998 0.017553 -25.314790 
2.2737500000000002 0.016911 -26.341071 
2.2743750000000000 0.016283 -26.479519 
2.2749999999999999 0.015316 -27.932519 
2.2756249999999998 0.014310 -28.814635 
2.2762500000000001 0.013549 -30.133052 
2.2768750000000000 0.012405 -32.515948 
2.2774999999999999 0.011512 -33.999434 
2.2781250000000002 0.010777 -35.720392 
2.2787500000000001 0.009926 -38.468098 
2.2793749999999999 0.009033 -38.742475 
2.2799999999999998 0.008464 -41.288406 
2.2806250000000001 0.007599 -42.651471 
2.2812500000000000 0.007134 -43.473863 
2.2818749999999999 0.006647 -43.769073 
2.2825000000000002 0.006235 -44.101394 
2.2831250000000001 0.005756 -43.299675 
2.2837499999999999 0.005418 -44.051426 
2.2843749999999998 0.005257 -42.686259 
2.2850000000000001 0.005237 -41.127528 
2.2856250000000000 0.005134 -40.207605 
2.2862499999999999 0.005055 -39.600067 
2.2868750000000002 0.005132 -38.564615 
2.2875000000000001 0.005139 -39.586404 
2.2881250000000000 0.005268 -40.906153 
2.2887499999999998 0.005334 -43.034803 
2.2893750000000002 0.005369 -44.312756 
2.2900000000000000 0.005458 -46.454829 
2.2906249999999999 0.005515 -48.242014 
2.2912499999999998 0.005467 -51.786217 
2.2918750000000001 0.005418 -54.887346 
2.2925000000000000 0.005478 -58.142383 
2.2931249999999999 0.005481 -61.800857 
2.2937500000000002 0.005341 -65.411887 
2.2943750000000001 0.005135 -68.867951 
2.2949999999999999 0.005050 -72.409402 
2.2956249999999998 0.004931 -75.373185 
2.2962500000000001 0.004737 -78.921924 
2.2968750000000000 0.004545 -81.882645 
2.2974999999999999 0.004415 -83.915364 
2.2981250000000002 0.004289 -85.993128 
2.2987500000000001 0.004106 -87.970387 
