!
! C:\Users\rflab\Downloads\dp2_kdzw\240.S1P
!
! Touchstone 1.1 file saved by VNA.EXE V1.65 (www.ke5fx.com/gpib/readme.htm)
! 12/12/2024 7:14:26 PM
!
!    Source: HEWLETT PACKARD,8753D,0,6.14
!  Min freq: 2.000000E+009 Hz
!  Max freq: 2.500000E+009 Hz
!    Points: 801
!    Params: S21
!
!!!!!
# GHZ S MA R 50
2.0000000000000000 0.000697 35.773363 
2.0006249999999999 0.000681 36.162004 
2.0012500000000002 0.000623 37.944971 
2.0018750000000001 0.000619 35.808332 
2.0024999999999999 0.000564 34.068082 
2.0031249999999998 0.000569 36.131557 
2.0037500000000001 0.000565 32.587780 
2.0043750000000000 0.000552 35.240636 
2.0049999999999999 0.000520 34.864474 
2.0056250000000002 0.000496 29.185724 
2.0062500000000001 0.000552 39.059937 
2.0068750000000000 0.000515 34.014949 
2.0074999999999998 0.000522 40.060447 
2.0081250000000002 0.000505 35.680632 
2.0087500000000000 0.000513 32.289424 
2.0093749999999999 0.000493 32.936729 
2.0099999999999998 0.000530 26.684716 
2.0106250000000001 0.000484 27.009767 
2.0112500000000000 0.000485 28.136326 
2.0118749999999999 0.000458 22.132968 
2.0125000000000002 0.000450 18.690519 
2.0131250000000001 0.000454 15.006311 
2.0137499999999999 0.000418 16.440792 
2.0143749999999998 0.000413 12.374653 
2.0150000000000001 0.000376 9.598559 
2.0156250000000000 0.000376 8.380086 
2.0162499999999999 0.000386 5.582171 
2.0168750000000002 0.000309 4.456073 
2.0175000000000001 0.000335 -0.555066 
2.0181249999999999 0.000336 5.928179 
2.0187499999999998 0.000313 4.460618 
2.0193750000000001 0.000309 3.358192 
2.0200000000000000 0.000291 8.426643 
2.0206249999999999 0.000275 8.846114 
2.0212500000000002 0.000276 5.892335 
2.0218750000000001 0.000262 12.928553 
2.0225000000000000 0.000263 10.045792 
2.0231249999999998 0.000263 12.109928 
2.0237500000000002 0.000249 13.212883 
2.0243750000000000 0.000255 11.768280 
2.0249999999999999 0.000260 10.134257 
2.0256249999999998 0.000296 9.810546 
2.0262500000000001 0.000290 8.021279 
2.0268750000000000 0.000293 2.433932 
2.0274999999999999 0.000283 7.221326 
2.0281250000000002 0.000273 1.611029 
2.0287500000000001 0.000273 3.004743 
2.0293749999999999 0.000316 -3.629098 
2.0299999999999998 0.000280 -1.381272 
2.0306250000000001 0.000279 -2.848630 
2.0312500000000000 0.000252 -6.087585 
2.0318749999999999 0.000251 -4.962520 
2.0325000000000002 0.000268 -11.187459 
2.0331250000000001 0.000242 -10.914347 
2.0337499999999999 0.000245 -6.926345 
2.0343749999999998 0.000241 -6.406380 
2.0350000000000001 0.000229 -7.723547 
2.0356250000000000 0.000215 -12.712426 
2.0362499999999999 0.000215 -6.861903 
2.0368750000000002 0.000207 -10.614842 
2.0375000000000001 0.000221 -7.164259 
2.0381250000000000 0.000233 -5.428678 
2.0387499999999998 0.000223 -2.337852 
2.0393750000000002 0.000240 -6.388433 
2.0400000000000000 0.000236 -6.235235 
2.0406249999999999 0.000257 -9.639888 
2.0412499999999998 0.000292 -10.402191 
2.0418750000000001 0.000300 -9.256039 
2.0425000000000000 0.000284 -11.916817 
2.0431249999999999 0.000297 -16.426080 
2.0437500000000002 0.000306 -17.764465 
2.0443750000000001 0.000303 -20.501043 
2.0449999999999999 0.000295 -27.606619 
2.0456249999999998 0.000307 -27.225214 
2.0462500000000001 0.000291 -25.478373 
2.0468750000000000 0.000322 -31.516574 
2.0474999999999999 0.000314 -31.511807 
2.0481250000000002 0.000270 -35.247566 
2.0487500000000001 0.000295 -31.102744 
2.0493749999999999 0.000281 -31.563957 
2.0499999999999998 0.000279 -38.091502 
2.0506250000000001 0.000270 -34.661958 
2.0512500000000000 0.000242 -32.280214 
2.0518749999999999 0.000237 -39.287883 
2.0525000000000002 0.000265 -37.337146 
2.0531250000000001 0.000220 -34.896426 
2.0537500000000000 0.000246 -35.678578 
2.0543749999999998 0.000258 -27.792290 
2.0550000000000002 0.000224 -30.586763 
2.0556250000000000 0.000238 -32.272933 
2.0562499999999999 0.000245 -31.098370 
2.0568749999999998 0.000287 -32.240642 
2.0575000000000001 0.000276 -29.795826 
2.0581250000000000 0.000312 -35.055662 
2.0587499999999999 0.000288 -30.224848 
2.0593750000000002 0.000298 -26.518985 
2.0600000000000001 0.000330 -25.322055 
2.0606249999999999 0.000314 -32.080401 
2.0612499999999998 0.000353 -35.385134 
2.0618750000000001 0.000348 -34.207922 
2.0625000000000000 0.000348 -38.696602 
2.0631249999999999 0.000333 -39.221623 
2.0637500000000002 0.000333 -37.334854 
2.0643750000000001 0.000400 -41.390334 
2.0649999999999999 0.000362 -37.927139 
2.0656249999999998 0.000383 -44.129947 
2.0662500000000001 0.000374 -38.580572 
2.0668750000000000 0.000400 -49.486325 
2.0674999999999999 0.000423 -40.498882 
2.0681250000000002 0.000403 -43.752517 
2.0687500000000001 0.000392 -45.018492 
2.0693750000000000 0.000442 -46.229105 
2.0699999999999998 0.000408 -49.214550 
2.0706250000000002 0.000453 -41.698593 
2.0712500000000000 0.000393 -44.714446 
2.0718749999999999 0.000448 -40.240159 
2.0724999999999998 0.000472 -46.029382 
2.0731250000000001 0.000512 -42.985341 
2.0737500000000000 0.000463 -37.501221 
2.0743749999999999 0.000536 -44.096302 
2.0750000000000002 0.000474 -32.214211 
2.0756250000000001 0.000512 -39.840386 
2.0762499999999999 0.000529 -32.626807 
2.0768749999999998 0.000511 -38.142395 
2.0775000000000001 0.000585 -34.179179 
2.0781250000000000 0.000519 -35.013573 
2.0787499999999999 0.000474 -34.795755 
2.0793750000000002 0.000609 -39.378211 
2.0800000000000001 0.000552 -28.230925 
2.0806249999999999 0.000508 -36.009350 
2.0812499999999998 0.000552 -33.238936 
2.0818750000000001 0.000414 -24.046541 
2.0825000000000000 0.000388 -30.219030 
2.0831249999999999 0.000435 -28.777965 
2.0837500000000002 0.000527 -25.505562 
2.0843750000000001 0.000422 -28.503777 
2.0850000000000000 0.000398 -26.954684 
2.0856249999999998 0.000375 -29.868967 
2.0862500000000002 0.000401 -30.620023 
2.0868750000000000 0.000375 -14.881084 
2.0874999999999999 0.000352 -25.924362 
2.0881249999999998 0.000300 -22.673734 
2.0887500000000001 0.000297 -22.266218 
2.0893750000000000 0.000305 -9.364231 
2.0899999999999999 0.000275 -9.873797 
2.0906250000000002 0.000264 -13.177652 
2.0912500000000001 0.000247 -6.776234 
2.0918749999999999 0.000213 -20.291768 
2.0924999999999998 0.000229 0.332091 
2.0931250000000001 0.000259 -0.234276 
2.0937500000000000 0.000252 -11.432638 
2.0943749999999999 0.000227 5.434181 
2.0950000000000002 0.000201 -8.292458 
2.0956250000000001 0.000202 9.433803 
2.0962499999999999 0.000231 -3.511875 
2.0968749999999998 0.000181 11.050133 
2.0975000000000001 0.000168 13.855456 
2.0981250000000000 0.000138 10.849333 
2.0987499999999999 0.000117 -12.951803 
2.0993750000000002 0.000120 9.718578 
2.1000000000000001 0.000133 -35.049994 
2.1006250000000000 0.000099 23.069601 
2.1012499999999998 0.000104 2.762370 
2.1018750000000002 0.000132 -1.393877 
2.1025000000000000 0.000056 4.677352 
2.1031249999999999 0.000129 -17.588970 
2.1037499999999998 0.000062 39.928094 
2.1043750000000001 0.000048 72.608707 
2.1050000000000000 0.000041 12.622915 
2.1056249999999999 0.000035 -13.123071 
2.1062500000000002 0.000042 70.122646 
2.1068750000000001 0.000019 54.916499 
2.1074999999999999 0.000042 64.709303 
2.1081249999999998 0.000056 28.434546 
2.1087500000000001 0.000046 104.412274 
2.1093750000000000 0.000049 119.755760 
2.1099999999999999 0.000056 107.344403 
2.1106250000000002 0.000076 88.865073 
2.1112500000000001 0.000058 68.650822 
2.1118749999999999 0.000097 113.749652 
2.1124999999999998 0.000053 75.311021 
2.1131250000000001 0.000085 132.556484 
2.1137500000000000 0.000070 112.373854 
2.1143749999999999 0.000066 111.570267 
2.1150000000000002 0.000081 95.115975 
2.1156250000000001 0.000094 99.877059 
2.1162500000000000 0.000082 105.257854 
2.1168749999999998 0.000103 106.514661 
2.1175000000000002 0.000096 115.013937 
2.1181250000000000 0.000072 68.983434 
2.1187499999999999 0.000094 105.439773 
2.1193749999999998 0.000084 87.915948 
2.1200000000000001 0.000089 82.753146 
2.1206250000000000 0.000089 99.440148 
2.1212499999999999 0.000089 90.889570 
2.1218750000000002 0.000083 92.981086 
2.1225000000000001 0.000089 89.090696 
2.1231249999999999 0.000096 96.726207 
2.1237499999999998 0.000069 97.093399 
2.1243750000000001 0.000078 93.051722 
2.1250000000000000 0.000104 96.874007 
2.1256249999999999 0.000078 88.373059 
2.1262500000000002 0.000110 103.500261 
2.1268750000000001 0.000111 102.535511 
2.1274999999999999 0.000099 99.375532 
2.1281249999999998 0.000136 101.112055 
2.1287500000000001 0.000125 96.501577 
2.1293750000000000 0.000114 88.090597 
2.1299999999999999 0.000140 85.643268 
2.1306250000000002 0.000116 82.691813 
2.1312500000000001 0.000127 81.564409 
2.1318750000000000 0.000148 83.267217 
2.1324999999999998 0.000147 64.565383 
2.1331250000000002 0.000127 62.406619 
2.1337500000000000 0.000142 53.136128 
2.1343749999999999 0.000115 55.637527 
2.1349999999999998 0.000108 42.977779 
2.1356250000000001 0.000100 46.213069 
2.1362500000000000 0.000083 37.396905 
2.1368749999999999 0.000068 35.488006 
2.1375000000000002 0.000061 24.515680 
2.1381250000000001 0.000053 28.944947 
2.1387499999999999 0.000024 29.935378 
2.1393749999999998 0.000013 83.431526 
2.1400000000000001 0.000020 138.966265 
2.1406250000000000 0.000041 151.214178 
2.1412499999999999 0.000060 148.792639 
2.1418750000000002 0.000075 154.834605 
2.1425000000000001 0.000109 137.015823 
2.1431249999999999 0.000127 133.215303 
2.1437499999999998 0.000128 122.394217 
2.1443750000000001 0.000154 128.263204 
2.1450000000000000 0.000169 125.836506 
2.1456249999999999 0.000173 118.101855 
2.1462500000000002 0.000170 114.172381 
2.1468750000000001 0.000175 111.183965 
2.1475000000000000 0.000169 98.984984 
2.1481249999999998 0.000164 100.907313 
2.1487500000000002 0.000150 93.384396 
2.1493750000000000 0.000133 98.138749 
2.1499999999999999 0.000114 91.422276 
2.1506249999999998 0.000109 106.289481 
2.1512500000000001 0.000091 110.808982 
2.1518750000000000 0.000090 136.198426 
2.1524999999999999 0.000123 142.384825 
2.1531250000000002 0.000142 153.646429 
2.1537500000000001 0.000192 156.110941 
2.1543749999999999 0.000237 148.790839 
2.1549999999999998 0.000270 156.739017 
2.1556250000000001 0.000354 148.610290 
2.1562500000000000 0.000410 147.305293 
2.1568749999999999 0.000442 139.922737 
2.1575000000000002 0.000515 136.427468 
2.1581250000000001 0.000580 131.690741 
2.1587499999999999 0.000648 127.067941 
2.1593749999999998 0.000702 116.993915 
2.1600000000000001 0.000744 121.228817 
2.1606250000000000 0.000786 108.969894 
2.1612499999999999 0.000787 112.973586 
2.1618750000000002 0.000880 102.102614 
2.1625000000000001 0.000867 95.909790 
2.1631250000000000 0.000876 91.419331 
2.1637499999999998 0.000864 88.724686 
2.1643750000000002 0.000825 87.730656 
2.1650000000000000 0.000865 81.374653 
2.1656249999999999 0.000822 80.947879 
2.1662499999999998 0.000810 86.434577 
2.1668750000000001 0.000799 81.139270 
2.1675000000000000 0.000766 87.465202 
2.1681249999999999 0.000883 91.895047 
2.1687500000000002 0.000880 102.599539 
2.1693750000000001 0.000931 105.237914 
2.1699999999999999 0.001040 107.713406 
2.1706249999999998 0.001166 110.742590 
2.1712500000000001 0.001291 114.708053 
2.1718750000000000 0.001452 113.813982 
2.1724999999999999 0.001651 113.645603 
2.1731250000000002 0.001819 112.892852 
2.1737500000000001 0.002170 112.103520 
2.1743749999999999 0.002247 112.443791 
2.1749999999999998 0.002140 111.428003 
2.1756250000000001 0.002532 108.533048 
2.1762500000000000 0.002533 105.019825 
2.1768749999999999 0.002728 99.387824 
2.1775000000000002 0.002535 98.224217 
2.1781250000000001 0.002792 99.165933 
2.1787500000000000 0.002419 96.886171 
2.1793749999999998 0.002503 95.585975 
2.1800000000000002 0.002607 91.499026 
2.1806250000000000 0.002333 91.470002 
2.1812499999999999 0.002114 88.516539 
2.1818749999999998 0.001930 90.474151 
2.1825000000000001 0.001809 88.613869 
2.1831250000000000 0.001563 87.823599 
2.1837499999999999 0.001340 88.032792 
2.1843750000000002 0.001299 91.997941 
2.1850000000000001 0.001144 90.307541 
2.1856249999999999 0.001048 93.793910 
2.1862499999999998 0.000906 100.068765 
2.1868750000000001 0.000930 102.217048 
2.1875000000000000 0.000953 106.440323 
2.1881249999999999 0.000873 103.197512 
2.1887500000000002 0.000955 110.262654 
2.1893750000000001 0.000961 109.107188 
2.1899999999999999 0.001100 105.396770 
2.1906249999999998 0.001039 106.690119 
2.1912500000000001 0.000970 93.724599 
2.1918750000000000 0.001031 92.982841 
2.1924999999999999 0.001017 93.320504 
2.1931250000000002 0.000925 92.563660 
2.1937500000000001 0.000949 83.880789 
2.1943750000000000 0.000930 77.815243 
2.1949999999999998 0.000812 77.132968 
2.1956250000000002 0.000860 73.164528 
2.1962500000000000 0.000794 67.895720 
2.1968749999999999 0.000740 61.747382 
2.1974999999999998 0.000617 57.408908 
2.1981250000000001 0.000623 54.513263 
2.1987500000000000 0.000505 54.505734 
2.1993749999999999 0.000465 47.593613 
2.2000000000000002 0.000409 44.005369 
2.2006250000000001 0.000403 51.825041 
2.2012499999999999 0.000365 44.205008 
2.2018749999999998 0.000274 43.805689 
2.2025000000000001 0.000338 54.206556 
2.2031250000000000 0.000276 45.793081 
2.2037499999999999 0.000248 45.783263 
2.2043750000000002 0.000266 60.876864 
2.2050000000000001 0.000262 54.382474 
2.2056249999999999 0.000348 52.370448 
2.2062499999999998 0.000313 53.984462 
2.2068750000000001 0.000306 45.309994 
2.2075000000000000 0.000344 49.054767 
2.2081249999999999 0.000341 43.973756 
2.2087500000000002 0.000316 36.143484 
2.2093750000000001 0.000283 35.029263 
2.2100000000000000 0.000307 31.069664 
2.2106249999999998 0.000255 19.987113 
2.2112500000000002 0.000236 17.145838 
2.2118750000000000 0.000273 24.370863 
2.2124999999999999 0.000254 19.036573 
2.2131249999999998 0.000252 9.093223 
2.2137500000000001 0.000232 3.148595 
2.2143750000000000 0.000198 -11.970122 
2.2149999999999999 0.000214 -0.057844 
2.2156250000000002 0.000175 -13.716509 
2.2162500000000001 0.000173 -19.542897 
2.2168749999999999 0.000139 -20.299583 
2.2174999999999998 0.000131 -26.667413 
2.2181250000000001 0.000102 -22.402528 
2.2187500000000000 0.000080 -6.929608 
2.2193749999999999 0.000080 -9.389005 
2.2200000000000002 0.000059 2.490262 
2.2206250000000001 0.000058 6.008419 
2.2212499999999999 0.000055 22.897877 
2.2218749999999998 0.000075 29.031346 
2.2225000000000001 0.000077 39.347843 
2.2231250000000000 0.000104 37.735721 
2.2237499999999999 0.000105 43.806603 
2.2243750000000002 0.000106 35.147395 
2.2250000000000001 0.000116 34.007532 
2.2256250000000000 0.000122 37.645405 
2.2262499999999998 0.000138 29.721167 
2.2268750000000002 0.000125 24.716549 
2.2275000000000000 0.000126 24.705561 
2.2281249999999999 0.000143 18.192965 
2.2287499999999998 0.000121 22.677711 
2.2293750000000001 0.000138 12.659660 
2.2300000000000000 0.000127 2.310264 
2.2306249999999999 0.000108 19.288180 
2.2312500000000002 0.000111 15.096290 
2.2318750000000001 0.000091 20.521477 
2.2324999999999999 0.000090 20.057009 
2.2331249999999998 0.000091 25.588928 
2.2337500000000001 0.000089 40.434762 
2.2343750000000000 0.000101 48.193756 
2.2349999999999999 0.000123 55.224075 
2.2356250000000002 0.000126 53.559922 
2.2362500000000001 0.000175 60.292736 
2.2368749999999999 0.000183 61.703337 
2.2374999999999998 0.000192 58.456195 
2.2381250000000001 0.000228 59.158242 
2.2387500000000000 0.000245 54.961170 
2.2393749999999999 0.000305 52.004031 
2.2400000000000002 0.000313 51.433174 
2.2406250000000001 0.000389 45.465048 
2.2412500000000000 0.000403 43.572849 
2.2418749999999998 0.000390 36.686078 
2.2425000000000002 0.000432 33.649517 
2.2431250000000000 0.000459 26.416872 
2.2437499999999999 0.000409 29.956735 
2.2443749999999998 0.000507 18.860004 
2.2450000000000001 0.000490 19.422254 
2.2456250000000000 0.000505 16.985434 
2.2462499999999999 0.000482 18.856993 
2.2468750000000002 0.000524 18.128954 
2.2475000000000001 0.000512 19.457604 
2.2481249999999999 0.000542 24.262064 
2.2487499999999998 0.000566 23.258370 
2.2493750000000001 0.000613 24.415386 
2.2500000000000000 0.000645 27.699359 
2.2506249999999999 0.000736 27.498970 
2.2512500000000002 0.000812 26.018607 
2.2518750000000001 0.000914 31.539785 
2.2524999999999999 0.001019 27.320941 
2.2531249999999998 0.001206 30.011438 
2.2537500000000001 0.001344 28.391081 
2.2543750000000000 0.001518 27.563226 
2.2549999999999999 0.001799 24.362576 
2.2556250000000002 0.001829 25.160173 
2.2562500000000001 0.002137 18.510738 
2.2568750000000000 0.002307 18.575399 
2.2574999999999998 0.002668 14.961426 
2.2581250000000002 0.002900 13.365115 
2.2587500000000000 0.003208 7.920864 
2.2593749999999999 0.003397 5.857455 
2.2599999999999998 0.003733 5.954222 
2.2606250000000001 0.003760 0.650318 
2.2612500000000000 0.004220 -1.887583 
2.2618749999999999 0.004790 -0.653037 
2.2625000000000002 0.005057 1.442633 
2.2631250000000001 0.005409 1.305851 
2.2637499999999999 0.005729 3.562205 
2.2643749999999998 0.006300 7.477581 
2.2650000000000001 0.007102 11.255614 
2.2656250000000000 0.007747 17.494772 
2.2662499999999999 0.008178 26.439551 
2.2668750000000002 0.008954 33.907564 
2.2675000000000001 0.009602 42.834523 
2.2681249999999999 0.009326 52.309236 
2.2687499999999998 0.009897 62.817693 
2.2693750000000001 0.009831 67.998366 
2.2700000000000000 0.010114 75.708245 
2.2706249999999999 0.009771 78.612202 
2.2712500000000002 0.009002 81.501646 
2.2718750000000001 0.009006 81.707735 
2.2725000000000000 0.008778 84.882775 
2.2731249999999998 0.008731 85.150080 
2.2737500000000002 0.008292 83.770417 
2.2743750000000000 0.008459 84.394168 
2.2749999999999999 0.007785 80.010317 
2.2756249999999998 0.007458 80.850835 
2.2762500000000001 0.007020 77.190907 
2.2768750000000000 0.006535 75.244841 
2.2774999999999999 0.006316 72.924938 
2.2781250000000002 0.005978 70.041681 
2.2787500000000001 0.005754 68.130700 
2.2793749999999999 0.005283 66.644542 
2.2799999999999998 0.004823 63.594550 
2.2806250000000001 0.004491 62.486703 
2.2812500000000000 0.004239 60.871057 
2.2818749999999999 0.003817 59.323498 
2.2825000000000002 0.003665 58.663271 
2.2831250000000001 0.003550 60.054196 
2.2837499999999999 0.003338 56.939326 
2.2843749999999998 0.003273 58.348066 
2.2850000000000001 0.003249 58.411358 
2.2856250000000000 0.003263 59.027989 
2.2862499999999999 0.003251 59.125604 
2.2868750000000002 0.003267 59.034093 
2.2875000000000001 0.003421 58.010916 
2.2881250000000000 0.003583 57.361688 
2.2887499999999998 0.003512 55.107697 
2.2893750000000002 0.003654 52.894942 
2.2900000000000000 0.003772 49.491993 
2.2906249999999999 0.003702 47.009459 
2.2912499999999998 0.003947 44.307418 
2.2918750000000001 0.003826 42.045060 
2.2925000000000000 0.003840 36.046725 
2.2931249999999999 0.003729 31.902483 
2.2937500000000002 0.003772 28.937105 
2.2943750000000001 0.003655 24.241044 
2.2949999999999999 0.003637 21.066906 
2.2956249999999998 0.003532 18.169578 
2.2962500000000001 0.003413 12.958622 
2.2968750000000000 0.003361 9.144230 
2.2974999999999999 0.003280 7.656561 
2.2981250000000002 0.003123 3.129353 
2.2987500000000001 0.002960 2.698874 
2.2993749999999999 0.002931 0.682748 
2.2999999999999998 0.002812 -0.429984 
2.3006250000000001 0.002648 -0.820408 
2.3012500000000000 0.002585 -1.558864 
2.3018749999999999 0.002494 -1.555556 
2.3025000000000002 0.002499 -1.126089 
2.3031250000000001 0.002475 0.284279 
2.3037500000000000 0.002534 0.261468 
2.3043749999999998 0.002589 -0.717578 
