!
! C:\Users\rflab\Downloads\dp2_kdzw\260.S1P
!
! Touchstone 1.1 file saved by VNA.EXE V1.65 (www.ke5fx.com/gpib/readme.htm)
! 12/12/2024 7:21:29 PM
!
!    Source: HEWLETT PACKARD,8753D,0,6.14
!  Min freq: 2.000000E+009 Hz
!  Max freq: 2.500000E+009 Hz
!    Points: 801
!    Params: S21
!
!!!!!
# GHZ S MA R 50
2.0000000000000000 0.000390 28.974319 
2.0006249999999999 0.000368 33.787318 
2.0012500000000002 0.000329 31.944055 
2.0018750000000001 0.000259 36.046427 
2.0024999999999999 0.000293 32.881930 
2.0031249999999998 0.000280 28.041999 
2.0037500000000001 0.000259 30.367460 
2.0043750000000000 0.000245 32.513318 
2.0049999999999999 0.000247 31.720281 
2.0056250000000002 0.000209 28.242588 
2.0062500000000001 0.000198 28.219912 
2.0068750000000000 0.000225 39.886883 
2.0074999999999998 0.000155 21.792723 
2.0081250000000002 0.000163 31.556340 
2.0087500000000000 0.000155 21.357916 
2.0093749999999999 0.000178 14.618654 
2.0099999999999998 0.000190 21.502438 
2.0106250000000001 0.000165 9.159040 
2.0112500000000000 0.000179 -2.865505 
2.0118749999999999 0.000113 5.945216 
2.0125000000000002 0.000131 10.251969 
2.0131250000000001 0.000187 -3.633891 
2.0137499999999999 0.000114 -16.802221 
2.0143749999999998 0.000144 -12.516877 
2.0150000000000001 0.000085 -21.170349 
2.0156250000000000 0.000115 -30.364221 
2.0162499999999999 0.000075 -29.080185 
2.0168750000000002 0.000100 -32.599619 
2.0175000000000001 0.000091 -50.831820 
2.0181249999999999 0.000092 -47.779010 
2.0187499999999998 0.000084 -57.086340 
2.0193750000000001 0.000061 -53.423020 
2.0200000000000000 0.000081 -49.767212 
2.0206249999999999 0.000088 -64.374510 
2.0212500000000002 0.000080 -54.672075 
2.0218750000000001 0.000075 -54.293675 
2.0225000000000000 0.000073 -45.830259 
2.0231249999999998 0.000080 -56.364585 
2.0237500000000002 0.000100 -45.520872 
2.0243750000000000 0.000101 -53.971847 
2.0249999999999999 0.000091 -50.197432 
2.0256249999999998 0.000098 -63.974207 
2.0262500000000001 0.000089 -61.157648 
2.0268750000000000 0.000110 -74.905938 
2.0274999999999999 0.000119 -86.908161 
2.0281250000000002 0.000111 -81.955592 
2.0287500000000001 0.000104 -87.394267 
2.0293749999999999 0.000106 -94.488383 
2.0299999999999998 0.000112 -91.337826 
2.0306250000000001 0.000106 -93.375449 
2.0312500000000000 0.000111 -91.827296 
2.0318749999999999 0.000142 -99.869157 
2.0325000000000002 0.000132 -95.837399 
2.0331250000000001 0.000130 -104.772239 
2.0337499999999999 0.000110 -94.518056 
2.0343749999999998 0.000117 -108.029132 
2.0350000000000001 0.000137 -104.218119 
2.0356250000000000 0.000130 -101.033085 
2.0362499999999999 0.000135 -106.199878 
2.0368750000000002 0.000143 -102.629651 
2.0375000000000001 0.000131 -98.892287 
2.0381250000000000 0.000137 -101.391547 
2.0387499999999998 0.000138 -104.100833 
2.0393750000000002 0.000145 -98.479057 
2.0400000000000000 0.000146 -101.874469 
2.0406249999999999 0.000168 -110.750119 
2.0412499999999998 0.000181 -107.200372 
2.0418750000000001 0.000209 -111.704411 
2.0425000000000000 0.000212 -119.196257 
2.0431249999999999 0.000237 -109.579162 
2.0437500000000002 0.000232 -113.565396 
2.0443750000000001 0.000243 -122.802295 
2.0449999999999999 0.000243 -124.708048 
2.0456249999999998 0.000238 -132.617322 
2.0462500000000001 0.000252 -133.369158 
2.0468750000000000 0.000242 -130.995396 
2.0474999999999999 0.000239 -137.302534 
2.0481250000000002 0.000253 -131.945050 
2.0487500000000001 0.000256 -133.742280 
2.0493749999999999 0.000253 -142.541676 
2.0499999999999998 0.000230 -142.039615 
2.0506250000000001 0.000268 -146.340896 
2.0512500000000000 0.000244 -142.914909 
2.0518749999999999 0.000229 -145.003711 
2.0525000000000002 0.000247 -141.669068 
2.0531250000000001 0.000241 -147.228622 
2.0537500000000000 0.000217 -146.024517 
2.0543749999999998 0.000254 -143.243777 
2.0550000000000002 0.000248 -146.141913 
2.0556250000000000 0.000278 -145.298346 
2.0562499999999999 0.000288 -140.377126 
2.0568749999999998 0.000286 -145.066743 
2.0575000000000001 0.000313 -144.823898 
2.0581250000000000 0.000340 -148.053698 
2.0587499999999999 0.000378 -146.708939 
2.0593750000000002 0.000366 -149.108742 
2.0600000000000001 0.000406 -151.956835 
2.0606249999999999 0.000399 -152.626295 
2.0612499999999998 0.000501 -155.001009 
2.0618750000000001 0.000426 -160.300862 
2.0625000000000000 0.000467 -160.695284 
2.0631249999999999 0.000483 -160.650557 
2.0637500000000002 0.000515 -160.279024 
2.0643750000000001 0.000542 -165.548111 
2.0649999999999999 0.000511 -169.163813 
2.0656249999999998 0.000575 -167.151277 
2.0662500000000001 0.000539 -172.299876 
2.0668750000000000 0.000502 -170.721777 
2.0674999999999999 0.000546 -171.515627 
2.0681250000000002 0.000583 -173.898960 
2.0687500000000001 0.000541 -175.923381 
2.0693750000000000 0.000635 -176.186998 
2.0699999999999998 0.000595 -176.441391 
2.0706250000000002 0.000603 177.978964 
2.0712500000000000 0.000643 179.017090 
2.0718749999999999 0.000674 173.871191 
2.0724999999999998 0.000727 179.882510 
2.0731250000000001 0.000753 176.104184 
2.0737500000000000 0.000734 177.264623 
2.0743749999999999 0.000743 177.086753 
2.0750000000000002 0.000766 176.426865 
2.0756250000000001 0.000905 178.585882 
2.0762499999999999 0.000900 178.031867 
2.0768749999999998 0.000944 179.211635 
2.0775000000000001 0.000996 177.391988 
2.0781250000000000 0.000986 175.675113 
2.0787499999999999 0.000999 175.660298 
2.0793750000000002 0.000937 172.987505 
2.0800000000000001 0.000966 170.894079 
2.0806249999999999 0.001039 168.124879 
2.0812499999999998 0.001092 176.520040 
2.0818750000000001 0.000999 174.406799 
2.0825000000000000 0.000965 169.157589 
2.0831249999999999 0.001027 170.422844 
2.0837500000000002 0.000979 172.210888 
2.0843750000000001 0.000987 170.484513 
2.0850000000000000 0.000937 168.915885 
2.0856249999999998 0.000869 174.272596 
2.0862500000000002 0.000826 172.745203 
2.0868750000000000 0.000883 171.497528 
2.0874999999999999 0.000844 175.275016 
2.0881249999999998 0.000848 176.614380 
2.0887500000000001 0.000755 177.904440 
2.0893750000000000 0.000782 -177.142829 
2.0899999999999999 0.000768 177.719513 
2.0906250000000002 0.000816 179.007620 
2.0912500000000001 0.000752 175.997819 
2.0918749999999999 0.000719 177.213489 
2.0924999999999998 0.000782 173.202406 
2.0931250000000001 0.000728 176.563981 
2.0937500000000000 0.000755 170.526890 
2.0943749999999999 0.000719 170.272887 
2.0950000000000002 0.000686 166.955928 
2.0956250000000001 0.000686 168.154816 
2.0962499999999999 0.000663 166.975249 
2.0968749999999998 0.000631 169.752803 
2.0975000000000001 0.000683 159.295981 
2.0981250000000000 0.000574 161.164154 
2.0987499999999999 0.000646 157.541889 
2.0993750000000002 0.000521 155.321201 
2.1000000000000001 0.000577 150.534312 
2.1006250000000000 0.000504 152.912763 
2.1012499999999998 0.000496 145.516291 
2.1018750000000002 0.000445 149.063859 
2.1025000000000000 0.000525 139.098649 
2.1031249999999999 0.000479 144.105961 
2.1037499999999998 0.000473 141.714089 
2.1043750000000001 0.000399 136.600258 
2.1050000000000000 0.000406 138.769319 
2.1056249999999999 0.000388 143.288990 
2.1062500000000002 0.000350 134.115620 
2.1068750000000001 0.000382 136.137870 
2.1074999999999999 0.000358 131.770716 
2.1081249999999998 0.000369 129.258150 
2.1087500000000001 0.000410 128.102271 
2.1093750000000000 0.000318 132.935008 
2.1099999999999999 0.000356 122.429106 
2.1106250000000002 0.000363 127.796816 
2.1112500000000001 0.000361 125.278783 
2.1118749999999999 0.000367 126.672689 
2.1124999999999998 0.000370 123.506366 
2.1131250000000001 0.000415 110.853085 
2.1137500000000000 0.000371 110.853435 
2.1143749999999999 0.000353 99.287886 
2.1150000000000002 0.000384 104.058326 
2.1156250000000001 0.000362 101.728075 
2.1162500000000000 0.000349 96.284010 
2.1168749999999998 0.000331 84.765856 
2.1175000000000002 0.000303 92.640985 
2.1181250000000000 0.000319 83.899337 
2.1187499999999999 0.000299 76.801047 
2.1193749999999998 0.000290 76.679847 
2.1200000000000001 0.000237 76.613503 
2.1206250000000000 0.000220 71.016073 
2.1212499999999999 0.000228 70.533341 
2.1218750000000002 0.000203 65.012535 
2.1225000000000001 0.000192 66.979228 
2.1231249999999999 0.000182 71.971943 
2.1237499999999998 0.000165 71.010006 
2.1243750000000001 0.000174 70.248423 
2.1250000000000000 0.000193 73.866386 
2.1256249999999999 0.000197 74.823257 
2.1262500000000002 0.000209 73.859179 
2.1268750000000001 0.000202 79.581598 
2.1274999999999999 0.000224 72.567598 
2.1281249999999998 0.000229 71.369438 
2.1287500000000001 0.000214 65.222067 
2.1293750000000000 0.000257 62.578438 
2.1299999999999999 0.000205 59.463379 
2.1306250000000002 0.000233 57.740968 
2.1312500000000001 0.000227 58.626057 
2.1318750000000000 0.000218 48.804879 
2.1324999999999998 0.000217 40.451329 
2.1331250000000002 0.000219 37.076534 
2.1337500000000000 0.000183 41.267745 
2.1343749999999999 0.000181 31.225244 
2.1349999999999998 0.000166 23.019465 
2.1356250000000001 0.000155 12.418926 
2.1362500000000000 0.000125 13.255794 
2.1368749999999999 0.000105 2.484977 
2.1375000000000002 0.000080 -4.656225 
2.1381250000000001 0.000060 0.830210 
2.1387499999999999 0.000037 6.809221 
2.1393749999999998 0.000023 60.447217 
2.1400000000000001 0.000037 102.606131 
2.1406250000000000 0.000061 114.975076 
2.1412499999999999 0.000084 112.913360 
2.1418750000000002 0.000119 113.949759 
2.1425000000000001 0.000150 110.484169 
2.1431249999999999 0.000156 107.157708 
2.1437499999999998 0.000189 103.579963 
2.1443750000000001 0.000211 93.684491 
2.1450000000000000 0.000229 95.485402 
2.1456249999999999 0.000234 87.930662 
2.1462500000000002 0.000230 86.455792 
2.1468750000000001 0.000232 81.384575 
2.1475000000000000 0.000222 78.164520 
2.1481249999999998 0.000210 71.998636 
2.1487500000000002 0.000189 72.323151 
2.1493750000000000 0.000168 66.090049 
2.1499999999999999 0.000149 64.986379 
2.1506249999999998 0.000140 74.998903 
2.1512500000000001 0.000119 84.072181 
2.1518750000000000 0.000118 101.398073 
2.1524999999999999 0.000146 116.545463 
2.1531250000000002 0.000185 125.583376 
2.1537500000000001 0.000227 131.566740 
2.1543749999999999 0.000285 132.674052 
2.1549999999999998 0.000347 127.886204 
2.1556250000000001 0.000434 123.431634 
2.1562500000000000 0.000512 123.824159 
2.1568749999999999 0.000611 118.944956 
2.1575000000000002 0.000641 114.971164 
2.1581250000000001 0.000750 110.042645 
2.1587499999999999 0.000832 109.294790 
2.1593749999999998 0.000889 99.302791 
2.1600000000000001 0.000924 99.820038 
2.1606250000000000 0.000990 92.563102 
2.1612499999999999 0.000970 89.095312 
2.1618750000000002 0.001057 83.550995 
2.1625000000000001 0.001049 81.639606 
2.1631250000000000 0.001150 74.731851 
2.1637499999999998 0.001127 73.479276 
2.1643750000000002 0.001108 70.422494 
2.1650000000000000 0.001161 69.805802 
2.1656249999999999 0.001123 67.614911 
2.1662499999999998 0.001094 67.928423 
2.1668750000000001 0.001054 69.814020 
2.1675000000000000 0.001025 72.007521 
2.1681249999999999 0.001063 83.979391 
2.1687500000000002 0.001201 86.352183 
2.1693750000000001 0.001301 93.787018 
2.1699999999999999 0.001504 99.435443 
2.1706249999999998 0.001658 101.349526 
2.1712500000000001 0.001920 104.229557 
2.1718750000000000 0.002286 106.620542 
2.1724999999999999 0.002590 109.072118 
2.1731250000000002 0.002808 106.871664 
2.1737500000000001 0.003184 106.833634 
2.1743749999999999 0.003446 104.316060 
2.1749999999999998 0.003553 105.515467 
2.1756250000000001 0.003869 103.040394 
2.1762500000000000 0.004218 101.895496 
2.1768749999999999 0.004229 99.290817 
2.1775000000000002 0.004381 98.071014 
2.1781250000000001 0.004566 97.425217 
2.1787500000000000 0.004552 95.524263 
2.1793749999999998 0.004447 96.427716 
2.1800000000000002 0.004386 93.824018 
2.1806250000000000 0.004151 92.728972 
2.1812499999999999 0.003905 91.791549 
2.1818749999999998 0.003668 95.928880 
2.1825000000000001 0.003400 92.330916 
2.1831250000000000 0.003122 96.036721 
2.1837499999999999 0.002841 95.581885 
2.1843750000000002 0.002542 100.511047 
2.1850000000000001 0.002234 104.191983 
2.1856249999999999 0.002145 106.388819 
2.1862499999999998 0.002112 111.752764 
2.1868750000000001 0.001947 115.629746 
2.1875000000000000 0.001968 119.394989 
2.1881249999999999 0.002005 124.273945 
2.1887500000000002 0.002129 122.564450 
2.1893750000000001 0.002092 122.663022 
2.1899999999999999 0.002332 124.101893 
2.1906249999999998 0.002278 122.267898 
2.1912500000000001 0.002373 122.613806 
2.1918750000000000 0.002390 117.714212 
2.1924999999999999 0.002436 118.235607 
2.1931250000000002 0.002355 112.390072 
2.1937500000000001 0.002311 106.432244 
2.1943750000000000 0.002273 105.941270 
2.1949999999999998 0.002144 102.909864 
2.1956250000000002 0.002146 99.149877 
2.1962500000000000 0.001951 95.497752 
2.1968749999999999 0.001836 91.497600 
2.1974999999999998 0.001729 87.796642 
2.1981250000000001 0.001618 86.729211 
2.1987500000000000 0.001472 84.005688 
2.1993749999999999 0.001340 81.396499 
2.2000000000000002 0.001243 80.287970 
2.2006250000000001 0.001187 80.540519 
2.2012499999999999 0.001063 80.236146 
2.2018749999999998 0.001029 82.112108 
2.2025000000000001 0.000955 84.709257 
2.2031250000000000 0.000912 88.418895 
2.2037499999999999 0.000904 90.100062 
2.2043750000000002 0.000914 93.130070 
2.2050000000000001 0.000972 94.751389 
2.2056249999999999 0.000997 93.683339 
2.2062499999999998 0.001028 94.605843 
2.2068750000000001 0.001130 93.449312 
2.2075000000000000 0.001140 90.580964 
2.2081249999999999 0.001220 89.020347 
2.2087500000000002 0.001209 84.309638 
2.2093750000000001 0.001224 81.109350 
2.2100000000000000 0.001243 77.514109 
2.2106249999999998 0.001187 70.874737 
2.2112500000000002 0.001221 67.116829 
2.2118750000000000 0.001177 61.589811 
2.2124999999999999 0.001091 58.846239 
2.2131249999999998 0.001132 54.310147 
2.2137500000000001 0.001030 47.546286 
2.2143750000000000 0.000969 43.474399 
2.2149999999999999 0.000866 40.427691 
2.2156250000000002 0.000794 38.042697 
2.2162500000000001 0.000726 31.650011 
2.2168749999999999 0.000632 28.180799 
2.2174999999999998 0.000557 28.968520 
2.2181250000000001 0.000475 28.233575 
2.2187500000000000 0.000402 31.715032 
2.2193749999999999 0.000319 37.448808 
2.2200000000000002 0.000300 51.407676 
2.2206250000000001 0.000282 64.338463 
2.2212499999999999 0.000310 76.620503 
2.2218749999999998 0.000343 84.115371 
2.2225000000000001 0.000415 89.275714 
2.2231250000000000 0.000480 88.889173 
2.2237499999999999 0.000510 87.621312 
2.2243750000000002 0.000574 84.981009 
2.2250000000000001 0.000622 82.294028 
2.2256250000000000 0.000664 79.216422 
2.2262499999999998 0.000670 75.734898 
2.2268750000000002 0.000669 70.900660 
2.2275000000000000 0.000679 67.497240 
2.2281249999999999 0.000676 65.152135 
2.2287499999999998 0.000638 60.707156 
2.2293750000000001 0.000632 57.301969 
2.2300000000000000 0.000574 55.336454 
2.2306249999999999 0.000535 54.626788 
2.2312500000000002 0.000494 54.097421 
2.2318750000000001 0.000451 56.614212 
2.2324999999999999 0.000434 60.586957 
2.2331249999999998 0.000389 68.750858 
2.2337500000000001 0.000413 79.455327 
2.2343750000000000 0.000434 87.308722 
2.2349999999999999 0.000497 93.509836 
2.2356250000000002 0.000577 98.468156 
2.2362500000000001 0.000667 97.373825 
2.2368749999999999 0.000756 99.882640 
2.2374999999999998 0.000822 96.327338 
2.2381250000000001 0.000941 93.834833 
2.2387500000000000 0.001084 92.774583 
2.2393749999999999 0.001166 86.552682 
2.2400000000000002 0.001217 82.595202 
2.2406250000000001 0.001283 81.052278 
2.2412500000000000 0.001395 77.494559 
2.2418749999999998 0.001454 71.752286 
2.2425000000000002 0.001466 68.617307 
2.2431250000000000 0.001533 64.494718 
2.2437499999999999 0.001504 60.688263 
2.2443749999999998 0.001546 58.261988 
2.2450000000000001 0.001555 54.593049 
2.2456250000000000 0.001514 52.898211 
2.2462499999999999 0.001516 52.239182 
2.2468750000000002 0.001508 51.943502 
2.2475000000000001 0.001507 53.092040 
2.2481249999999999 0.001467 54.451229 
2.2487499999999998 0.001575 54.941203 
2.2493750000000001 0.001579 56.223537 
2.2500000000000000 0.001715 57.885680 
2.2506249999999999 0.001851 58.844511 
2.2512500000000002 0.002041 61.097547 
2.2518750000000001 0.002296 63.182192 
2.2524999999999999 0.002523 62.560930 
2.2531249999999998 0.002740 60.840332 
2.2537500000000001 0.002997 60.492543 
2.2543750000000000 0.003365 58.437444 
2.2549999999999999 0.003826 54.769026 
2.2556250000000002 0.004039 51.709412 
2.2562500000000001 0.004372 50.745544 
2.2568750000000000 0.004737 48.879044 
2.2574999999999998 0.005093 44.899483 
2.2581250000000002 0.005458 41.378739 
2.2587500000000000 0.005866 36.872226 
2.2593749999999999 0.006206 36.435374 
2.2599999999999998 0.006578 33.567382 
2.2606250000000001 0.006999 29.618029 
2.2612500000000000 0.007508 27.310423 
2.2618749999999999 0.007737 26.211331 
2.2625000000000002 0.008281 26.171127 
2.2631250000000001 0.009011 26.819976 
2.2637499999999999 0.009747 26.606415 
2.2643749999999998 0.010667 30.539435 
2.2650000000000001 0.011535 35.195168 
2.2656250000000000 0.011917 40.189239 
2.2662499999999999 0.013749 48.157386 
2.2668750000000002 0.014880 57.766507 
2.2675000000000001 0.015923 67.240756 
2.2681249999999999 0.016416 76.700015 
2.2687499999999998 0.016292 89.483489 
2.2693750000000001 0.016506 97.776645 
2.2700000000000000 0.016222 105.759404 
2.2706249999999999 0.015352 109.091167 
2.2712500000000002 0.014480 113.177775 
2.2718750000000001 0.013743 116.545485 
2.2725000000000000 0.012944 119.689128 
2.2731249999999998 0.011985 120.471561 
2.2737500000000002 0.011414 120.053647 
2.2743750000000000 0.010757 119.723146 
2.2749999999999999 0.009785 117.778830 
2.2756249999999998 0.008961 115.647381 
2.2762500000000001 0.008372 112.775243 
2.2768750000000000 0.007832 110.787551 
2.2774999999999999 0.007251 108.169226 
2.2781250000000002 0.006479 106.522333 
2.2787500000000001 0.006110 102.618051 
2.2793749999999999 0.005574 99.473200 
2.2799999999999998 0.005297 100.127936 
2.2806250000000001 0.004580 96.585249 
2.2812500000000000 0.004292 95.217771 
2.2818749999999999 0.003969 93.260966 
2.2825000000000002 0.003715 90.819952 
2.2831250000000001 0.003473 91.353347 
2.2837499999999999 0.003216 92.190111 
2.2843749999999998 0.003171 92.777121 
2.2850000000000001 0.002969 94.199183 
2.2856250000000000 0.002996 93.700340 
2.2862499999999999 0.002818 94.238633 
2.2868750000000002 0.002904 93.332210 
2.2875000000000001 0.002953 92.345794 
2.2881250000000000 0.003003 91.467285 
2.2887499999999998 0.002960 88.590159 
2.2893750000000002 0.003044 86.047874 
2.2900000000000000 0.003007 83.547194 
2.2906249999999999 0.003052 79.605267 
2.2912499999999998 0.003082 74.413240 
2.2918750000000001 0.003142 72.195532 
2.2925000000000000 0.002955 70.339329 
2.2931249999999999 0.003042 63.067393 
2.2937500000000002 0.003043 60.279889 
2.2943750000000001 0.002884 54.960432 
2.2949999999999999 0.002800 54.266064 
2.2956249999999998 0.002738 46.626603 
2.2962500000000001 0.002583 46.363356 
2.2968750000000000 0.002539 41.563180 
2.2974999999999999 0.002350 37.237332 
2.2981250000000002 0.002240 34.348824 
2.2987500000000001 0.002245 31.590969 
2.2993749999999999 0.002058 31.293917 
2.2999999999999998 0.001969 29.756072 
2.3006250000000001 0.001835 26.593359 
2.3012500000000000 0.001817 27.755387 
2.3018749999999999 0.001755 29.198285 
