!
! C:\Users\rflab\Downloads\dp2_kdzw\270.S1P
!
! Touchstone 1.1 file saved by VNA.EXE V1.65 (www.ke5fx.com/gpib/readme.htm)
! 12/12/2024 7:07:49 PM
!
!    Source: HEWLETT PACKARD,8753D,0,6.14
!  Min freq: 2.000000E+009 Hz
!  Max freq: 2.500000E+009 Hz
!    Points: 801
!    Params: S21
!
!!!!!
# GHZ S MA R 50
2.0000000000000000 0.000753 -165.826216 
2.0006249999999999 0.000711 -163.924237 
2.0012500000000002 0.000692 -158.270523 
2.0018750000000001 0.000655 -162.029719 
2.0024999999999999 0.000646 -160.854985 
2.0031249999999998 0.000639 -161.172987 
2.0037500000000001 0.000609 -155.208421 
2.0043750000000000 0.000578 -157.750973 
2.0049999999999999 0.000597 -155.225856 
2.0056250000000002 0.000552 -149.880863 
2.0062500000000001 0.000592 -149.594277 
2.0068750000000000 0.000568 -150.599959 
2.0074999999999998 0.000559 -149.959816 
2.0081250000000002 0.000601 -143.414682 
2.0087500000000000 0.000556 -145.905452 
2.0093749999999999 0.000578 -147.367132 
2.0099999999999998 0.000586 -145.126050 
2.0106250000000001 0.000563 -146.048134 
2.0112500000000000 0.000563 -149.659245 
2.0118749999999999 0.000550 -149.932970 
2.0125000000000002 0.000544 -149.607801 
2.0131250000000001 0.000542 -150.827014 
2.0137499999999999 0.000538 -152.174927 
2.0143749999999998 0.000504 -154.818086 
2.0150000000000001 0.000504 -155.624859 
2.0156250000000000 0.000486 -155.856003 
2.0162499999999999 0.000472 -157.043490 
2.0168750000000002 0.000449 -159.319671 
2.0175000000000001 0.000435 -158.843109 
2.0181249999999999 0.000422 -157.980492 
2.0187499999999998 0.000410 -158.091464 
2.0193750000000001 0.000389 -155.425937 
2.0200000000000000 0.000386 -151.724377 
2.0206249999999999 0.000378 -151.826533 
2.0212500000000002 0.000387 -147.437459 
2.0218750000000001 0.000375 -146.618345 
2.0225000000000000 0.000366 -144.552744 
2.0231249999999998 0.000381 -142.937588 
2.0237500000000002 0.000396 -140.699528 
2.0243750000000000 0.000390 -139.102487 
2.0249999999999999 0.000400 -140.123411 
2.0256249999999998 0.000422 -139.645090 
2.0262500000000001 0.000412 -142.551665 
2.0268750000000000 0.000432 -143.373891 
2.0274999999999999 0.000447 -144.854351 
2.0281250000000002 0.000445 -145.923461 
2.0287500000000001 0.000425 -146.839273 
2.0293749999999999 0.000481 -148.123198 
2.0299999999999998 0.000470 -147.297968 
2.0306250000000001 0.000472 -151.568996 
2.0312500000000000 0.000425 -154.097674 
2.0318749999999999 0.000457 -152.339674 
2.0325000000000002 0.000424 -155.194315 
2.0331250000000001 0.000463 -154.795541 
2.0337499999999999 0.000415 -152.424929 
2.0343749999999998 0.000425 -150.032621 
2.0350000000000001 0.000421 -154.173306 
2.0356250000000000 0.000415 -148.545774 
2.0362499999999999 0.000423 -148.486797 
2.0368750000000002 0.000448 -148.029778 
2.0375000000000001 0.000458 -148.672145 
2.0381250000000000 0.000471 -146.016539 
2.0387499999999998 0.000504 -148.701276 
2.0393750000000002 0.000525 -145.860866 
2.0400000000000000 0.000536 -149.243793 
2.0406249999999999 0.000576 -148.373843 
2.0412499999999998 0.000584 -151.189723 
2.0418750000000001 0.000611 -154.661797 
2.0425000000000000 0.000647 -153.139669 
2.0431249999999999 0.000654 -154.684628 
2.0437500000000002 0.000689 -160.340840 
2.0443750000000001 0.000702 -162.147719 
2.0449999999999999 0.000743 -164.007257 
2.0456249999999998 0.000744 -166.960684 
2.0462500000000001 0.000763 -167.803905 
2.0468750000000000 0.000769 -170.683016 
2.0474999999999999 0.000754 -172.509636 
2.0481250000000002 0.000782 -175.099975 
2.0487500000000001 0.000726 -178.372088 
2.0493749999999999 0.000754 179.406823 
2.0499999999999998 0.000757 179.217030 
2.0506250000000001 0.000744 178.893662 
2.0512500000000000 0.000696 179.340134 
2.0518749999999999 0.000726 177.996134 
2.0525000000000002 0.000680 177.305242 
2.0531250000000001 0.000663 178.848471 
2.0537500000000000 0.000712 179.992804 
2.0543749999999998 0.000715 -179.295687 
2.0550000000000002 0.000736 -178.619339 
2.0556250000000000 0.000739 -176.585479 
2.0562499999999999 0.000777 -178.971950 
2.0568749999999998 0.000843 -175.951312 
2.0575000000000001 0.000856 -176.388089 
2.0581250000000000 0.000941 -177.327893 
2.0587499999999999 0.000971 -177.964002 
2.0593750000000002 0.001013 -178.746359 
2.0600000000000001 0.001122 -179.777736 
2.0606249999999999 0.001194 179.499426 
2.0612499999999998 0.001188 176.395513 
2.0618750000000001 0.001266 175.069276 
2.0625000000000000 0.001377 175.400757 
2.0631249999999999 0.001393 171.858109 
2.0637500000000002 0.001408 171.629735 
2.0643750000000001 0.001466 168.581305 
2.0649999999999999 0.001504 167.587967 
2.0656249999999998 0.001566 166.817418 
2.0662500000000001 0.001539 163.984522 
2.0668750000000000 0.001573 163.525410 
2.0674999999999999 0.001647 161.875779 
2.0681250000000002 0.001642 160.538391 
2.0687500000000001 0.001708 160.475682 
2.0693750000000000 0.001739 159.335662 
2.0699999999999998 0.001760 160.156439 
2.0706250000000002 0.001906 159.138207 
2.0712500000000000 0.001922 159.415672 
2.0718749999999999 0.002011 160.364219 
2.0724999999999998 0.002108 159.162570 
2.0731250000000001 0.002217 160.313840 
2.0737500000000000 0.002284 160.069009 
2.0743749999999999 0.002464 160.778639 
2.0750000000000002 0.002530 160.562815 
2.0756250000000001 0.002659 162.772833 
2.0762499999999999 0.002734 162.464032 
2.0768749999999998 0.002794 160.619626 
2.0775000000000001 0.002999 161.512463 
2.0781250000000000 0.002965 162.440558 
2.0787499999999999 0.003132 161.490582 
2.0793750000000002 0.003084 161.664508 
2.0800000000000001 0.003218 161.880490 
2.0806249999999999 0.003221 161.799735 
2.0812499999999998 0.003260 161.928183 
2.0818750000000001 0.003169 161.977399 
2.0825000000000000 0.003124 161.569198 
2.0831249999999999 0.003065 162.690375 
2.0837500000000002 0.003027 163.584100 
2.0843750000000001 0.003158 163.537731 
2.0850000000000000 0.003109 163.690672 
2.0856249999999998 0.003052 166.013146 
2.0862500000000002 0.002898 167.992633 
2.0868750000000000 0.002971 167.803783 
2.0874999999999999 0.002893 171.903959 
2.0881249999999998 0.002827 173.178519 
2.0887500000000001 0.002696 176.187100 
2.0893750000000000 0.002692 176.664378 
2.0899999999999999 0.002597 178.753440 
2.0906250000000002 0.002652 178.320625 
2.0912500000000001 0.002622 -179.590993 
2.0918749999999999 0.002588 -178.270931 
2.0924999999999998 0.002593 -179.597016 
2.0931250000000001 0.002564 -177.932151 
2.0937500000000000 0.002542 179.395383 
2.0943749999999999 0.002535 179.867994 
2.0950000000000002 0.002541 178.583427 
2.0956250000000001 0.002554 176.862007 
2.0962499999999999 0.002541 174.962032 
2.0968749999999998 0.002436 174.822324 
2.0975000000000001 0.002494 173.192574 
2.0981250000000000 0.002343 172.460633 
2.0987499999999999 0.002326 168.269684 
2.0993750000000002 0.002275 169.353047 
2.1000000000000001 0.002256 168.537483 
2.1006250000000000 0.002187 166.087982 
2.1012499999999998 0.002097 165.756830 
2.1018750000000002 0.001986 164.384385 
2.1025000000000000 0.001944 164.651527 
2.1031249999999999 0.001840 163.825171 
2.1037499999999998 0.001732 162.792578 
2.1043750000000001 0.001684 164.450380 
2.1050000000000000 0.001676 162.887236 
2.1056249999999999 0.001605 162.264245 
2.1062500000000002 0.001562 163.553566 
2.1068750000000001 0.001576 161.836365 
2.1074999999999999 0.001588 162.196098 
2.1081249999999998 0.001517 161.666166 
2.1087500000000001 0.001578 160.934033 
2.1093750000000000 0.001568 161.288261 
2.1099999999999999 0.001557 159.834181 
2.1106250000000002 0.001627 158.540408 
2.1112500000000001 0.001657 155.793301 
2.1118749999999999 0.001646 153.464652 
2.1124999999999998 0.001641 151.996175 
2.1131250000000001 0.001694 148.924241 
2.1137500000000000 0.001620 147.253745 
2.1143749999999999 0.001611 144.871833 
2.1150000000000002 0.001607 140.975806 
2.1156250000000001 0.001538 137.895957 
2.1162500000000000 0.001498 135.306360 
2.1168749999999998 0.001465 131.682707 
2.1175000000000002 0.001427 128.209100 
2.1181250000000000 0.001328 125.415746 
2.1187499999999999 0.001252 123.581104 
2.1193749999999998 0.001186 121.436667 
2.1200000000000001 0.001110 118.643368 
2.1206250000000000 0.001030 115.640886 
2.1212499999999999 0.000980 115.332255 
2.1218750000000002 0.000922 116.281739 
2.1225000000000001 0.000872 117.008419 
2.1231249999999999 0.000841 116.354474 
2.1237499999999998 0.000818 118.805306 
2.1243750000000001 0.000804 121.547957 
2.1250000000000000 0.000844 123.788836 
2.1256249999999999 0.000841 123.202309 
2.1262500000000002 0.000858 126.531463 
2.1268750000000001 0.000889 125.509991 
2.1274999999999999 0.000954 123.621553 
2.1281249999999998 0.000981 121.856714 
2.1287500000000001 0.000979 120.112768 
2.1293750000000000 0.001030 117.101591 
2.1299999999999999 0.001027 114.800238 
2.1306250000000002 0.001002 110.327159 
2.1312500000000001 0.001027 106.404185 
2.1318750000000000 0.000994 102.286663 
2.1324999999999998 0.000939 97.503828 
2.1331250000000002 0.000884 92.643614 
2.1337500000000000 0.000861 86.286666 
2.1343749999999999 0.000789 81.300220 
2.1349999999999998 0.000704 75.717968 
2.1356250000000001 0.000630 69.847928 
2.1362500000000000 0.000533 63.953542 
2.1368749999999999 0.000444 57.438466 
2.1375000000000002 0.000355 54.610056 
2.1381250000000001 0.000264 54.895677 
2.1387499999999999 0.000158 60.355202 
2.1393749999999998 0.000083 110.664300 
2.1400000000000001 0.000132 158.411780 
2.1406250000000000 0.000235 174.814760 
2.1412499999999999 0.000341 172.199949 
2.1418750000000002 0.000458 171.624515 
2.1425000000000001 0.000559 168.835714 
2.1431249999999999 0.000667 163.071853 
2.1437499999999998 0.000723 157.456444 
2.1443750000000001 0.000803 153.872677 
2.1450000000000000 0.000855 149.118418 
2.1456249999999999 0.000897 144.321213 
2.1462500000000002 0.000919 140.611024 
2.1468750000000001 0.000904 135.988036 
2.1475000000000000 0.000846 130.935732 
2.1481249999999998 0.000812 128.322670 
2.1487500000000002 0.000737 125.213806 
2.1493750000000000 0.000658 125.188903 
2.1499999999999999 0.000591 125.612878 
2.1506249999999998 0.000510 132.572828 
2.1512500000000001 0.000441 143.713036 
2.1518750000000000 0.000459 161.200419 
2.1524999999999999 0.000550 175.045052 
2.1531250000000002 0.000696 -178.723753 
2.1537500000000001 0.000870 -172.150373 
2.1543749999999999 0.001095 -173.274135 
2.1549999999999998 0.001272 -174.595054 
2.1556250000000001 0.001516 -178.677730 
2.1562500000000000 0.001846 178.542387 
2.1568749999999999 0.002067 174.566238 
2.1575000000000002 0.002382 168.019196 
2.1581250000000001 0.002631 165.044330 
2.1587499999999999 0.002901 160.573285 
2.1593749999999998 0.003053 155.549378 
2.1600000000000001 0.003307 151.466500 
2.1606250000000000 0.003558 146.596916 
2.1612499999999999 0.003667 142.470695 
2.1618750000000002 0.003783 137.996148 
2.1625000000000001 0.003888 133.417066 
2.1631250000000000 0.003974 130.693393 
2.1637499999999998 0.003895 128.330590 
2.1643750000000002 0.003833 124.861822 
2.1650000000000000 0.003726 123.093717 
2.1656249999999999 0.003703 121.550232 
2.1662499999999998 0.003641 122.793044 
2.1668750000000001 0.003534 124.864568 
2.1675000000000000 0.003515 128.964168 
2.1681249999999999 0.003642 134.099419 
2.1687500000000002 0.003756 139.535773 
2.1693750000000001 0.004156 145.407759 
2.1699999999999999 0.004640 150.889063 
2.1706249999999998 0.005321 154.049219 
2.1712500000000001 0.006057 157.086270 
2.1718750000000000 0.006926 158.731113 
2.1724999999999999 0.007848 159.092710 
2.1731250000000002 0.008633 160.347031 
2.1737500000000001 0.009552 158.395104 
2.1743749999999999 0.010249 158.089198 
2.1749999999999998 0.010827 155.681134 
2.1756250000000001 0.011352 154.573803 
2.1762500000000000 0.011965 152.547523 
2.1768749999999999 0.012140 150.969436 
2.1775000000000002 0.012331 149.052950 
2.1781250000000001 0.012454 146.427352 
2.1787500000000000 0.012020 144.871866 
2.1793749999999998 0.011990 144.026065 
2.1800000000000002 0.011776 141.659044 
2.1806250000000000 0.011070 140.614392 
2.1812499999999999 0.010323 139.922323 
2.1818749999999998 0.009649 139.286605 
2.1825000000000001 0.008971 140.158167 
2.1831250000000000 0.008003 140.056741 
2.1837499999999999 0.007190 143.491838 
2.1843750000000002 0.006398 144.642029 
2.1850000000000001 0.005871 148.095251 
2.1856249999999999 0.005429 152.297126 
2.1862499999999998 0.005088 156.445333 
2.1868750000000001 0.004979 160.665283 
2.1875000000000000 0.004922 164.003905 
2.1881249999999999 0.004963 167.109358 
2.1887500000000002 0.005171 168.240873 
2.1893750000000001 0.005272 167.971479 
2.1899999999999999 0.005343 167.615951 
2.1906249999999998 0.005332 165.023042 
2.1912500000000001 0.005553 163.268234 
2.1918750000000000 0.005539 161.274173 
2.1924999999999999 0.005559 156.940812 
2.1931250000000002 0.005429 155.091644 
2.1937500000000001 0.005327 150.479656 
2.1943750000000000 0.005222 146.414403 
2.1949999999999998 0.004937 144.343304 
2.1956250000000002 0.004756 139.566308 
2.1962500000000000 0.004477 136.462830 
2.1968749999999999 0.004196 132.669825 
2.1974999999999998 0.003941 129.994208 
2.1981250000000001 0.003611 127.268194 
2.1987500000000000 0.003313 123.679784 
2.1993749999999999 0.003038 122.649457 
2.2000000000000002 0.002727 121.123967 
2.2006250000000001 0.002532 121.015096 
2.2012499999999999 0.002297 122.021142 
2.2018749999999998 0.002158 123.415243 
2.2025000000000001 0.001990 126.463606 
2.2031250000000000 0.001950 128.763767 
2.2037499999999999 0.001922 131.591015 
2.2043750000000002 0.001918 134.974818 
2.2050000000000001 0.001993 135.702808 
2.2056249999999999 0.002056 135.029382 
2.2062499999999998 0.002101 134.596557 
2.2068750000000001 0.002235 133.527270 
2.2075000000000000 0.002344 130.745259 
2.2081249999999999 0.002361 128.014261 
2.2087500000000002 0.002390 123.181280 
2.2093750000000001 0.002343 119.743064 
2.2100000000000000 0.002437 116.164004 
2.2106249999999998 0.002394 111.865513 
2.2112500000000002 0.002376 109.099447 
2.2118750000000000 0.002318 102.687354 
2.2124999999999999 0.002192 97.189178 
2.2131249999999998 0.002096 92.888278 
2.2137500000000001 0.002011 88.458082 
2.2143750000000000 0.001868 84.407118 
2.2149999999999999 0.001659 80.481514 
2.2156250000000002 0.001537 75.444751 
2.2162500000000001 0.001391 72.247571 
2.2168749999999999 0.001212 70.554178 
2.2174999999999998 0.001051 69.105932 
2.2181250000000001 0.000909 68.849306 
2.2187500000000000 0.000737 72.405958 
2.2193749999999999 0.000626 77.411767 
2.2200000000000002 0.000559 89.196985 
2.2206250000000001 0.000521 101.604937 
2.2212499999999999 0.000570 116.203147 
2.2218749999999998 0.000652 122.802906 
2.2225000000000001 0.000740 126.405570 
2.2231250000000000 0.000856 127.411877 
2.2237499999999999 0.000961 127.357937 
2.2243750000000002 0.001059 124.082813 
2.2250000000000001 0.001127 123.401424 
2.2256250000000000 0.001177 119.235867 
2.2262499999999998 0.001225 115.213436 
2.2268750000000002 0.001243 111.442612 
2.2275000000000000 0.001263 106.928639 
2.2281249999999999 0.001243 103.288808 
2.2287499999999998 0.001182 100.810113 
2.2293750000000001 0.001121 97.691237 
2.2300000000000000 0.001051 95.074143 
2.2306249999999999 0.000977 93.629408 
2.2312500000000002 0.000895 93.829946 
2.2318750000000001 0.000816 95.914759 
2.2324999999999999 0.000748 100.442791 
2.2331249999999998 0.000704 109.952841 
2.2337500000000001 0.000718 117.669256 
2.2343750000000000 0.000758 127.701532 
2.2349999999999999 0.000868 134.908205 
2.2356250000000002 0.001023 138.377548 
2.2362500000000001 0.001191 138.440512 
2.2368749999999999 0.001347 139.652855 
2.2374999999999998 0.001577 135.744301 
2.2381250000000001 0.001735 134.810709 
2.2387500000000000 0.001865 130.965113 
2.2393749999999999 0.002106 128.253591 
2.2400000000000002 0.002260 123.739514 
2.2406250000000001 0.002358 120.936927 
2.2412500000000000 0.002541 116.146674 
2.2418749999999998 0.002670 112.793449 
2.2425000000000002 0.002717 108.652752 
2.2431250000000000 0.002765 104.803161 
2.2437499999999999 0.002783 101.034595 
2.2443749999999998 0.002830 97.786692 
2.2450000000000001 0.002819 95.410244 
2.2456250000000000 0.002811 92.143761 
2.2462499999999999 0.002808 92.224103 
2.2468750000000002 0.002806 91.275626 
2.2475000000000001 0.002820 91.211147 
2.2481249999999999 0.002857 93.224119 
2.2487499999999998 0.002941 94.668749 
2.2493750000000001 0.003037 96.107197 
2.2500000000000000 0.003291 97.995096 
2.2506249999999999 0.003541 99.481980 
2.2512500000000002 0.003924 100.550804 
2.2518750000000001 0.004354 100.739535 
2.2524999999999999 0.004897 101.420442 
2.2531249999999998 0.005446 100.585750 
2.2537500000000001 0.006076 100.157238 
2.2543750000000000 0.006605 97.884400 
2.2549999999999999 0.007399 96.423373 
2.2556250000000002 0.008136 93.094148 
2.2562500000000001 0.008764 90.383442 
2.2568750000000000 0.009503 87.394438 
2.2574999999999998 0.010328 85.193303 
2.2581250000000002 0.011178 81.729915 
2.2587500000000000 0.012084 78.135792 
2.2593749999999999 0.012839 75.724788 
2.2599999999999998 0.013482 73.187788 
2.2606250000000001 0.014599 71.624229 
2.2612500000000000 0.015304 69.807940 
2.2618749999999999 0.016346 68.122236 
2.2625000000000002 0.017586 68.096447 
2.2631250000000001 0.018582 69.941260 
2.2637499999999999 0.020128 70.650778 
2.2643749999999998 0.021948 74.167113 
2.2650000000000001 0.023442 79.472705 
2.2656250000000000 0.025242 85.314746 
2.2662499999999999 0.026993 95.020507 
2.2668750000000002 0.028088 104.397193 
2.2675000000000001 0.028729 112.405381 
2.2681249999999999 0.028906 123.284274 
2.2687499999999998 0.028258 131.837166 
2.2693750000000001 0.028712 137.956489 
2.2700000000000000 0.027261 143.062750 
2.2706249999999999 0.026226 146.524901 
2.2712500000000002 0.025446 149.196065 
2.2718750000000001 0.024324 149.970915 
2.2725000000000000 0.023740 151.787788 
2.2731249999999998 0.022696 150.717396 
2.2737500000000002 0.021778 150.931986 
2.2743750000000000 0.020494 149.061866 
2.2749999999999999 0.019656 147.953958 
2.2756249999999998 0.018336 144.620300 
2.2762500000000001 0.017443 143.878179 
2.2768750000000000 0.016080 140.747425 
2.2774999999999999 0.014790 138.050135 
2.2781250000000002 0.013898 136.045374 
2.2787500000000001 0.012944 132.968283 
2.2793749999999999 0.011830 130.609309 
2.2799999999999998 0.010969 128.497597 
2.2806250000000001 0.010029 125.871146 
2.2812500000000000 0.009354 124.447524 
2.2818749999999999 0.008603 122.867839 
2.2825000000000002 0.008087 121.285593 
2.2831250000000001 0.007591 121.350146 
2.2837499999999999 0.007222 121.239482 
2.2843749999999998 0.006861 121.160770 
2.2850000000000001 0.006764 121.338148 
2.2856250000000000 0.006685 121.996939 
2.2862499999999999 0.006638 122.715196 
2.2868750000000002 0.006703 121.806434 
2.2875000000000001 0.006807 121.055306 
2.2881250000000000 0.006843 119.433651 
2.2887499999999998 0.006975 117.281494 
2.2893750000000002 0.007088 114.996289 
2.2900000000000000 0.007100 111.985775 
2.2906249999999999 0.007154 108.782156 
2.2912499999999998 0.007229 105.530079 
2.2918750000000001 0.007153 102.623886 
2.2925000000000000 0.007069 98.120264 
2.2931249999999999 0.007080 94.295118 
2.2937500000000002 0.006929 89.625416 
2.2943750000000001 0.006736 85.682487 
2.2949999999999999 0.006674 81.596057 
2.2956249999999998 0.006355 77.824176 
2.2962500000000001 0.006157 73.860484 
2.2968750000000000 0.005979 70.851956 
2.2974999999999999 0.005790 68.177992 
2.2981250000000002 0.005483 64.077866 
2.2987500000000001 0.005239 62.802902 
