!
! C:\Users\rflab\Downloads\dp2_kdzw\280.S1P
!
! Touchstone 1.1 file saved by VNA.EXE V1.65 (www.ke5fx.com/gpib/readme.htm)
! 12/12/2024 7:09:59 PM
!
!    Source: HEWLETT PACKARD,8753D,0,6.14
!  Min freq: 2.000000E+009 Hz
!  Max freq: 2.500000E+009 Hz
!    Points: 801
!    Params: S21
!
!!!!!
# GHZ S MA R 50
2.0000000000000000 0.001250 -144.444844 
2.0006249999999999 0.001188 -144.486041 
2.0012500000000002 0.001122 -143.368078 
2.0018750000000001 0.001119 -142.700332 
2.0024999999999999 0.001098 -141.922806 
2.0031249999999998 0.001097 -140.905086 
2.0037500000000001 0.001031 -139.047151 
2.0043750000000000 0.001011 -136.464883 
2.0049999999999999 0.001038 -134.252286 
2.0056250000000002 0.000965 -133.236031 
2.0062500000000001 0.001002 -132.962628 
2.0068750000000000 0.000983 -131.528801 
2.0074999999999998 0.000983 -132.107544 
2.0081250000000002 0.001008 -130.469426 
2.0087500000000000 0.000964 -130.391810 
2.0093749999999999 0.000976 -129.135968 
2.0099999999999998 0.000980 -129.860449 
2.0106250000000001 0.000994 -131.791331 
2.0112500000000000 0.000954 -132.924791 
2.0118749999999999 0.000942 -133.175356 
2.0125000000000002 0.000934 -135.149936 
2.0131250000000001 0.000928 -139.560840 
2.0137499999999999 0.000924 -141.862900 
2.0143749999999998 0.000863 -139.427023 
2.0150000000000001 0.000857 -142.928514 
2.0156250000000000 0.000850 -144.038207 
2.0162499999999999 0.000784 -144.385313 
2.0168750000000002 0.000765 -143.717942 
2.0175000000000001 0.000738 -145.151645 
2.0181249999999999 0.000727 -141.988492 
2.0187499999999998 0.000685 -143.313569 
2.0193750000000001 0.000657 -143.081741 
2.0200000000000000 0.000661 -142.249240 
2.0206249999999999 0.000641 -139.220466 
2.0212500000000002 0.000613 -134.501925 
2.0218750000000001 0.000637 -133.805409 
2.0225000000000000 0.000627 -131.965964 
2.0231249999999998 0.000620 -129.933875 
2.0237500000000002 0.000664 -131.648055 
2.0243750000000000 0.000669 -129.170139 
2.0249999999999999 0.000676 -129.687232 
2.0256249999999998 0.000675 -129.157675 
2.0262500000000001 0.000694 -129.839616 
2.0268750000000000 0.000733 -130.116464 
2.0274999999999999 0.000713 -132.508088 
2.0281250000000002 0.000717 -135.183523 
2.0287500000000001 0.000745 -136.354822 
2.0293749999999999 0.000759 -137.299897 
2.0299999999999998 0.000727 -139.632416 
2.0306250000000001 0.000783 -141.411716 
2.0312500000000000 0.000746 -142.947946 
2.0318749999999999 0.000743 -140.794484 
2.0325000000000002 0.000730 -144.755663 
2.0331250000000001 0.000701 -143.653502 
2.0337499999999999 0.000703 -142.107336 
2.0343749999999998 0.000712 -144.139659 
2.0350000000000001 0.000691 -141.689922 
2.0356250000000000 0.000692 -141.384905 
2.0362499999999999 0.000726 -141.052817 
2.0368750000000002 0.000705 -137.837428 
2.0375000000000001 0.000750 -137.063213 
2.0381250000000000 0.000762 -135.393083 
2.0387499999999998 0.000793 -134.926912 
2.0393750000000002 0.000809 -135.949370 
2.0400000000000000 0.000869 -137.016860 
2.0406249999999999 0.000901 -138.052241 
2.0412499999999998 0.000959 -139.545420 
2.0418750000000001 0.000985 -141.308784 
2.0425000000000000 0.001013 -142.930572 
2.0431249999999999 0.001060 -145.109369 
2.0437500000000002 0.001062 -146.777382 
2.0443750000000001 0.001097 -150.539312 
2.0449999999999999 0.001134 -152.777851 
2.0456249999999998 0.001163 -156.438896 
2.0462500000000001 0.001176 -158.322022 
2.0468750000000000 0.001168 -160.070603 
2.0474999999999999 0.001190 -161.260211 
2.0481250000000002 0.001173 -163.511563 
2.0487500000000001 0.001155 -165.719162 
2.0493749999999999 0.001139 -167.799446 
2.0499999999999998 0.001156 -169.632258 
2.0506250000000001 0.001126 -169.108060 
2.0512500000000000 0.001090 -169.492196 
2.0518749999999999 0.001087 -170.897312 
2.0525000000000002 0.001063 -170.547717 
2.0531250000000001 0.001065 -168.839095 
2.0537500000000000 0.001085 -168.583869 
2.0543749999999998 0.001092 -166.416471 
2.0550000000000002 0.001121 -166.318449 
2.0556250000000000 0.001165 -164.904518 
2.0562499999999999 0.001208 -165.551778 
2.0568749999999998 0.001309 -164.200844 
2.0575000000000001 0.001339 -165.960662 
2.0581250000000000 0.001436 -165.140733 
2.0587499999999999 0.001478 -165.613039 
2.0593750000000002 0.001578 -166.796906 
2.0600000000000001 0.001640 -165.529384 
2.0606249999999999 0.001711 -169.108142 
2.0612499999999998 0.001808 -169.667112 
2.0618750000000001 0.001922 -172.130666 
2.0625000000000000 0.001980 -173.385497 
2.0631249999999999 0.002055 -174.937389 
2.0637500000000002 0.002107 -178.485655 
2.0643750000000001 0.002165 -179.728742 
2.0649999999999999 0.002244 -179.275546 
2.0656249999999998 0.002324 179.306369 
2.0662500000000001 0.002332 177.295151 
2.0668750000000000 0.002363 177.160819 
2.0674999999999999 0.002407 174.976672 
2.0681250000000002 0.002477 174.533017 
2.0687500000000001 0.002472 173.146795 
2.0693750000000000 0.002538 174.576258 
2.0699999999999998 0.002685 173.666552 
2.0706250000000002 0.002775 173.955043 
2.0712500000000000 0.002866 172.819704 
2.0718749999999999 0.002961 173.369941 
2.0724999999999998 0.003092 172.981310 
2.0731250000000001 0.003262 173.811717 
2.0737500000000000 0.003395 173.255496 
2.0743749999999999 0.003562 173.941216 
2.0750000000000002 0.003670 173.644399 
2.0756250000000001 0.003870 174.252533 
2.0762499999999999 0.003972 174.488909 
2.0768749999999998 0.004141 174.068521 
2.0775000000000001 0.004231 174.453589 
2.0781250000000000 0.004317 175.489664 
2.0787499999999999 0.004405 175.810107 
2.0793750000000002 0.004533 175.696052 
2.0800000000000001 0.004466 176.097005 
2.0806249999999999 0.004616 176.028656 
2.0812499999999998 0.004525 175.475552 
2.0818750000000001 0.004507 176.056901 
2.0825000000000000 0.004567 176.006247 
2.0831249999999999 0.004496 176.573948 
2.0837500000000002 0.004368 176.583040 
2.0843750000000001 0.004386 177.027485 
2.0850000000000000 0.004309 177.681765 
2.0856249999999998 0.004218 -178.960434 
2.0862500000000002 0.004160 -178.643654 
2.0868750000000000 0.004135 -177.091903 
2.0874999999999999 0.003967 -175.502001 
2.0881249999999998 0.003901 -173.543021 
2.0887500000000001 0.003713 -170.681610 
2.0893750000000000 0.003632 -169.168733 
2.0899999999999999 0.003671 -169.026137 
2.0906250000000002 0.003585 -167.377790 
2.0912500000000001 0.003586 -166.289427 
2.0918749999999999 0.003581 -165.919809 
2.0924999999999998 0.003517 -166.252455 
2.0931250000000001 0.003465 -166.096196 
2.0937500000000000 0.003542 -165.756554 
2.0943749999999999 0.003503 -166.535513 
2.0950000000000002 0.003483 -167.345059 
2.0956250000000001 0.003404 -169.596277 
2.0962499999999999 0.003444 -170.436279 
2.0968749999999998 0.003359 -171.969690 
2.0975000000000001 0.003366 -172.450140 
2.0981250000000000 0.003241 -174.182684 
2.0987499999999999 0.003189 -175.714157 
2.0993750000000002 0.003098 -177.562836 
2.1000000000000001 0.002982 -177.798282 
2.1006250000000000 0.002854 179.968887 
2.1012499999999998 0.002752 -179.652471 
2.1018750000000002 0.002632 178.865922 
2.1025000000000000 0.002530 178.002180 
2.1031249999999999 0.002433 177.649358 
2.1037499999999998 0.002352 176.544856 
2.1043750000000001 0.002272 177.645218 
2.1050000000000000 0.002199 176.907876 
2.1056249999999999 0.002065 177.323099 
2.1062500000000002 0.002084 175.972059 
2.1068750000000001 0.002036 177.429888 
2.1074999999999999 0.002021 176.585134 
2.1081249999999998 0.002013 175.566942 
2.1087500000000001 0.002038 174.279058 
2.1093750000000000 0.002025 174.686788 
2.1099999999999999 0.002080 173.138970 
2.1106250000000002 0.002101 170.810226 
2.1112500000000001 0.002113 170.332506 
2.1118749999999999 0.002167 167.669490 
2.1124999999999998 0.002161 165.048212 
2.1131250000000001 0.002149 163.106864 
2.1137500000000000 0.002143 160.515765 
2.1143749999999999 0.002104 156.688661 
2.1150000000000002 0.002054 154.432995 
2.1156250000000001 0.002041 151.123823 
2.1162500000000000 0.001996 147.215234 
2.1168749999999998 0.001855 144.018910 
2.1175000000000002 0.001807 141.408665 
2.1181250000000000 0.001729 138.870924 
2.1187499999999999 0.001651 136.020888 
2.1193749999999998 0.001556 132.147057 
2.1200000000000001 0.001394 132.050228 
2.1206250000000000 0.001347 128.064407 
2.1212499999999999 0.001285 128.365217 
2.1218750000000002 0.001177 127.315600 
2.1225000000000001 0.001127 129.284714 
2.1231249999999999 0.001085 131.160464 
2.1237499999999998 0.001017 131.258562 
2.1243750000000001 0.001009 134.152404 
2.1250000000000000 0.001077 135.136712 
2.1256249999999999 0.001078 136.687649 
2.1262500000000002 0.001085 138.660072 
2.1268750000000001 0.001131 138.793627 
2.1274999999999999 0.001176 137.674735 
2.1281249999999998 0.001258 134.984642 
2.1287500000000001 0.001218 132.512171 
2.1293750000000000 0.001261 130.769972 
2.1299999999999999 0.001299 126.547009 
2.1306250000000002 0.001236 124.565470 
2.1312500000000001 0.001266 119.857282 
2.1318750000000000 0.001242 114.301476 
2.1324999999999998 0.001184 109.219517 
2.1331250000000002 0.001108 104.121450 
2.1337500000000000 0.001041 100.099538 
2.1343749999999999 0.000977 93.042179 
2.1349999999999998 0.000867 87.770769 
2.1356250000000001 0.000782 81.839643 
2.1362500000000000 0.000664 75.010245 
2.1368749999999999 0.000548 70.297102 
2.1375000000000002 0.000424 66.950437 
2.1381250000000001 0.000316 65.020651 
2.1387499999999999 0.000185 70.389370 
2.1393749999999998 0.000090 129.869530 
2.1400000000000001 0.000163 175.981672 
2.1406250000000000 0.000296 -170.639745 
2.1412499999999999 0.000431 -172.452663 
2.1418750000000002 0.000578 -175.827508 
2.1425000000000001 0.000698 -177.774569 
2.1431249999999999 0.000821 177.119519 
2.1437499999999998 0.000926 171.941899 
2.1443750000000001 0.000999 167.212709 
2.1450000000000000 0.001064 162.598479 
2.1456249999999999 0.001098 159.028823 
2.1462500000000002 0.001141 153.915318 
2.1468750000000001 0.001121 149.107331 
2.1475000000000000 0.001057 144.499891 
2.1481249999999998 0.001021 142.758775 
2.1487500000000002 0.000934 139.292053 
2.1493750000000000 0.000833 139.432938 
2.1499999999999999 0.000732 139.604554 
2.1506249999999998 0.000635 146.207073 
2.1512500000000001 0.000566 157.848872 
2.1518750000000000 0.000579 173.576816 
2.1524999999999999 0.000695 -173.395421 
2.1531250000000002 0.000857 -165.592962 
2.1537500000000001 0.001084 -160.616750 
2.1543749999999999 0.001320 -160.770521 
2.1549999999999998 0.001588 -161.944549 
2.1556250000000001 0.001916 -165.477941 
2.1562500000000000 0.002228 -169.507293 
2.1568749999999999 0.002570 -173.530370 
2.1575000000000002 0.002915 -178.364427 
2.1581250000000001 0.003194 177.831345 
2.1587499999999999 0.003484 173.252825 
2.1593749999999998 0.003798 168.667495 
2.1600000000000001 0.004075 164.160967 
2.1606250000000000 0.004268 159.611051 
2.1612499999999999 0.004460 155.733988 
2.1618750000000002 0.004573 151.558826 
2.1625000000000001 0.004684 147.796763 
2.1631250000000000 0.004819 145.021914 
2.1637499999999998 0.004758 141.385250 
2.1643750000000002 0.004716 138.367176 
2.1650000000000000 0.004672 136.911805 
2.1656249999999999 0.004487 135.955811 
2.1662499999999998 0.004410 136.035973 
2.1668750000000001 0.004341 138.544969 
2.1675000000000000 0.004365 142.143264 
2.1681249999999999 0.004382 148.115554 
2.1687500000000002 0.004630 153.589347 
2.1693750000000001 0.005031 159.871431 
2.1699999999999999 0.005681 165.322776 
2.1706249999999998 0.006456 167.813614 
2.1712500000000001 0.007417 170.870733 
2.1718750000000000 0.008575 173.444834 
2.1724999999999999 0.009374 174.216325 
2.1731250000000002 0.010552 172.981598 
2.1737500000000001 0.011599 172.588092 
2.1743749999999999 0.012482 171.900852 
2.1749999999999998 0.013407 170.916245 
2.1756250000000001 0.014025 168.419959 
2.1762500000000000 0.014482 167.313630 
2.1768749999999999 0.015130 165.050551 
2.1775000000000002 0.015397 163.306534 
2.1781250000000001 0.015348 161.715352 
2.1787500000000000 0.015176 159.952607 
2.1793749999999998 0.014912 157.740646 
2.1800000000000002 0.014402 156.347816 
2.1806250000000000 0.013809 155.410156 
2.1812499999999999 0.012808 154.457613 
2.1818749999999998 0.011898 154.528655 
2.1825000000000001 0.010864 154.749756 
2.1831250000000000 0.009829 154.888236 
2.1837499999999999 0.008933 157.009837 
2.1843750000000002 0.008079 159.823907 
2.1850000000000001 0.007318 162.360226 
2.1856249999999999 0.006884 166.784817 
2.1862499999999998 0.006490 171.440920 
2.1868750000000001 0.006268 175.477776 
2.1875000000000000 0.006193 178.603572 
2.1881249999999999 0.006327 -178.859936 
2.1887500000000002 0.006489 -177.333967 
2.1893750000000001 0.006611 -177.833933 
2.1899999999999999 0.006820 -178.225104 
2.1906249999999998 0.006967 -179.252987 
2.1912500000000001 0.007038 177.839103 
2.1918750000000000 0.007137 174.717186 
2.1924999999999999 0.007069 171.910894 
2.1931250000000002 0.007071 170.239778 
2.1937500000000001 0.006881 165.148119 
2.1943750000000000 0.006704 161.705531 
2.1949999999999998 0.006366 157.684527 
2.1956250000000002 0.006183 154.537604 
2.1962500000000000 0.005856 151.786452 
2.1968749999999999 0.005439 147.227349 
2.1974999999999998 0.005035 144.550956 
2.1981250000000001 0.004727 141.442190 
2.1987500000000000 0.004314 138.225784 
2.1993749999999999 0.003925 136.609869 
2.2000000000000002 0.003625 136.188387 
2.2006250000000001 0.003327 135.582187 
2.2012499999999999 0.003013 136.553430 
2.2018749999999998 0.002761 137.950997 
2.2025000000000001 0.002600 140.300404 
2.2031250000000000 0.002535 143.914587 
2.2037499999999999 0.002522 145.820944 
2.2043750000000002 0.002564 147.037778 
2.2050000000000001 0.002664 149.911328 
2.2056249999999999 0.002772 149.065399 
2.2062499999999998 0.002808 148.452720 
2.2068750000000001 0.002988 146.604064 
2.2075000000000000 0.003072 143.497879 
2.2081249999999999 0.003153 141.044194 
2.2087500000000002 0.003178 139.233639 
2.2093750000000001 0.003204 134.674432 
2.2100000000000000 0.003210 130.496036 
2.2106249999999998 0.003219 125.717246 
2.2112500000000002 0.003152 121.180772 
2.2118750000000000 0.003073 116.474590 
2.2124999999999999 0.002975 112.542335 
2.2131249999999998 0.002774 106.555603 
2.2137500000000001 0.002649 102.151840 
2.2143750000000000 0.002415 97.640611 
2.2149999999999999 0.002265 93.666631 
2.2156250000000002 0.002061 88.786684 
2.2162500000000001 0.001850 86.090508 
2.2168749999999999 0.001615 83.643927 
2.2174999999999998 0.001406 82.944285 
2.2181250000000001 0.001189 82.219577 
2.2187500000000000 0.001006 87.462656 
2.2193749999999999 0.000842 92.263141 
2.2200000000000002 0.000755 104.092745 
2.2206250000000001 0.000713 116.883111 
2.2212499999999999 0.000775 129.991847 
2.2218749999999998 0.000892 136.195098 
2.2225000000000001 0.001016 140.041165 
2.2231250000000000 0.001161 141.261412 
2.2237499999999999 0.001304 141.064860 
2.2243750000000002 0.001427 139.177019 
2.2250000000000001 0.001507 135.527077 
2.2256250000000000 0.001613 131.933719 
2.2262499999999998 0.001653 128.689819 
2.2268750000000002 0.001686 123.978884 
2.2275000000000000 0.001708 120.591350 
2.2281249999999999 0.001688 116.831094 
2.2287499999999998 0.001577 113.537764 
2.2293750000000001 0.001544 110.892655 
2.2300000000000000 0.001436 108.022710 
2.2306249999999999 0.001338 107.358896 
2.2312500000000002 0.001230 106.994358 
2.2318750000000001 0.001102 110.137961 
2.2324999999999999 0.001030 114.031834 
2.2331249999999998 0.000978 122.629944 
2.2337500000000001 0.000981 131.732950 
2.2343750000000000 0.001047 140.807891 
2.2349999999999999 0.001201 147.902661 
2.2356250000000002 0.001382 151.955562 
2.2362500000000001 0.001585 152.161190 
2.2368749999999999 0.001814 152.448054 
2.2374999999999998 0.002076 150.405686 
2.2381250000000001 0.002310 149.513908 
2.2387500000000000 0.002573 144.743114 
2.2393749999999999 0.002800 141.187785 
2.2400000000000002 0.002997 137.179311 
2.2406250000000001 0.003231 134.402128 
2.2412500000000000 0.003338 130.143591 
2.2418749999999998 0.003513 126.603159 
2.2425000000000002 0.003644 122.908208 
2.2431250000000000 0.003772 118.319154 
2.2437499999999999 0.003750 115.044847 
2.2443749999999998 0.003762 111.684775 
2.2450000000000001 0.003765 109.312826 
2.2456250000000000 0.003804 107.452573 
2.2462499999999999 0.003739 106.161699 
2.2468750000000002 0.003727 105.681063 
2.2475000000000001 0.003761 105.850121 
2.2481249999999999 0.003804 108.170384 
2.2487499999999998 0.003960 109.852241 
2.2493750000000001 0.004064 111.702802 
2.2500000000000000 0.004368 112.908283 
2.2506249999999999 0.004661 115.176942 
2.2512500000000002 0.005152 115.663764 
2.2518750000000001 0.005730 116.475495 
2.2524999999999999 0.006247 117.181108 
2.2531249999999998 0.007166 116.162646 
2.2537500000000001 0.007939 115.613955 
2.2543750000000000 0.008802 114.218404 
2.2549999999999999 0.009714 111.492239 
2.2556250000000002 0.010735 109.895034 
2.2562500000000001 0.011681 106.979273 
2.2568750000000000 0.012629 103.972759 
2.2574999999999998 0.013820 101.333966 
2.2581250000000002 0.014667 98.399601 
2.2587500000000000 0.015651 95.482701 
2.2593749999999999 0.016611 93.014517 
2.2599999999999998 0.017743 90.298718 
2.2606250000000001 0.018750 88.968335 
2.2612500000000000 0.019734 86.755822 
2.2618749999999999 0.021085 86.592750 
2.2625000000000002 0.022677 85.450866 
2.2631250000000001 0.023920 88.053329 
2.2637499999999999 0.025396 89.158702 
2.2643749999999998 0.027841 92.823398 
2.2650000000000001 0.029893 97.899518 
2.2656250000000000 0.030978 104.232177 
2.2662499999999999 0.033555 113.280282 
2.2668750000000002 0.035117 122.645665 
2.2675000000000001 0.035739 130.278911 
2.2681249999999999 0.035587 139.706477 
2.2687499999999998 0.034783 149.203286 
2.2693750000000001 0.035765 153.458183 
2.2700000000000000 0.033808 158.893094 
2.2706249999999999 0.032954 162.216288 
2.2712500000000002 0.031903 164.666773 
2.2718750000000001 0.030841 165.538347 
2.2725000000000000 0.029450 167.396726 
2.2731249999999998 0.028626 167.133715 
2.2737500000000002 0.027331 166.257615 
2.2743750000000000 0.026137 166.491098 
2.2749999999999999 0.024586 163.323751 
2.2756249999999998 0.023253 162.331960 
2.2762500000000001 0.021873 160.029912 
2.2768750000000000 0.020615 156.847350 
2.2774999999999999 0.018946 155.473228 
2.2781250000000002 0.017656 152.878573 
2.2787500000000001 0.016318 150.437027 
2.2793749999999999 0.015094 148.120471 
2.2799999999999998 0.013828 144.980959 
2.2806250000000001 0.012812 143.650445 
2.2812500000000000 0.011700 141.428446 
2.2818749999999999 0.010962 140.446850 
2.2825000000000002 0.010207 139.280681 
2.2831250000000001 0.009509 139.290726 
2.2837499999999999 0.009156 139.024738 
2.2843749999999998 0.008820 139.718717 
2.2850000000000001 0.008517 139.903422 
2.2856250000000000 0.008505 140.042052 
2.2862499999999999 0.008404 139.862907 
2.2868750000000002 0.008314 140.657877 
2.2875000000000001 0.008616 139.529575 
2.2881250000000000 0.008734 138.285538 
2.2887499999999998 0.008844 136.269247 
2.2893750000000002 0.008869 133.810640 
2.2900000000000000 0.009117 130.457638 
2.2906249999999999 0.009004 128.259136 
2.2912499999999998 0.009013 124.356381 
2.2918750000000001 0.008983 121.001573 
2.2925000000000000 0.009007 116.955756 
2.2931249999999999 0.008796 112.698954 
2.2937500000000002 0.008736 109.030294 
2.2943750000000001 0.008541 104.728256 
2.2949999999999999 0.008205 100.558905 
2.2956249999999998 0.008060 96.689441 
2.2962500000000001 0.007789 93.761110 
2.2968750000000000 0.007417 90.425456 
2.2974999999999999 0.007169 87.201638 
