!
! C:\Users\rflab\Downloads\dp2_kdzw\320.S1P
!
! Touchstone 1.1 file saved by VNA.EXE V1.65 (www.ke5fx.com/gpib/readme.htm)
! 12/12/2024 7:10:50 PM
!
!    Source: HEWLETT PACKARD,8753D,0,6.14
!  Min freq: 2.000000E+009 Hz
!  Max freq: 2.500000E+009 Hz
!    Points: 801
!    Params: S21
!
!!!!!
# GHZ S MA R 50
2.0000000000000000 0.002175 -129.254266 
2.0006249999999999 0.002111 -129.253462 
2.0012500000000002 0.001992 -129.288448 
2.0018750000000001 0.001933 -130.123243 
2.0024999999999999 0.001896 -128.105632 
2.0031249999999998 0.001826 -126.737110 
2.0037500000000001 0.001802 -126.138131 
2.0043750000000000 0.001744 -124.690824 
2.0049999999999999 0.001738 -123.193050 
2.0056250000000002 0.001711 -122.225886 
2.0062500000000001 0.001718 -121.088539 
2.0068750000000000 0.001750 -118.890648 
2.0074999999999998 0.001726 -118.826829 
2.0081250000000002 0.001703 -120.322568 
2.0087500000000000 0.001686 -120.141666 
2.0093749999999999 0.001745 -120.847982 
2.0099999999999998 0.001686 -120.160372 
2.0106250000000001 0.001721 -122.689196 
2.0112500000000000 0.001701 -123.271434 
2.0118749999999999 0.001647 -125.505374 
2.0125000000000002 0.001653 -127.229359 
2.0131250000000001 0.001603 -129.398531 
2.0137499999999999 0.001543 -130.355767 
2.0143749999999998 0.001508 -132.418248 
2.0150000000000001 0.001467 -134.125941 
2.0156250000000000 0.001419 -135.086793 
2.0162499999999999 0.001367 -135.503526 
2.0168750000000002 0.001311 -136.932654 
2.0175000000000001 0.001249 -136.417263 
2.0181249999999999 0.001204 -135.211586 
2.0187499999999998 0.001182 -134.644384 
2.0193750000000001 0.001123 -134.144327 
2.0200000000000000 0.001084 -133.454973 
2.0206249999999999 0.001060 -131.217899 
2.0212500000000002 0.001060 -128.118608 
2.0218750000000001 0.001037 -126.756568 
2.0225000000000000 0.001035 -124.602877 
2.0231249999999998 0.001073 -124.384492 
2.0237500000000002 0.001076 -122.904770 
2.0243750000000000 0.001095 -123.701315 
2.0249999999999999 0.001110 -121.809688 
2.0256249999999998 0.001131 -122.715994 
2.0262500000000001 0.001159 -124.062045 
2.0268750000000000 0.001172 -125.549872 
2.0274999999999999 0.001180 -126.322162 
2.0281250000000002 0.001192 -128.083045 
2.0287500000000001 0.001210 -129.338836 
2.0293749999999999 0.001229 -132.482972 
2.0299999999999998 0.001205 -131.557769 
2.0306250000000001 0.001224 -135.240738 
2.0312500000000000 0.001225 -135.693886 
2.0318749999999999 0.001183 -136.343327 
2.0325000000000002 0.001168 -137.662185 
2.0331250000000001 0.001127 -136.384018 
2.0337499999999999 0.001137 -135.741139 
2.0343749999999998 0.001110 -136.075177 
2.0350000000000001 0.001099 -135.685515 
2.0356250000000000 0.001122 -134.730926 
2.0362499999999999 0.001114 -133.001616 
2.0368750000000002 0.001138 -131.590684 
2.0375000000000001 0.001148 -130.602585 
2.0381250000000000 0.001206 -130.156541 
2.0387499999999998 0.001241 -129.511698 
2.0393750000000002 0.001309 -129.315101 
2.0400000000000000 0.001348 -129.972248 
2.0406249999999999 0.001394 -131.376773 
2.0412499999999998 0.001485 -132.719548 
2.0418750000000001 0.001556 -134.419648 
2.0425000000000000 0.001607 -136.611165 
2.0431249999999999 0.001665 -138.210395 
2.0437500000000002 0.001697 -141.387309 
2.0443750000000001 0.001742 -144.508364 
2.0449999999999999 0.001791 -146.607139 
2.0456249999999998 0.001822 -148.707777 
2.0462500000000001 0.001813 -151.441839 
2.0468750000000000 0.001831 -154.582685 
2.0474999999999999 0.001814 -157.398672 
2.0481250000000002 0.001864 -158.689165 
2.0487500000000001 0.001820 -160.207342 
2.0493749999999999 0.001789 -161.724388 
2.0499999999999998 0.001739 -162.127814 
2.0506250000000001 0.001748 -163.279422 
2.0512500000000000 0.001718 -163.105397 
2.0518749999999999 0.001676 -163.451642 
2.0525000000000002 0.001650 -163.340217 
2.0531250000000001 0.001673 -162.789342 
2.0537500000000000 0.001675 -160.902213 
2.0543749999999998 0.001679 -160.683067 
2.0550000000000002 0.001691 -158.702966 
2.0556250000000000 0.001790 -158.293530 
2.0562499999999999 0.001823 -157.287921 
2.0568749999999998 0.001964 -158.265766 
2.0575000000000001 0.002047 -158.630996 
2.0581250000000000 0.002160 -158.105231 
2.0587499999999999 0.002275 -158.570528 
2.0593750000000002 0.002428 -159.530528 
2.0600000000000001 0.002515 -160.083479 
2.0606249999999999 0.002629 -161.906779 
2.0612499999999998 0.002805 -162.886352 
2.0618750000000001 0.002912 -164.690574 
2.0625000000000000 0.002995 -165.571087 
2.0631249999999999 0.003091 -167.676363 
2.0637500000000002 0.003208 -170.201963 
2.0643750000000001 0.003316 -171.588501 
2.0649999999999999 0.003408 -173.416370 
2.0656249999999998 0.003471 -173.674585 
2.0662500000000001 0.003506 -174.919875 
2.0668750000000000 0.003616 -176.048966 
2.0674999999999999 0.003676 -177.263968 
2.0681250000000002 0.003711 -178.093055 
2.0687500000000001 0.003831 -178.980216 
2.0693750000000000 0.003942 -178.707338 
2.0699999999999998 0.004028 -178.853559 
2.0706250000000002 0.004181 -179.163577 
2.0712500000000000 0.004354 -178.606798 
2.0718749999999999 0.004496 -178.492644 
2.0724999999999998 0.004705 -179.451246 
2.0731250000000001 0.004822 -178.974390 
2.0737500000000000 0.005042 -178.056999 
2.0743749999999999 0.005318 -178.278844 
2.0750000000000002 0.005504 -177.907288 
2.0756250000000001 0.005766 -177.606560 
2.0762499999999999 0.005922 -177.831266 
2.0768749999999998 0.006191 -176.746127 
2.0775000000000001 0.006445 -177.689229 
2.0781250000000000 0.006588 -176.572538 
2.0787499999999999 0.006625 -176.887078 
2.0793750000000002 0.006718 -176.862807 
2.0800000000000001 0.006802 -177.074817 
2.0806249999999999 0.006853 -176.269987 
2.0812499999999998 0.006806 -176.469238 
2.0818750000000001 0.006855 -175.987080 
2.0825000000000000 0.006704 -176.599078 
2.0831249999999999 0.006781 -175.842477 
2.0837500000000002 0.006680 -175.159592 
2.0843750000000001 0.006609 -174.112931 
2.0850000000000000 0.006467 -173.656076 
2.0856249999999998 0.006359 -172.394568 
2.0862500000000002 0.006302 -169.597248 
2.0868750000000000 0.006179 -167.876680 
2.0874999999999999 0.005918 -167.671488 
2.0881249999999998 0.005750 -164.706328 
2.0887500000000001 0.005724 -162.740222 
2.0893750000000000 0.005581 -161.202042 
2.0899999999999999 0.005555 -160.680015 
2.0906250000000002 0.005355 -158.722552 
2.0912500000000001 0.005370 -157.622773 
2.0918749999999999 0.005375 -158.355265 
2.0924999999999998 0.005302 -156.889028 
2.0931250000000001 0.005287 -157.308973 
2.0937500000000000 0.005228 -157.862332 
2.0943749999999999 0.005284 -158.419415 
2.0950000000000002 0.005116 -159.516148 
2.0956250000000001 0.005124 -160.416831 
2.0962499999999999 0.005059 -161.074037 
2.0968749999999998 0.005014 -163.908277 
2.0975000000000001 0.004955 -164.620362 
2.0981250000000000 0.004858 -165.609103 
2.0987499999999999 0.004737 -166.812157 
2.0993750000000002 0.004546 -167.769443 
2.1000000000000001 0.004412 -169.665802 
2.1006250000000000 0.004339 -170.713130 
2.1012499999999998 0.004114 -171.652473 
2.1018750000000002 0.003932 -172.358754 
2.1025000000000000 0.003835 -172.660724 
2.1031249999999999 0.003605 -174.039394 
2.1037499999999998 0.003449 -174.641341 
2.1043750000000001 0.003368 -174.015404 
2.1050000000000000 0.003239 -174.901023 
2.1056249999999999 0.003125 -174.570859 
2.1062500000000002 0.003041 -175.176107 
2.1068750000000001 0.003005 -175.314137 
2.1074999999999999 0.003051 -175.767823 
2.1081249999999998 0.002953 -175.758136 
2.1087500000000001 0.002989 -176.098367 
2.1093750000000000 0.003033 -177.181678 
2.1099999999999999 0.003037 -177.705344 
2.1106250000000002 0.003106 -179.982408 
2.1112500000000001 0.003128 177.800921 
2.1118749999999999 0.003172 176.214136 
2.1124999999999998 0.003175 174.036601 
2.1131250000000001 0.003156 171.029061 
2.1137500000000000 0.003148 169.244006 
2.1143749999999999 0.003076 165.824262 
2.1150000000000002 0.002997 163.231348 
2.1156250000000001 0.002953 159.570647 
2.1162500000000000 0.002869 156.852676 
2.1168749999999998 0.002742 153.031634 
2.1175000000000002 0.002609 149.888843 
2.1181250000000000 0.002491 147.784764 
2.1187499999999999 0.002384 144.132935 
2.1193749999999998 0.002191 141.570921 
2.1200000000000001 0.002073 139.152846 
2.1206250000000000 0.001960 137.622462 
2.1212499999999999 0.001795 137.047802 
2.1218750000000002 0.001708 136.583285 
2.1225000000000001 0.001608 136.445219 
2.1231249999999999 0.001561 138.758103 
2.1237499999999998 0.001458 140.599852 
2.1243750000000001 0.001451 142.576393 
2.1250000000000000 0.001519 142.661661 
2.1256249999999999 0.001525 144.828898 
2.1262500000000002 0.001553 147.790494 
2.1268750000000001 0.001625 147.578454 
2.1274999999999999 0.001684 145.515709 
2.1281249999999998 0.001766 144.309005 
2.1287500000000001 0.001755 140.677733 
2.1293750000000000 0.001797 138.950283 
2.1299999999999999 0.001840 135.887061 
2.1306250000000002 0.001766 133.115698 
2.1312500000000001 0.001802 128.113353 
2.1318750000000000 0.001743 123.045554 
2.1324999999999998 0.001654 118.291524 
2.1331250000000002 0.001574 112.762079 
2.1337500000000000 0.001477 107.889631 
2.1343749999999999 0.001356 101.179572 
2.1349999999999998 0.001219 96.213982 
2.1356250000000001 0.001088 89.667399 
2.1362500000000000 0.000915 83.910480 
2.1368749999999999 0.000769 78.822504 
2.1375000000000002 0.000582 74.658407 
2.1381250000000001 0.000438 73.949666 
2.1387499999999999 0.000242 77.891191 
2.1393749999999998 0.000113 142.025721 
2.1400000000000001 0.000233 -170.925493 
2.1406250000000000 0.000421 -159.385506 
2.1412499999999999 0.000605 -162.931085 
2.1418750000000002 0.000813 -165.508709 
2.1425000000000001 0.000980 -169.292337 
2.1431249999999999 0.001163 -172.966734 
2.1437499999999998 0.001279 -179.663614 
2.1443750000000001 0.001407 176.484211 
2.1450000000000000 0.001477 172.399554 
2.1456249999999999 0.001536 166.875366 
2.1462500000000002 0.001580 162.987820 
2.1468750000000001 0.001555 158.852744 
2.1475000000000000 0.001471 154.699772 
2.1481249999999998 0.001409 151.949481 
2.1487500000000002 0.001296 148.780499 
2.1493750000000000 0.001147 148.410247 
2.1499999999999999 0.001028 149.973190 
2.1506249999999998 0.000893 156.146217 
2.1512500000000001 0.000788 167.147326 
2.1518750000000000 0.000827 -176.343391 
2.1524999999999999 0.000984 -163.269510 
2.1531250000000002 0.001206 -157.044138 
2.1537500000000001 0.001503 -152.304849 
2.1543749999999999 0.001832 -152.155437 
2.1549999999999998 0.002203 -153.032874 
2.1556250000000001 0.002646 -157.181364 
2.1562500000000000 0.003069 -160.814036 
2.1568749999999999 0.003539 -164.409050 
2.1575000000000002 0.003966 -168.835653 
2.1581250000000001 0.004416 -173.293958 
2.1587499999999999 0.004862 -178.108634 
2.1593749999999998 0.005184 178.226382 
2.1600000000000001 0.005556 174.108367 
2.1606250000000000 0.005911 168.503784 
2.1612499999999999 0.006162 165.241090 
2.1618750000000002 0.006245 160.721102 
2.1625000000000001 0.006443 157.447333 
2.1631250000000000 0.006507 153.866797 
2.1637499999999998 0.006459 150.824613 
2.1643750000000002 0.006404 148.405211 
2.1650000000000000 0.006330 146.582864 
2.1656249999999999 0.006222 145.683934 
2.1662499999999998 0.006070 145.856133 
2.1668750000000001 0.005924 148.347326 
2.1675000000000000 0.005873 151.850483 
2.1681249999999999 0.005966 156.060295 
2.1687500000000002 0.006328 163.279461 
2.1693750000000001 0.006893 168.407127 
2.1699999999999999 0.007678 173.953929 
2.1706249999999998 0.008735 177.534628 
2.1712500000000001 0.010094 -179.512803 
2.1718750000000000 0.011561 -177.314380 
2.1724999999999999 0.012885 -177.306164 
2.1731250000000002 0.014426 -177.214957 
2.1737500000000001 0.015679 -177.333032 
2.1743749999999999 0.017232 -178.582485 
2.1749999999999998 0.018056 -178.795480 
2.1756250000000001 0.019198 178.884231 
2.1762500000000000 0.020087 177.194238 
2.1768749999999999 0.020767 174.539970 
2.1775000000000002 0.021107 172.460443 
2.1781250000000001 0.020984 171.640113 
2.1787500000000000 0.020745 169.433406 
2.1793749999999998 0.020623 167.940771 
2.1800000000000002 0.019996 166.735222 
2.1806250000000000 0.018994 165.689552 
2.1812499999999999 0.017698 164.324345 
2.1818749999999998 0.016580 165.090859 
2.1825000000000001 0.015258 164.193321 
2.1831250000000000 0.013775 165.099763 
2.1837499999999999 0.012470 166.925574 
2.1843750000000002 0.011271 169.002411 
2.1850000000000001 0.010189 173.054574 
2.1856249999999999 0.009522 176.063399 
2.1862499999999998 0.009000 -178.591272 
2.1868750000000001 0.008686 -174.584867 
2.1875000000000000 0.008569 -171.497457 
2.1881249999999999 0.008762 -168.469306 
2.1887500000000002 0.009021 -167.377898 
2.1893750000000001 0.009311 -166.854071 
2.1899999999999999 0.009562 -168.185213 
2.1906249999999998 0.009743 -168.489884 
2.1912500000000001 0.009859 -171.292607 
2.1918750000000000 0.009906 -173.893116 
2.1924999999999999 0.009932 -177.220700 
2.1931250000000002 0.009890 179.566308 
2.1937500000000001 0.009614 175.416898 
2.1943750000000000 0.009271 172.151617 
2.1949999999999998 0.009053 168.105901 
2.1956250000000002 0.008652 165.360263 
2.1962500000000000 0.008160 160.619580 
2.1968749999999999 0.007649 157.987345 
2.1974999999999998 0.007163 154.152256 
2.1981250000000001 0.006610 151.531550 
2.1987500000000000 0.006008 148.602655 
2.1993749999999999 0.005499 146.954886 
2.2000000000000002 0.005081 146.012399 
2.2006250000000001 0.004605 146.169242 
2.2012499999999999 0.004206 146.087446 
2.2018749999999998 0.003895 148.453378 
2.2025000000000001 0.003734 150.847325 
2.2031250000000000 0.003572 154.045526 
2.2037499999999999 0.003509 156.817768 
2.2043750000000002 0.003589 157.923285 
2.2050000000000001 0.003700 159.089603 
2.2056249999999999 0.003887 160.100805 
2.2062499999999998 0.003954 159.244012 
2.2068750000000001 0.004226 157.616356 
2.2075000000000000 0.004315 154.917319 
2.2081249999999999 0.004450 152.413460 
2.2087500000000002 0.004465 148.550135 
2.2093750000000001 0.004486 145.566684 
2.2100000000000000 0.004538 141.126053 
2.2106249999999998 0.004472 135.654514 
2.2112500000000002 0.004388 131.323562 
2.2118750000000000 0.004329 126.269101 
2.2124999999999999 0.004131 121.963665 
2.2131249999999998 0.003923 117.374035 
2.2137500000000001 0.003717 112.330655 
2.2143750000000000 0.003469 107.764927 
2.2149999999999999 0.003190 103.857057 
2.2156250000000002 0.002884 99.866820 
2.2162500000000001 0.002579 96.097727 
2.2168749999999999 0.002284 94.136323 
2.2174999999999998 0.001949 93.922105 
2.2181250000000001 0.001677 93.167407 
2.2187500000000000 0.001384 97.816300 
2.2193749999999999 0.001178 104.155023 
2.2200000000000002 0.001054 115.820569 
2.2206250000000001 0.001026 127.921122 
2.2212499999999999 0.001129 140.492447 
2.2218749999999998 0.001283 147.436732 
2.2225000000000001 0.001445 151.574389 
2.2231250000000000 0.001678 152.238994 
2.2237499999999999 0.001852 151.374832 
2.2243750000000002 0.002018 148.021893 
2.2250000000000001 0.002174 145.491554 
2.2256250000000000 0.002258 142.559399 
2.2262499999999998 0.002330 138.266179 
2.2268750000000002 0.002362 134.700499 
2.2275000000000000 0.002377 130.980095 
2.2281249999999999 0.002363 127.275206 
2.2287499999999998 0.002249 124.386271 
2.2293750000000001 0.002153 121.379413 
2.2300000000000000 0.002032 118.229718 
2.2306249999999999 0.001930 117.099330 
2.2312500000000002 0.001722 117.347502 
2.2318750000000001 0.001575 120.388165 
2.2324999999999999 0.001465 124.830468 
2.2331249999999998 0.001395 132.538110 
2.2337500000000001 0.001383 140.751600 
2.2343750000000000 0.001494 150.005957 
2.2349999999999999 0.001685 156.278703 
2.2356250000000002 0.001964 160.100081 
2.2362500000000001 0.002203 161.403273 
2.2368749999999999 0.002562 162.394554 
2.2374999999999998 0.002899 160.165038 
2.2381250000000001 0.003212 158.008260 
2.2387500000000000 0.003570 155.124369 
2.2393749999999999 0.003864 151.890087 
2.2400000000000002 0.004181 148.445146 
2.2406250000000001 0.004422 144.804527 
2.2412500000000000 0.004677 140.429271 
2.2418749999999998 0.004873 136.369823 
2.2425000000000002 0.005037 132.665396 
2.2431250000000000 0.005155 129.297981 
2.2437499999999999 0.005202 126.046296 
2.2443749999999998 0.005255 122.436898 
2.2450000000000001 0.005264 120.514230 
2.2456250000000000 0.005172 118.091439 
2.2462499999999999 0.005175 116.274636 
2.2468750000000002 0.005143 116.201558 
2.2475000000000001 0.005124 117.051502 
2.2481249999999999 0.005186 118.598685 
2.2487499999999998 0.005361 120.952390 
2.2493750000000001 0.005567 122.622879 
2.2500000000000000 0.005959 124.531894 
2.2506249999999999 0.006396 126.541827 
2.2512500000000002 0.007081 126.737946 
2.2518750000000001 0.007813 127.967301 
2.2524999999999999 0.008771 128.011847 
2.2531249999999998 0.009821 127.662222 
2.2537500000000001 0.010908 127.315714 
2.2543750000000000 0.012110 125.512500 
2.2549999999999999 0.013304 123.177458 
2.2556250000000002 0.014705 121.379889 
2.2562500000000001 0.015913 118.523314 
2.2568750000000000 0.017269 115.993361 
2.2574999999999998 0.018648 113.582564 
2.2581250000000002 0.020112 110.562723 
2.2587500000000000 0.021417 107.802411 
2.2593749999999999 0.022868 105.256796 
2.2599999999999998 0.024209 102.596375 
2.2606250000000001 0.025612 100.999059 
2.2612500000000000 0.027170 99.677230 
2.2618749999999999 0.028871 98.326564 
2.2625000000000002 0.030543 97.880387 
2.2631250000000001 0.032849 99.761492 
2.2637499999999999 0.034650 102.526072 
2.2643749999999998 0.037715 105.120680 
2.2650000000000001 0.040518 111.301062 
2.2656250000000000 0.043022 116.615039 
2.2662499999999999 0.045580 125.329473 
2.2668750000000002 0.046640 134.849225 
2.2675000000000001 0.048833 143.655567 
2.2681249999999999 0.048252 152.773535 
2.2687499999999998 0.048288 161.826992 
2.2693750000000001 0.049034 167.169263 
2.2700000000000000 0.047056 172.488690 
2.2706249999999999 0.045661 175.627912 
2.2712500000000002 0.043783 178.067728 
2.2718750000000001 0.041963 179.630192 
2.2725000000000000 0.041048 -179.009578 
2.2731249999999998 0.039211 -178.885111 
2.2737500000000002 0.037177 -178.962274 
2.2743750000000000 0.035849 179.762227 
2.2749999999999999 0.033855 178.091928 
2.2756249999999998 0.032056 176.377102 
2.2762500000000001 0.029977 174.737587 
2.2768750000000000 0.027804 172.324314 
2.2774999999999999 0.025996 169.919816 
2.2781250000000002 0.023906 167.100809 
2.2787500000000001 0.022235 164.662550 
2.2793749999999999 0.020312 162.197109 
2.2799999999999998 0.018767 159.865157 
2.2806250000000001 0.017213 157.928604 
2.2812500000000000 0.015991 156.664113 
2.2818749999999999 0.014680 155.556976 
2.2825000000000002 0.013867 154.387483 
2.2831250000000001 0.012913 154.280863 
2.2837499999999999 0.012316 154.021254 
2.2843749999999998 0.011896 154.787752 
2.2850000000000001 0.011523 155.423403 
2.2856250000000000 0.011392 155.525672 
2.2862499999999999 0.011330 155.972138 
2.2868750000000002 0.011401 155.624869 
2.2875000000000001 0.011610 155.370646 
2.2881250000000000 0.011793 153.305444 
2.2887499999999998 0.011906 151.472491 
2.2893750000000002 0.011975 149.069903 
2.2900000000000000 0.012132 145.861477 
2.2906249999999999 0.012195 143.655229 
2.2912499999999998 0.012254 140.247813 
2.2918750000000001 0.012123 136.107555 
2.2925000000000000 0.012034 132.399990 
2.2931249999999999 0.011825 128.670996 
2.2937500000000002 0.011616 125.030750 
2.2943750000000001 0.011425 120.466274 
2.2949999999999999 0.011093 116.610210 
2.2956249999999998 0.010743 113.048664 
