!
! C:\Users\rflab\Downloads\dp2_kdzw\320.S1P
!
! Touchstone 1.1 file saved by VNA.EXE V1.65 (www.ke5fx.com/gpib/readme.htm)
! 12/12/2024 7:11:31 PM
!
!    Source: HEWLETT PACKARD,8753D,0,6.14
!  Min freq: 2.000000E+009 Hz
!  Max freq: 2.500000E+009 Hz
!    Points: 801
!    Params: S21
!
!!!!!
# GHZ S MA R 50
2.0000000000000000 0.003215 -126.057048 
2.0006249999999999 0.003116 -126.495524 
2.0012500000000002 0.003017 -126.572926 
2.0018750000000001 0.002908 -125.943106 
2.0024999999999999 0.002811 -125.806574 
2.0031249999999998 0.002712 -124.792933 
2.0037500000000001 0.002649 -122.997070 
2.0043750000000000 0.002602 -122.727502 
2.0049999999999999 0.002582 -121.327126 
2.0056250000000002 0.002538 -118.950047 
2.0062500000000001 0.002552 -119.283096 
2.0068750000000000 0.002562 -118.187907 
2.0074999999999998 0.002565 -118.263596 
2.0081250000000002 0.002532 -117.419282 
2.0087500000000000 0.002462 -117.294730 
2.0093749999999999 0.002517 -119.217758 
2.0099999999999998 0.002512 -119.204895 
2.0106250000000001 0.002463 -120.873398 
2.0112500000000000 0.002484 -122.993782 
2.0118749999999999 0.002413 -123.081548 
2.0125000000000002 0.002397 -125.692522 
2.0131250000000001 0.002297 -128.619865 
2.0137499999999999 0.002251 -128.884454 
2.0143749999999998 0.002163 -131.472419 
2.0150000000000001 0.002112 -132.864085 
2.0156250000000000 0.002025 -135.147842 
2.0162499999999999 0.001977 -135.492354 
2.0168750000000002 0.001878 -135.613314 
2.0175000000000001 0.001813 -136.269592 
2.0181249999999999 0.001744 -135.804567 
2.0187499999999998 0.001694 -135.751399 
2.0193750000000001 0.001613 -134.173756 
2.0200000000000000 0.001571 -132.751266 
2.0206249999999999 0.001525 -131.226162 
2.0212500000000002 0.001494 -128.544524 
2.0218750000000001 0.001476 -127.046692 
2.0225000000000000 0.001478 -125.316634 
2.0231249999999998 0.001500 -124.627465 
2.0237500000000002 0.001528 -123.302738 
2.0243750000000000 0.001543 -122.168199 
2.0249999999999999 0.001549 -122.864744 
2.0256249999999998 0.001572 -122.619673 
2.0262500000000001 0.001625 -123.617227 
2.0268750000000000 0.001657 -125.574080 
2.0274999999999999 0.001643 -126.288016 
2.0281250000000002 0.001657 -128.449620 
2.0287500000000001 0.001671 -129.218953 
2.0293749999999999 0.001694 -132.410255 
2.0299999999999998 0.001691 -131.733998 
2.0306250000000001 0.001711 -134.875781 
2.0312500000000000 0.001647 -135.797411 
2.0318749999999999 0.001655 -135.837375 
2.0325000000000002 0.001620 -138.271722 
2.0331250000000001 0.001585 -136.104949 
2.0337499999999999 0.001562 -135.570632 
2.0343749999999998 0.001529 -135.731424 
2.0350000000000001 0.001496 -135.886023 
2.0356250000000000 0.001512 -134.161663 
2.0362499999999999 0.001530 -132.795149 
2.0368750000000002 0.001583 -132.473084 
2.0375000000000001 0.001584 -131.033841 
2.0381250000000000 0.001634 -131.218975 
2.0387499999999998 0.001683 -129.948971 
2.0393750000000002 0.001779 -130.048372 
2.0400000000000000 0.001853 -130.670058 
2.0406249999999999 0.001923 -131.737959 
2.0412499999999998 0.002018 -132.932060 
2.0418750000000001 0.002070 -134.692024 
2.0425000000000000 0.002155 -136.873619 
2.0431249999999999 0.002229 -138.815816 
2.0437500000000002 0.002286 -141.555790 
2.0443750000000001 0.002351 -143.973919 
2.0449999999999999 0.002422 -147.278336 
2.0456249999999998 0.002472 -149.245635 
2.0462500000000001 0.002470 -151.618347 
2.0468750000000000 0.002486 -153.530764 
2.0474999999999999 0.002510 -155.436936 
2.0481250000000002 0.002503 -157.354312 
2.0487500000000001 0.002467 -159.447197 
2.0493749999999999 0.002428 -161.629094 
2.0499999999999998 0.002404 -162.159861 
2.0506250000000001 0.002316 -162.573311 
2.0512500000000000 0.002290 -163.005138 
2.0518749999999999 0.002295 -163.597196 
2.0525000000000002 0.002262 -162.533387 
2.0531250000000001 0.002235 -162.086959 
2.0537500000000000 0.002251 -161.569844 
2.0543749999999998 0.002293 -160.409288 
2.0550000000000002 0.002328 -159.325164 
2.0556250000000000 0.002439 -157.884955 
2.0562499999999999 0.002472 -157.577336 
2.0568749999999998 0.002609 -157.561771 
2.0575000000000001 0.002757 -157.233042 
2.0581250000000000 0.002911 -157.746739 
2.0587499999999999 0.003071 -157.780264 
2.0593750000000002 0.003262 -158.708292 
2.0600000000000001 0.003408 -160.280779 
2.0606249999999999 0.003554 -160.796845 
2.0612499999999998 0.003788 -162.697386 
2.0618750000000001 0.003921 -164.596374 
2.0625000000000000 0.004094 -165.877983 
2.0631249999999999 0.004180 -167.894060 
2.0637500000000002 0.004296 -169.084208 
2.0643750000000001 0.004452 -170.653181 
2.0649999999999999 0.004557 -172.922205 
2.0656249999999998 0.004686 -173.723223 
2.0662500000000001 0.004751 -174.626729 
2.0668750000000000 0.004827 -176.219432 
2.0674999999999999 0.004926 -177.103527 
2.0681250000000002 0.005060 -177.272533 
2.0687500000000001 0.005127 -177.630694 
2.0693750000000000 0.005254 -179.076877 
2.0699999999999998 0.005423 -178.422780 
2.0706250000000002 0.005532 -178.737997 
2.0712500000000000 0.005811 -178.384773 
2.0718749999999999 0.006009 -178.913372 
2.0724999999999998 0.006214 -178.764478 
2.0731250000000001 0.006595 -177.911714 
2.0737500000000000 0.006749 -178.230575 
2.0743749999999999 0.007088 -177.925699 
2.0750000000000002 0.007411 -177.687877 
2.0756250000000001 0.007746 -177.272683 
2.0762499999999999 0.007948 -177.283499 
2.0768749999999998 0.008262 -176.827324 
2.0775000000000001 0.008654 -176.221624 
2.0781250000000000 0.008793 -176.710900 
2.0787499999999999 0.008854 -176.507783 
2.0793750000000002 0.009033 -175.794998 
2.0800000000000001 0.009117 -176.665917 
2.0806249999999999 0.009281 -176.341213 
2.0812499999999998 0.009184 -175.240558 
2.0818750000000001 0.009134 -175.406758 
2.0825000000000000 0.009137 -175.234371 
2.0831249999999999 0.009114 -174.571889 
2.0837500000000002 0.008930 -174.179807 
2.0843750000000001 0.008891 -174.444735 
2.0850000000000000 0.008673 -173.039874 
2.0856249999999998 0.008506 -171.762246 
2.0862500000000002 0.008377 -170.565022 
2.0868750000000000 0.008110 -168.120537 
2.0874999999999999 0.008004 -167.237192 
2.0881249999999998 0.007815 -163.959052 
2.0887500000000001 0.007676 -162.563389 
2.0893750000000000 0.007471 -160.907043 
2.0899999999999999 0.007400 -159.632370 
2.0906250000000002 0.007291 -158.305750 
2.0912500000000001 0.007120 -156.538153 
2.0918749999999999 0.007139 -156.988331 
2.0924999999999998 0.007165 -156.383835 
2.0931250000000001 0.007031 -156.783555 
2.0937500000000000 0.006950 -157.294104 
2.0943749999999999 0.006928 -158.485278 
2.0950000000000002 0.006886 -158.815229 
2.0956250000000001 0.006876 -160.227366 
2.0962499999999999 0.006813 -161.097084 
2.0968749999999998 0.006709 -162.749823 
2.0975000000000001 0.006587 -164.455688 
2.0981250000000000 0.006448 -166.118934 
2.0987499999999999 0.006291 -167.164067 
2.0993750000000002 0.006108 -168.304510 
2.1000000000000001 0.005903 -169.288663 
2.1006250000000000 0.005716 -170.156201 
2.1012499999999998 0.005455 -171.967644 
2.1018750000000002 0.005241 -172.621855 
2.1025000000000000 0.005067 -172.665648 
2.1031249999999999 0.004784 -173.590754 
2.1037499999999998 0.004575 -173.933166 
2.1043750000000001 0.004429 -174.433941 
2.1050000000000000 0.004272 -174.215593 
2.1056249999999999 0.004157 -174.645198 
2.1062500000000002 0.004034 -174.460933 
2.1068750000000001 0.003977 -174.944569 
2.1074999999999999 0.003965 -174.434409 
2.1081249999999998 0.003917 -174.666637 
2.1087500000000001 0.003938 -175.774240 
2.1093750000000000 0.003953 -177.120512 
2.1099999999999999 0.004037 -177.986352 
2.1106250000000002 0.004095 -179.449609 
2.1112500000000001 0.004115 178.765092 
2.1118749999999999 0.004139 176.585474 
2.1124999999999998 0.004140 174.143309 
2.1131250000000001 0.004136 172.074939 
2.1137500000000000 0.004085 169.280927 
2.1143749999999999 0.004042 166.221936 
2.1150000000000002 0.003987 162.926997 
2.1156250000000001 0.003882 160.051469 
2.1162500000000000 0.003768 156.885668 
2.1168749999999998 0.003595 153.635470 
2.1175000000000002 0.003446 150.625409 
2.1181250000000000 0.003240 147.919098 
2.1187499999999999 0.003103 144.853281 
2.1193749999999998 0.002909 141.475867 
2.1200000000000001 0.002691 139.138292 
2.1206250000000000 0.002525 137.858399 
2.1212499999999999 0.002404 136.325866 
2.1218750000000002 0.002271 136.178515 
2.1225000000000001 0.002126 137.767583 
2.1231249999999999 0.002028 138.917337 
2.1237499999999998 0.001929 140.376713 
2.1243750000000001 0.001902 142.166905 
2.1250000000000000 0.001962 143.192057 
2.1256249999999999 0.001965 145.853875 
2.1262500000000002 0.002034 147.743619 
2.1268750000000001 0.002086 147.821085 
2.1274999999999999 0.002230 146.452669 
2.1281249999999998 0.002291 143.846816 
2.1287500000000001 0.002277 140.898866 
2.1293750000000000 0.002370 139.217433 
2.1299999999999999 0.002383 136.232322 
2.1306250000000002 0.002295 132.427439 
2.1312500000000001 0.002349 128.150364 
2.1318750000000000 0.002258 123.238688 
2.1324999999999998 0.002178 118.068793 
2.1331250000000002 0.002043 112.735069 
2.1337500000000000 0.001899 107.834533 
2.1343749999999999 0.001764 102.070954 
2.1349999999999998 0.001570 95.811861 
2.1356250000000001 0.001416 89.102641 
2.1362500000000000 0.001181 83.550619 
2.1368749999999999 0.000982 78.342327 
2.1375000000000002 0.000764 74.333833 
2.1381250000000001 0.000563 73.754595 
2.1387499999999999 0.000309 77.040136 
2.1393749999999998 0.000141 140.910833 
2.1400000000000001 0.000296 -169.205865 
2.1406250000000000 0.000544 -158.429369 
2.1412499999999999 0.000770 -161.413501 
2.1418750000000002 0.001027 -164.292961 
2.1425000000000001 0.001250 -168.048002 
2.1431249999999999 0.001486 -172.810869 
2.1437499999999998 0.001639 -178.895570 
2.1443750000000001 0.001792 177.388786 
2.1450000000000000 0.001919 172.380196 
2.1456249999999999 0.001976 167.795144 
2.1462500000000002 0.002014 163.664635 
2.1468750000000001 0.001989 159.691892 
2.1475000000000000 0.001893 155.439011 
2.1481249999999998 0.001801 152.688694 
2.1487500000000002 0.001648 149.796976 
2.1493750000000000 0.001462 149.356774 
2.1499999999999999 0.001304 150.872147 
2.1506249999999998 0.001127 157.798015 
2.1512500000000001 0.001012 168.687419 
2.1518750000000000 0.001060 -175.380077 
2.1524999999999999 0.001259 -162.727719 
2.1531250000000002 0.001540 -155.577332 
2.1537500000000001 0.001941 -150.641867 
2.1543749999999999 0.002351 -151.245329 
2.1549999999999998 0.002823 -152.356072 
2.1556250000000001 0.003362 -156.617343 
2.1562500000000000 0.003939 -159.809052 
2.1568749999999999 0.004494 -163.916819 
2.1575000000000002 0.005083 -168.226228 
2.1581250000000001 0.005607 -172.344665 
2.1587499999999999 0.006159 -177.468539 
2.1593749999999998 0.006578 178.886918 
2.1600000000000001 0.007074 174.499250 
2.1606250000000000 0.007495 169.739982 
2.1612499999999999 0.007756 165.868925 
2.1618750000000002 0.008069 161.864860 
2.1625000000000001 0.008184 157.858268 
2.1631250000000000 0.008264 154.727261 
2.1637499999999998 0.008367 151.462382 
2.1643750000000002 0.008217 149.011436 
2.1650000000000000 0.008033 146.907982 
2.1656249999999999 0.007922 146.805390 
2.1662499999999998 0.007701 146.791108 
2.1668750000000001 0.007569 148.488981 
2.1675000000000000 0.007521 152.541423 
2.1681249999999999 0.007619 157.819016 
2.1687500000000002 0.008067 163.711757 
2.1693750000000001 0.008803 168.960325 
2.1699999999999999 0.009893 174.953584 
2.1706249999999998 0.011182 178.436064 
2.1712500000000001 0.012963 -178.596241 
2.1718750000000000 0.014519 -176.969015 
2.1724999999999999 0.016333 -175.871480 
2.1731250000000002 0.018329 -175.852576 
2.1737500000000001 0.020003 -176.463025 
2.1743749999999999 0.021668 -177.984654 
2.1749999999999998 0.023125 -178.125878 
2.1756250000000001 0.024313 -179.561744 
2.1762500000000000 0.025484 178.200787 
2.1768749999999999 0.026188 176.404657 
2.1775000000000002 0.026638 174.294312 
2.1781250000000001 0.026961 172.871966 
2.1787500000000000 0.026543 170.930942 
2.1793749999999998 0.026348 169.575509 
2.1800000000000002 0.025314 167.294662 
2.1806250000000000 0.024252 167.357314 
2.1812499999999999 0.022734 165.754490 
2.1818749999999998 0.021333 165.798525 
2.1825000000000001 0.019473 165.217168 
2.1831250000000000 0.017660 166.677446 
2.1837499999999999 0.015885 168.288679 
2.1843750000000002 0.014435 170.746155 
2.1850000000000001 0.013181 174.180094 
2.1856249999999999 0.012224 178.160244 
2.1862499999999998 0.011483 -177.317709 
2.1868750000000001 0.011115 -172.821016 
2.1875000000000000 0.010976 -169.524838 
2.1881249999999999 0.011314 -166.947106 
2.1887500000000002 0.011633 -165.505786 
2.1893750000000001 0.011952 -165.740336 
2.1899999999999999 0.012261 -166.359357 
2.1906249999999998 0.012586 -167.188416 
2.1912500000000001 0.012697 -169.767901 
2.1918750000000000 0.012803 -172.531702 
2.1924999999999999 0.012769 -175.375663 
2.1931250000000002 0.012650 -178.634942 
2.1937500000000001 0.012425 177.162409 
2.1943750000000000 0.012117 173.601042 
2.1949999999999998 0.011662 169.888345 
2.1956250000000002 0.011029 166.509277 
2.1962500000000000 0.010544 163.110639 
2.1968749999999999 0.009864 158.767420 
2.1974999999999998 0.009179 156.282000 
2.1981250000000001 0.008542 152.971524 
2.1987500000000000 0.007784 150.586420 
2.1993749999999999 0.007132 148.876602 
2.2000000000000002 0.006487 147.701770 
2.2006250000000001 0.005945 147.615152 
2.2012499999999999 0.005437 148.287820 
2.2018749999999998 0.005073 149.703625 
2.2025000000000001 0.004772 152.305850 
2.2031250000000000 0.004591 155.696418 
2.2037499999999999 0.004599 158.255958 
2.2043750000000002 0.004640 160.091094 
2.2050000000000001 0.004802 161.186303 
2.2056249999999999 0.005024 160.928743 
2.2062499999999998 0.005169 160.779430 
2.2068750000000001 0.005465 158.769034 
2.2075000000000000 0.005631 156.399373 
2.2081249999999999 0.005796 153.145078 
2.2087500000000002 0.005811 150.047807 
2.2093750000000001 0.005925 146.687222 
2.2100000000000000 0.005890 142.028400 
2.2106249999999998 0.005790 137.264604 
2.2112500000000002 0.005719 132.262925 
2.2118750000000000 0.005595 127.676673 
2.2124999999999999 0.005318 123.185625 
2.2131249999999998 0.005077 118.779445 
2.2137500000000001 0.004773 113.763436 
2.2143750000000000 0.004483 109.201024 
2.2149999999999999 0.004102 105.011217 
2.2156250000000002 0.003737 100.880142 
2.2162500000000001 0.003347 97.301921 
2.2168749999999999 0.002941 95.460365 
2.2174999999999998 0.002531 94.909772 
2.2181250000000001 0.002161 94.461497 
2.2187500000000000 0.001789 98.369275 
2.2193749999999999 0.001519 105.797735 
2.2200000000000002 0.001371 117.501036 
2.2206250000000001 0.001331 130.653070 
2.2212499999999999 0.001431 142.707083 
2.2218749999999998 0.001658 149.736740 
2.2225000000000001 0.001905 152.972397 
2.2231250000000000 0.002175 152.852079 
2.2237499999999999 0.002410 151.511686 
2.2243750000000002 0.002621 150.043099 
2.2250000000000001 0.002817 147.348410 
2.2256250000000000 0.002941 143.702840 
2.2262499999999998 0.003032 140.281829 
2.2268750000000002 0.003079 136.142119 
2.2275000000000000 0.003107 132.457235 
2.2281249999999999 0.003055 128.353608 
2.2287499999999998 0.002921 125.163442 
2.2293750000000001 0.002808 122.482574 
2.2300000000000000 0.002617 119.780504 
2.2306249999999999 0.002475 118.378318 
2.2312500000000002 0.002250 118.695752 
2.2318750000000001 0.002043 121.222309 
2.2324999999999999 0.001904 125.714059 
2.2331249999999998 0.001797 133.261026 
2.2337500000000001 0.001801 142.196877 
2.2343750000000000 0.001921 151.030013 
2.2349999999999999 0.002183 157.896978 
2.2356250000000002 0.002521 161.513661 
2.2362500000000001 0.002875 162.580785 
2.2368749999999999 0.003293 162.937536 
2.2374999999999998 0.003729 161.449208 
2.2381250000000001 0.004131 159.218682 
2.2387500000000000 0.004559 156.420549 
2.2393749999999999 0.005006 153.277530 
2.2400000000000002 0.005346 149.837371 
2.2406250000000001 0.005726 145.891775 
2.2412500000000000 0.006002 141.534968 
2.2418749999999998 0.006284 138.122021 
2.2425000000000002 0.006453 134.128823 
2.2431250000000000 0.006604 130.487777 
2.2437499999999999 0.006674 126.525201 
2.2443749999999998 0.006694 123.970808 
2.2450000000000001 0.006738 121.978305 
2.2456250000000000 0.006635 119.460931 
2.2462499999999999 0.006650 117.919274 
2.2468750000000002 0.006608 117.839027 
2.2475000000000001 0.006561 118.684912 
2.2481249999999999 0.006722 120.652873 
2.2487499999999998 0.006892 121.862523 
2.2493750000000001 0.007110 124.809131 
2.2500000000000000 0.007588 126.356434 
2.2506249999999999 0.008225 127.815264 
2.2512500000000002 0.008984 128.693528 
2.2518750000000001 0.009966 129.708347 
2.2524999999999999 0.011203 130.273305 
2.2531249999999998 0.012530 129.731868 
2.2537500000000001 0.013933 128.988079 
2.2543750000000000 0.015434 127.473188 
2.2549999999999999 0.017072 125.927620 
2.2556250000000002 0.018622 123.776331 
2.2562500000000001 0.020485 120.846656 
2.2568750000000000 0.021962 118.187523 
2.2574999999999998 0.023837 115.658787 
2.2581250000000002 0.025528 112.869478 
2.2587500000000000 0.027347 110.290384 
2.2593749999999999 0.029195 107.429945 
2.2599999999999998 0.030708 105.276656 
2.2606250000000001 0.032731 103.846758 
2.2612500000000000 0.034477 101.659294 
2.2618749999999999 0.037073 100.298780 
2.2625000000000002 0.039052 100.676041 
2.2631250000000001 0.041937 102.364304 
2.2637499999999999 0.044971 104.270818 
2.2643749999999998 0.048437 108.290830 
2.2650000000000001 0.051813 114.168503 
2.2656250000000000 0.054947 119.758945 
2.2662499999999999 0.059075 128.001374 
2.2668750000000002 0.061357 137.832343 
2.2675000000000001 0.062730 146.379511 
2.2681249999999999 0.063216 155.692248 
2.2687499999999998 0.062848 165.095802 
2.2693750000000001 0.063193 170.645998 
2.2700000000000000 0.060506 176.019647 
2.2706249999999999 0.058682 179.687140 
2.2712500000000002 0.056319 -177.915531 
2.2718750000000001 0.053973 -176.616656 
2.2725000000000000 0.053104 -175.240802 
2.2731249999999998 0.050773 -175.062796 
2.2737500000000002 0.047959 -175.010224 
2.2743750000000000 0.046008 -176.296686 
2.2749999999999999 0.043215 -177.462774 
2.2756249999999998 0.041036 -179.230350 
2.2762500000000001 0.038562 178.940031 
2.2768750000000000 0.035876 176.586317 
2.2774999999999999 0.033291 174.143396 
2.2781250000000002 0.030917 171.910393 
2.2787500000000001 0.028534 168.974747 
2.2793749999999999 0.026263 166.788302 
2.2799999999999998 0.024327 164.553207 
2.2806250000000001 0.022294 162.575792 
2.2812500000000000 0.020591 161.289798 
2.2818749999999999 0.019094 160.124224 
2.2825000000000002 0.017747 159.252963 
2.2831250000000001 0.016699 159.406045 
2.2837499999999999 0.015919 159.183418 
2.2843749999999998 0.015239 159.846417 
2.2850000000000001 0.014866 159.839316 
2.2856250000000000 0.014636 160.881467 
2.2862499999999999 0.014628 160.820838 
2.2868750000000002 0.014684 160.881959 
2.2875000000000001 0.014959 159.815908 
2.2881250000000000 0.015077 158.257478 
2.2887499999999998 0.015292 156.413380 
2.2893750000000002 0.015503 154.333453 
2.2900000000000000 0.015652 151.943840 
2.2906249999999999 0.015720 148.624319 
2.2912499999999998 0.015688 145.313447 
2.2918750000000001 0.015643 141.807159 
2.2925000000000000 0.015613 137.677348 
2.2931249999999999 0.015321 133.907946 
2.2937500000000002 0.015055 130.357405 
2.2943750000000001 0.014575 126.035369 
2.2949999999999999 0.014297 122.362293 
2.2956249999999998 0.013954 118.796731 
