!
! C:\Users\rflab\Downloads\dp2_kdzw\340.S1P
!
! Touchstone 1.1 file saved by VNA.EXE V1.65 (www.ke5fx.com/gpib/readme.htm)
! 12/12/2024 7:12:05 PM
!
!    Source: HEWLETT PACKARD,8753D,0,6.14
!  Min freq: 2.000000E+009 Hz
!  Max freq: 2.500000E+009 Hz
!    Points: 801
!    Params: S21
!
!!!!!
# GHZ S MA R 50
2.0000000000000000 0.004193 -124.585538 
2.0006249999999999 0.004055 -124.388978 
2.0012500000000002 0.003888 -124.041846 
2.0018750000000001 0.003753 -123.915186 
2.0024999999999999 0.003633 -123.575343 
2.0031249999999998 0.003492 -122.370520 
2.0037500000000001 0.003420 -121.610374 
2.0043750000000000 0.003385 -120.126747 
2.0049999999999999 0.003345 -119.260084 
2.0056250000000002 0.003243 -117.075620 
2.0062500000000001 0.003273 -117.548632 
2.0068750000000000 0.003239 -116.908317 
2.0074999999999998 0.003266 -116.152544 
2.0081250000000002 0.003209 -115.862647 
2.0087500000000000 0.003136 -116.629334 
2.0093749999999999 0.003205 -117.324682 
2.0099999999999998 0.003173 -118.030573 
2.0106250000000001 0.003170 -119.503045 
2.0112500000000000 0.003120 -121.596465 
2.0118749999999999 0.003066 -123.221179 
2.0125000000000002 0.002990 -124.142481 
2.0131250000000001 0.002941 -126.398426 
2.0137499999999999 0.002857 -128.279009 
2.0143749999999998 0.002713 -130.049927 
2.0150000000000001 0.002694 -132.092383 
2.0156250000000000 0.002563 -133.609940 
2.0162499999999999 0.002456 -134.894789 
2.0168750000000002 0.002373 -134.637657 
2.0175000000000001 0.002268 -135.104342 
2.0181249999999999 0.002186 -134.012440 
2.0187499999999998 0.002107 -133.807959 
2.0193750000000001 0.002024 -133.455764 
2.0200000000000000 0.001968 -132.216370 
2.0206249999999999 0.001907 -129.988748 
2.0212500000000002 0.001874 -127.333768 
2.0218750000000001 0.001856 -126.175096 
2.0225000000000000 0.001854 -124.398515 
2.0231249999999998 0.001861 -123.613221 
2.0237500000000002 0.001887 -122.532837 
2.0243750000000000 0.001911 -122.117721 
2.0249999999999999 0.001946 -121.555083 
2.0256249999999998 0.001971 -121.742927 
2.0262500000000001 0.002020 -122.886384 
2.0268750000000000 0.002021 -124.777209 
2.0274999999999999 0.002079 -125.282172 
2.0281250000000002 0.002099 -127.648372 
2.0287500000000001 0.002085 -128.562603 
2.0293749999999999 0.002104 -130.902272 
2.0299999999999998 0.002098 -131.644352 
2.0306250000000001 0.002105 -133.790678 
2.0312500000000000 0.002066 -135.373998 
2.0318749999999999 0.002050 -135.235611 
2.0325000000000002 0.001991 -136.482233 
2.0331250000000001 0.001942 -135.537268 
2.0337499999999999 0.001932 -134.555047 
2.0343749999999998 0.001901 -136.242342 
2.0350000000000001 0.001853 -134.400533 
2.0356250000000000 0.001859 -133.562898 
2.0362499999999999 0.001886 -131.703281 
2.0368750000000002 0.001910 -131.270040 
2.0375000000000001 0.001962 -130.124735 
2.0381250000000000 0.002007 -129.612134 
2.0387499999999998 0.002060 -129.387854 
2.0393750000000002 0.002169 -128.404116 
2.0400000000000000 0.002267 -129.820233 
2.0406249999999999 0.002368 -130.880384 
2.0412499999999998 0.002473 -131.623902 
2.0418750000000001 0.002558 -133.889874 
2.0425000000000000 0.002640 -135.157335 
2.0431249999999999 0.002746 -137.895946 
2.0437500000000002 0.002809 -140.345129 
2.0443750000000001 0.002900 -143.064154 
2.0449999999999999 0.002969 -145.816098 
2.0456249999999998 0.003001 -147.901985 
2.0462500000000001 0.003046 -150.111589 
2.0468750000000000 0.003039 -151.806696 
2.0474999999999999 0.003040 -154.266959 
2.0481250000000002 0.003050 -156.470895 
2.0487500000000001 0.003021 -158.038211 
2.0493749999999999 0.002972 -159.796025 
2.0499999999999998 0.002915 -161.267967 
2.0506250000000001 0.002855 -161.012060 
2.0512500000000000 0.002816 -161.838905 
2.0518749999999999 0.002762 -161.866131 
2.0525000000000002 0.002755 -161.469406 
2.0531250000000001 0.002741 -161.118254 
2.0537500000000000 0.002732 -160.017104 
2.0543749999999998 0.002760 -159.069105 
2.0550000000000002 0.002802 -157.661361 
2.0556250000000000 0.002915 -156.886318 
2.0562499999999999 0.003026 -156.048277 
2.0568749999999998 0.003211 -155.500590 
2.0575000000000001 0.003389 -155.380247 
2.0581250000000000 0.003571 -156.047611 
2.0587499999999999 0.003751 -156.542683 
2.0593750000000002 0.003937 -157.728935 
2.0600000000000001 0.004165 -159.273108 
2.0606249999999999 0.004350 -159.471156 
2.0612499999999998 0.004575 -161.364859 
2.0618750000000001 0.004788 -163.403238 
2.0625000000000000 0.004992 -164.801518 
2.0631249999999999 0.005140 -166.276352 
2.0637500000000002 0.005254 -167.475427 
2.0643750000000001 0.005379 -168.963981 
2.0649999999999999 0.005544 -170.677824 
2.0656249999999998 0.005708 -172.270940 
2.0662500000000001 0.005733 -173.546142 
2.0668750000000000 0.005889 -174.219244 
2.0674999999999999 0.005959 -175.355150 
2.0681250000000002 0.006111 -176.313364 
2.0687500000000001 0.006237 -177.112111 
2.0693750000000000 0.006409 -177.516003 
2.0699999999999998 0.006660 -177.299834 
2.0706250000000002 0.006767 -177.815246 
2.0712500000000000 0.007049 -178.247742 
2.0718749999999999 0.007292 -177.665063 
2.0724999999999998 0.007637 -177.086680 
2.0731250000000001 0.007920 -177.322094 
2.0737500000000000 0.008266 -177.113499 
2.0743749999999999 0.008565 -176.712770 
2.0750000000000002 0.009025 -176.661983 
2.0756250000000001 0.009316 -176.099506 
2.0762499999999999 0.009757 -175.804458 
2.0768749999999998 0.010038 -175.433676 
2.0775000000000001 0.010411 -175.602704 
2.0781250000000000 0.010531 -175.423801 
2.0787499999999999 0.010756 -175.221594 
2.0793750000000002 0.010912 -175.410804 
2.0800000000000001 0.011026 -175.058162 
2.0806249999999999 0.011170 -175.227423 
2.0812499999999998 0.011014 -175.072380 
2.0818750000000001 0.010996 -174.453076 
2.0825000000000000 0.010946 -174.898898 
2.0831249999999999 0.010993 -173.924390 
2.0837500000000002 0.010750 -173.536037 
2.0843750000000001 0.010546 -173.142001 
2.0850000000000000 0.010437 -171.815104 
2.0856249999999998 0.010381 -170.708581 
2.0862500000000002 0.010139 -169.072133 
2.0868750000000000 0.009841 -167.189950 
2.0874999999999999 0.009568 -165.413846 
2.0881249999999998 0.009298 -162.956252 
2.0887500000000001 0.009224 -161.278444 
2.0893750000000000 0.008955 -160.012460 
2.0899999999999999 0.008806 -158.214720 
2.0906250000000002 0.008679 -156.732383 
2.0912500000000001 0.008616 -155.984068 
2.0918749999999999 0.008540 -156.163710 
2.0924999999999998 0.008479 -155.632976 
2.0931250000000001 0.008388 -155.895966 
2.0937500000000000 0.008294 -155.970450 
2.0943749999999999 0.008280 -157.105770 
2.0950000000000002 0.008126 -157.925743 
2.0956250000000001 0.008170 -159.230442 
2.0962499999999999 0.008082 -160.146860 
2.0968749999999998 0.007972 -162.045131 
2.0975000000000001 0.007826 -163.155974 
2.0981250000000000 0.007629 -164.483558 
2.0987499999999999 0.007493 -165.747107 
2.0993750000000002 0.007291 -166.848099 
2.1000000000000001 0.007067 -168.127474 
2.1006250000000000 0.006718 -169.204480 
2.1012499999999998 0.006469 -170.144323 
2.1018750000000002 0.006221 -171.142322 
2.1025000000000000 0.005931 -171.015880 
2.1031249999999999 0.005663 -172.069475 
2.1037499999999998 0.005430 -173.265621 
2.1043750000000001 0.005226 -172.756327 
2.1050000000000000 0.005046 -173.101315 
2.1056249999999999 0.004842 -173.082154 
2.1062500000000002 0.004818 -173.155988 
2.1068750000000001 0.004719 -172.979476 
2.1074999999999999 0.004658 -173.083039 
2.1081249999999998 0.004618 -173.568023 
2.1087500000000001 0.004670 -174.774322 
2.1093750000000000 0.004740 -175.357938 
2.1099999999999999 0.004770 -176.021711 
2.1106250000000002 0.004821 -178.302319 
2.1112500000000001 0.004871 -179.935494 
2.1118749999999999 0.004860 177.877239 
2.1124999999999998 0.004911 175.949461 
2.1131250000000001 0.004900 173.378754 
2.1137500000000000 0.004867 171.508648 
2.1143749999999999 0.004786 168.203651 
2.1150000000000002 0.004660 164.278484 
2.1156250000000001 0.004561 161.196615 
2.1162500000000000 0.004437 158.778344 
2.1168749999999998 0.004230 155.178389 
2.1175000000000002 0.004068 152.236455 
2.1181250000000000 0.003818 149.900132 
2.1187499999999999 0.003639 146.839855 
2.1193749999999998 0.003445 144.030927 
2.1200000000000001 0.003192 141.501942 
2.1206250000000000 0.003023 139.621681 
2.1212499999999999 0.002804 138.957502 
2.1218750000000002 0.002671 138.538453 
2.1225000000000001 0.002511 139.277741 
2.1231249999999999 0.002404 140.948867 
2.1237499999999998 0.002261 141.523246 
2.1243750000000001 0.002247 143.834078 
2.1250000000000000 0.002348 145.635573 
2.1256249999999999 0.002346 147.039836 
2.1262500000000002 0.002397 149.352962 
2.1268750000000001 0.002462 149.581426 
2.1274999999999999 0.002621 147.667528 
2.1281249999999998 0.002701 145.194822 
2.1287500000000001 0.002662 142.671377 
2.1293750000000000 0.002759 141.187116 
2.1299999999999999 0.002793 137.723029 
2.1306250000000002 0.002694 134.573361 
2.1312500000000001 0.002750 129.949934 
2.1318750000000000 0.002666 125.445351 
2.1324999999999998 0.002545 120.286186 
2.1331250000000002 0.002394 114.183248 
2.1337500000000000 0.002260 109.637160 
2.1343749999999999 0.002084 103.422558 
2.1349999999999998 0.001867 97.439925 
2.1356250000000001 0.001684 91.123541 
2.1362500000000000 0.001413 85.601666 
2.1368749999999999 0.001173 79.339925 
2.1375000000000002 0.000915 75.121219 
2.1381250000000001 0.000688 73.672087 
2.1387499999999999 0.000392 73.397929 
2.1393749999999998 0.000140 131.155026 
2.1400000000000001 0.000308 -166.967170 
2.1406250000000000 0.000584 -154.061043 
2.1412499999999999 0.000858 -157.610124 
2.1418750000000002 0.001173 -160.689338 
2.1425000000000001 0.001421 -165.120295 
2.1431249999999999 0.001689 -169.414868 
2.1437499999999998 0.001882 -175.652226 
2.1443750000000001 0.002053 -179.214674 
2.1450000000000000 0.002184 175.171153 
2.1456249999999999 0.002265 170.865316 
2.1462500000000002 0.002303 166.185249 
2.1468750000000001 0.002277 162.313486 
2.1475000000000000 0.002173 158.811502 
2.1481249999999998 0.002053 155.423576 
2.1487500000000002 0.001873 152.701168 
2.1493750000000000 0.001671 152.910291 
2.1499999999999999 0.001471 154.446418 
2.1506249999999998 0.001283 161.286520 
2.1512500000000001 0.001142 173.480113 
2.1518750000000000 0.001213 -170.024317 
2.1524999999999999 0.001483 -157.941163 
2.1531250000000002 0.001818 -151.360754 
2.1537500000000001 0.002275 -147.184408 
2.1543749999999999 0.002796 -147.491138 
2.1549999999999998 0.003343 -148.806002 
2.1556250000000001 0.004014 -153.163311 
2.1562500000000000 0.004646 -156.726891 
2.1568749999999999 0.005332 -160.874016 
2.1575000000000002 0.005962 -164.900620 
2.1581250000000001 0.006577 -169.522212 
2.1587499999999999 0.007215 -174.632098 
2.1593749999999998 0.007692 -178.484996 
2.1600000000000001 0.008298 177.569509 
2.1606250000000000 0.008731 172.594358 
2.1612499999999999 0.009159 168.912363 
2.1618750000000002 0.009342 164.286788 
2.1625000000000001 0.009577 160.639403 
2.1631250000000000 0.009698 157.510154 
2.1637499999999998 0.009653 154.589343 
2.1643750000000002 0.009522 151.496940 
2.1650000000000000 0.009385 149.984320 
2.1656249999999999 0.009159 149.262367 
2.1662499999999998 0.008960 149.531985 
2.1668750000000001 0.008769 151.715282 
2.1675000000000000 0.008817 155.710938 
2.1681249999999999 0.008830 160.435881 
2.1687500000000002 0.009432 166.445005 
2.1693750000000001 0.010334 171.720351 
2.1699999999999999 0.011591 176.658040 
2.1706249999999998 0.013134 -179.748303 
2.1712500000000001 0.014949 -176.485226 
2.1718750000000000 0.017051 -174.579265 
2.1724999999999999 0.018973 -173.732318 
2.1731250000000002 0.021294 -173.855336 
2.1737500000000001 0.023075 -174.497703 
2.1743749999999999 0.025052 -175.292147 
2.1749999999999998 0.026841 -175.610664 
2.1756250000000001 0.028199 -177.868002 
2.1762500000000000 0.029509 -179.748168 
2.1768749999999999 0.030460 178.726250 
2.1775000000000002 0.030764 176.548631 
2.1781250000000001 0.031096 174.881455 
2.1787500000000000 0.030888 173.643195 
2.1793749999999998 0.030104 171.835248 
2.1800000000000002 0.029573 170.453227 
2.1806250000000000 0.028092 169.794831 
2.1812499999999999 0.026161 168.209997 
2.1818749999999998 0.024520 168.183524 
2.1825000000000001 0.022512 167.996952 
2.1831250000000000 0.020431 169.296395 
2.1837499999999999 0.018450 171.195970 
2.1843750000000002 0.016815 173.692813 
2.1850000000000001 0.015235 176.795601 
2.1856249999999999 0.014213 -178.898478 
2.1862499999999998 0.013360 -174.597478 
2.1868750000000001 0.012974 -170.561221 
2.1875000000000000 0.012741 -167.072080 
2.1881249999999999 0.013129 -164.199531 
2.1887500000000002 0.013394 -163.101087 
2.1893750000000001 0.013853 -162.797505 
2.1899999999999999 0.014140 -163.197305 
2.1906249999999998 0.014559 -164.782573 
2.1912500000000001 0.014729 -167.404395 
2.1918750000000000 0.014785 -169.928860 
2.1924999999999999 0.014863 -172.723133 
2.1931250000000002 0.014688 -176.072094 
2.1937500000000001 0.014405 -179.556179 
2.1943750000000000 0.014022 177.079993 
2.1949999999999998 0.013578 173.077635 
2.1956250000000002 0.013001 169.163213 
2.1962500000000000 0.012266 165.331714 
2.1968749999999999 0.011555 161.698900 
2.1974999999999998 0.010823 158.910654 
2.1981250000000001 0.009989 155.482935 
2.1987500000000000 0.009186 153.067861 
2.1993749999999999 0.008378 151.473079 
2.2000000000000002 0.007678 150.599796 
2.2006250000000001 0.007016 149.987998 
2.2012499999999999 0.006362 150.174160 
2.2018749999999998 0.005926 152.197760 
2.2025000000000001 0.005541 155.257743 
2.2031250000000000 0.005380 157.867104 
2.2037499999999999 0.005363 161.047131 
2.2043750000000002 0.005454 162.417364 
2.2050000000000001 0.005601 163.782917 
2.2056249999999999 0.005868 163.724622 
2.2062499999999998 0.006013 163.277906 
2.2068750000000001 0.006377 161.242613 
2.2075000000000000 0.006515 158.753404 
2.2081249999999999 0.006798 155.823474 
2.2087500000000002 0.006838 152.516419 
2.2093750000000001 0.006850 148.853950 
2.2100000000000000 0.006917 144.887942 
2.2106249999999998 0.006835 139.749680 
2.2112500000000002 0.006708 134.697581 
2.2118750000000000 0.006522 130.590843 
2.2124999999999999 0.006283 125.346106 
2.2131249999999998 0.005935 120.815740 
2.2137500000000001 0.005606 115.346635 
2.2143750000000000 0.005245 111.969722 
2.2149999999999999 0.004788 107.745649 
2.2156250000000002 0.004385 103.184689 
2.2162500000000001 0.003921 100.302040 
2.2168749999999999 0.003420 97.689260 
2.2174999999999998 0.002946 96.716338 
2.2181250000000001 0.002509 96.768510 
2.2187500000000000 0.002106 100.872907 
2.2193749999999999 0.001751 107.791628 
2.2200000000000002 0.001577 120.365988 
2.2206250000000001 0.001530 133.637607 
2.2212499999999999 0.001688 146.175788 
2.2218749999999998 0.001947 152.499118 
2.2225000000000001 0.002218 155.626896 
2.2231250000000000 0.002538 156.207452 
2.2237499999999999 0.002790 155.414822 
2.2243750000000002 0.003045 152.582321 
2.2250000000000001 0.003297 149.902821 
2.2256250000000000 0.003443 146.965817 
2.2262499999999998 0.003520 142.936428 
2.2268750000000002 0.003574 138.459937 
2.2275000000000000 0.003610 136.076982 
2.2281249999999999 0.003577 131.379026 
2.2287499999999998 0.003395 128.217107 
2.2293750000000001 0.003257 125.780226 
2.2300000000000000 0.003076 122.358643 
2.2306249999999999 0.002894 121.695464 
2.2312500000000002 0.002642 121.849192 
2.2318750000000001 0.002385 124.389789 
2.2324999999999999 0.002235 128.945652 
2.2331249999999998 0.002118 137.232834 
2.2337500000000001 0.002094 145.780640 
2.2343750000000000 0.002258 153.923251 
2.2349999999999999 0.002549 160.584501 
2.2356250000000002 0.002959 164.278442 
2.2362500000000001 0.003366 165.742292 
2.2368749999999999 0.003858 165.735311 
2.2374999999999998 0.004357 164.303535 
2.2381250000000001 0.004868 161.822418 
2.2387500000000000 0.005318 159.595774 
2.2393749999999999 0.005824 155.957489 
2.2400000000000002 0.006236 152.596311 
2.2406250000000001 0.006618 148.932873 
2.2412500000000000 0.006959 144.701464 
2.2418749999999998 0.007341 140.851989 
2.2425000000000002 0.007552 137.328439 
2.2431250000000000 0.007678 133.719144 
2.2437499999999999 0.007709 130.074656 
2.2443749999999998 0.007840 126.798106 
2.2450000000000001 0.007793 125.117523 
2.2456250000000000 0.007794 122.546736 
2.2462499999999999 0.007673 121.279166 
2.2468750000000002 0.007658 121.256218 
2.2475000000000001 0.007644 121.804195 
2.2481249999999999 0.007762 123.871654 
2.2487499999999998 0.008007 125.440102 
2.2493750000000001 0.008214 127.838516 
2.2500000000000000 0.008818 128.825292 
2.2506249999999999 0.009482 131.403839 
2.2512500000000002 0.010447 132.040084 
2.2518750000000001 0.011542 133.228805 
2.2524999999999999 0.012955 134.018772 
2.2531249999999998 0.014401 133.781802 
2.2537500000000001 0.016052 132.529685 
2.2543750000000000 0.017710 130.929924 
2.2549999999999999 0.019684 129.317920 
2.2556250000000002 0.021518 127.273655 
2.2562500000000001 0.023531 124.346357 
2.2568750000000000 0.025399 122.090213 
2.2574999999999998 0.027573 119.419932 
2.2581250000000002 0.029598 116.692192 
2.2587500000000000 0.031338 113.974530 
2.2593749999999999 0.033508 111.459229 
2.2599999999999998 0.035532 109.208182 
2.2606250000000001 0.037499 107.286567 
2.2612500000000000 0.039573 105.948803 
2.2618749999999999 0.042245 105.441158 
2.2625000000000002 0.045110 104.463411 
2.2631250000000001 0.047699 105.985363 
2.2637499999999999 0.051104 108.665540 
2.2643749999999998 0.055305 112.305221 
2.2650000000000001 0.059247 117.190339 
2.2656250000000000 0.063569 123.927515 
2.2662499999999999 0.066996 132.269957 
2.2668750000000002 0.070576 141.326164 
2.2675000000000001 0.072508 150.565070 
2.2681249999999999 0.072501 160.359962 
2.2687499999999998 0.072419 169.495661 
2.2693750000000001 0.072826 175.023759 
2.2700000000000000 0.070496 -179.392307 
2.2706249999999999 0.067748 -175.837842 
2.2712500000000002 0.065302 -173.307565 
2.2718750000000001 0.062970 -171.811976 
2.2725000000000000 0.061758 -170.173455 
2.2731249999999998 0.058374 -170.306846 
2.2737500000000002 0.056123 -170.287665 
2.2743750000000000 0.053176 -171.721963 
2.2749999999999999 0.050642 -172.805928 
2.2756249999999998 0.047609 -174.547046 
2.2762500000000001 0.044366 -176.218695 
2.2768750000000000 0.041639 -178.299035 
2.2774999999999999 0.038445 179.644675 
2.2781250000000002 0.035852 176.764199 
2.2787500000000001 0.033126 174.578277 
2.2793749999999999 0.030349 172.034391 
2.2799999999999998 0.028090 170.019285 
2.2806250000000001 0.026005 168.086781 
2.2812500000000000 0.023953 166.824130 
2.2818749999999999 0.022084 165.489669 
2.2825000000000002 0.020551 164.835831 
2.2831250000000001 0.019414 164.626393 
2.2837499999999999 0.018438 165.174519 
2.2843749999999998 0.017712 165.526036 
2.2850000000000001 0.017331 165.689223 
2.2856250000000000 0.017072 166.233136 
2.2862499999999999 0.016915 167.165653 
2.2868750000000002 0.017002 166.136005 
2.2875000000000001 0.017399 166.293575 
2.2881250000000000 0.017620 164.427769 
2.2887499999999998 0.017771 162.707609 
2.2893750000000002 0.018034 160.350068 
2.2900000000000000 0.018196 157.751359 
2.2906249999999999 0.018202 155.034072 
2.2912499999999998 0.018267 151.502928 
2.2918750000000001 0.018140 147.999406 
2.2925000000000000 0.018123 144.241518 
2.2931249999999999 0.017788 140.466787 
2.2937500000000002 0.017498 136.535927 
2.2943750000000001 0.017114 132.499948 
2.2949999999999999 0.016672 128.570483 
2.2956249999999998 0.016174 124.900279 
