!
! C:\Users\rflab\Downloads\dp2_kdzw\40.S1P
!
! Touchstone 1.1 file saved by VNA.EXE V1.65 (www.ke5fx.com/gpib/readme.htm)
! 12/12/2024 6:50:14 PM
!
!    Source: HEWLETT PACKARD,8753D,0,6.14
!  Min freq: 2.000000E+009 Hz
!  Max freq: 2.500000E+009 Hz
!    Points: 801
!    Params: S21
!
!!!!!
# GHZ S MA R 50
2.0000000000000000 0.004035 -155.194480 
2.0006249999999999 0.003871 -155.642342 
2.0012500000000002 0.003775 -155.573862 
2.0018750000000001 0.003610 -154.471504 
2.0024999999999999 0.003494 -154.408755 
2.0031249999999998 0.003381 -153.679784 
2.0037500000000001 0.003325 -152.846007 
2.0043750000000000 0.003276 -152.083755 
2.0049999999999999 0.003250 -150.712884 
2.0056250000000002 0.003132 -149.633072 
2.0062500000000001 0.003180 -149.711094 
2.0068750000000000 0.003175 -148.742243 
2.0074999999999998 0.003178 -148.717764 
2.0081250000000002 0.003106 -148.801649 
2.0087500000000000 0.003079 -149.083419 
2.0093749999999999 0.003126 -150.803639 
2.0099999999999998 0.003086 -150.918304 
2.0106250000000001 0.003103 -152.749886 
2.0112500000000000 0.003071 -155.056188 
2.0118749999999999 0.002990 -155.584777 
2.0125000000000002 0.002922 -158.114377 
2.0131250000000001 0.002866 -161.213841 
2.0137499999999999 0.002750 -161.952312 
2.0143749999999998 0.002645 -164.627114 
2.0150000000000001 0.002620 -166.116782 
2.0156250000000000 0.002466 -167.992498 
2.0162499999999999 0.002398 -168.790047 
2.0168750000000002 0.002306 -169.800572 
2.0175000000000001 0.002214 -170.175556 
2.0181249999999999 0.002111 -168.930555 
2.0187499999999998 0.002046 -169.149023 
2.0193750000000001 0.001952 -167.273886 
2.0200000000000000 0.001910 -166.576189 
2.0206249999999999 0.001869 -164.916987 
2.0212500000000002 0.001811 -162.541812 
2.0218750000000001 0.001789 -161.431647 
2.0225000000000000 0.001781 -159.354626 
2.0231249999999998 0.001817 -158.078516 
2.0237500000000002 0.001837 -157.118727 
2.0243750000000000 0.001853 -156.733655 
2.0249999999999999 0.001861 -156.546945 
2.0256249999999998 0.001913 -157.274405 
2.0262500000000001 0.001963 -158.890038 
2.0268750000000000 0.001967 -160.037369 
2.0274999999999999 0.001982 -159.983323 
2.0281250000000002 0.002001 -162.983604 
2.0287500000000001 0.002033 -164.484160 
2.0293749999999999 0.002028 -166.907191 
2.0299999999999998 0.002029 -166.873192 
2.0306250000000001 0.002012 -168.723360 
2.0312500000000000 0.001966 -170.712458 
2.0318749999999999 0.001976 -170.927743 
2.0325000000000002 0.001910 -172.735679 
2.0331250000000001 0.001883 -170.498926 
2.0337499999999999 0.001835 -170.705924 
2.0343749999999998 0.001819 -170.710566 
2.0350000000000001 0.001783 -170.112527 
2.0356250000000000 0.001809 -168.537523 
2.0362499999999999 0.001799 -167.370498 
2.0368750000000002 0.001832 -166.238621 
2.0375000000000001 0.001870 -165.198446 
2.0381250000000000 0.001915 -164.624432 
2.0387499999999998 0.001982 -164.417228 
2.0393750000000002 0.002078 -163.855913 
2.0400000000000000 0.002135 -164.292329 
2.0406249999999999 0.002225 -165.828235 
2.0412499999999998 0.002333 -167.171074 
2.0418750000000001 0.002428 -168.989096 
2.0425000000000000 0.002486 -170.096763 
2.0431249999999999 0.002599 -172.811089 
2.0437500000000002 0.002647 -175.272148 
2.0443750000000001 0.002732 -177.333631 
2.0449999999999999 0.002761 179.811990 
2.0456249999999998 0.002830 177.373544 
2.0462500000000001 0.002818 175.555389 
2.0468750000000000 0.002843 173.640707 
2.0474999999999999 0.002823 170.830407 
2.0481250000000002 0.002819 169.755833 
2.0487500000000001 0.002768 167.507861 
2.0493749999999999 0.002710 166.908675 
2.0499999999999998 0.002648 165.885536 
2.0506250000000001 0.002632 165.221693 
2.0512500000000000 0.002582 165.153430 
2.0518749999999999 0.002563 164.327374 
2.0525000000000002 0.002500 165.184403 
2.0531250000000001 0.002486 166.162318 
2.0537500000000000 0.002492 167.150422 
2.0543749999999998 0.002544 168.123927 
2.0550000000000002 0.002560 169.315788 
2.0556250000000000 0.002655 170.358768 
2.0562499999999999 0.002708 171.440790 
2.0568749999999998 0.002889 171.486768 
2.0575000000000001 0.003037 171.749683 
2.0581250000000000 0.003191 171.846292 
2.0587499999999999 0.003334 171.471869 
2.0593750000000002 0.003544 171.242412 
2.0600000000000001 0.003707 169.370846 
2.0606249999999999 0.003849 168.762455 
2.0612499999999998 0.004045 167.236748 
2.0618750000000001 0.004200 166.354227 
2.0625000000000000 0.004382 165.392897 
2.0631249999999999 0.004520 163.061046 
2.0637500000000002 0.004608 162.083443 
2.0643750000000001 0.004747 160.664049 
2.0649999999999999 0.004887 159.458029 
2.0656249999999998 0.004920 158.921422 
2.0662500000000001 0.005002 157.358713 
2.0668750000000000 0.005069 156.191301 
2.0674999999999999 0.005200 156.050848 
2.0681250000000002 0.005315 154.753459 
2.0687500000000001 0.005349 154.277855 
2.0693750000000000 0.005540 154.499230 
2.0699999999999998 0.005647 154.369726 
2.0706250000000002 0.005853 154.404614 
2.0712500000000000 0.006045 155.092448 
2.0718749999999999 0.006259 155.360069 
2.0724999999999998 0.006447 155.319130 
2.0731250000000001 0.006668 155.703217 
2.0737500000000000 0.007011 156.304574 
2.0743749999999999 0.007337 157.171317 
2.0750000000000002 0.007625 157.415416 
2.0756250000000001 0.007820 157.864812 
2.0762499999999999 0.008096 158.713679 
2.0768749999999998 0.008350 158.718068 
2.0775000000000001 0.008559 159.202223 
2.0781250000000000 0.008725 160.018230 
2.0787499999999999 0.008913 159.552300 
2.0793750000000002 0.008912 161.041553 
2.0800000000000001 0.008992 160.305300 
2.0806249999999999 0.009009 160.839051 
2.0812499999999998 0.009106 161.279462 
2.0818750000000001 0.009115 161.715764 
2.0825000000000000 0.008949 161.703100 
2.0831249999999999 0.008736 162.516497 
2.0837500000000002 0.008647 162.979040 
2.0843750000000001 0.008443 163.476795 
2.0850000000000000 0.008367 165.254940 
2.0856249999999998 0.008158 166.037669 
2.0862500000000002 0.007998 167.567159 
2.0868750000000000 0.007798 169.472034 
2.0874999999999999 0.007654 171.285859 
2.0881249999999998 0.007334 173.391579 
2.0887500000000001 0.007160 175.756700 
2.0893750000000000 0.007005 176.862789 
2.0899999999999999 0.006891 178.772861 
2.0906250000000002 0.006767 -179.527626 
2.0912500000000001 0.006689 -178.439483 
2.0918749999999999 0.006652 -178.145372 
2.0924999999999998 0.006550 -178.243703 
2.0931250000000001 0.006554 -178.369911 
2.0937500000000000 0.006447 -178.387267 
2.0943749999999999 0.006447 -179.347326 
2.0950000000000002 0.006354 179.797925 
2.0956250000000001 0.006289 178.790135 
2.0962499999999999 0.006291 177.775783 
2.0968749999999998 0.006160 177.124642 
2.0975000000000001 0.006028 176.042423 
2.0981250000000000 0.005834 174.267505 
2.0987499999999999 0.005780 172.512962 
2.0993750000000002 0.005616 171.902917 
2.1000000000000001 0.005437 170.142374 
2.1006250000000000 0.005178 170.624419 
2.1012499999999998 0.004950 169.001801 
2.1018750000000002 0.004794 168.416769 
2.1025000000000000 0.004572 166.995756 
2.1031249999999999 0.004314 166.785595 
2.1037499999999998 0.004180 167.218469 
2.1043750000000001 0.003997 166.515836 
2.1050000000000000 0.003841 166.068573 
2.1056249999999999 0.003769 166.134721 
2.1062500000000002 0.003668 167.246176 
2.1068750000000001 0.003602 167.378631 
2.1074999999999999 0.003580 166.497816 
2.1081249999999998 0.003513 166.156153 
2.1087500000000001 0.003578 165.522020 
2.1093750000000000 0.003621 164.668624 
2.1099999999999999 0.003592 163.812208 
2.1106250000000002 0.003675 162.802175 
2.1112500000000001 0.003658 160.570123 
2.1118749999999999 0.003698 158.963156 
2.1124999999999998 0.003729 157.013795 
2.1131250000000001 0.003699 153.728907 
2.1137500000000000 0.003675 150.817788 
2.1143749999999999 0.003609 149.207310 
2.1150000000000002 0.003555 145.098488 
2.1156250000000001 0.003466 142.613056 
2.1162500000000000 0.003343 139.848093 
2.1168749999999998 0.003185 136.022109 
2.1175000000000002 0.003039 134.170319 
2.1181250000000000 0.002912 131.036784 
2.1187499999999999 0.002778 128.647522 
2.1193749999999998 0.002580 125.201562 
2.1200000000000001 0.002414 123.435873 
2.1206250000000000 0.002265 122.064189 
2.1212499999999999 0.002122 121.304420 
2.1218750000000002 0.001997 120.254719 
2.1225000000000001 0.001886 120.988606 
2.1231249999999999 0.001793 122.650551 
2.1237499999999998 0.001710 124.836889 
2.1243750000000001 0.001700 127.425055 
2.1250000000000000 0.001741 128.777444 
2.1256249999999999 0.001755 129.847928 
2.1262500000000002 0.001811 132.868247 
2.1268750000000001 0.001857 132.629965 
2.1274999999999999 0.001987 130.949870 
2.1281249999999998 0.002054 128.484264 
2.1287500000000001 0.002032 126.430208 
2.1293750000000000 0.002092 123.847649 
2.1299999999999999 0.002109 120.888230 
2.1306250000000002 0.002062 117.611036 
2.1312500000000001 0.002119 113.931724 
2.1318750000000000 0.002020 108.864871 
2.1324999999999998 0.001938 103.528623 
2.1331250000000002 0.001823 98.511503 
2.1337500000000000 0.001704 93.377289 
2.1343749999999999 0.001564 87.229432 
2.1349999999999998 0.001404 81.532748 
2.1356250000000001 0.001265 75.237204 
2.1362500000000000 0.001061 69.285014 
2.1368749999999999 0.000879 63.351545 
2.1375000000000002 0.000688 60.182445 
2.1381250000000001 0.000514 59.301262 
2.1387499999999999 0.000283 63.399902 
2.1393749999999998 0.000138 123.030102 
2.1400000000000001 0.000264 173.176876 
2.1406250000000000 0.000481 -174.924286 
2.1412499999999999 0.000695 -176.858062 
2.1418750000000002 0.000939 -179.216470 
2.1425000000000001 0.001131 176.723230 
2.1431249999999999 0.001337 172.136392 
2.1437499999999998 0.001489 166.021617 
2.1443750000000001 0.001616 162.348408 
2.1450000000000000 0.001714 156.533533 
2.1456249999999999 0.001806 152.717776 
2.1462500000000002 0.001822 148.419022 
2.1468750000000001 0.001797 144.709726 
2.1475000000000000 0.001727 140.901732 
2.1481249999999998 0.001652 137.450459 
2.1487500000000002 0.001503 134.800789 
2.1493750000000000 0.001337 134.505055 
2.1499999999999999 0.001190 135.040584 
2.1506249999999998 0.001037 141.869965 
2.1512500000000001 0.000909 153.903890 
2.1518750000000000 0.000948 170.063820 
2.1524999999999999 0.001155 -177.158408 
2.1531250000000002 0.001393 -169.681776 
2.1537500000000001 0.001776 -165.149842 
2.1543749999999999 0.002169 -165.765225 
2.1549999999999998 0.002623 -167.270649 
2.1556250000000001 0.003154 -170.957018 
2.1562500000000000 0.003687 -174.295674 
2.1568749999999999 0.004225 -179.395377 
2.1575000000000002 0.004779 176.962868 
2.1581250000000001 0.005270 172.602679 
2.1587499999999999 0.005811 167.749607 
2.1593749999999998 0.006181 164.168757 
2.1600000000000001 0.006721 159.537445 
2.1606250000000000 0.007115 154.884511 
2.1612499999999999 0.007335 150.280069 
2.1618750000000002 0.007638 146.455769 
2.1625000000000001 0.007769 142.847364 
2.1631250000000000 0.007815 139.981145 
2.1637499999999998 0.007920 136.516064 
2.1643750000000002 0.007722 133.694012 
2.1650000000000000 0.007652 131.962668 
2.1656249999999999 0.007530 131.058785 
2.1662499999999998 0.007333 131.334184 
2.1668750000000001 0.007226 133.712597 
2.1675000000000000 0.007176 137.500309 
2.1681249999999999 0.007271 141.841615 
2.1687500000000002 0.007781 148.516588 
2.1693750000000001 0.008511 153.612961 
2.1699999999999999 0.009426 159.206161 
2.1706249999999998 0.010778 162.017181 
2.1712500000000001 0.012496 165.846030 
2.1718750000000000 0.014099 167.752841 
2.1724999999999999 0.015745 167.927784 
2.1731250000000002 0.017509 168.472187 
2.1737500000000001 0.019240 167.443453 
2.1743749999999999 0.020658 166.009310 
2.1749999999999998 0.022222 165.200995 
2.1756250000000001 0.023335 164.086449 
2.1762500000000000 0.024442 162.028097 
2.1768749999999999 0.024774 159.587996 
2.1775000000000002 0.025225 157.528430 
2.1781250000000001 0.025584 155.465019 
2.1787500000000000 0.025217 154.140433 
2.1793749999999998 0.024763 151.905182 
2.1800000000000002 0.023862 150.428944 
2.1806250000000000 0.022844 149.484608 
2.1812499999999999 0.021428 147.983532 
2.1818749999999998 0.019973 147.758577 
2.1825000000000001 0.018456 147.314232 
2.1831250000000000 0.016735 147.877642 
2.1837499999999999 0.015046 149.565018 
2.1843750000000002 0.013596 152.049029 
2.1850000000000001 0.012399 155.198079 
2.1856249999999999 0.011574 158.864865 
2.1862499999999998 0.010954 163.183698 
2.1868750000000001 0.010584 167.023765 
2.1875000000000000 0.010482 170.399700 
2.1881249999999999 0.010616 173.379016 
2.1887500000000002 0.010948 174.526310 
2.1893750000000001 0.011330 173.780969 
2.1899999999999999 0.011639 172.880811 
2.1906249999999998 0.011970 171.404118 
2.1912500000000001 0.012039 168.844049 
2.1918750000000000 0.012158 166.060767 
2.1924999999999999 0.012274 162.812504 
2.1931250000000002 0.012114 160.214194 
2.1937500000000001 0.011850 156.341848 
2.1943750000000000 0.011623 151.794764 
2.1949999999999998 0.011185 148.670943 
2.1956250000000002 0.010733 144.664726 
2.1962500000000000 0.010209 141.275831 
2.1968749999999999 0.009519 137.039975 
2.1974999999999998 0.008957 134.413299 
2.1981250000000001 0.008334 130.849477 
2.1987500000000000 0.007609 127.910887 
2.1993749999999999 0.006951 126.576290 
2.2000000000000002 0.006313 125.120892 
2.2006250000000001 0.005751 124.738266 
2.2012499999999999 0.005297 125.511299 
2.2018749999999998 0.004951 126.459872 
2.2025000000000001 0.004626 129.627871 
2.2031250000000000 0.004452 132.154602 
2.2037499999999999 0.004453 134.965299 
2.2043750000000002 0.004504 136.855562 
2.2050000000000001 0.004677 137.899691 
2.2056249999999999 0.004872 138.086252 
2.2062499999999998 0.004978 137.292011 
2.2068750000000001 0.005283 135.086850 
2.2075000000000000 0.005442 132.892575 
2.2081249999999999 0.005616 129.917691 
2.2087500000000002 0.005654 126.537913 
2.2093750000000001 0.005692 122.471926 
2.2100000000000000 0.005754 118.164238 
2.2106249999999998 0.005669 113.817161 
2.2112500000000002 0.005586 109.006475 
2.2118750000000000 0.005484 104.607145 
2.2124999999999999 0.005207 99.553752 
2.2131249999999998 0.004971 95.360870 
2.2137500000000001 0.004674 90.046765 
2.2143750000000000 0.004319 85.977025 
2.2149999999999999 0.004008 81.543054 
2.2156250000000002 0.003631 76.948427 
2.2162500000000001 0.003256 73.655793 
2.2168749999999999 0.002825 71.985598 
2.2174999999999998 0.002410 71.316825 
2.2181250000000001 0.002077 71.074127 
2.2187500000000000 0.001717 75.241961 
2.2193749999999999 0.001428 82.543752 
2.2200000000000002 0.001300 94.405153 
2.2206250000000001 0.001284 107.998336 
2.2212499999999999 0.001378 120.750760 
2.2218749999999998 0.001613 126.751792 
2.2225000000000001 0.001820 129.787792 
2.2231250000000000 0.002100 130.204370 
2.2237499999999999 0.002338 130.232230 
2.2243750000000002 0.002545 127.307909 
2.2250000000000001 0.002707 124.938051 
2.2256250000000000 0.002829 121.547231 
2.2262499999999998 0.002918 117.045531 
2.2268750000000002 0.002944 112.919533 
2.2275000000000000 0.002984 110.189592 
2.2281249999999999 0.002942 105.864086 
2.2287499999999998 0.002812 102.767230 
2.2293750000000001 0.002706 99.940419 
2.2300000000000000 0.002522 97.740655 
2.2306249999999999 0.002403 96.704024 
2.2312500000000002 0.002166 96.510133 
2.2318750000000001 0.001986 99.013931 
2.2324999999999999 0.001860 104.399634 
2.2331249999999998 0.001771 112.589024 
2.2337500000000001 0.001763 120.699311 
2.2343750000000000 0.001857 129.107781 
2.2349999999999999 0.002155 135.544678 
2.2356250000000002 0.002467 138.792732 
2.2362500000000001 0.002819 140.593986 
2.2368749999999999 0.003217 141.134585 
2.2374999999999998 0.003623 139.336139 
2.2381250000000001 0.004025 137.311528 
2.2387500000000000 0.004394 134.522966 
2.2393749999999999 0.004840 131.195213 
2.2400000000000002 0.005208 128.076497 
2.2406250000000001 0.005494 124.662444 
2.2412500000000000 0.005755 120.480951 
2.2418749999999998 0.006068 116.701978 
2.2425000000000002 0.006251 113.318538 
2.2431250000000000 0.006368 109.505483 
2.2437499999999999 0.006423 105.917345 
2.2443749999999998 0.006471 102.593373 
2.2450000000000001 0.006438 101.219219 
2.2456250000000000 0.006495 98.682197 
2.2462499999999999 0.006366 97.557776 
2.2468750000000002 0.006399 97.278070 
2.2475000000000001 0.006396 97.759779 
2.2481249999999999 0.006457 100.166328 
2.2487499999999998 0.006716 102.102144 
2.2493750000000001 0.006890 103.984310 
2.2500000000000000 0.007342 105.516540 
2.2506249999999999 0.007894 108.080355 
2.2512500000000002 0.008725 108.883516 
2.2518750000000001 0.009591 110.233299 
2.2524999999999999 0.010812 110.992872 
2.2531249999999998 0.012165 110.551835 
2.2537500000000001 0.013499 109.118502 
2.2543750000000000 0.014940 108.335477 
2.2549999999999999 0.016563 106.462890 
2.2556250000000002 0.018084 104.916433 
2.2562500000000001 0.019736 101.624860 
2.2568750000000000 0.021208 99.666055 
2.2574999999999998 0.023139 96.917051 
2.2581250000000002 0.024935 94.538708 
2.2587500000000000 0.026899 92.153727 
2.2593749999999999 0.028485 89.719923 
2.2599999999999998 0.030133 87.151899 
2.2606250000000001 0.032140 85.418488 
2.2612500000000000 0.033968 84.629061 
2.2618749999999999 0.036293 82.969483 
2.2625000000000002 0.038756 83.242226 
2.2631250000000001 0.042131 84.854649 
2.2637499999999999 0.045214 87.371753 
2.2643749999999998 0.048825 91.979022 
2.2650000000000001 0.053116 97.529247 
2.2656250000000000 0.055288 104.690643 
2.2662499999999999 0.059779 113.646754 
2.2668750000000002 0.063046 124.241506 
2.2675000000000001 0.063848 133.920358 
2.2681249999999999 0.063567 143.221563 
2.2687499999999998 0.062736 153.430276 
2.2693750000000001 0.062375 158.901355 
2.2700000000000000 0.059769 164.185201 
2.2706249999999999 0.057613 168.077731 
2.2712500000000002 0.054925 170.650851 
2.2718750000000001 0.052888 171.839512 
2.2725000000000000 0.051114 173.499250 
2.2731249999999998 0.049154 173.211976 
2.2737500000000002 0.046391 173.320577 
2.2743750000000000 0.044754 171.971773 
2.2749999999999999 0.042484 170.777039 
2.2756249999999998 0.039917 168.126293 
2.2762500000000001 0.037769 166.615001 
2.2768750000000000 0.034951 164.723763 
2.2774999999999999 0.032395 162.543341 
2.2781250000000002 0.030167 160.325464 
2.2787500000000001 0.027996 157.381645 
2.2793749999999999 0.025614 155.213537 
2.2799999999999998 0.023713 153.143325 
2.2806250000000001 0.021901 150.721472 
2.2812500000000000 0.020272 149.708821 
2.2818749999999999 0.018970 148.517045 
2.2825000000000002 0.017487 147.949406 
2.2831250000000001 0.016523 147.596406 
2.2837499999999999 0.015573 147.980110 
2.2843749999999998 0.015016 148.609080 
2.2850000000000001 0.014924 148.681787 
2.2856250000000000 0.014595 149.788432 
2.2862499999999999 0.014387 150.223082 
2.2868750000000002 0.014487 150.288331 
2.2875000000000001 0.014841 149.523070 
2.2881250000000000 0.015054 147.874577 
2.2887499999999998 0.015287 145.975829 
2.2893750000000002 0.015490 144.300960 
2.2900000000000000 0.015615 141.350020 
2.2906249999999999 0.015518 138.663858 
2.2912499999999998 0.015721 135.376030 
2.2918750000000001 0.015758 131.717613 
2.2925000000000000 0.015647 128.224304 
2.2931249999999999 0.015328 124.212111 
2.2937500000000002 0.015221 120.006692 
2.2943750000000001 0.014847 116.174145 
2.2949999999999999 0.014348 112.672005 
2.2956249999999998 0.014018 108.888555 
2.2962500000000001 0.013565 105.098257 
2.2968750000000000 0.013051 101.940944 
2.2974999999999999 0.012579 99.106317 
2.2981250000000002 0.011992 96.419694 
