!
! C:\Users\rflab\Downloads\dp2_kdzw\60.S1P
!
! Touchstone 1.1 file saved by VNA.EXE V1.65 (www.ke5fx.com/gpib/readme.htm)
! 12/12/2024 6:51:33 PM
!
!    Source: HEWLETT PACKARD,8753D,0,6.14
!  Min freq: 2.000000E+009 Hz
!  Max freq: 2.500000E+009 Hz
!    Points: 801
!    Params: S21
!
!!!!!
# GHZ S MA R 50
2.0000000000000000 0.003140 -173.569730 
2.0006249999999999 0.003050 -174.219215 
2.0012500000000002 0.002916 -173.490636 
2.0018750000000001 0.002804 -173.776548 
2.0024999999999999 0.002727 -173.285628 
2.0031249999999998 0.002644 -171.963778 
2.0037500000000001 0.002593 -171.949988 
2.0043750000000000 0.002574 -171.413608 
2.0049999999999999 0.002490 -169.532993 
2.0056250000000002 0.002452 -168.418040 
2.0062500000000001 0.002496 -168.665383 
2.0068750000000000 0.002502 -167.777901 
2.0074999999999998 0.002471 -167.809095 
2.0081250000000002 0.002444 -167.970436 
2.0087500000000000 0.002409 -168.703965 
2.0093749999999999 0.002434 -168.763257 
2.0099999999999998 0.002455 -170.447123 
2.0106250000000001 0.002428 -171.949475 
2.0112500000000000 0.002403 -174.071045 
2.0118749999999999 0.002328 -175.642245 
2.0125000000000002 0.002293 -176.566369 
2.0131250000000001 0.002248 -179.872393 
2.0137499999999999 0.002161 179.822959 
2.0143749999999998 0.002083 176.817805 
2.0150000000000001 0.002041 174.695923 
2.0156250000000000 0.001950 172.396560 
2.0162499999999999 0.001864 172.279069 
2.0168750000000002 0.001796 170.917233 
2.0175000000000001 0.001733 171.345681 
2.0181249999999999 0.001639 172.004300 
2.0187499999999998 0.001619 171.757761 
2.0193750000000001 0.001550 173.001804 
2.0200000000000000 0.001480 174.945517 
2.0206249999999999 0.001464 176.882147 
2.0212500000000002 0.001424 177.742839 
2.0218750000000001 0.001393 179.852924 
2.0225000000000000 0.001412 -177.788103 
2.0231249999999998 0.001424 -176.867381 
2.0237500000000002 0.001446 -177.033252 
2.0243750000000000 0.001446 -175.724446 
2.0249999999999999 0.001499 -175.644624 
2.0256249999999998 0.001511 -176.172693 
2.0262500000000001 0.001536 -177.889846 
2.0268750000000000 0.001551 -179.350590 
2.0274999999999999 0.001558 179.822464 
2.0281250000000002 0.001570 178.044476 
2.0287500000000001 0.001582 177.717072 
2.0293749999999999 0.001595 174.310075 
2.0299999999999998 0.001586 174.065052 
2.0306250000000001 0.001598 171.637162 
2.0312500000000000 0.001547 169.571378 
2.0318749999999999 0.001536 170.440108 
2.0325000000000002 0.001495 169.535630 
2.0331250000000001 0.001450 169.748036 
2.0337499999999999 0.001421 170.426258 
2.0343749999999998 0.001427 169.373436 
2.0350000000000001 0.001399 170.991082 
2.0356250000000000 0.001395 171.615095 
2.0362499999999999 0.001387 172.760443 
2.0368750000000002 0.001427 174.209412 
2.0375000000000001 0.001462 174.918116 
2.0381250000000000 0.001474 176.299663 
2.0387499999999998 0.001536 175.246696 
2.0393750000000002 0.001595 177.031103 
2.0400000000000000 0.001658 175.972199 
2.0406249999999999 0.001740 173.778993 
2.0412499999999998 0.001793 172.814015 
2.0418750000000001 0.001857 171.262503 
2.0425000000000000 0.001924 169.523652 
2.0431249999999999 0.001994 167.510205 
2.0437500000000002 0.002060 165.029522 
2.0443750000000001 0.002078 162.586758 
2.0449999999999999 0.002131 160.593039 
2.0456249999999998 0.002133 157.765799 
2.0462500000000001 0.002156 155.231936 
2.0468750000000000 0.002167 153.416624 
2.0474999999999999 0.002144 151.243083 
2.0481250000000002 0.002130 148.747030 
2.0487500000000001 0.002087 146.943611 
2.0493749999999999 0.002064 145.924489 
2.0499999999999998 0.002025 144.803481 
2.0506250000000001 0.001990 144.412451 
2.0512500000000000 0.001968 144.062949 
2.0518749999999999 0.001897 144.414627 
2.0525000000000002 0.001883 144.127562 
2.0531250000000001 0.001866 144.132175 
2.0537500000000000 0.001863 146.321615 
2.0543749999999998 0.001885 146.823874 
2.0550000000000002 0.001886 149.274444 
2.0556250000000000 0.001999 149.635104 
2.0562499999999999 0.002026 149.379612 
2.0568749999999998 0.002144 150.295821 
2.0575000000000001 0.002218 149.877691 
2.0581250000000000 0.002372 151.136725 
2.0587499999999999 0.002472 150.490221 
2.0593750000000002 0.002600 149.700440 
2.0600000000000001 0.002720 149.226600 
2.0606249999999999 0.002813 147.423788 
2.0612499999999998 0.002932 145.432457 
2.0618750000000001 0.003058 144.706405 
2.0625000000000000 0.003183 144.048683 
2.0631249999999999 0.003245 141.878006 
2.0637500000000002 0.003401 141.060444 
2.0643750000000001 0.003471 139.457612 
2.0649999999999999 0.003474 138.820738 
2.0656249999999998 0.003517 136.933664 
2.0662500000000001 0.003603 135.965300 
2.0668750000000000 0.003655 134.563928 
2.0674999999999999 0.003721 134.023835 
2.0681250000000002 0.003751 132.678923 
2.0687500000000001 0.003822 132.924366 
2.0693750000000000 0.003932 132.466263 
2.0699999999999998 0.004058 132.847721 
2.0706250000000002 0.004088 132.776244 
2.0712500000000000 0.004226 133.342659 
2.0718749999999999 0.004408 133.141225 
2.0724999999999998 0.004507 133.147765 
2.0731250000000001 0.004683 134.498737 
2.0737500000000000 0.004941 134.294274 
2.0743749999999999 0.005105 135.121094 
2.0750000000000002 0.005307 135.940144 
2.0756250000000001 0.005475 136.125585 
2.0762499999999999 0.005518 136.573979 
2.0768749999999998 0.005656 136.830984 
2.0775000000000001 0.005862 138.236226 
2.0781250000000000 0.006026 137.685750 
2.0787499999999999 0.006165 138.632523 
2.0793750000000002 0.006101 137.782941 
2.0800000000000001 0.006051 138.660971 
2.0806249999999999 0.006125 138.901354 
2.0812499999999998 0.006106 138.436506 
2.0818750000000001 0.006081 139.267607 
2.0825000000000000 0.005925 139.227660 
2.0831249999999999 0.005843 139.605893 
2.0837500000000002 0.005815 141.288094 
2.0843750000000001 0.005650 140.757208 
2.0850000000000000 0.005539 143.157234 
2.0856249999999998 0.005442 143.905261 
2.0862500000000002 0.005291 144.686501 
2.0868750000000000 0.005224 147.155587 
2.0874999999999999 0.005042 148.755621 
2.0881249999999998 0.004841 150.457786 
2.0887500000000001 0.004862 153.155991 
2.0893750000000000 0.004568 155.797612 
2.0899999999999999 0.004518 156.598129 
2.0906250000000002 0.004461 158.389093 
2.0912500000000001 0.004364 159.426373 
2.0918749999999999 0.004413 160.760355 
2.0924999999999998 0.004141 160.165127 
2.0931250000000001 0.004167 160.091950 
2.0937500000000000 0.004105 159.759041 
2.0943749999999999 0.004173 158.502534 
2.0950000000000002 0.004030 157.887607 
2.0956250000000001 0.004078 157.177066 
2.0962499999999999 0.003936 156.651467 
2.0968749999999998 0.003845 154.651968 
2.0975000000000001 0.003812 153.426929 
2.0981250000000000 0.003698 152.186923 
2.0987499999999999 0.003657 150.880444 
2.0993750000000002 0.003453 149.794107 
2.1000000000000001 0.003364 148.709980 
2.1006250000000000 0.003183 147.656185 
2.1012499999999998 0.003101 147.140767 
2.1018750000000002 0.002935 146.703709 
2.1025000000000000 0.002780 146.615271 
2.1031249999999999 0.002678 145.283554 
2.1037499999999998 0.002562 146.068201 
2.1043750000000001 0.002432 145.958656 
2.1050000000000000 0.002362 145.761243 
2.1056249999999999 0.002286 144.423763 
2.1062500000000002 0.002204 146.261358 
2.1068750000000001 0.002223 146.516986 
2.1074999999999999 0.002164 146.225477 
2.1081249999999998 0.002157 145.877838 
2.1087500000000001 0.002117 145.307303 
2.1093750000000000 0.002175 144.934669 
2.1099999999999999 0.002160 143.372610 
2.1106250000000002 0.002186 142.351779 
2.1112500000000001 0.002236 140.822788 
2.1118749999999999 0.002224 137.624060 
2.1124999999999998 0.002226 137.002742 
2.1131250000000001 0.002226 134.277589 
2.1137500000000000 0.002159 131.830600 
2.1143749999999999 0.002169 128.931263 
2.1150000000000002 0.002097 125.938776 
2.1156250000000001 0.002021 123.932811 
2.1162500000000000 0.001998 121.482715 
2.1168749999999998 0.001906 118.219436 
2.1175000000000002 0.001807 114.072628 
2.1181250000000000 0.001723 112.663475 
2.1187499999999999 0.001622 109.778744 
2.1193749999999998 0.001512 105.684178 
2.1200000000000001 0.001452 103.950660 
2.1206250000000000 0.001355 104.180535 
2.1212499999999999 0.001231 102.783359 
2.1218750000000002 0.001159 101.173555 
2.1225000000000001 0.001105 103.742414 
2.1231249999999999 0.001059 105.375636 
2.1237499999999998 0.000996 107.363437 
2.1243750000000001 0.001013 109.782133 
2.1250000000000000 0.001033 109.873526 
2.1256249999999999 0.001032 112.511474 
2.1262500000000002 0.001076 114.273195 
2.1268750000000001 0.001116 115.152924 
2.1274999999999999 0.001166 113.738771 
2.1281249999999998 0.001210 111.299322 
2.1287500000000001 0.001203 109.352197 
2.1293750000000000 0.001225 107.231913 
2.1299999999999999 0.001250 105.164516 
2.1306250000000002 0.001214 101.067202 
2.1312500000000001 0.001227 96.650646 
2.1318750000000000 0.001181 92.307712 
2.1324999999999998 0.001125 87.230666 
2.1331250000000002 0.001065 81.788268 
2.1337500000000000 0.001007 77.126319 
2.1343749999999999 0.000929 71.253562 
2.1349999999999998 0.000827 65.051737 
2.1356250000000001 0.000754 58.568503 
2.1362500000000000 0.000632 53.998841 
2.1368749999999999 0.000534 47.472871 
2.1375000000000002 0.000412 45.041040 
2.1381250000000001 0.000321 44.975583 
2.1387499999999999 0.000184 48.287950 
2.1393749999999998 0.000090 100.554106 
2.1400000000000001 0.000152 151.913833 
2.1406250000000000 0.000275 168.430410 
2.1412499999999999 0.000405 165.618765 
2.1418750000000002 0.000534 163.339337 
2.1425000000000001 0.000650 160.080446 
2.1431249999999999 0.000781 156.212406 
2.1437499999999998 0.000874 150.178562 
2.1443750000000001 0.000946 144.861656 
2.1450000000000000 0.001018 141.348573 
2.1456249999999999 0.001081 137.162764 
2.1462500000000002 0.001076 132.394991 
2.1468750000000001 0.001069 129.103775 
2.1475000000000000 0.001017 125.408908 
2.1481249999999998 0.000974 121.106272 
2.1487500000000002 0.000885 118.323753 
2.1493750000000000 0.000789 119.086562 
2.1499999999999999 0.000692 119.531345 
2.1506249999999998 0.000584 126.571739 
2.1512500000000001 0.000522 138.442496 
2.1518750000000000 0.000550 156.414688 
2.1524999999999999 0.000672 169.629048 
2.1531250000000002 0.000831 176.945528 
2.1537500000000001 0.001048 -178.325561 
2.1543749999999999 0.001297 -179.104868 
2.1549999999999998 0.001585 179.142461 
2.1556250000000001 0.001881 174.824643 
2.1562500000000000 0.002212 171.431520 
2.1568749999999999 0.002507 166.747319 
2.1575000000000002 0.002893 162.696110 
2.1581250000000001 0.003223 158.898604 
2.1587499999999999 0.003576 153.342691 
2.1593749999999998 0.003764 148.879726 
2.1600000000000001 0.004027 145.010481 
2.1606250000000000 0.004231 140.159086 
2.1612499999999999 0.004494 135.950042 
2.1618750000000002 0.004639 131.593922 
2.1625000000000001 0.004746 128.635090 
2.1631250000000000 0.004802 125.274462 
2.1637499999999998 0.004812 121.937075 
2.1643750000000002 0.004753 119.545615 
2.1650000000000000 0.004673 117.537710 
2.1656249999999999 0.004542 116.191165 
2.1662499999999998 0.004544 117.616556 
2.1668750000000001 0.004417 119.146514 
2.1675000000000000 0.004335 123.024454 
2.1681249999999999 0.004537 129.044424 
2.1687500000000002 0.004747 134.473975 
2.1693750000000001 0.005203 139.521152 
2.1699999999999999 0.005901 145.185673 
2.1706249999999998 0.006644 148.338083 
2.1712500000000001 0.007577 151.531702 
2.1718750000000000 0.008682 153.264666 
2.1724999999999999 0.009668 153.797673 
2.1731250000000002 0.010803 153.662291 
2.1737500000000001 0.011729 153.142236 
2.1743749999999999 0.012843 151.951670 
2.1749999999999998 0.013485 150.618742 
2.1756250000000001 0.014344 150.037779 
2.1762500000000000 0.014905 146.949998 
2.1768749999999999 0.015181 145.879189 
2.1775000000000002 0.015502 143.346883 
2.1781250000000001 0.015774 141.364531 
2.1787500000000000 0.015450 140.053161 
2.1793749999999998 0.015072 138.005791 
2.1800000000000002 0.014805 136.644342 
2.1806250000000000 0.013998 135.510645 
2.1812499999999999 0.013191 134.311627 
2.1818749999999998 0.012409 134.598335 
2.1825000000000001 0.011251 133.502502 
2.1831250000000000 0.010350 135.052262 
2.1837499999999999 0.009289 136.880327 
2.1843750000000002 0.008450 137.901395 
2.1850000000000001 0.007663 142.091872 
2.1856249999999999 0.007152 145.194192 
2.1862499999999998 0.006767 149.360654 
2.1868750000000001 0.006629 154.016438 
2.1875000000000000 0.006529 156.235719 
2.1881249999999999 0.006724 159.614208 
2.1887500000000002 0.006812 160.630270 
2.1893750000000001 0.007127 160.286097 
2.1899999999999999 0.007305 159.348091 
2.1906249999999998 0.007394 158.700134 
2.1912500000000001 0.007496 155.931300 
2.1918750000000000 0.007607 152.524168 
2.1924999999999999 0.007619 150.081204 
2.1931250000000002 0.007524 147.168997 
2.1937500000000001 0.007416 143.052004 
2.1943750000000000 0.007262 139.858198 
2.1949999999999998 0.006977 135.479047 
2.1956250000000002 0.006700 131.774747 
2.1962500000000000 0.006364 128.091874 
2.1968749999999999 0.006044 124.093166 
2.1974999999999998 0.005619 121.521649 
2.1981250000000001 0.005167 118.775236 
2.1987500000000000 0.004756 115.453831 
2.1993749999999999 0.004338 113.607562 
2.2000000000000002 0.004028 112.026871 
2.2006250000000001 0.003680 111.897573 
2.2012499999999999 0.003334 112.959967 
2.2018749999999998 0.003090 113.910201 
2.2025000000000001 0.002916 116.227803 
2.2031250000000000 0.002765 119.503473 
2.2037499999999999 0.002839 122.757196 
2.2043750000000002 0.002806 123.775109 
2.2050000000000001 0.002953 125.693904 
2.2056249999999999 0.003065 125.667963 
2.2062499999999998 0.003146 126.123929 
2.2068750000000001 0.003342 123.391394 
2.2075000000000000 0.003406 121.121957 
2.2081249999999999 0.003530 117.661565 
2.2087500000000002 0.003585 114.160765 
2.2093750000000001 0.003593 111.051979 
2.2100000000000000 0.003571 106.534372 
2.2106249999999998 0.003590 101.898752 
2.2112500000000002 0.003510 96.954606 
2.2118750000000000 0.003438 92.798317 
2.2124999999999999 0.003303 87.613101 
2.2131249999999998 0.003126 82.536750 
2.2137500000000001 0.002945 78.450821 
2.2143750000000000 0.002740 73.887862 
2.2149999999999999 0.002507 69.408242 
2.2156250000000002 0.002287 65.294744 
2.2162500000000001 0.002047 61.618568 
2.2168749999999999 0.001755 59.625736 
2.2174999999999998 0.001525 58.627311 
2.2181250000000001 0.001290 59.864156 
2.2187500000000000 0.001078 63.620610 
2.2193749999999999 0.000891 70.142432 
2.2200000000000002 0.000813 83.998911 
2.2206250000000001 0.000793 96.401755 
2.2212499999999999 0.000858 109.736317 
2.2218749999999998 0.001009 116.191075 
2.2225000000000001 0.001175 120.224225 
2.2231250000000000 0.001321 120.851552 
2.2237499999999999 0.001469 119.150810 
2.2243750000000002 0.001614 117.028865 
2.2250000000000001 0.001740 113.366572 
2.2256250000000000 0.001804 111.021480 
2.2262499999999998 0.001866 106.975463 
2.2268750000000002 0.001854 102.953751 
2.2275000000000000 0.001877 100.146037 
2.2281249999999999 0.001861 95.249097 
2.2287499999999998 0.001771 92.235579 
2.2293750000000001 0.001695 90.622537 
2.2300000000000000 0.001613 87.097513 
2.2306249999999999 0.001517 86.473085 
2.2312500000000002 0.001387 87.065274 
2.2318750000000001 0.001240 89.438378 
2.2324999999999999 0.001174 94.595498 
2.2331249999999998 0.001128 102.423740 
2.2337500000000001 0.001127 111.311849 
2.2343750000000000 0.001233 120.387192 
2.2349999999999999 0.001381 125.857242 
2.2356250000000002 0.001589 129.768168 
2.2362500000000001 0.001787 130.864128 
2.2368749999999999 0.002071 131.118913 
2.2374999999999998 0.002329 130.245663 
2.2381250000000001 0.002580 127.899129 
2.2387500000000000 0.002847 124.282191 
2.2393749999999999 0.003116 121.623883 
2.2400000000000002 0.003332 118.314366 
2.2406250000000001 0.003482 115.238497 
2.2412500000000000 0.003727 111.452244 
2.2418749999999998 0.003904 107.040463 
2.2425000000000002 0.003989 103.557807 
2.2431250000000000 0.004109 99.612063 
2.2437499999999999 0.004145 96.817645 
2.2443749999999998 0.004188 93.120117 
2.2450000000000001 0.004121 91.438724 
2.2456250000000000 0.004133 89.424944 
2.2462499999999999 0.004134 88.023704 
2.2468750000000002 0.004104 88.515326 
2.2475000000000001 0.004088 89.061078 
2.2481249999999999 0.004168 91.452165 
2.2487499999999998 0.004303 93.049162 
2.2493750000000001 0.004470 94.926060 
2.2500000000000000 0.004794 96.740467 
2.2506249999999999 0.005089 98.471032 
2.2512500000000002 0.005674 99.583439 
2.2518750000000001 0.006269 101.309076 
2.2524999999999999 0.006978 101.729165 
2.2531249999999998 0.007794 101.382803 
2.2537500000000001 0.008742 100.598921 
2.2543750000000000 0.009538 99.188254 
2.2549999999999999 0.010614 97.455156 
2.2556250000000002 0.011735 95.795380 
2.2562500000000001 0.012700 92.896891 
2.2568750000000000 0.013760 91.572780 
2.2574999999999998 0.014984 88.772826 
2.2581250000000002 0.016073 85.957963 
2.2587500000000000 0.017202 82.908087 
2.2593749999999999 0.018352 80.662994 
2.2599999999999998 0.019618 78.971925 
2.2606250000000001 0.021099 77.134665 
2.2612500000000000 0.022180 76.174077 
2.2618749999999999 0.023580 75.111133 
2.2625000000000002 0.025163 74.473104 
2.2631250000000001 0.026992 77.605790 
2.2637499999999999 0.029378 78.377465 
2.2643749999999998 0.031758 82.771684 
2.2650000000000001 0.034101 89.474416 
2.2656250000000000 0.036487 95.230765 
2.2662499999999999 0.039031 104.729596 
2.2668750000000002 0.040486 114.772126 
2.2675000000000001 0.041404 125.026188 
2.2681249999999999 0.041042 134.410663 
2.2687499999999998 0.040861 144.376509 
2.2693750000000001 0.040533 150.331030 
2.2700000000000000 0.039004 155.697260 
2.2706249999999999 0.037250 158.798410 
2.2712500000000002 0.035711 162.192139 
2.2718750000000001 0.034272 163.171559 
2.2725000000000000 0.033290 164.664265 
2.2731249999999998 0.031816 164.588221 
2.2737500000000002 0.030022 163.797589 
2.2743750000000000 0.029105 163.617235 
2.2749999999999999 0.027371 161.947611 
2.2756249999999998 0.026114 159.990075 
2.2762500000000001 0.024308 158.726215 
2.2768750000000000 0.022871 156.066371 
2.2774999999999999 0.021208 154.285328 
2.2781250000000002 0.019782 151.079800 
2.2787500000000001 0.018183 149.063042 
2.2793749999999999 0.016821 146.788335 
2.2799999999999998 0.015681 144.170661 
2.2806250000000001 0.014364 142.468179 
2.2812500000000000 0.013395 141.258651 
2.2818749999999999 0.012344 140.265841 
2.2825000000000002 0.011599 139.884394 
2.2831250000000001 0.010795 139.344076 
2.2837499999999999 0.010289 139.124077 
2.2843749999999998 0.009879 140.080235 
2.2850000000000001 0.009677 140.835544 
2.2856250000000000 0.009639 141.356129 
2.2862499999999999 0.009499 142.163614 
2.2868750000000002 0.009713 141.295607 
2.2875000000000001 0.009738 140.945612 
2.2881250000000000 0.009972 139.970789 
2.2887499999999998 0.010118 137.522066 
2.2893750000000002 0.010260 135.529092 
2.2900000000000000 0.010290 133.597419 
2.2906249999999999 0.010318 130.477219 
2.2912499999999998 0.010419 127.182980 
2.2918750000000001 0.010457 123.722673 
2.2925000000000000 0.010242 119.606243 
2.2931249999999999 0.010207 116.213112 
2.2937500000000002 0.010060 111.748455 
2.2943750000000001 0.009786 109.016776 
2.2949999999999999 0.009533 104.317757 
2.2956249999999998 0.009302 100.610092 
2.2962500000000001 0.008956 97.809542 
2.2968750000000000 0.008633 94.470067 
2.2974999999999999 0.008292 91.581717 
2.2981250000000002 0.007922 88.603156 
2.2987500000000001 0.007652 86.351945 
2.2993749999999999 0.007267 84.859689 
2.2999999999999998 0.006992 84.028321 
