!
! C:\Users\rflab\Downloads\dp2_kdzw\80.S1P
!
! Touchstone 1.1 file saved by VNA.EXE V1.65 (www.ke5fx.com/gpib/readme.htm)
! 12/12/2024 6:52:10 PM
!
!    Source: HEWLETT PACKARD,8753D,0,6.14
!  Min freq: 2.000000E+009 Hz
!  Max freq: 2.500000E+009 Hz
!    Points: 801
!    Params: S21
!
!!!!!
# GHZ S MA R 50
2.0000000000000000 0.002608 162.559583 
2.0006249999999999 0.002498 163.109340 
2.0012500000000002 0.002390 162.236604 
2.0018750000000001 0.002364 161.976199 
2.0024999999999999 0.002271 162.029089 
2.0031249999999998 0.002228 163.905961 
2.0037500000000001 0.002145 163.919009 
2.0043750000000000 0.002126 165.582703 
2.0049999999999999 0.002112 165.810021 
2.0056250000000002 0.002072 167.082483 
2.0062500000000001 0.002069 167.942133 
2.0068750000000000 0.002074 168.179702 
2.0074999999999998 0.002078 169.074885 
2.0081250000000002 0.002043 169.029750 
2.0087500000000000 0.002003 168.272046 
2.0093749999999999 0.002037 166.444411 
2.0099999999999998 0.002041 165.996226 
2.0106250000000001 0.002046 165.387279 
2.0112500000000000 0.001983 162.659954 
2.0118749999999999 0.001930 160.604911 
2.0125000000000002 0.001883 158.658596 
2.0131250000000001 0.001923 156.590108 
2.0137499999999999 0.001816 155.861090 
2.0143749999999998 0.001753 152.178767 
2.0150000000000001 0.001742 150.698216 
2.0156250000000000 0.001644 148.421479 
2.0162499999999999 0.001573 147.230990 
2.0168750000000002 0.001496 148.016872 
2.0175000000000001 0.001453 147.171263 
2.0181249999999999 0.001417 147.698626 
2.0187499999999998 0.001352 147.775605 
2.0193750000000001 0.001290 148.539063 
2.0200000000000000 0.001263 149.583247 
2.0206249999999999 0.001236 152.130172 
2.0212500000000002 0.001199 153.952071 
2.0218750000000001 0.001183 156.237930 
2.0225000000000000 0.001193 156.851015 
2.0231249999999998 0.001192 158.496541 
2.0237500000000002 0.001229 159.655339 
2.0243750000000000 0.001245 159.484395 
2.0249999999999999 0.001242 159.477753 
2.0256249999999998 0.001263 158.695300 
2.0262500000000001 0.001297 158.120389 
2.0268750000000000 0.001314 156.663854 
2.0274999999999999 0.001325 155.919253 
2.0281250000000002 0.001321 152.969141 
2.0287500000000001 0.001346 152.081497 
2.0293749999999999 0.001342 148.925384 
2.0299999999999998 0.001338 148.657659 
2.0306250000000001 0.001345 145.880919 
2.0312500000000000 0.001294 145.223383 
2.0318749999999999 0.001290 145.014059 
2.0325000000000002 0.001249 142.936525 
2.0331250000000001 0.001229 144.596390 
2.0337499999999999 0.001214 145.843963 
2.0343749999999998 0.001191 144.273989 
2.0350000000000001 0.001176 144.165942 
2.0356250000000000 0.001164 145.940239 
2.0362499999999999 0.001182 148.468389 
2.0368750000000002 0.001193 148.103540 
2.0375000000000001 0.001226 149.568077 
2.0381250000000000 0.001247 149.064406 
2.0387499999999998 0.001299 149.614310 
2.0393750000000002 0.001342 149.392387 
2.0400000000000000 0.001405 149.896312 
2.0406249999999999 0.001440 147.475682 
2.0412499999999998 0.001508 146.436794 
2.0418750000000001 0.001540 144.765987 
2.0425000000000000 0.001620 142.171985 
2.0431249999999999 0.001653 140.929791 
2.0437500000000002 0.001693 138.418719 
2.0443750000000001 0.001747 135.351106 
2.0449999999999999 0.001761 133.724418 
2.0456249999999998 0.001783 130.922892 
2.0462500000000001 0.001767 127.016024 
2.0468750000000000 0.001797 125.628279 
2.0474999999999999 0.001788 123.741968 
2.0481250000000002 0.001774 120.920844 
2.0487500000000001 0.001746 119.600278 
2.0493749999999999 0.001732 117.625176 
2.0499999999999998 0.001697 116.892649 
2.0506250000000001 0.001671 116.718632 
2.0512500000000000 0.001615 115.460436 
2.0518749999999999 0.001588 115.297708 
2.0525000000000002 0.001544 115.481119 
2.0531250000000001 0.001533 117.154860 
2.0537500000000000 0.001537 117.754915 
2.0543749999999998 0.001532 118.297728 
2.0550000000000002 0.001565 119.732696 
2.0556250000000000 0.001584 120.286538 
2.0562499999999999 0.001659 121.522840 
2.0568749999999998 0.001770 121.271505 
2.0575000000000001 0.001820 121.740033 
2.0581250000000000 0.001925 121.164606 
2.0587499999999999 0.002018 121.250000 
2.0593750000000002 0.002144 119.555609 
2.0600000000000001 0.002221 118.337007 
2.0606249999999999 0.002280 116.689660 
2.0612499999999998 0.002408 116.080440 
2.0618750000000001 0.002487 114.471691 
2.0625000000000000 0.002625 113.185599 
2.0631249999999999 0.002647 110.684992 
2.0637500000000002 0.002737 108.841350 
2.0643750000000001 0.002814 107.698166 
2.0649999999999999 0.002839 106.277239 
2.0656249999999998 0.002854 104.648056 
2.0662500000000001 0.002874 104.639066 
2.0668750000000000 0.002958 102.064437 
2.0674999999999999 0.002948 100.839578 
2.0681250000000002 0.003057 101.064957 
2.0687500000000001 0.003048 100.280594 
2.0693750000000000 0.003120 99.515221 
2.0699999999999998 0.003276 99.638819 
2.0706250000000002 0.003232 99.212547 
2.0712500000000000 0.003307 98.342748 
2.0718749999999999 0.003474 100.108083 
2.0724999999999998 0.003580 99.494003 
2.0731250000000001 0.003752 99.861831 
2.0737500000000000 0.003894 100.600907 
2.0743749999999999 0.004003 99.858936 
2.0750000000000002 0.004129 100.224356 
2.0756250000000001 0.004286 100.690525 
2.0762499999999999 0.004453 101.755775 
2.0768749999999998 0.004524 100.806614 
2.0775000000000001 0.004531 100.981181 
2.0781250000000000 0.004747 101.679556 
2.0787499999999999 0.004655 102.164033 
2.0793750000000002 0.004684 101.084016 
2.0800000000000001 0.004692 101.434963 
2.0806249999999999 0.004807 100.871898 
2.0812499999999998 0.004685 100.014060 
2.0818750000000001 0.004652 101.023717 
2.0825000000000000 0.004602 101.826893 
2.0831249999999999 0.004521 101.754362 
2.0837500000000002 0.004445 103.191780 
2.0843750000000001 0.004258 102.676002 
2.0850000000000000 0.004182 102.797028 
2.0856249999999998 0.004030 103.371927 
2.0862500000000002 0.003932 107.668034 
2.0868750000000000 0.003828 107.509453 
2.0874999999999999 0.003756 108.376294 
2.0881249999999998 0.003644 110.612215 
2.0887500000000001 0.003529 113.801368 
2.0893750000000000 0.003290 114.813985 
2.0899999999999999 0.003400 115.689114 
2.0906250000000002 0.003197 117.015087 
2.0912500000000001 0.003200 117.979709 
2.0918749999999999 0.003157 117.573413 
2.0924999999999998 0.003118 118.447190 
2.0931250000000001 0.003036 118.597706 
2.0937500000000000 0.003041 117.250135 
2.0943749999999999 0.002947 116.425140 
2.0950000000000002 0.002846 114.132557 
2.0956250000000001 0.002899 114.895750 
2.0962499999999999 0.002877 113.207324 
2.0968749999999998 0.002809 110.905535 
2.0975000000000001 0.002662 110.654544 
2.0981250000000000 0.002571 108.305578 
2.0987499999999999 0.002507 107.137991 
2.0993750000000002 0.002406 105.581243 
2.1000000000000001 0.002340 104.085805 
2.1006250000000000 0.002241 103.125513 
2.1012499999999998 0.002133 102.223821 
2.1018750000000002 0.002014 102.135258 
2.1025000000000000 0.001908 102.037740 
2.1031249999999999 0.001810 101.442013 
2.1037499999999998 0.001719 101.172754 
2.1043750000000001 0.001645 100.814015 
2.1050000000000000 0.001557 100.733803 
2.1056249999999999 0.001497 99.856915 
2.1062500000000002 0.001483 98.409586 
2.1068750000000001 0.001424 100.546306 
2.1074999999999999 0.001421 98.545863 
2.1081249999999998 0.001426 98.776202 
2.1087500000000001 0.001381 96.786111 
2.1093750000000000 0.001409 98.330331 
2.1099999999999999 0.001389 96.016855 
2.1106250000000002 0.001436 94.825048 
2.1112500000000001 0.001405 92.873936 
2.1118749999999999 0.001447 92.742033 
2.1124999999999998 0.001437 88.626172 
2.1131250000000001 0.001393 87.565593 
2.1137500000000000 0.001379 84.231264 
2.1143749999999999 0.001360 81.447867 
2.1150000000000002 0.001346 78.882076 
2.1156250000000001 0.001304 75.552121 
2.1162500000000000 0.001224 71.865123 
2.1168749999999998 0.001188 69.437231 
2.1175000000000002 0.001094 67.697655 
2.1181250000000000 0.001024 64.580233 
2.1187499999999999 0.000970 61.199078 
2.1193749999999998 0.000955 58.388751 
2.1200000000000001 0.000841 55.622831 
2.1206250000000000 0.000814 53.780877 
2.1212499999999999 0.000741 53.632236 
2.1218750000000002 0.000703 54.105473 
2.1225000000000001 0.000661 54.606538 
2.1231249999999999 0.000609 55.133874 
2.1237499999999998 0.000600 56.703097 
2.1243750000000001 0.000573 61.046782 
2.1250000000000000 0.000591 61.960122 
2.1256249999999999 0.000585 63.779356 
2.1262500000000002 0.000630 65.037805 
2.1268750000000001 0.000618 65.888345 
2.1274999999999999 0.000653 63.755608 
2.1281249999999998 0.000687 63.603879 
2.1287500000000001 0.000660 59.980239 
2.1293750000000000 0.000686 57.997256 
2.1299999999999999 0.000710 55.097044 
2.1306250000000002 0.000674 53.828920 
2.1312500000000001 0.000666 49.635657 
2.1318750000000000 0.000662 43.102269 
2.1324999999999998 0.000637 39.076168 
2.1331250000000002 0.000586 30.944769 
2.1337500000000000 0.000556 27.547126 
2.1343749999999999 0.000502 22.554153 
2.1349999999999998 0.000439 15.475982 
2.1356250000000001 0.000402 11.054351 
2.1362500000000000 0.000347 4.050773 
2.1368749999999999 0.000291 -0.402347 
2.1375000000000002 0.000210 -4.543676 
2.1381250000000001 0.000162 -7.312677 
2.1387499999999999 0.000095 -8.868324 
2.1393749999999998 0.000034 53.418946 
2.1400000000000001 0.000074 113.538939 
2.1406250000000000 0.000143 127.078872 
2.1412499999999999 0.000205 122.748112 
2.1418750000000002 0.000296 119.005266 
2.1425000000000001 0.000340 118.492605 
2.1431249999999999 0.000397 112.357892 
2.1437499999999998 0.000456 107.084815 
2.1443750000000001 0.000497 101.709892 
2.1450000000000000 0.000535 95.450773 
2.1456249999999999 0.000554 91.214941 
2.1462500000000002 0.000560 88.098364 
2.1468750000000001 0.000555 84.897017 
2.1475000000000000 0.000525 82.264257 
2.1481249999999998 0.000480 79.021594 
2.1487500000000002 0.000463 76.243089 
2.1493750000000000 0.000398 75.983508 
2.1499999999999999 0.000357 77.789415 
2.1506249999999998 0.000305 85.104100 
2.1512500000000001 0.000278 96.641247 
2.1518750000000000 0.000297 114.266679 
2.1524999999999999 0.000363 126.454756 
2.1531250000000002 0.000456 134.203358 
2.1537500000000001 0.000554 137.633910 
2.1543749999999999 0.000683 137.471116 
2.1549999999999998 0.000805 135.783180 
2.1556250000000001 0.000986 132.155815 
2.1562500000000000 0.001145 129.929630 
2.1568749999999999 0.001308 124.883779 
2.1575000000000002 0.001510 120.549234 
2.1581250000000001 0.001649 116.811428 
2.1587499999999999 0.001837 111.564592 
2.1593749999999998 0.001895 107.200391 
2.1600000000000001 0.001998 104.026289 
2.1606250000000000 0.002120 98.590835 
2.1612499999999999 0.002218 94.084520 
2.1618750000000002 0.002344 90.836482 
2.1625000000000001 0.002383 88.598495 
2.1631250000000000 0.002349 84.888204 
2.1637499999999998 0.002417 80.977716 
2.1643750000000002 0.002408 80.929453 
2.1650000000000000 0.002307 77.625660 
2.1656249999999999 0.002313 78.965147 
2.1662499999999998 0.002275 79.296597 
2.1668750000000001 0.002216 80.171297 
2.1675000000000000 0.002241 84.680862 
2.1681249999999999 0.002276 88.766442 
2.1687500000000002 0.002385 95.382642 
2.1693750000000001 0.002604 102.093839 
2.1699999999999999 0.002867 106.115861 
2.1706249999999998 0.003299 111.166673 
2.1712500000000001 0.003761 112.436846 
2.1718750000000000 0.004280 115.003208 
2.1724999999999999 0.004709 117.235713 
2.1731250000000002 0.005284 115.655081 
2.1737500000000001 0.005841 116.288942 
2.1743749999999999 0.006423 117.477227 
2.1749999999999998 0.006637 114.733021 
2.1756250000000001 0.007042 114.562430 
2.1762500000000000 0.007340 111.845644 
2.1768749999999999 0.007734 109.296213 
2.1775000000000002 0.007873 108.369107 
2.1781250000000001 0.007825 105.296460 
2.1787500000000000 0.007644 105.459824 
2.1793749999999998 0.007546 103.814971 
2.1800000000000002 0.007417 100.775334 
2.1806250000000000 0.007086 100.911448 
2.1812499999999999 0.006543 98.879498 
2.1818749999999998 0.006177 100.343612 
2.1825000000000001 0.005651 98.580013 
2.1831250000000000 0.005116 99.772245 
2.1837499999999999 0.004598 101.885599 
2.1843750000000002 0.004272 103.432793 
2.1850000000000001 0.003902 107.489554 
2.1856249999999999 0.003521 111.996637 
2.1862499999999998 0.003328 115.639977 
2.1868750000000001 0.003284 120.842127 
2.1875000000000000 0.003226 124.379982 
2.1881249999999999 0.003271 127.135494 
2.1887500000000002 0.003429 128.270900 
2.1893750000000001 0.003526 128.187899 
2.1899999999999999 0.003558 126.603466 
2.1906249999999998 0.003713 124.966704 
2.1912500000000001 0.003735 124.421499 
2.1918750000000000 0.003767 121.116142 
2.1924999999999999 0.003720 118.718608 
2.1931250000000002 0.003805 114.893487 
2.1937500000000001 0.003703 111.655485 
2.1943750000000000 0.003568 107.164932 
2.1949999999999998 0.003616 103.803538 
2.1956250000000002 0.003316 99.531404 
2.1962500000000000 0.003191 96.404481 
2.1968749999999999 0.002962 93.018001 
2.1974999999999998 0.002721 88.734677 
2.1981250000000001 0.002545 89.176068 
2.1987500000000000 0.002341 84.466476 
2.1993749999999999 0.002147 82.806711 
2.2000000000000002 0.001954 82.003600 
2.2006250000000001 0.001735 83.359620 
2.2012499999999999 0.001630 83.734093 
2.2018749999999998 0.001490 83.742094 
2.2025000000000001 0.001422 87.553752 
2.2031250000000000 0.001388 90.656790 
2.2037499999999999 0.001353 94.395026 
2.2043750000000002 0.001343 94.851731 
2.2050000000000001 0.001453 95.722052 
2.2056249999999999 0.001472 96.267176 
2.2062499999999998 0.001518 94.797269 
2.2068750000000001 0.001603 93.860263 
2.2075000000000000 0.001673 92.513671 
2.2081249999999999 0.001730 89.810445 
2.2087500000000002 0.001695 86.029517 
2.2093750000000001 0.001730 83.253601 
2.2100000000000000 0.001675 77.009202 
2.2106249999999998 0.001705 74.802505 
2.2112500000000002 0.001664 69.178785 
2.2118750000000000 0.001662 65.680221 
2.2124999999999999 0.001583 59.440194 
2.2131249999999998 0.001495 56.641952 
2.2137500000000001 0.001400 50.250018 
2.2143750000000000 0.001291 47.660828 
2.2149999999999999 0.001203 42.304631 
2.2156250000000002 0.001069 40.356256 
2.2162500000000001 0.000958 35.140884 
2.2168749999999999 0.000811 34.643905 
2.2174999999999998 0.000730 32.658033 
2.2181250000000001 0.000617 34.701109 
2.2187500000000000 0.000533 38.979851 
2.2193749999999999 0.000437 45.815181 
2.2200000000000002 0.000394 57.822753 
2.2206250000000001 0.000376 70.088107 
2.2212499999999999 0.000420 83.058853 
2.2218749999999998 0.000480 89.735086 
2.2225000000000001 0.000535 92.760759 
2.2231250000000000 0.000624 96.130963 
2.2237499999999999 0.000672 93.038838 
2.2243750000000002 0.000747 92.575773 
2.2250000000000001 0.000791 89.928794 
2.2256250000000000 0.000828 86.221314 
2.2262499999999998 0.000864 84.239241 
2.2268750000000002 0.000861 79.299782 
2.2275000000000000 0.000866 76.029734 
2.2281249999999999 0.000865 72.596843 
2.2287499999999998 0.000829 69.604755 
2.2293750000000001 0.000788 67.531062 
2.2300000000000000 0.000766 63.841629 
2.2306249999999999 0.000699 64.110515 
2.2312500000000002 0.000631 64.073813 
2.2318750000000001 0.000572 67.031283 
2.2324999999999999 0.000526 70.841808 
2.2331249999999998 0.000506 81.628222 
2.2337500000000001 0.000512 88.785671 
2.2343750000000000 0.000551 99.037676 
2.2349999999999999 0.000625 107.038444 
2.2356250000000002 0.000706 109.196891 
2.2362500000000001 0.000804 112.522192 
2.2368749999999999 0.000935 112.468373 
2.2374999999999998 0.001058 110.277163 
2.2381250000000001 0.001182 108.879174 
2.2387500000000000 0.001301 106.031180 
2.2393749999999999 0.001426 104.278983 
2.2400000000000002 0.001502 100.076718 
2.2406250000000001 0.001620 95.570869 
2.2412500000000000 0.001717 93.670131 
2.2418749999999998 0.001788 89.663914 
2.2425000000000002 0.001829 86.757203 
2.2431250000000000 0.001896 83.336037 
2.2437499999999999 0.001894 80.477196 
2.2443749999999998 0.001906 75.998523 
2.2450000000000001 0.001935 74.646724 
2.2456250000000000 0.001927 74.093551 
2.2462499999999999 0.001884 72.265546 
2.2468750000000002 0.001927 73.486452 
2.2475000000000001 0.001899 73.585290 
2.2481249999999999 0.001918 76.196932 
2.2487499999999998 0.001983 77.411424 
2.2493750000000001 0.002025 79.643269 
2.2500000000000000 0.002236 82.579391 
2.2506249999999999 0.002442 84.458089 
2.2512500000000002 0.002644 86.453480 
2.2518750000000001 0.002945 86.100288 
2.2524999999999999 0.003270 87.981733 
2.2531249999999998 0.003686 87.434788 
2.2537500000000001 0.004152 86.945020 
2.2543750000000000 0.004544 86.558685 
2.2549999999999999 0.005044 84.591759 
2.2556250000000002 0.005539 82.117872 
2.2562500000000001 0.006011 79.706331 
2.2568750000000000 0.006679 78.615463 
2.2574999999999998 0.007174 76.695804 
2.2581250000000002 0.007642 72.848253 
2.2587500000000000 0.008431 71.128513 
2.2593749999999999 0.008909 68.145633 
2.2599999999999998 0.009430 65.540938 
2.2606250000000001 0.010098 65.270780 
2.2612500000000000 0.010817 64.571293 
2.2618749999999999 0.011693 62.624084 
2.2625000000000002 0.012375 62.453478 
2.2631250000000001 0.013356 64.261039 
2.2637499999999999 0.014139 66.409907 
2.2643749999999998 0.015640 71.904220 
2.2650000000000001 0.016756 77.306003 
2.2656250000000000 0.018060 84.235816 
2.2662499999999999 0.019164 92.626902 
2.2668750000000002 0.019897 104.372596 
2.2675000000000001 0.020615 114.549475 
2.2681249999999999 0.020451 124.503018 
2.2687499999999998 0.020259 133.962482 
2.2693750000000001 0.019752 138.421383 
2.2700000000000000 0.019828 144.573169 
2.2706249999999999 0.018398 148.367967 
2.2712500000000002 0.017684 151.470922 
2.2718750000000001 0.017232 152.118890 
2.2725000000000000 0.016640 154.985887 
2.2731249999999998 0.016043 154.312319 
2.2737500000000002 0.015127 154.651418 
2.2743750000000000 0.014718 153.001611 
2.2749999999999999 0.013586 151.425490 
2.2756249999999998 0.013101 149.795200 
2.2762500000000001 0.012269 148.207523 
2.2768750000000000 0.011619 146.275370 
2.2774999999999999 0.010759 143.802545 
2.2781250000000002 0.010154 140.772498 
2.2787500000000001 0.009307 138.285525 
2.2793749999999999 0.008533 136.859147 
2.2799999999999998 0.007927 134.751432 
2.2806250000000001 0.007367 133.184944 
2.2812500000000000 0.006786 131.541584 
2.2818749999999999 0.006273 130.829465 
2.2825000000000002 0.005957 129.680200 
2.2831250000000001 0.005542 130.034713 
2.2837499999999999 0.005263 130.289094 
2.2843749999999998 0.005194 131.425811 
2.2850000000000001 0.004952 130.348141 
2.2856250000000000 0.004943 131.819195 
2.2862499999999999 0.004907 132.712068 
2.2868750000000002 0.005030 132.671938 
2.2875000000000001 0.005041 132.677153 
2.2881250000000000 0.005173 131.066057 
2.2887499999999998 0.005336 129.002461 
2.2893750000000002 0.005378 128.037393 
2.2900000000000000 0.005362 124.567697 
2.2906249999999999 0.005400 121.561595 
2.2912499999999998 0.005389 118.240838 
2.2918750000000001 0.005373 114.602183 
2.2925000000000000 0.005414 111.379714 
2.2931249999999999 0.005338 108.604079 
2.2937500000000002 0.005315 103.944611 
2.2943750000000001 0.005192 99.424261 
2.2949999999999999 0.005067 95.542946 
2.2956249999999998 0.004949 92.722766 
2.2962500000000001 0.004838 89.412691 
2.2968750000000000 0.004669 85.868312 
2.2974999999999999 0.004500 84.545276 
2.2981250000000002 0.004285 81.030356 
2.2987500000000001 0.004082 78.924367 
2.2993749999999999 0.003972 77.815156 
2.2999999999999998 0.003750 76.235032 
2.3006250000000001 0.003599 75.589093 
2.3012500000000000 0.003507 74.722342 
2.3018749999999999 0.003453 75.942642 
2.3025000000000002 0.003406 76.411277 
