!
! C:\Users\rflab\Downloads\dp2_kdzw\90.S1P
!
! Touchstone 1.1 file saved by VNA.EXE V1.65 (www.ke5fx.com/gpib/readme.htm)
! 12/12/2024 6:54:09 PM
!
!    Source: HEWLETT PACKARD,8753D,0,6.14
!  Min freq: 2.000000E+009 Hz
!  Max freq: 2.500000E+009 Hz
!    Points: 801
!    Params: S21
!
!!!!!
# GHZ S MA R 50
2.0000000000000000 0.002348 151.156706 
2.0006249999999999 0.002245 150.906380 
2.0012500000000002 0.002180 150.862624 
2.0018750000000001 0.002100 150.016298 
2.0024999999999999 0.002055 150.610561 
2.0031249999999998 0.001980 152.976848 
2.0037500000000001 0.001976 152.699237 
2.0043750000000000 0.001929 153.761159 
2.0049999999999999 0.001907 154.451973 
2.0056250000000002 0.001859 155.934557 
2.0062500000000001 0.001891 156.234104 
2.0068750000000000 0.001866 157.945116 
2.0074999999999998 0.001897 156.770685 
2.0081250000000002 0.001836 158.215858 
2.0087500000000000 0.001806 156.117748 
2.0093749999999999 0.001878 156.040100 
2.0099999999999998 0.001865 155.102589 
2.0106250000000001 0.001849 153.712491 
2.0112500000000000 0.001853 150.789637 
2.0118749999999999 0.001755 150.053764 
2.0125000000000002 0.001754 148.171296 
2.0131250000000001 0.001720 144.970232 
2.0137499999999999 0.001665 144.291641 
2.0143749999999998 0.001592 141.558593 
2.0150000000000001 0.001584 139.808986 
2.0156250000000000 0.001521 138.538019 
2.0162499999999999 0.001485 137.599455 
2.0168750000000002 0.001411 136.557491 
2.0175000000000001 0.001340 136.279757 
2.0181249999999999 0.001297 136.370356 
2.0187499999999998 0.001224 136.471480 
2.0193750000000001 0.001203 137.368105 
2.0200000000000000 0.001156 139.801359 
2.0206249999999999 0.001137 140.070177 
2.0212500000000002 0.001100 142.905019 
2.0218750000000001 0.001091 144.124716 
2.0225000000000000 0.001073 146.172175 
2.0231249999999998 0.001083 148.720433 
2.0237500000000002 0.001119 147.593147 
2.0243750000000000 0.001135 148.247526 
2.0249999999999999 0.001147 148.241969 
2.0256249999999998 0.001165 147.806928 
2.0262500000000001 0.001192 146.553861 
2.0268750000000000 0.001198 145.381321 
2.0274999999999999 0.001199 144.042492 
2.0281250000000002 0.001215 142.181201 
2.0287500000000001 0.001240 140.018049 
2.0293749999999999 0.001219 138.167032 
2.0299999999999998 0.001215 137.993665 
2.0306250000000001 0.001219 134.912807 
2.0312500000000000 0.001188 133.779178 
2.0318749999999999 0.001193 133.779014 
2.0325000000000002 0.001161 132.342075 
2.0331250000000001 0.001117 132.953550 
2.0337499999999999 0.001118 132.281288 
2.0343749999999998 0.001107 132.374894 
2.0350000000000001 0.001073 133.377430 
2.0356250000000000 0.001089 134.379052 
2.0362499999999999 0.001085 136.117111 
2.0368750000000002 0.001087 136.871251 
2.0375000000000001 0.001124 136.729198 
2.0381250000000000 0.001150 138.404672 
2.0387499999999998 0.001188 138.738097 
2.0393750000000002 0.001245 139.394539 
2.0400000000000000 0.001281 138.002878 
2.0406249999999999 0.001330 135.940739 
2.0412499999999998 0.001368 134.848153 
2.0418750000000001 0.001452 132.600908 
2.0425000000000000 0.001490 130.691769 
2.0431249999999999 0.001531 128.311351 
2.0437500000000002 0.001543 126.259063 
2.0443750000000001 0.001577 124.121299 
2.0449999999999999 0.001623 122.333689 
2.0456249999999998 0.001646 117.968033 
2.0462500000000001 0.001653 115.140208 
2.0468750000000000 0.001662 113.286548 
2.0474999999999999 0.001611 111.868346 
2.0481250000000002 0.001636 109.592882 
2.0487500000000001 0.001596 107.484978 
2.0493749999999999 0.001582 106.477993 
2.0499999999999998 0.001552 104.412002 
2.0506250000000001 0.001530 104.170461 
2.0512500000000000 0.001473 103.813622 
2.0518749999999999 0.001458 102.904363 
2.0525000000000002 0.001421 102.898428 
2.0531250000000001 0.001430 104.054783 
2.0537500000000000 0.001436 104.219141 
2.0543749999999998 0.001427 105.640405 
2.0550000000000002 0.001452 106.870401 
2.0556250000000000 0.001499 108.992631 
2.0562499999999999 0.001557 108.547332 
2.0568749999999998 0.001640 109.042176 
2.0575000000000001 0.001711 108.511936 
2.0581250000000000 0.001780 108.308765 
2.0587499999999999 0.001875 107.368147 
2.0593750000000002 0.001989 105.415314 
2.0600000000000001 0.002075 104.857835 
2.0606249999999999 0.002125 103.849106 
2.0612499999999998 0.002248 103.047445 
2.0618750000000001 0.002298 101.129237 
2.0625000000000000 0.002409 99.116480 
2.0631249999999999 0.002474 97.493408 
2.0637500000000002 0.002500 95.209023 
2.0643750000000001 0.002573 94.033410 
2.0649999999999999 0.002594 91.990630 
2.0656249999999998 0.002690 90.637327 
2.0662500000000001 0.002764 89.908551 
2.0668750000000000 0.002748 88.627898 
2.0674999999999999 0.002779 87.413512 
2.0681250000000002 0.002809 85.482895 
2.0687500000000001 0.002862 85.819502 
2.0693750000000000 0.002898 85.368851 
2.0699999999999998 0.002970 85.760198 
2.0706250000000002 0.003042 84.779757 
2.0712500000000000 0.003166 83.830178 
2.0718749999999999 0.003299 84.441423 
2.0724999999999998 0.003409 82.865547 
2.0731250000000001 0.003437 85.376321 
2.0737500000000000 0.003571 84.836916 
2.0743749999999999 0.003688 84.376955 
2.0750000000000002 0.003885 84.177262 
2.0756250000000001 0.004002 84.633452 
2.0762499999999999 0.004104 85.852492 
2.0768749999999998 0.004122 85.733739 
2.0775000000000001 0.004343 85.755940 
2.0781250000000000 0.004318 83.751697 
2.0787499999999999 0.004383 86.666487 
2.0793750000000002 0.004405 83.642005 
2.0800000000000001 0.004518 84.287607 
2.0806249999999999 0.004448 84.673223 
2.0812499999999998 0.004351 82.912358 
2.0818750000000001 0.004383 84.425224 
2.0825000000000000 0.004359 84.300010 
2.0831249999999999 0.004236 84.658427 
2.0837500000000002 0.004135 85.482194 
2.0843750000000001 0.004134 84.436380 
2.0850000000000000 0.003998 85.045949 
2.0856249999999998 0.003900 86.758587 
2.0862500000000002 0.003771 87.481492 
2.0868750000000000 0.003663 88.724404 
2.0874999999999999 0.003574 90.294292 
2.0881249999999998 0.003412 92.992165 
2.0887500000000001 0.003321 94.706260 
2.0893750000000000 0.003262 96.425288 
2.0899999999999999 0.003204 96.107101 
2.0906250000000002 0.003031 97.384679 
2.0912500000000001 0.002999 98.755688 
2.0918749999999999 0.002938 98.356958 
2.0924999999999998 0.003008 98.635854 
2.0931250000000001 0.002917 97.234784 
2.0937500000000000 0.002832 97.162410 
2.0943749999999999 0.002849 95.438173 
2.0950000000000002 0.002732 95.089626 
2.0956250000000001 0.002771 92.734988 
2.0962499999999999 0.002649 91.590926 
2.0968749999999998 0.002627 90.228839 
2.0975000000000001 0.002551 89.892914 
2.0981250000000000 0.002478 87.452145 
2.0987499999999999 0.002420 85.519695 
2.0993750000000002 0.002289 83.619269 
2.1000000000000001 0.002183 82.258794 
2.1006250000000000 0.002157 81.129115 
2.1012499999999998 0.001986 79.715469 
2.1018750000000002 0.001916 79.431473 
2.1025000000000000 0.001839 77.799925 
2.1031249999999999 0.001742 79.171043 
2.1037499999999998 0.001677 77.245017 
2.1043750000000001 0.001621 76.853466 
2.1050000000000000 0.001490 76.143280 
2.1056249999999999 0.001503 75.295076 
2.1062500000000002 0.001430 75.582596 
2.1068750000000001 0.001368 77.548104 
2.1074999999999999 0.001375 75.664944 
2.1081249999999998 0.001317 75.852449 
2.1087500000000001 0.001359 73.447555 
2.1093750000000000 0.001344 73.585073 
2.1099999999999999 0.001381 70.768900 
2.1106250000000002 0.001383 70.385550 
2.1112500000000001 0.001323 68.889123 
2.1118749999999999 0.001353 66.192757 
2.1124999999999998 0.001330 62.464307 
2.1131250000000001 0.001370 60.903042 
2.1137500000000000 0.001309 57.678846 
2.1143749999999999 0.001292 55.961647 
2.1150000000000002 0.001234 51.235593 
2.1156250000000001 0.001245 48.548742 
2.1162500000000000 0.001197 44.899164 
2.1168749999999998 0.001135 40.777599 
2.1175000000000002 0.001051 38.803900 
2.1181250000000000 0.000986 36.164856 
2.1187499999999999 0.000968 32.936270 
2.1193749999999998 0.000887 29.848010 
2.1200000000000001 0.000799 27.486260 
2.1206250000000000 0.000749 25.317784 
2.1212499999999999 0.000737 26.552620 
2.1218750000000002 0.000683 22.889427 
2.1225000000000001 0.000603 26.164863 
2.1231249999999999 0.000585 28.931532 
2.1237499999999998 0.000550 29.413875 
2.1243750000000001 0.000539 31.396226 
2.1250000000000000 0.000565 32.027801 
2.1256249999999999 0.000558 32.416245 
2.1262500000000002 0.000555 34.731352 
2.1268750000000001 0.000558 35.596728 
2.1274999999999999 0.000612 33.643631 
2.1281249999999998 0.000638 31.756449 
2.1287500000000001 0.000641 29.668179 
2.1293750000000000 0.000636 27.985993 
2.1299999999999999 0.000654 24.592695 
2.1306250000000002 0.000620 19.479016 
2.1312500000000001 0.000622 18.058937 
2.1318750000000000 0.000635 11.899731 
2.1324999999999998 0.000585 7.945087 
2.1331250000000002 0.000532 0.654563 
2.1337500000000000 0.000497 -1.677409 
2.1343749999999999 0.000464 -8.774397 
2.1349999999999998 0.000414 -15.254395 
2.1356250000000001 0.000358 -21.500487 
2.1362500000000000 0.000314 -28.247733 
2.1368749999999999 0.000253 -34.685331 
2.1375000000000002 0.000196 -38.708139 
2.1381250000000001 0.000154 -41.028230 
2.1387499999999999 0.000083 -40.096161 
2.1393749999999998 0.000028 15.614441 
2.1400000000000001 0.000061 84.728917 
2.1406250000000000 0.000119 95.703808 
2.1412499999999999 0.000186 94.555648 
2.1418750000000002 0.000252 89.888235 
2.1425000000000001 0.000301 85.758156 
2.1431249999999999 0.000338 79.176033 
2.1437499999999998 0.000399 75.265378 
2.1443750000000001 0.000427 71.172028 
2.1450000000000000 0.000480 67.403955 
2.1456249999999999 0.000463 62.527928 
2.1462500000000002 0.000472 57.435262 
2.1468750000000001 0.000482 52.093955 
2.1475000000000000 0.000429 49.220743 
2.1481249999999998 0.000414 48.761951 
2.1487500000000002 0.000390 44.443750 
2.1493750000000000 0.000333 45.242909 
2.1499999999999999 0.000306 47.051473 
2.1506249999999998 0.000270 52.123351 
2.1512500000000001 0.000231 67.950880 
2.1518750000000000 0.000245 81.628628 
2.1524999999999999 0.000313 96.464543 
2.1531250000000002 0.000376 104.871020 
2.1537500000000001 0.000483 105.875947 
2.1543749999999999 0.000577 105.542475 
2.1549999999999998 0.000701 105.082324 
2.1556250000000001 0.000820 102.225393 
2.1562500000000000 0.000924 96.597613 
2.1568749999999999 0.001091 95.623658 
2.1575000000000002 0.001245 89.668051 
2.1581250000000001 0.001364 85.903682 
2.1587499999999999 0.001481 78.723526 
2.1593749999999998 0.001598 76.598886 
2.1600000000000001 0.001658 71.124012 
2.1606250000000000 0.001795 67.812704 
2.1612499999999999 0.001879 64.031634 
2.1618750000000002 0.001887 59.318755 
2.1625000000000001 0.001905 58.162259 
2.1631250000000000 0.001918 54.583809 
2.1637499999999998 0.002009 52.205846 
2.1643750000000002 0.001885 51.063243 
2.1650000000000000 0.001890 47.980290 
2.1656249999999999 0.001812 47.139535 
2.1662499999999998 0.001835 47.061477 
2.1668750000000001 0.001743 49.192790 
2.1675000000000000 0.001727 53.149483 
2.1681249999999999 0.001738 61.141008 
2.1687500000000002 0.001893 66.230429 
2.1693750000000001 0.002087 71.899360 
2.1699999999999999 0.002268 76.828639 
2.1706249999999998 0.002668 78.965260 
2.1712500000000001 0.002966 83.673030 
2.1718750000000000 0.003494 86.381235 
2.1724999999999999 0.003841 86.387724 
2.1731250000000002 0.004275 87.465056 
2.1737500000000001 0.004744 87.831159 
2.1743749999999999 0.004914 87.680835 
2.1749999999999998 0.005552 85.877567 
2.1756250000000001 0.005521 83.359255 
2.1762500000000000 0.006057 81.881378 
2.1768749999999999 0.006209 82.059062 
2.1775000000000002 0.006106 80.442782 
2.1781250000000001 0.006194 77.587932 
2.1787500000000000 0.006158 75.657067 
2.1793749999999998 0.005967 73.696757 
2.1800000000000002 0.006067 72.207291 
2.1806250000000000 0.005528 71.216541 
2.1812499999999999 0.005033 72.141799 
2.1818749999999998 0.004918 70.192026 
2.1825000000000001 0.004358 70.437048 
2.1831250000000000 0.003974 71.260699 
2.1837499999999999 0.003596 73.151956 
2.1843750000000002 0.003226 77.169458 
2.1850000000000001 0.003072 79.751821 
2.1856249999999999 0.002755 80.913441 
2.1862499999999998 0.002624 86.857119 
2.1868750000000001 0.002482 92.813889 
2.1875000000000000 0.002477 95.833788 
2.1881249999999999 0.002572 98.108321 
2.1887500000000002 0.002593 99.289100 
2.1893750000000001 0.002677 100.592851 
2.1899999999999999 0.002696 99.399009 
2.1906249999999998 0.002738 95.654248 
2.1912500000000001 0.002847 96.079717 
2.1918750000000000 0.002871 93.293829 
2.1924999999999999 0.002867 89.852269 
2.1931250000000002 0.002852 86.841821 
2.1937500000000001 0.002706 84.519218 
2.1943750000000000 0.002689 79.180295 
2.1949999999999998 0.002648 73.628663 
2.1956250000000002 0.002387 71.293551 
2.1962500000000000 0.002383 68.910631 
2.1968749999999999 0.002205 65.941595 
2.1974999999999998 0.002081 61.403034 
2.1981250000000001 0.001894 59.281774 
2.1987500000000000 0.001733 55.711495 
2.1993749999999999 0.001533 56.214820 
2.2000000000000002 0.001395 55.202504 
2.2006250000000001 0.001284 52.826844 
2.2012499999999999 0.001180 54.728502 
2.2018749999999998 0.001097 57.022268 
2.2025000000000001 0.001002 59.258892 
2.2031250000000000 0.001007 61.864068 
2.2037499999999999 0.001004 66.371692 
2.2043750000000002 0.000977 67.269310 
2.2050000000000001 0.001064 68.787203 
2.2056249999999999 0.001020 69.614194 
2.2062499999999998 0.001093 67.997836 
2.2068750000000001 0.001173 65.868104 
2.2075000000000000 0.001211 63.283547 
2.2081249999999999 0.001178 62.386309 
2.2087500000000002 0.001197 58.332851 
2.2093750000000001 0.001189 55.087644 
2.2100000000000000 0.001174 50.667505 
2.2106249999999998 0.001209 45.961133 
2.2112500000000002 0.001195 42.314427 
2.2118750000000000 0.001130 38.025523 
2.2124999999999999 0.001116 33.773260 
2.2131249999999998 0.000989 28.678118 
2.2137500000000001 0.000936 26.023149 
2.2143750000000000 0.000895 21.321729 
2.2149999999999999 0.000793 14.878840 
2.2156250000000002 0.000742 12.524562 
2.2162500000000001 0.000657 10.025739 
2.2168749999999999 0.000577 9.133408 
2.2174999999999998 0.000494 8.992391 
2.2181250000000001 0.000413 7.371976 
2.2187500000000000 0.000341 10.430415 
2.2193749999999999 0.000289 18.437745 
2.2200000000000002 0.000267 30.638352 
2.2206250000000001 0.000259 42.736039 
2.2212499999999999 0.000279 56.387995 
2.2218749999999998 0.000312 62.930672 
2.2225000000000001 0.000364 66.479273 
2.2231250000000000 0.000403 68.498207 
2.2237499999999999 0.000445 68.714894 
2.2243750000000002 0.000472 62.743701 
2.2250000000000001 0.000518 61.185450 
2.2256250000000000 0.000529 58.313367 
2.2262499999999998 0.000530 56.967356 
2.2268750000000002 0.000547 52.178378 
2.2275000000000000 0.000559 50.356702 
2.2281249999999999 0.000543 45.255828 
2.2287499999999998 0.000528 43.557799 
2.2293750000000001 0.000460 43.632136 
2.2300000000000000 0.000444 37.223564 
2.2306249999999999 0.000432 38.670299 
2.2312500000000002 0.000381 39.407209 
2.2318750000000001 0.000344 45.052711 
2.2324999999999999 0.000329 48.831179 
2.2331249999999998 0.000299 55.695099 
2.2337500000000001 0.000297 67.055496 
2.2343750000000000 0.000326 75.972668 
2.2349999999999999 0.000357 80.894432 
2.2356250000000002 0.000413 86.064478 
2.2362500000000001 0.000497 87.330288 
2.2368749999999999 0.000547 89.344826 
2.2374999999999998 0.000615 87.979352 
2.2381250000000001 0.000677 85.388056 
2.2387500000000000 0.000757 84.292995 
2.2393749999999999 0.000836 82.017847 
2.2400000000000002 0.000883 79.598343 
2.2406250000000001 0.000946 77.605834 
2.2412500000000000 0.000977 72.984658 
2.2418749999999998 0.000997 68.917712 
2.2425000000000002 0.001061 65.254988 
2.2431250000000000 0.001045 62.724418 
2.2437499999999999 0.001072 61.468851 
2.2443749999999998 0.001133 59.366999 
2.2450000000000001 0.001060 55.610141 
2.2456250000000000 0.001085 54.942588 
2.2462499999999999 0.001087 54.862096 
2.2468750000000002 0.001035 54.741644 
2.2475000000000001 0.001069 55.994550 
2.2481249999999999 0.001075 57.634572 
2.2487499999999998 0.001128 61.056279 
2.2493750000000001 0.001138 65.476568 
2.2500000000000000 0.001231 64.688538 
2.2506249999999999 0.001388 68.917959 
2.2512500000000002 0.001533 70.703324 
2.2518750000000001 0.001640 71.598640 
2.2524999999999999 0.001847 72.093605 
2.2531249999999998 0.002047 73.070002 
2.2537500000000001 0.002308 71.862697 
2.2543750000000000 0.002532 71.887468 
2.2549999999999999 0.002925 69.824963 
2.2556250000000002 0.003276 70.241833 
2.2562500000000001 0.003569 65.788220 
2.2568750000000000 0.003731 65.497566 
2.2574999999999998 0.003996 61.120228 
2.2581250000000002 0.004347 60.299741 
2.2587500000000000 0.004741 57.166617 
2.2593749999999999 0.005152 56.889428 
2.2599999999999998 0.005534 53.399661 
2.2606250000000001 0.005737 52.641037 
2.2612500000000000 0.006161 53.234762 
2.2618749999999999 0.006795 50.872400 
2.2625000000000002 0.007067 51.922243 
2.2631250000000001 0.007445 52.550321 
2.2637499999999999 0.008155 56.562665 
2.2643749999999998 0.008797 59.942312 
2.2650000000000001 0.009534 68.810033 
2.2656250000000000 0.010520 74.596140 
2.2662499999999999 0.011388 82.996682 
2.2668750000000002 0.011787 93.049457 
2.2675000000000001 0.011824 103.068395 
2.2681249999999999 0.011973 113.641132 
2.2687499999999998 0.012041 122.725278 
2.2693750000000001 0.011904 128.170892 
2.2700000000000000 0.011046 136.861140 
2.2706249999999999 0.011143 138.872662 
2.2712500000000002 0.010492 143.084271 
2.2718750000000001 0.010217 144.942262 
2.2725000000000000 0.009975 146.480093 
2.2731249999999998 0.009258 147.262645 
2.2737500000000002 0.008953 145.681954 
2.2743750000000000 0.008495 145.860360 
2.2749999999999999 0.008394 143.591649 
2.2756249999999998 0.007966 139.989802 
2.2762500000000001 0.007556 141.312523 
2.2768750000000000 0.006885 137.253602 
2.2774999999999999 0.006418 135.913584 
2.2781250000000002 0.005832 134.749919 
2.2787500000000001 0.005473 132.028394 
2.2793749999999999 0.005099 129.384027 
2.2799999999999998 0.004767 127.626943 
2.2806250000000001 0.004504 124.958603 
2.2812500000000000 0.004058 125.254399 
2.2818749999999999 0.003923 125.859288 
2.2825000000000002 0.003512 124.080604 
2.2831250000000001 0.003324 123.845656 
2.2837499999999999 0.003179 124.279453 
2.2843749999999998 0.003137 124.351973 
2.2850000000000001 0.002987 125.522529 
2.2856250000000000 0.002988 127.458758 
2.2862499999999999 0.002955 127.652004 
2.2868750000000002 0.003082 126.623488 
2.2875000000000001 0.003144 126.194747 
2.2881250000000000 0.003260 125.642144 
2.2887499999999998 0.003295 123.860221 
2.2893750000000002 0.003363 122.344408 
2.2900000000000000 0.003384 119.519051 
2.2906249999999999 0.003404 115.901975 
2.2912499999999998 0.003383 113.794369 
2.2918750000000001 0.003467 110.167564 
2.2925000000000000 0.003449 107.860090 
2.2931249999999999 0.003407 103.205859 
2.2937500000000002 0.003303 98.597124 
2.2943750000000001 0.003274 94.442070 
2.2949999999999999 0.003296 91.701498 
2.2956249999999998 0.003169 88.411139 
2.2962500000000001 0.002995 83.786991 
2.2968750000000000 0.002901 81.065558 
2.2974999999999999 0.002846 79.354247 
2.2981250000000002 0.002722 76.501042 
2.2987500000000001 0.002673 73.179102 
2.2993749999999999 0.002445 73.163241 
2.2999999999999998 0.002404 71.056467 
2.3006250000000001 0.002329 71.645713 
2.3012500000000000 0.002256 72.068698 
2.3018749999999999 0.002243 72.038854 
2.3025000000000002 0.002193 72.302802 
2.3031250000000001 0.002227 73.022229 
2.3037500000000000 0.002246 73.325232 
2.3043749999999998 0.002290 73.325885 
