Freq.	S11(v1)	S21(v1)
7.00000000000000e+07	-9.57081894315976e-02,5.83761866283911e-03	-1.58124973674817e-01,-9.82725746711199e-01
7.00600600600601e+07	-9.45238188994268e-02,5.82293189620475e-03	-1.60133737794644e-01,-9.82515137293323e-01
7.01201201201201e+07	-9.33362624512957e-02,5.80311411863454e-03	-1.62144739732097e-01,-9.82298910343928e-01
7.01801801801802e+07	-9.21455372925357e-02,5.77813579832370e-03	-1.64157963442129e-01,-9.82077037779531e-01
7.02402402402402e+07	-9.09516608746850e-02,5.74796739396188e-03	-1.66173392631163e-01,-9.81849491498564e-01
7.03003003003003e+07	-8.97546508968243e-02,5.71257935658170e-03	-1.68191010755699e-01,-9.81616243383254e-01
7.03603603603603e+07	-8.85545253069058e-02,5.67194213143274e-03	-1.70210801020942e-01,-9.81377265301522e-01
7.04204204204204e+07	-8.73513023030696e-02,5.62602615987817e-03	-1.72232746379430e-01,-9.81132529108906e-01
7.04804804804804e+07	-8.61450003349538e-02,5.57480188131548e-03	-1.74256829529672e-01,-9.80882006650516e-01
7.05405405405405e+07	-8.49356381049895e-02,5.51823973512200e-03	-1.76283032914810e-01,-9.80625669763003e-01
7.06006006006005e+07	-8.37232345696907e-02,5.45631016262449e-03	-1.78311338721270e-01,-9.80363490276558e-01
7.06606606606606e+07	-8.25078089409285e-02,5.38898360909201e-03	-1.80341728877441e-01,-9.80095440016938e-01
7.07207207207206e+07	-8.12893806871978e-02,5.31623052575442e-03	-1.82374185052362e-01,-9.79821490807512e-01
7.07807807807807e+07	-8.00679695348704e-02,5.23802137184370e-03	-1.84408688654410e-01,-9.79541614471335e-01
7.08408408408408e+07	-7.88435954694368e-02,5.15432661666193e-03	-1.86445220830015e-01,-9.79255782833244e-01
7.09009009009008e+07	-7.76162787367326e-02,5.06511674166971e-03	-1.88483762462379e-01,-9.78963967721978e-01
7.09609609609609e+07	-7.63860398441609e-02,4.97036224260305e-03	-1.90524294170203e-01,-9.78666140972331e-01
7.10210210210209e+07	-7.51528995618914e-02,4.87003363161342e-03	-1.92566796306443e-01,-9.78362274427321e-01
7.10810810810810e+07	-7.39168789240509e-02,4.76410143943062e-03	-1.94611248957061e-01,-9.78052339940385e-01
7.11411411411410e+07	-7.26779992299008e-02,4.65253621755179e-03	-1.96657631939804e-01,-9.77736309377601e-01
7.12012012012011e+07	-7.14362820450012e-02,4.53530854045492e-03	-1.98705924802986e-01,-9.77414154619938e-01
7.12612612612611e+07	-7.01917492023545e-02,4.41238900783641e-03	-2.00756106824296e-01,-9.77085847565527e-01
7.13213213213212e+07	-6.89444228035424e-02,4.28374824687294e-03	-2.02808157009609e-01,-9.76751360131953e-01
7.13813813813812e+07	-6.76943252198403e-02,4.14935691450796e-03	-2.04862054091823e-01,-9.76410664258583e-01
7.14414414414413e+07	-6.64414790933221e-02,4.00918569976361e-03	-2.06917776529704e-01,-9.76063731908909e-01
7.15015015015014e+07	-6.51859073379452e-02,3.86320532607520e-03	-2.08975302506752e-01,-9.75710535072920e-01
7.15615615615614e+07	-6.39276331406199e-02,3.71138655365288e-03	-2.11034609930078e-01,-9.75351045769497e-01
7.16216216216215e+07	-6.26666799622604e-02,3.55370018186463e-03	-2.13095676429307e-01,-9.74985236048841e-01
7.16816816816815e+07	-6.14030715388248e-02,3.39011705164660e-03	-2.15158479355486e-01,-9.74613077994909e-01
7.17417417417416e+07	-6.01368318823289e-02,3.22060804793611e-03	-2.17222995780024e-01,-9.74234543727895e-01
7.18018018018016e+07	-5.88679852818477e-02,3.04514410212842e-03	-2.19289202493635e-01,-9.73849605406721e-01
7.18618618618617e+07	-5.75965563044981e-02,2.86369619456067e-03	-2.21357076005312e-01,-9.73458235231558e-01
7.19219219219217e+07	-5.63225697963998e-02,2.67623535701816e-03	-2.23426592541314e-01,-9.73060405446374e-01
7.19819819819818e+07	-5.50460508836194e-02,2.48273267526283e-03	-2.25497728044171e-01,-9.72656088341503e-01
7.20420420420418e+07	-5.37670249730947e-02,2.28315929159056e-03	-2.27570458171713e-01,-9.72245256256239e-01
7.21021021021019e+07	-5.24855177535377e-02,2.07748640740885e-03	-2.29644758296119e-01,-9.71827881581460e-01
7.21621621621619e+07	-5.12015551963187e-02,1.86568528584030e-03	-2.31720603502979e-01,-9.71403936762265e-01
7.22222222222220e+07	-4.99151635563294e-02,1.64772725434925e-03	-2.33797968590390e-01,-9.70973394300651e-01
7.22822822822821e+07	-4.86263693728222e-02,1.42358370739282e-03	-2.35876828068059e-01,-9.70536226758199e-01
7.23423423423421e+07	-4.73351994702301e-02,1.19322610909522e-03	-2.37957156156443e-01,-9.70092406758796e-01
7.24024024024022e+07	-4.60416809589653e-02,9.56625995945592e-04	-2.40038926785896e-01,-9.69641906991376e-01
7.24624624624622e+07	-4.47458412361936e-02,7.13754979521641e-04	-2.42122113595851e-01,-9.69184700212681e-01
7.25225225225223e+07	-4.34477079865848e-02,4.64584749233055e-04	-2.44206689934018e-01,-9.68720759250059e-01
7.25825825825823e+07	-4.21473091830413e-02,2.09087075090819e-04	-2.46292628855609e-01,-9.68250057004269e-01
7.26426426426424e+07	-4.08446730874036e-02,-5.27661895004528e-05	-2.48379903122587e-01,-9.67772566452324e-01
7.27027027027024e+07	-3.95398282511301e-02,-3.21003104926998e-04	-2.50468485202934e-01,-9.67288260650350e-01
7.27627627627625e+07	-3.82328035159510e-02,-5.95651642530393e-04	-2.52558347269957e-01,-9.66797112736472e-01
7.28228228228225e+07	-3.69236280145000e-02,-8.76739681742511e-04	-2.54649461201599e-01,-9.66299095933717e-01
7.28828828828826e+07	-3.56123311709187e-02,-1.16429500720638e-03	-2.56741798579799e-01,-9.65794183552952e-01
7.29429429429426e+07	-3.42989427014334e-02,-1.45834530586730e-03	-2.58835330689860e-01,-9.65282348995833e-01
7.30030030030027e+07	-3.29834926149106e-02,-1.75891816404394e-03	-2.60930028519853e-01,-9.64763565757783e-01
7.30630630630628e+07	-3.16660112133791e-02,-2.06604106448005e-03	-2.63025862760046e-01,-9.64237807430994e-01
7.31231231231228e+07	-3.03465290925273e-02,-2.37974138337105e-03	-2.65122803802358e-01,-9.63705047707446e-01
7.31831831831829e+07	-2.90250771421757e-02,-2.70004638736765e-03	-2.67220821739846e-01,-9.63165260381953e-01
7.32432432432429e+07	-2.77016865467172e-02,-3.02698323056239e-03	-2.69319886366218e-01,-9.62618419355233e-01
7.33033033033030e+07	-2.63763887855303e-02,-3.36057895144926e-03	-2.71419967175373e-01,-9.62064498636990e-01
7.33633633633630e+07	-2.50492156333609e-02,-3.70086046986839e-03	-2.73521033360974e-01,-9.61503472349030e-01
7.34234234234231e+07	-2.37201991606808e-02,-4.04785458392221e-03	-2.75623053816046e-01,-9.60935314728393e-01
7.34834834834831e+07	-2.23893717340068e-02,-4.40158796687851e-03	-2.77725997132614e-01,-9.60360000130502e-01
7.35435435435432e+07	-2.10567660161981e-02,-4.76208716404691e-03	-2.79829831601358e-01,-9.59777503032343e-01
7.36036036036032e+07	-1.97224149667174e-02,-5.12937858963791e-03	-2.81934525211312e-01,-9.59187798035657e-01
7.36636636636633e+07	-1.83863518418637e-02,-5.50348852360216e-03	-2.84040045649585e-01,-9.58590859870157e-01
7.37237237237234e+07	-1.70486101949681e-02,-5.88444310844782e-03	-2.86146360301122e-01,-9.57986663396764e-01
7.37837837837834e+07	-1.57092238765656e-02,-6.27226834604089e-03	-2.88253436248492e-01,-9.57375183610863e-01
7.38438438438435e+07	-1.43682270345274e-02,-6.66699009438398e-03	-2.90361240271710e-01,-9.56756395645584e-01
7.39039039039035e+07	-1.30256541141628e-02,-7.06863406437752e-03	-2.92469738848096e-01,-9.56130274775089e-01
7.39639639639636e+07	-1.16815398582851e-02,-7.47722581656141e-03	-2.94578898152164e-01,-9.55496796417896e-01
7.40240240240236e+07	-1.03359193072485e-02,-7.89279075784044e-03	-2.96688684055547e-01,-9.54855936140208e-01
7.40840840840837e+07	-8.98882779894594e-03,-8.31535413818718e-03	-2.98799062126955e-01,-9.54207669659265e-01
7.41441441441437e+07	-7.64030096877200e-03,-8.74494104733159e-03	-3.00909997632175e-01,-9.53551972846721e-01
7.42042042042038e+07	-6.29037474955463e-03,-9.18157641143003e-03	-3.03021455534094e-01,-9.52888821732027e-01
7.42642642642638e+07	-4.93908537144505e-03,-9.62528498972071e-03	-3.05133400492774e-01,-9.52218192505840e-01
7.43243243243239e+07	-3.58646936177842e-03,-1.00760913711564e-02	-3.07245796865549e-01,-9.51540061523448e-01
7.43843843843839e+07	-2.23256354489010e-03,-1.05340199710275e-02	-3.09358608707171e-01,-9.50854405308209e-01
7.44444444444440e+07	-8.77405041902590e-04,-1.09990950275645e-02	-3.11471799769983e-01,-9.50161200555012e-01
7.45045045045041e+07	4.78968729531681e-04,-1.14713405985255e-02	-3.13585333504137e-01,-9.49460424133748e-01
7.45645645645641e+07	1.83652005552215e-03,-1.19507805577698e-02	-3.15699173057854e-01,-9.48752053092802e-01
7.46246246246242e+07	3.19521092626940e-03,-1.24374385918152e-02	-3.17813281277707e-01,-9.48036064662559e-01
7.46846846846842e+07	4.55500303643630e-03,-1.29313381963808e-02	-3.19927620708962e-01,-9.47312436258921e-01
7.47447447447443e+07	5.91585778555670e-03,-1.34325026729160e-02	-3.22042153595946e-01,-9.46581145486847e-01
7.48048048048043e+07	7.27773627848194e-03,-1.39409551251160e-02	-3.24156841882461e-01,-9.45842170143900e-01
7.48648648648644e+07	8.64059932587313e-03,-1.44567184554230e-02	-3.26271647212238e-01,-9.45095488223811e-01
7.49249249249244e+07	1.00044074447265e-02,-1.49798153615146e-02	-3.28386530929427e-01,-9.44341077920057e-01
7.49849849849845e+07	1.13691208589444e-02,-1.55102683327817e-02	-3.30501454079138e-01,-9.43578917629450e-01
7.50450450450445e+07	1.27346994999478e-02,-1.60480996467910e-02	-3.32616377408013e-01,-9.42808985955741e-01
7.51051051051046e+07	1.41011030073275e-02,-1.65933313657382e-02	-3.34731261364847e-01,-9.42031261713234e-01
7.51651651651646e+07	1.54682907295405e-02,-1.71459853328894e-02	-3.36846066101253e-01,-9.41245723930412e-01
7.52252252252247e+07	1.68362217246454e-02,-1.77060831690120e-02	-3.38960751472363e-01,-9.40452351853575e-01
7.52852852852848e+07	1.82048547610854e-02,-1.82736462687952e-02	-3.41075277037575e-01,-9.39651124950491e-01
7.53453453453448e+07	1.95741483185097e-02,-1.88486957972606e-02	-3.43189602061353e-01,-9.38842022914052e-01
7.54054054054049e+07	2.09440605886417e-02,-1.94312526861645e-02	-3.45303685514054e-01,-9.38025025665939e-01
7.54654654654649e+07	2.23145494761896e-02,-2.00213376303900e-02	-3.47417486072815e-01,-9.37200113360309e-01
7.55255255255250e+07	2.36855725998040e-02,-2.06189710843330e-02	-3.49530962122477e-01,-9.36367266387471e-01
7.55855855855850e+07	2.50570872930744e-02,-2.12241732582769e-02	-3.51644071756556e-01,-9.35526465377589e-01
7.56456456456451e+07	2.64290506055789e-02,-2.18369641147659e-02	-3.53756772778263e-01,-9.34677691204379e-01
7.57057057057051e+07	2.78014193039722e-02,-2.24573633649656e-02	-3.55869022701560e-01,-9.33820924988817e-01
7.57657657657652e+07	2.91741498731244e-02,-2.30853904650219e-02	-3.57980778752280e-01,-9.32956148102859e-01
7.58258258258252e+07	3.05471985173011e-02,-2.37210646124112e-02	-3.60091997869271e-01,-9.32083342173163e-01
7.58858858858853e+07	3.19205211613967e-02,-2.43644047422902e-02	-3.62202636705611e-01,-9.31202489084809e-01
7.59459459459454e+07	3.32940734522078e-02,-2.50154295238358e-02	-3.64312651629852e-01,-9.30313570985038e-01
7.60060060060054e+07	3.46678107597556e-02,-2.56741573565844e-02	-3.66421998727319e-01,-9.29416570286987e-01
7.60660660660655e+07	3.60416881786612e-02,-2.63406063667698e-02	-3.68530633801460e-01,-9.28511469673423e-01
7.61261261261255e+07	3.74156605295599e-02,-2.70147944036535e-02	-3.70638512375240e-01,-9.27598252100494e-01
7.61861861861856e+07	3.87896823605687e-02,-2.76967390358572e-02	-3.72745589692584e-01,-9.26676900801467e-01
7.62462462462456e+07	4.01637079488038e-02,-2.83864575476941e-02	-3.74851820719870e-01,-9.25747399290479e-01
7.63063063063057e+07	4.15376913019421e-02,-2.90839669354949e-02	-3.76957160147474e-01,-9.24809731366284e-01
7.63663663663657e+07	4.29115861598341e-02,-2.97892839039408e-02	-3.79061562391360e-01,-9.23863881115998e-01
7.64264264264258e+07	4.42853459961650e-02,-3.05024248623896e-02	-3.81164981594721e-01,-9.22909832918854e-01
7.64864864864858e+07	4.56589240201690e-02,-3.12234059212098e-02	-3.83267371629676e-01,-9.21947571449944e-01
7.65465465465459e+07	4.70322731783888e-02,-3.19522428881118e-02	-3.85368686099009e-01,-9.20977081683964e-01
7.66066066066059e+07	4.84053461564846e-02,-3.26889512644845e-02	-3.87468878337961e-01,-9.19998348898964e-01
7.66666666666660e+07	4.97780953810998e-02,-3.34335462417327e-02	-3.89567901416081e-01,-9.19011358680083e-01
7.67267267267261e+07	5.11504730217673e-02,-3.41860426976208e-02	-3.91665708139114e-01,-9.18016096923289e-01
7.67867867867861e+07	5.25224309928793e-02,-3.49464551926212e-02	-3.93762251050957e-01,-9.17012549839110e-01
7.68468468468462e+07	5.38939209556930e-02,-3.57147979662649e-02	-3.95857482435648e-01,-9.16000703956365e-01
7.69069069069062e+07	5.52648943203997e-02,-3.64910849335001e-02	-3.97951354319425e-01,-9.14980546125885e-01
7.69669669669663e+07	5.66353022482406e-02,-3.72753296810620e-02	-4.00043818472826e-01,-9.13952063524226e-01
7.70270270270263e+07	5.80050956536722e-02,-3.80675454638402e-02	-4.02134826412844e-01,-9.12915243657385e-01
7.70870870870864e+07	5.93742252065863e-02,-3.88677452012632e-02	-4.04224329405135e-01,-9.11870074364494e-01
7.71471471471464e+07	6.07426413345804e-02,-3.96759414736885e-02	-4.06312278466279e-01,-9.10816543821516e-01
7.72072072072065e+07	6.21102942252820e-02,-4.04921465188018e-02	-4.08398624366092e-01,-9.09754640544927e-01
7.72672672672665e+07	6.34771338287206e-02,-4.13163722280265e-02	-4.10483317629995e-01,-9.08684353395388e-01
7.73273273273266e+07	6.48431098597566e-02,-4.21486301429481e-02	-4.12566308541430e-01,-9.07605671581410e-01
7.73873873873866e+07	6.62081718005616e-02,-4.29889314517441e-02	-4.14647547144335e-01,-9.06518584663000e-01
7.74474474474467e+07	6.75722689031493e-02,-4.38372869856338e-02	-4.16726983245669e-01,-9.05423082555302e-01
7.75075075075068e+07	6.89353501919592e-02,-4.46937072153361e-02	-4.18804566417991e-01,-9.04319155532221e-01
7.75675675675668e+07	7.02973644664964e-02,-4.55582022475435e-02	-4.20880246002095e-01,-9.03206794230033e-01
7.76276276276269e+07	7.16582603040194e-02,-4.64307818214136e-02	-4.22953971109695e-01,-9.02085989650980e-01
7.76876876876869e+07	7.30179860622835e-02,-4.73114553050706e-02	-4.25025690626164e-01,-9.00956733166851e-01
7.77477477477470e+07	7.43764898823378e-02,-4.82002316921317e-02	-4.27095353213333e-01,-8.99819016522546e-01
7.78078078078070e+07	7.57337196913710e-02,-4.90971195982421e-02	-4.29162907312334e-01,-8.98672831839621e-01
7.78678678678671e+07	7.70896232056155e-02,-5.00021272576358e-02	-4.31228301146504e-01,-8.97518171619818e-01
7.79279279279271e+07	7.84441479333031e-02,-5.09152625197119e-02	-4.33291482724343e-01,-8.96355028748570e-01
7.79879879879872e+07	7.97972411776666e-02,-5.18365328456289e-02	-4.35352399842518e-01,-8.95183396498500e-01
7.80480480480472e+07	8.11488500400075e-02,-5.27659453049268e-02	-4.37411000088932e-01,-8.94003268532875e-01
7.81081081081073e+07	8.24989214228038e-02,-5.37035065721624e-02	-4.39467230845841e-01,-8.92814638909070e-01
7.81681681681674e+07	8.38474020328799e-02,-5.46492229235724e-02	-4.41521039293022e-01,-8.91617502081979e-01
7.82282282282274e+07	8.51942383846225e-02,-5.56031002337588e-02	-4.43572372411002e-01,-8.90411852907428e-01
7.82882882882875e+07	8.65393768032567e-02,-5.65651439723989e-02	-4.45621176984334e-01,-8.89197686645543e-01
7.83483483483475e+07	8.78827634281654e-02,-5.75353592009760e-02	-4.47667399604932e-01,-8.87974998964113e-01
7.84084084084076e+07	8.92243442162686e-02,-5.85137505695421e-02	-4.49710986675453e-01,-8.86743785941910e-01
7.84684684684676e+07	9.05640649454564e-02,-5.95003223135055e-02	-4.51751884412745e-01,-8.85504044071993e-01
7.85285285285277e+07	9.19018712180650e-02,-6.04950782504418e-02	-4.53790038851330e-01,-8.84255770264982e-01
7.85885885885877e+07	9.32377084644154e-02,-6.14980217769397e-02	-4.55825395846960e-01,-8.82998961852301e-01
7.86486486486478e+07	9.45715219463987e-02,-6.25091558654702e-02	-4.57857901080207e-01,-8.81733616589394e-01
7.87087087087078e+07	9.59032567611131e-02,-6.35284830612907e-02	-4.59887500060127e-01,-8.80459732658912e-01
7.87687687687679e+07	9.72328578445554e-02,-6.45560054793766e-02	-4.61914138127951e-01,-8.79177308673867e-01
7.88288288288279e+07	9.85602699753620e-02,-6.55917248013878e-02	-4.63937760460856e-01,-8.77886343680757e-01
7.88888888888880e+07	9.98854377786025e-02,-6.66356422726645e-02	-4.65958312075770e-01,-8.76586837162652e-01
7.89489489489481e+07	1.01208305729623e-01,-6.76877586992598e-02	-4.67975737833233e-01,-8.75278789042252e-01
7.90090090090081e+07	1.02528818157941e-01,-6.87480744450060e-02	-4.69989982441312e-01,-8.73962199684914e-01
7.90690690690682e+07	1.03846919251193e-01,-6.98165894286122e-02	-4.72000990459570e-01,-8.72637069901630e-01
7.91291291291282e+07	1.05162553059129e-01,-7.08933031208083e-02	-4.74008706303080e-01,-8.71303400951983e-01
7.91891891891883e+07	1.06475663497658e-01,-7.19782145415124e-02	-4.76013074246499e-01,-8.69961194547061e-01
7.92492492492483e+07	1.07786194352945e-01,-7.30713222570485e-02	-4.78014038428181e-01,-8.68610452852327e-01
7.93093093093084e+07	1.09094089285558e-01,-7.41726243773940e-02	-4.80011542854351e-01,-8.67251178490462e-01
7.93693693693684e+07	1.10399291834660e-01,-7.52821185534738e-02	-4.82005531403325e-01,-8.65883374544152e-01
7.94294294294285e+07	1.11701745422252e-01,-7.63998019744913e-02	-4.83995947829782e-01,-8.64507044558856e-01
7.94894894894885e+07	1.13001393357469e-01,-7.75256713653005e-02	-4.85982735769079e-01,-8.63122192545505e-01
7.95495495495486e+07	1.14298178840916e-01,-7.86597229838207e-02	-4.87965838741627e-01,-8.61728822983191e-01
7.96096096096087e+07	1.15592044969058e-01,-7.98019526185003e-02	-4.89945200157303e-01,-8.60326940821777e-01
7.96696696696687e+07	1.16882934738652e-01,-8.09523555858128e-02	-4.91920763319917e-01,-8.58916551484494e-01
7.97297297297288e+07	1.18170791051232e-01,-8.21109267278091e-02	-4.93892471431730e-01,-8.57497660870475e-01
7.97897897897888e+07	1.19455556717637e-01,-8.32776604097100e-02	-4.95860267598012e-01,-8.56070275357246e-01
7.98498498498489e+07	1.20737174462582e-01,-8.44525505175457e-02	-4.97824094831651e-01,-8.54634401803174e-01
7.99099099099089e+07	1.22015586929281e-01,-8.56355904558437e-02	-4.99783896057809e-01,-8.53190047549867e-01
7.99699699699690e+07	1.23290736684110e-01,-8.68267731453672e-02	-5.01739614118625e-01,-8.51737220424516e-01
8.00300300300290e+07	1.24562566221316e-01,-8.80260910208962e-02	-5.03691191777958e-01,-8.50275928742206e-01
8.00900900900891e+07	1.25831017967769e-01,-8.92335360290676e-02	-5.05638571726182e-01,-8.48806181308155e-01
8.01501501501491e+07	1.27096034287763e-01,-9.04490996262569e-02	-5.07581696585022e-01,-8.47327987419917e-01
8.02102102102092e+07	1.28357557487849e-01,-9.16727727765195e-02	-5.09520508912433e-01,-8.45841356869530e-01
8.02702702702692e+07	1.29615529821720e-01,-9.29045459495814e-02	-5.11454951207525e-01,-8.44346299945606e-01
8.03303303303293e+07	1.30869893495135e-01,-9.41444091188802e-02	-5.13384965915531e-01,-8.42842827435372e-01
8.03903903903894e+07	1.32120590670881e-01,-9.53923517596653e-02	-5.15310495432811e-01,-8.41330950626657e-01
8.04504504504494e+07	1.33367563473779e-01,-9.66483628471513e-02	-5.17231482111909e-01,-8.39810681309817e-01
8.05105105105095e+07	1.34610753995728e-01,-9.79124308547266e-02	-5.19147868266637e-01,-8.38282031779614e-01
8.05705705705695e+07	1.35850104300791e-01,-9.91845437522173e-02	-5.21059596177214e-01,-8.36745014837027e-01
8.06306306306296e+07	1.37085556430314e-01,-1.00464689004213e-01	-5.22966608095432e-01,-8.35199643791017e-01
8.06906906906896e+07	1.38317052408089e-01,-1.01752853568445e-01	-5.24868846249866e-01,-8.33645932460222e-01
8.07507507507497e+07	1.39544534245550e-01,-1.03049023894230e-01	-5.26766252851128e-01,-8.32083895174596e-01
8.08108108108097e+07	1.40767943947006e-01,-1.04353185920964e-01	-5.28658770097143e-01,-8.30513546776999e-01
8.08708708708698e+07	1.41987223514911e-01,-1.05665325076688e-01	-5.30546340178483e-01,-8.28934902624703e-01
8.09309309309298e+07	1.43202314955172e-01,-1.06985426276708e-01	-5.32428905283718e-01,-8.27347978590862e-01
8.09909909909899e+07	1.44413160282478e-01,-1.08313473922275e-01	-5.34306407604808e-01,-8.25752791065901e-01
