Freq.	S11(v1)	S21(v1)
1.00000000000000e+00	9.99990420313956e-06,-1.20883505335684e-08	9.99990000104201e-01,-2.48881966235706e-08
3.00301299299299e+05	-1.69563445788778e-05,-3.62996433889988e-03	9.99955481728077e-01,-7.47380026604925e-03
6.00601598598599e+05	-9.78126090624976e-05,-7.25881727217316e-03	9.99851937689637e-01,-1.49466294201931e-02
9.00901897897898e+05	-2.32532573191557e-04,-1.08854722019574e-02	9.99679399826392e-01,-2.24175667650129e-02
1.20120219719720e+06	-4.21055737306997e-04,-1.45088316957908e-02	9.99437921171834e-01,-2.98856679837084e-02
1.50150249649650e+06	-6.63297473359137e-04,-1.81278001999576e-02	9.99127575897315e-01,-3.73499906607786e-02
1.80180279579580e+06	-9.59149096200429e-04,-2.17412846619173e-02	9.98748459236691e-01,-4.48095949118898e-02
2.10210309509510e+06	-1.30847795502342e-03,-2.53481951496018e-02	9.98300687389653e-01,-5.22635440105452e-02
2.40240339439439e+06	-1.71112754479097e-03,-2.89474454666510e-02	9.97784397403902e-01,-5.97109050106066e-02
2.70270369369369e+06	-2.16691763746280e-03,-3.25379537629149e-02	9.97199747036367e-01,-6.71507493639826e-02
3.00300399299299e+06	-2.67564443276735e-03,-3.61186431393090e-02	9.96546914593701e-01,-7.45821535325516e-02
3.30330429229229e+06	-3.23708072828865e-03,-3.96884422465146e-02	9.95826098752304e-01,-8.20041995937933e-02
3.60360459159159e+06	-3.85097610852525e-03,-4.32462858764399e-02	9.95037518358197e-01,-8.94159758390296e-02
3.90390489089089e+06	-4.51705715262962e-03,-4.67911155460321e-02	9.94181412207039e-01,-9.68165773638459e-02
4.20420519019019e+06	-5.23502766044059e-03,-5.03218800725367e-02	9.93258038804686e-01,-1.04205106649773e-01
4.50450548948949e+06	-6.00456889642331e-03,-5.38375361395672e-02	9.92267676108655e-01,-1.11580674136575e-01
4.80480578878879e+06	-6.82533985109113e-03,-5.73370488533318e-02	9.91210621250925e-01,-1.18942398784471e-01
5.10510608808809e+06	-7.69697751946241e-03,-6.08193922883262e-02	9.90087190242524e-01,-1.26289408625589e-01
5.40540638738739e+06	-8.61909719606990e-03,-6.42835500219093e-02	9.88897717660370e-01,-1.33620841304036e-01
5.70570668668669e+06	-9.59129278601556e-03,-6.77285156571107e-02	9.87642556316874e-01,-1.40935844603935e-01
6.00600698598599e+06	-1.06131371315510e-02,-7.11532933331321e-02	9.86322076912825e-01,-1.48233576964855e-01
6.30630728528529e+06	-1.16841823536177e-02,-7.45568982229589e-02	9.84936667674106e-01,-1.55513207984049e-01
6.60660758458459e+06	-1.28039602077881e-02,-7.79383570175764e-02	9.83486733972814e-01,-1.62773918904959e-01
6.90690788388389e+06	-1.39719824539971e-02,-8.12967083962812e-02	9.81972697933364e-01,-1.70014903091472e-01
7.20720818318319e+06	-1.51877412394644e-02,-8.46310034826231e-02	9.80394998024200e-01,-1.77235366487444e-01
7.50750848248249e+06	-1.64507094941670e-02,-8.79403062855365e-02	9.78754088635722e-01,-1.84434528061020e-01
7.80780878178179e+06	-1.77603413382222e-02,-9.12236941252584e-02	9.77050439645076e-01,-1.91611620233346e-01
8.10810908108109e+06	-1.91160725005131e-02,-9.44802580436474e-02	9.75284535968468e-01,-1.98765889291250e-01
8.40840938038039e+06	-2.05173207478934e-02,-9.77091031985539e-02	9.73456877101654e-01,-2.05896595783534e-01
8.70870967967969e+06	-2.19634863242750e-02,-1.00909349241936e-01	9.71567976649295e-01,-2.13003014900554e-01
9.00900997897899e+06	-2.34539523989181e-02,-1.04080130681445e-01	9.69618361843855e-01,-2.20084436836771e-01
9.30931027827829e+06	-2.49880855232079e-02,-1.07220597225189e-01	9.67608573054740e-01,-2.27140167135997e-01
9.60961057757759e+06	-2.65652360952234e-02,-1.10329914109516e-01	9.65539163288377e-01,-2.34169527019115e-01
9.90991087687689e+06	-2.81847388313818e-02,-1.13407262409574e-01	9.63410697679923e-01,-2.41171853694036e-01
1.02102111761762e+07	-2.98459132444346e-02,-1.16451839332528e-01	9.61223752977342e-01,-2.48146500647756e-01
1.05105114754755e+07	-3.15480641271161e-02,-1.19462858493302e-01	9.58978917018509e-01,-2.55092837920327e-01
1.08108117747748e+07	-3.32904820407141e-02,-1.22439550172739e-01	9.56676788202090e-01,-2.62010252360649e-01
1.11111120740741e+07	-3.50724438078529e-02,-1.25381161558156e-01	9.54317974952880e-01,-2.68898147864006e-01
1.14114123733734e+07	-3.68932130087768e-02,-1.28286956966229e-01	9.51903095182298e-01,-2.75755945591283e-01
1.17117126726727e+07	-3.87520404804298e-02,-1.31156218048222e-01	9.49432775744747e-01,-2.82583084169834e-01
1.20120129719720e+07	-4.06481648176242e-02,-1.33988243977604e-01	9.46907651890516e-01,-2.89379019876030e-01
1.23123132712713e+07	-4.25808128756103e-02,-1.36782351620107e-01	9.44328366715906e-01,-2.96143226799510e-01
1.26126135705706e+07	-4.45492002733578e-02,-1.39537875686309e-01	9.41695570611261e-01,-3.02875196989195e-01
1.29129138698699e+07	-4.65525318968767e-02,-1.42254168866867e-01	9.39009920707556e-01,-3.09574440581163e-01
1.32132141691692e+07	-4.85900024019104e-02,-1.44930601950557e-01	9.36272080322191e-01,-3.16240485908510e-01
1.35135144684685e+07	-5.06607967153497e-02,-1.47566563925272e-01	9.33482718404642e-01,-3.22872879593322e-01
1.38138147677678e+07	-5.27640905347301e-02,-1.50161462062188e-01	9.30642508982572e-01,-3.29471186620945e-01
1.41141150670671e+07	-5.48990508251842e-02,-1.52714721983329e-01	9.27752130609032e-01,-3.36034990396736e-01
1.44144153663664e+07	-5.70648363132411e-02,-1.55225787712757e-01	9.24812265811327e-01,-3.42563892785507e-01
1.47147156656657e+07	-5.92605979768838e-02,-1.57694121711678e-01	9.21823600542133e-01,-3.49057514133913e-01
1.50150159649650e+07	-6.14854795312757e-02,-1.60119204897738e-01	9.18786823633430e-01,-3.55515493276023e-01
1.53153162642643e+07	-6.37386179096116e-02,-1.62500536648838e-01	9.15702626253770e-01,-3.61937487522370e-01
1.56156165635636e+07	-6.60191437385390e-02,-1.64837634791776e-01	9.12571701369435e-01,-3.68323172632756e-01
1.59159168628629e+07	-6.83261818076414e-02,-1.67130035576095e-01	9.09394743209950e-01,-3.74672242773145e-01
1.62162171621622e+07	-7.06588515324666e-02,-1.69377293633485e-01	9.06172446738466e-01,-3.80984410456959e-01
1.65165174614615e+07	-7.30162674106297e-02,-1.71578981923120e-01	9.02905507127457e-01,-3.87259406471125e-01
1.68168177607608e+07	-7.53975394705204e-02,-1.73734691663349e-01	8.99594619240178e-01,-3.93496979787231e-01
1.71171180600601e+07	-7.78017737121828e-02,-1.75844032250137e-01	8.96240477118300e-01,-3.99696897458174e-01
1.74174183593594e+07	-8.02280725399341e-02,-1.77906631162688e-01	8.92843773476126e-01,-4.05858944500651e-01
1.77177186586587e+07	-8.26755351863399e-02,-1.79922133856690e-01	8.89405199201754e-01,-4.11982923763925e-01
1.80180189579580e+07	-8.51432581271541e-02,-1.81890203645628e-01	8.85925442865560e-01,-4.18068655785238e-01
1.83183192572573e+07	-8.76303354868775e-02,-1.83810521570625e-01	8.82405190236308e-01,-4.24115978632289e-01
1.86186195565566e+07	-9.01358594345977e-02,-1.85682786259281e-01	8.78845123805219e-01,-4.30124747733204e-01
1.89189198558559e+07	-9.26589205698005e-02,-1.87506713773979e-01	8.75245922318272e-01,-4.36094835694405e-01
1.92192201551552e+07	-9.51986082978573e-02,-1.89282037450144e-01	8.71608260317016e-01,-4.42026132106811e-01
1.95195204544545e+07	-9.77540111949274e-02,-1.91008507724944e-01	8.67932807688118e-01,-4.47918543340803e-01
1.98198207537538e+07	-1.00324217362023e-01,-1.92685891956915e-01	8.64220229221893e-01,-4.53771992330387e-01
2.01201210530531e+07	-1.02908314768011e-01,-1.94313974237018e-01	8.60471184179991e-01,-4.59586418346976e-01
2.04204213523524e+07	-1.05505391581350e-01,-1.95892555191614e-01	8.56686325872441e-01,-4.65361776763251e-01
2.07207216516517e+07	-1.08114536490371e-01,-1.97421451777861e-01	8.52866301244194e-01,-4.71098038807497e-01
2.10210219509510e+07	-1.10734839011954e-01,-1.98900497072041e-01	8.49011750471320e-01,-4.76795191308888e-01
2.13213222502503e+07	-1.13365389788436e-01,-2.00329540051299e-01	8.45123306566947e-01,-4.82453236434121e-01
2.16216225495496e+07	-1.16005280872638e-01,-2.01708445369308e-01	8.41201594997076e-01,-4.88072191415827e-01
2.19219228488489e+07	-1.18653606000913e-01,-2.03037093126357e-01	8.37247233306317e-01,-4.93652088273202e-01
2.22222231481482e+07	-1.21309460854117e-01,-2.04315378634350e-01	8.33260830753623e-01,-4.99192973525247e-01
2.25225234474475e+07	-1.23971943306437e-01,-2.05543212177212e-01	8.29242987958058e-01,-5.04694907897047e-01
2.28228237467468e+07	-1.26640153662033e-01,-2.06720518767196e-01	8.25194296554614e-01,-5.10157966019489e-01
2.31231240460461e+07	-1.29313194879466e-01,-2.07847237897560e-01	8.21115338860097e-01,-5.15582236122798e-01
2.34234243453454e+07	-1.31990172783877e-01,-2.08923323292124e-01	8.17006687549053e-01,-5.20967819724316e-01
2.37237246446447e+07	-1.34670196266941e-01,-2.09948742652140e-01	8.12868905339720e-01,-5.26314831310860e-01
2.40240249439440e+07	-1.37352377474603e-01,-2.10923477400982e-01	8.08702544689951e-01,-5.31623398016067e-01
2.43243252432433e+07	-1.40035831982619e-01,-2.11847522427095e-01	8.04508147503062e-01,-5.36893659293062e-01
2.46246255425426e+07	-1.42719678959974e-01,-2.12720885825665e-01	8.00286244843520e-01,-5.42125766582806e-01
2.49249258418419e+07	-1.45403041320201e-01,-2.13543588639465e-01	7.96037356662396e-01,-5.47319882978468e-01
2.52252261411412e+07	-1.48085045860723e-01,-2.14315664599308e-01	7.91761991532474e-01,-5.52476182886146e-01
2.55255264404405e+07	-1.50764823390249e-01,-2.15037159864546e-01	7.87460646392913e-01,-5.57594851682246e-01
2.58258267397398e+07	-1.53441508844372e-01,-2.15708132764040e-01	7.83133806303339e-01,-5.62676085367828e-01
2.61261270390391e+07	-1.56114241389457e-01,-2.16328653538024e-01	7.78781944207221e-01,-5.67720090220217e-01
2.64264273383384e+07	-1.58782164514938e-01,-2.16898804081258e-01	7.74405520704413e-01,-5.72727082442139e-01
2.67267276376377e+07	-1.61444426114170e-01,-2.17418677687884e-01	7.70004983832680e-01,-5.77697287808668e-01
2.70270279369370e+07	-1.64100178553966e-01,-2.17888378798377e-01	7.65580768858065e-01,-5.82630941312218e-01
2.73273282362363e+07	-1.66748578732978e-01,-2.18308022748966e-01	7.61133298073931e-01,-5.87528286805828e-01
2.76276285355356e+07	-1.69388788129085e-01,-2.18677735523904e-01	7.56662980608474e-01,-5.92389576644955e-01
2.79279288348349e+07	-1.72019972835948e-01,-2.18997653510960e-01	7.52170212240563e-01,-5.97215071328002e-01
2.82282291341342e+07	-1.74641303588910e-01,-2.19267923260478e-01	7.47655375223686e-01,-6.02005039135752e-01
2.85285294334335e+07	-1.77251955780443e-01,-2.19488701248368e-01	7.43118838117816e-01,-6.06759755769909e-01
2.88288297327328e+07	-1.79851109465299e-01,-2.19660153643350e-01	7.38560955629006e-01,-6.11479503990906e-01
2.91291300320321e+07	-1.82437949355604e-01,-2.19782456078806e-01	7.33982068456501e-01,-6.16164573255128e-01
2.94294303313314e+07	-1.85011664806054e-01,-2.19855793429544e-01	7.29382503147159e-01,-6.20815259351697e-01
2.97297306306307e+07	-1.87571449789458e-01,-2.19880359593802e-01	7.24762571956983e-01,-6.25431864038932e-01
3.00300309299300e+07	-1.90116502862823e-01,-2.19856357280795e-01	7.20122572719536e-01,-6.30014694680605e-01
3.03303312292293e+07	-1.92646027124203e-01,-2.19783997804108e-01	7.15462788721041e-01,-6.34564063882069e-01
3.06306315285286e+07	-1.95159230160534e-01,-2.19663500881227e-01	7.10783488581943e-01,-6.39080289126357e-01
3.09309318278279e+07	-1.97655323986684e-01,-2.19495094439490e-01	7.06084926144723e-01,-6.43563692410303e-01
3.12312321271272e+07	-2.00133524975946e-01,-2.19279014428747e-01	7.01367340367750e-01,-6.48014599880745e-01
3.15315324264265e+07	-2.02593053782210e-01,-2.19015504640983e-01	6.96630955224958e-01,-6.52433341470832e-01
3.18318327257258e+07	-2.05033135254043e-01,-2.18704816537191e-01	6.91875979611143e-01,-6.56820250536473e-01
3.21321330250251e+07	-2.07452998340933e-01,-2.18347209081740e-01	6.87102607252648e-01,-6.61175663492927e-01
3.24324333243244e+07	-2.09851875991919e-01,-2.17942948584489e-01	6.82311016623274e-01,-6.65499919451527e-01
3.27327336236237e+07	-2.12229005046867e-01,-2.17492308550915e-01	6.77501370865161e-01,-6.69793359856510e-01
3.30330339229230e+07	-2.14583626120636e-01,-2.16995569540470e-01	6.72673817714483e-01,-6.74056328121943e-01
3.33333342222223e+07	-2.16914983480373e-01,-2.16453019033433e-01	6.67828489431744e-01,-6.78289169268662e-01
3.36336345215216e+07	-2.19222324916205e-01,-2.15864951306466e-01	6.62965502736475e-01,-6.82492229561186e-01
3.39339348208209e+07	-2.21504901605575e-01,-2.15231667317123e-01	6.58084958746173e-01,-6.86665856144528e-01
3.42342351201202e+07	-2.23761967971467e-01,-2.14553474597530e-01	6.53186942919283e-01,-6.90810396680795e-01
3.45345354194195e+07	-2.25992781534798e-01,-2.13830687157458e-01	6.48271525002054e-01,-6.94926198985499e-01
3.48348357187188e+07	-2.28196602761220e-01,-2.13063625397007e-01	6.43338758979112e-01,-6.99013610663448e-01
3.51351360180181e+07	-2.30372694902602e-01,-2.12252616029131e-01	6.38388683027585e-01,-7.03072978744087e-01
3.54354363173174e+07	-2.32520323833457e-01,-2.11397992012197e-01	6.33421319474632e-01,-7.07104649316164e-01
3.57357366166167e+07	-2.34638757882579e-01,-2.10500092492818e-01	6.28436674758234e-01,-7.11108967161537e-01
3.60360369159160e+07	-2.36727267660151e-01,-2.09559262759147e-01	6.23434739391117e-01,-7.15086275387994e-01
3.63363372152153e+07	-2.38785125880617e-01,-2.08575854204858e-01	6.18415487927681e-01,-7.19036915060865e-01
3.66366375145146e+07	-2.40811607181573e-01,-2.07550224304020e-01	6.13378878933825e-01,-7.22961224833275e-01
3.69369378138139e+07	-2.42805987938960e-01,-2.06482736597076e-01	6.08324854959562e-01,-7.26859540574799e-01
3.72372381131132e+07	-2.44767546078852e-01,-2.05373760688127e-01	6.03253342514342e-01,-7.30732194998332e-01
3.75375384124125e+07	-2.46695560886107e-01,-2.04223672253749e-01	5.98164252044992e-01,-7.34579517284929e-01
3.78378387117118e+07	-2.48589312810186e-01,-2.03032853063533e-01	5.93057477916212e-01,-7.38401832706387e-01
3.81381390110111e+07	-2.50448083268427e-01,-2.01801691012578e-01	5.87932898393572e-01,-7.42199462245316e-01
3.84384393103104e+07	-2.52271154447071e-01,-2.00530580166138e-01	5.82790375628975e-01,-7.45972722212436e-01
3.87387396096097e+07	-2.54057809100359e-01,-1.99219920816643e-01	5.77629755648545e-01,-7.49721923860835e-01
3.90390399089090e+07	-2.55807330347986e-01,-1.97870119553308e-01	5.72450868342941e-01,-7.53447372996899e-01
3.93393402082083e+07	-2.57519001471261e-01,-1.96481589344557e-01	5.67253527460096e-01,-7.57149369587633e-01
3.96396405075076e+07	-2.59192105708269e-01,-1.95054749633463e-01	5.62037530600398e-01,-7.60828207364052e-01
3.99399408068069e+07	-2.60825926048386e-01,-1.93590026446456e-01	5.56802659214344e-01,-7.64484173420347e-01
4.02402411061062e+07	-2.62419745026481e-01,-1.92087852515500e-01	5.51548678602739e-01,-7.68117547808499e-01
4.05405414054055e+07	-2.63972844517153e-01,-1.90548667413980e-01	5.46275337919481e-01,-7.71728603128003e-01
4.08408417047048e+07	-2.65484505529371e-01,-1.88972917706538e-01	5.40982370177048e-01,-7.75317604110368e-01
4.11411420040041e+07	-2.66954008001877e-01,-1.87361057113074e-01	5.35669492254781e-01,-7.78884807198038e-01
4.14414423033034e+07	-2.68380630599746e-01,-1.85713546687174e-01	5.30336404910095e-01,-7.82430460117389e-01
4.17417426026027e+07	-2.69763650512481e-01,-1.84030855009189e-01	5.24982792792774e-01,-7.85954801445411e-01
4.20420429019020e+07	-2.71102343254069e-01,-1.82313458394220e-01	5.19608324462507e-01,-7.89458060169728e-01
4.23423432012013e+07	-2.72395982465406e-01,-1.80561841115260e-01	5.14212652409883e-01,-7.92940455241554e-01
4.26426435005006e+07	-2.73643839719536e-01,-1.78776495641735e-01	5.08795413081042e-01,-7.96402195121210e-01
4.29429437997999e+07	-2.74845184330151e-01,-1.76957922893707e-01	5.03356226906234e-01,-7.99843477315793e-01
4.32432440990992e+07	-2.75999283163824e-01,-1.75106632512001e-01	4.97894698332557e-01,-8.03264487908613e-01
4.35435443983985e+07	-2.77105400456468e-01,-1.73223143144504e-01	4.92410415861169e-01,-8.06665401079976e-01
4.38438446976978e+07	-2.78162797634525e-01,-1.71307982748915e-01	4.86902952089291e-01,-8.10046378618906e-01
4.41441449969971e+07	-2.79170733141412e-01,-1.69361688912193e-01	4.81371863757361e-01,-8.13407569425395e-01
4.44444452962964e+07	-2.80128462269781e-01,-1.67384809186998e-01	4.75816691801723e-01,-8.16749109002755e-01
4.47447455955957e+07	-2.81035237000164e-01,-1.65377901445354e-01	4.70236961413247e-01,-8.20071118939652e-01
4.50450458948950e+07	-2.81890305846599e-01,-1.63341534249845e-01	4.64632182102355e-01,-8.23373706381397e-01
4.53453461941942e+07	-2.82692913709869e-01,-1.61276287242581e-01	4.59001847770902e-01,-8.26656963490071e-01
4.56456464934935e+07	-2.83442301739005e-01,-1.59182751552221e-01	4.53345436791457e-01,-8.29920966893047e-01
4.59459467927928e+07	-2.84137707201721e-01,-1.57061530219306e-01	4.47662412094500e-01,-8.33165777119510e-01
4.62462470920921e+07	-2.84778363364522e-01,-1.54913238640181e-01	4.41952221264166e-01,-8.36391438024512e-01
4.65465473913914e+07	-2.85363499383197e-01,-1.52738505029755e-01	4.36214296643122e-01,-8.39597976200181e-01
4.68468476906907e+07	-2.85892340204496e-01,-1.50537970903354e-01	4.30448055447275e-01,-8.42785400373645e-01
4.71471479899900e+07	-2.86364106479799e-01,-1.48312291577932e-01	4.24652899891011e-01,-8.45953700791273e-01
4.74474482892893e+07	-2.86778014491623e-01,-1.46062136692867e-01	4.18828217323718e-01,-8.49102848588817e-01
4.77477485885886e+07	-2.87133276093858e-01,-1.43788190750581e-01	4.12973380378401e-01,-8.52232795147083e-01
4.80480488878879e+07	-2.87429098666665e-01,-1.41491153677208e-01	4.07087747133222e-01,-8.55343471432733e-01
4.83483491871872e+07	-2.87664685087004e-01,-1.39171741403529e-01	4.01170661286874e-01,-8.58434787323851e-01
4.86486494864865e+07	-2.87839233715803e-01,-1.36830686466351e-01	3.95221452348733e-01,-8.61506630919930e-01
4.89489497857858e+07	-2.87951938402837e-01,-1.34468738630540e-01	3.89239435844769e-01,-8.64558867835931e-01
4.92492500850851e+07	-2.88001988510424e-01,-1.32086665531837e-01	3.83223913540294e-01,-8.67591340480106e-01
4.95495503843844e+07	-2.87988568957089e-01,-1.29685253340623e-01	3.77174173680621e-01,-8.70603867315284e-01
4.98498506836837e+07	-2.87910860282411e-01,-1.27265307446739e-01	3.71089491250833e-01,-8.73596242103362e-01
5.01501509829830e+07	-2.87768038734316e-01,-1.24827653165455e-01	3.64969128255848e-01,-8.76568233132752e-01
5.04504512822823e+07	-2.87559276380128e-01,-1.22373136464636e-01	3.58812334022082e-01,-8.79519582428578e-01
5.07507515815816e+07	-2.87283741242751e-01,-1.19902624713151e-01	3.52618345522056e-01,-8.82450004945450e-01
5.10510518808809e+07	-2.86940597463416e-01,-1.17417007450494e-01	3.46386387723330e-01,-8.85359187742680e-01
5.13513521801802e+07	-2.86529005492480e-01,-1.14917197177581e-01	3.40115673963273e-01,-8.88246789141860e-01
5.16516524794795e+07	-2.86048122309830e-01,-1.12404130168612e-01	3.33805406351161e-01,-8.91112437866729e-01
5.19519527787788e+07	-2.85497101676509e-01,-1.09878767303860e-01	3.27454776199251e-01,-8.93955732165376e-01
5.22522530780781e+07	-2.84875094419229e-01,-1.07342094923186e-01	3.21062964484478e-01,-8.96776238914813e-01
5.25525533773774e+07	-2.84181248749534e-01,-1.04795125700008e-01	3.14629142342523e-01,-8.99573492708055e-01
5.28528536766767e+07	-2.83414710619401e-01,-1.02238899535408e-01	3.08152471596079e-01,-9.02346994923904e-01
5.31531539759760e+07	-2.82574624115170e-01,-9.96744844719827e-02	3.01632105319185e-01,-9.05096212779707e-01
5.34534542752753e+07	-2.81660131891739e-01,-9.71029776269481e-02	2.95067188439602e-01,-9.07820578367418e-01
5.37537545745746e+07	-2.80670375649035e-01,-9.45255061439583e-02	2.88456858381249e-01,-9.10519487673413e-01
5.40540548738739e+07	-2.79604496652846e-01,-9.19432281629828e-02	2.81800245748807e-01,-9.13192299582588e-01
5.43543551731732e+07	-2.78461636302150e-01,-8.93573338074968e-02	2.75096475056680e-01,-9.15838334867337e-01
5.46546554724725e+07	-2.77240936745171e-01,-8.67690461881400e-02	2.68344665504534e-01,-9.18456875162182e-01
5.49549557717718e+07	-2.75941541546431e-01,-8.41796224218777e-02	2.61543931801765e-01,-9.21047161924877e-01
