Freq.	S11(v1)	S21(v1)
1.00000000000000e+00	1.30280300039434e-02,-1.26153338307092e-08	9.86971969996047e-01,-2.50770805783570e-08
3.00301299299299e+05	1.29994430418938e-02,-3.78820427395003e-03	9.86936068365317e-01,-7.53051060772256e-03
6.00601598598599e+05	1.29136958323930e-02,-7.57521488274782e-03	9.86828375521993e-01,-1.50599806497602e-02
9.00901897897898e+05	1.27708282511354e-02,-1.13598641024052e-02	9.86648926165753e-01,-2.25874204186634e-02
1.20120219719720e+06	1.25709067188586e-02,-1.51409730058454e-02	9.86397778089343e-01,-3.01118165303961e-02
1.50150249649650e+06	1.23140241415878e-02,-1.89173647819014e-02	9.86075012116803e-01,-3.76321576992081e-02
1.80180279579580e+06	1.20002998297157e-02,-2.26878654362823e-02	9.85680732019801e-01,-4.51474354326929e-02
2.10210309509510e+06	1.16298793921643e-02,-2.64513044887129e-02	9.85215064408196e-01,-5.26566447230263e-02
2.40240339439439e+06	1.12029346081000e-02,-3.02065156653328e-02	9.84678158597367e-01,-6.01587847334356e-02
2.70270369369369e+06	1.07196632763120e-02,-3.39523375856029e-02	9.84070186452409e-01,-6.76528594791466e-02
3.00300399299299e+06	1.01802890415386e-02,-3.76876144425773e-02	9.83391342208441e-01,-7.51378785016768e-02
3.30330429229229e+06	9.58506119897096e-03,-4.14111966759450e-02	9.82641842268298e-01,-8.26128575358583e-02
3.60360459159159e+06	8.93425447659091e-03,-4.51219416365789e-02	9.81821924977191e-01,-9.00768191683397e-02
3.90390489089089e+06	8.22816879690458e-03,-4.88187142422803e-02	9.80931850375982e-01,-9.75287934872115e-02
4.20420519019019e+06	7.46712901654067e-03,-5.25003876232647e-02	9.79971899931417e-01,-1.04967818721365e-01
4.50450548948949e+06	6.65148464625309e-03,-5.61658437570794e-02	9.78942376245959e-01,-1.12392941869188e-01
4.80480578878879e+06	5.78160955068929e-03,-5.98139740920682e-02	9.77843602746502e-01,-1.19803219315765e-01
5.10510608808809e+06	4.85790162858368e-03,-6.34436801583317e-02	9.76675923352633e-01,-1.27197717437482e-01
5.40540638738739e+06	3.88078247383694e-03,-6.70538741657876e-02	9.75439702124891e-01,-1.34575513193695e-01
5.70570668668669e+06	2.85069701912666e-03,-7.06434795886578e-02	9.74135322894680e-01,-1.41935694704667e-01
6.00600698598599e+06	1.76811316066461e-03,-7.42114317351932e-02	9.72763188874369e-01,-1.49277361814725e-01
6.30630728528529e+06	6.33521367066292e-04,-7.77566783028317e-02	9.71323722250632e-01,-1.56599626640678e-01
6.60660758458459e+06	-5.52565728832777e-04,-8.12781799175456e-02	9.69817363759759e-01,-1.63901614104347e-01
6.90690788388389e+06	-1.78961375353159e-03,-8.47749106567873e-02	9.68244572246637e-01,-1.71182462448549e-01
7.20720818318319e+06	-3.07706703115496e-03,-8.82458585560623e-02	9.66605824208039e-01,-1.78441323736555e-01
7.50750848248249e+06	-4.41434903652982e-03,-9.16900260979740e-02	9.64901613320116e-01,-1.85677364333927e-01
7.80780878178179e+06	-5.80086286050552e-03,-9.51064306839105e-02	9.63132449952673e-01,-1.92889765372717e-01
8.10810908108109e+06	-7.23599168918732e-03,-9.84941050871990e-02	9.61298860668458e-01,-2.00077723197076e-01
8.40840938038039e+06	-8.71909929404013e-03,-1.01852097888143e-01	9.59401387710580e-01,-2.07240449790471e-01
8.70870967967969e+06	-1.02495305334217e-02,-1.05179473889902e-01	9.57440588477406e-01,-2.14377173183554e-01
9.00900997897899e+06	-1.18266118640804e-02,-1.08475314515410e-01	9.55417034986431e-01,-2.21487137842835e-01
9.30931027827829e+06	-1.34496518622764e-02,-1.11738718184876e-01	9.53331313327424e-01,-2.28569605039703e-01
9.60961057757759e+06	-1.51179417532501e-02,-1.14968800673231e-01	9.51184023106065e-01,-2.35623853199111e-01
9.90991087687689e+06	-1.68307559483123e-02,-1.18164695448370e-01	9.48975776878894e-01,-2.42649178228767e-01
1.02102111761762e+07	-1.85873525891438e-02,-1.21325553988455e-01	9.46707199579777e-01,-2.49644893827102e-01
1.05105114754755e+07	-2.03869740976090e-02,-1.24450546080125e-01	9.44378927939798e-01,-2.56610331771770e-01
1.08108117747748e+07	-2.22288477312897e-02,-1.27538860095516e-01	9.41991609900115e-01,-2.63544842186660e-01
1.11111120740741e+07	-2.41121861428986e-02,-1.30589703249749e-01	9.39545904019786e-01,-2.70447793788939e-01
1.14114123733734e+07	-2.60361879435700e-02,-1.33602301837500e-01	9.37042478878392e-01,-2.77318574114824e-01
1.17117126726727e+07	-2.80000382686886e-02,-1.36575901449668e-01	9.34482012474891e-01,-2.84156589724992e-01
1.20120129719720e+07	-3.00029093455163e-02,-1.39509767169872e-01	9.31865191623379e-01,-2.90961266389355e-01
1.23123132712713e+07	-3.20439610622190e-02,-1.42403183750730e-01	9.29192711346106e-01,-2.97732049251165e-01
1.26126135705706e+07	-3.41223415367318e-02,-1.45255455770014e-01	9.26465274265289e-01,-3.04468402970421e-01
1.29129138698699e+07	-3.62371876857103e-02,-1.48065907767407e-01	9.23683589993527e-01,-3.11169811847405e-01
1.32132141691692e+07	-3.83876257915785e-02,-1.50833884361254e-01	9.20848374524659e-01,-3.17835779925528e-01
1.35135144684685e+07	-4.05727720681117e-02,-1.53558750346031e-01	9.17960349624680e-01,-3.24465831074374e-01
1.38138147677678e+07	-4.27917332231257e-02,-1.56239890770879e-01	9.15020242224150e-01,-3.31059509053109e-01
1.41141150670671e+07	-4.50436070175424e-02,-1.58876710999066e-01	9.12028783812695e-01,-3.37616377554118e-01
1.44144153663664e+07	-4.73274828205326e-02,-1.61468636749022e-01	9.08986709835972e-01,-3.44136020227509e-01
1.47147156656657e+07	-4.96424421598529e-02,-1.64015114117090e-01	9.05894759095894e-01,-3.50618040686574e-01
1.50150159649650e+07	-5.19875592664496e-02,-1.66515609582564e-01	9.02753673155058e-01,-3.57062062494680e-01
1.53153162642643e+07	-5.43619016133584e-02,-1.68969609995173e-01	8.99564195745294e-01,-3.63467729133814e-01
1.56156165635636e+07	-5.67645304474924e-02,-1.71376622545655e-01	8.96327072181739e-01,-3.69834703955263e-01
1.59159168628629e+07	-5.91945013145310e-02,-1.73736174719502e-01	8.93043048782161e-01,-3.76162670112585e-01
1.62162171621622e+07	-6.16508645755467e-02,-1.76047814234817e-01	8.89712872292925e-01,-3.82451330477620e-01
1.65165174614615e+07	-6.41326659157057e-02,-1.78311108964289e-01	8.86337289321198e-01,-3.88700407539678e-01
1.68168177607608e+07	-6.66389468435802e-02,-1.80525646841864e-01	8.82917045774800e-01,-3.94909643288234e-01
1.71171180600601e+07	-6.91687451814236e-02,-1.82691035755090e-01	8.79452886309450e-01,-4.01078799080213e-01
1.74174183593594e+07	-7.17210955455074e-02,-1.84806903422741e-01	8.75945553784102e-01,-4.07207655491355e-01
1.77177186586587e+07	-7.42950298160304e-02,-1.86872897259200e-01	8.72395788724998e-01,-4.13296012153036e-01
1.80180189579580e+07	-7.68895775966407e-02,-1.88888684225498e-01	8.68804328798287e-01,-4.19343687574510e-01
1.83183192572573e+07	-7.95037666624671e-02,-1.90853950667675e-01	8.65171908292256e-01,-4.25350518951003e-01
1.86186195565566e+07	-8.21366233971700e-02,-1.92768402143273e-01	8.61499257608752e-01,-4.31316361958605e-01
1.89189198558559e+07	-8.47871732179124e-02,-1.94631763236364e-01	8.57787102764792e-01,-4.37241090536121e-01
1.92192201551552e+07	-8.74544409882898e-02,-1.96443777361368e-01	8.54036164904233e-01,-4.43124596654169e-01
1.95195204544545e+07	-9.01374514191352e-02,-1.98204206556901e-01	8.50247159819739e-01,-4.48966790072700e-01
1.98198207537538e+07	-9.28352294564346e-02,-1.99912831269601e-01	8.46420797485603e-01,-4.54767598086740e-01
2.01201210530531e+07	-9.55468006567162e-02,-2.01569450128927e-01	8.42557781601168e-01,-4.60526965261397e-01
2.04204213523524e+07	-9.82711915491115e-02,-2.03173879713203e-01	8.38658809145520e-01,-4.66244853156185e-01
2.07207216516517e+07	-1.01007429984401e-01,-2.04725954307740e-01	8.34724569943196e-01,-4.71921240039543e-01
2.10210219509510e+07	-1.03754545470646e-01,-2.06225525655502e-01	8.30755746241258e-01,-4.77556120593879e-01
2.13213222502503e+07	-1.06511569495341e-01,-2.07672462700909e-01	8.26753012297768e-01,-4.83149505611654e-01
2.16216225495496e+07	-1.09277535833879e-01,-2.09066651327242e-01	8.22717033981813e-01,-4.88701421682883e-01
2.19219228488489e+07	-1.12051480844409e-01,-2.10407994088458e-01	8.18648468385059e-01,-4.94211910874789e-01
2.22222231481482e+07	-1.14832443748913e-01,-2.11696409935808e-01	8.14547963444933e-01,-4.99681030403895e-01
2.25225234474475e+07	-1.17619466900538e-01,-2.12931833939892e-01	8.10416157579390e-01,-5.05108852301132e-01
2.28228237467468e+07	-1.20411596036944e-01,-2.14114217008572e-01	8.06253679333435e-01,-5.10495463070198e-01
2.31231240460461e+07	-1.23207880519965e-01,-2.15243525601565e-01	8.02061147037182e-01,-5.15840963339989e-01
2.34234243453454e+07	-1.26007373561529e-01,-2.16319741442005e-01	7.97839168475417e-01,-5.21145467511280e-01
2.37237246446447e+07	-1.28809132435559e-01,-2.17342861225598e-01	7.93588340568899e-01,-5.26409103398060e-01
2.40240249439440e+07	-1.31612218676361e-01,-2.18312896327981e-01	7.89309249066965e-01,-5.31632011864168e-01
2.43243252432433e+07	-1.34415698263332e-01,-2.19229872510634e-01	7.85002468251498e-01,-5.36814346455402e-01
2.46246255425426e+07	-1.37218641791953e-01,-2.20093829625991e-01	7.80668560652322e-01,-5.41956273027576e-01
2.49249258418419e+07	-1.40020124631560e-01,-2.20904821322274e-01	7.76308076773551e-01,-5.47057969371059e-01
2.52252261411412e+07	-1.42819227069557e-01,-2.21662914748374e-01	7.71921554831121e-01,-5.52119624831863e-01
2.55255264404405e+07	-1.45615034442506e-01,-2.22368190259396e-01	7.67509520501131e-01,-5.57141439929847e-01
2.58258267397398e+07	-1.48406637254142e-01,-2.23020741123365e-01	7.63072486678939e-01,-5.62123625974382e-01
2.61261270390391e+07	-1.51193131280439e-01,-2.23620673229392e-01	7.58610953248808e-01,-5.67066404677628e-01
2.64264273383384e+07	-1.53973617661967e-01,-2.24168104797940e-01	7.54125406863945e-01,-5.71970007765946e-01
2.67267276376377e+07	-1.56747202983712e-01,-2.24663166093526e-01	7.49616320736702e-01,-5.76834676589618e-01
2.70270279369370e+07	-1.59512999342374e-01,-2.25105999140196e-01	7.45084154438876e-01,-5.81660661731043e-01
2.73273282362363e+07	-1.62270124401698e-01,-2.25496757440455e-01	7.40529353711690e-01,-5.86448222611995e-01
2.76276285355356e+07	-1.65017701435647e-01,-2.25835605697780e-01	7.35952350285492e-01,-5.91197627099836e-01
2.79279288348349e+07	-1.67754859360034e-01,-2.26122719543259e-01	7.31353561708662e-01,-5.95909151113149e-01
2.82282291341342e+07	-1.70480732752398e-01,-2.26358285266693e-01	7.26733391185880e-01,-6.00583078226845e-01
2.85285294334335e+07	-1.73194461860871e-01,-2.26542499552626e-01	7.22092227425109e-01,-6.05219699277171e-01
2.88288297327328e+07	-1.75895192601717e-01,-2.26675569221396e-01	7.17430444493449e-01,-6.09819311966390e-01
2.91291300320321e+07	-1.78582076546317e-01,-2.26757710976020e-01	7.12748401681354e-01,-6.14382220467860e-01
2.94294303313314e+07	-1.81254270897520e-01,-2.26789151154710e-01	7.08046443375043e-01,-6.18908735031100e-01
2.97297306306307e+07	-1.83910938455675e-01,-2.26770125489833e-01	7.03324898937023e-01,-6.23399171587390e-01
3.00300309299300e+07	-1.86551247574676e-01,-2.26700878873268e-01	6.98584082594257e-01,-6.27853851355733e-01
3.03303312292293e+07	-1.89174372108469e-01,-2.26581665128807e-01	6.93824293333743e-01,-6.32273100449637e-01
3.06306315285286e+07	-1.91779491347605e-01,-2.26412746791506e-01	6.89045814805669e-01,-6.36657249484198e-01
3.09309318278279e+07	-1.94365789947139e-01,-2.26194394894699e-01	6.84248915233219e-01,-6.41006633184313e-01
3.12312321271272e+07	-1.96932457845210e-01,-2.25926888764653e-01	6.79433847329458e-01,-6.45321589993422e-01
3.15315324264265e+07	-1.99478690173326e-01,-2.25610515823283e-01	6.74600848220520e-01,-6.49602461683268e-01
3.18318327257258e+07	-2.02003687157887e-01,-2.25245571399105e-01	6.69750139375400e-01,-6.53849592964277e-01
3.21321330250251e+07	-2.04506654014082e-01,-2.24832358546866e-01	6.64881926541569e-01,-6.58063331097092e-01
3.24324333243244e+07	-2.06986800831791e-01,-2.24371187875812e-01	6.59996399686555e-01,-6.62244025504719e-01
3.27327336236237e+07	-2.09443342453976e-01,-2.23862377387166e-01	6.55093732945250e-01,-6.66392027385615e-01
3.30330339229230e+07	-2.11875498348056e-01,-2.23306252320807e-01	6.50174084572495e-01,-6.70507689327561e-01
3.33333342222223e+07	-2.14282492470212e-01,-2.22703145011460e-01	6.45237596901016e-01,-6.74591364922189e-01
3.36336345215216e+07	-2.16663553123310e-01,-2.22053394754766e-01	6.40284396304268e-01,-6.78643408380349e-01
3.39339348208209e+07	-2.19017912808362e-01,-2.21357347683156e-01	6.35314593164165e-01,-6.82664174147878e-01
3.42342351201202e+07	-2.21344808070144e-01,-2.20615356652073e-01	6.30328281843395e-01,-6.86654016522024e-01
3.45345354194195e+07	-2.23643479336918e-01,-2.19827781136482e-01	6.25325540662298e-01,-6.90613289268094e-01
3.48348357187188e+07	-2.25913170755134e-01,-2.18994987138110e-01	6.20306431879797e-01,-6.94542345236588e-01
3.51351360180181e+07	-2.28153130018668e-01,-2.18117347103420e-01	6.15271001678703e-01,-6.98441535980251e-01
3.54354363173174e+07	-2.30362608193592e-01,-2.17195239852661e-01	6.10219280154782e-01,-7.02311211371260e-01
3.57357366166167e+07	-2.32540859538376e-01,-2.16229050520142e-01	6.05151281309723e-01,-7.06151719218202e-01
3.60360369159160e+07	-2.34687141319889e-01,-2.15219170505911e-01	6.00067003047834e-01,-7.09963404882664e-01
3.63363372152153e+07	-2.36800713625748e-01,-2.14165997439051e-01	5.94966427176163e-01,-7.13746610895369e-01
3.66366375145146e+07	-2.38880839172952e-01,-2.13069935152847e-01	5.89849519408257e-01,-7.17501676571548e-01
3.69369378138139e+07	-2.40926783113654e-01,-2.11931393671859e-01	5.84716229371006e-01,-7.21228937625472e-01
3.72372381131132e+07	-2.42937812837522e-01,-2.10750789211309e-01	5.79566490615181e-01,-7.24928725783648e-01
3.75375384124125e+07	-2.44913197772282e-01,-2.09528544188745e-01	5.74400220628639e-01,-7.28601368396935e-01
3.78378387117118e+07	-2.46852209181379e-01,-2.08265087248365e-01	5.69217320853164e-01,-7.32247188050766e-01
3.81381390110111e+07	-2.48754119960314e-01,-2.06960853298085e-01	5.64017676704029e-01,-7.35866502173766e-01
3.84384393103104e+07	-2.50618204431012e-01,-2.05616283559538e-01	5.58801157592911e-01,-7.39459622644023e-01
3.87387396096097e+07	-2.52443738135469e-01,-2.04231825631284e-01	5.53567616953591e-01,-7.43026855393243e-01
3.90390399089090e+07	-2.54229997628083e-01,-2.02807933565294e-01	5.48316892270994e-01,-7.46568500007956e-01
3.93393402082083e+07	-2.55976260267948e-01,-2.01345067957057e-01	5.43048805113082e-01,-7.50084849328053e-01
3.96396405075076e+07	-2.57681804010845e-01,-1.99843696049316e-01	5.37763161165934e-01,-7.53576189041918e-01
3.99399408068069e+07	-2.59345907201426e-01,-1.98304291849836e-01	5.32459750272115e-01,-7.57042797278035e-01
4.02402411061062e+07	-2.60967848366320e-01,-1.96727336263243e-01	5.27138346472079e-01,-7.60484944192862e-01
4.05405414054055e+07	-2.62546906008070e-01,-1.95113317237159e-01	5.21798708049048e-01,-7.63902891554391e-01
4.08408417047048e+07	-2.64082358400617e-01,-1.93462729922960e-01	5.16440577577334e-01,-7.67296892321332e-01
4.11411420040041e+07	-2.65573483386630e-01,-1.91776076851159e-01	5.11063681974201e-01,-7.70667190217399e-01
4.14414423033034e+07	-2.67019558177142e-01,-1.90053868121795e-01	5.05667732555495e-01,-7.74014019300479e-01
4.17417426026027e+07	-2.68419859153926e-01,-1.88296621609926e-01	5.00252425095176e-01,-7.77337603526290e-01
4.20420429019020e+07	-2.69773661675006e-01,-1.86504863186524e-01	4.94817439889024e-01,-7.80638156306188e-01
4.23423432012013e+07	-2.71080239883929e-01,-1.84679126954819e-01	4.89362441822551e-01,-7.83915880058762e-01
4.26426435005006e+07	-2.72338866523016e-01,-1.82819955502550e-01	4.83887080443688e-01,-7.87170965754879e-01
4.29429437997999e+07	-2.73548812751394e-01,-1.80927900170118e-01	4.78390990040188e-01,-7.90403592455824e-01
4.32432440990992e+07	-2.74709347968067e-01,-1.79003521334925e-01	4.72873789722264e-01,-7.93613926844123e-01
4.35435443983985e+07	-2.75819739640720e-01,-1.77047388712176e-01	4.67335083510717e-01,-7.96802122746743e-01
4.38438446976978e+07	-2.76879253140757e-01,-1.75060081672282e-01	4.61774460430901e-01,-7.99968320650296e-01
4.41441449969971e+07	-2.77887151585121e-01,-1.73042189575064e-01	4.56191494612935e-01,-8.03112647207812e-01
4.44444452962964e+07	-2.78842695685556e-01,-1.70994312121063e-01	4.50585745398565e-01,-8.06235214736814e-01
4.47447455955957e+07	-2.79745143605900e-01,-1.68917059720063e-01	4.44956757455115e-01,-8.09336120708275e-01
4.50450458948950e+07	-2.80593750828031e-01,-1.66811053877113e-01	4.39304060897049e-01,-8.12415447226083e-01
4.53453461941942e+07	-2.81387770027216e-01,-1.64676927596183e-01	4.33627171415571e-01,-8.15473260496703e-01
4.56456464934935e+07	-2.82126450957418e-01,-1.62515325801746e-01	4.27925590416953e-01,-8.18509610288620e-01
4.59459467927928e+07	-2.82809040347568e-01,-1.60326905778331e-01	4.22198805169940e-01,-8.21524529381304e-01
4.62462470920921e+07	-2.83434781809106e-01,-1.58112337628485e-01	4.16446288963232e-01,-8.24518033003223e-01
4.65465473913914e+07	-2.84002915756164e-01,-1.55872304748980e-01	4.10667501273189e-01,-8.27490118258730e-01
4.68468476906907e+07	-2.84512679338665e-01,-1.53607504325819e-01	4.04861887942988e-01,-8.30440763543371e-01
4.71471479899900e+07	-2.84963306389617e-01,-1.51318647847843e-01	3.99028881373533e-01,-8.33369927947372e-01
4.74474482892893e+07	-2.85354027387220e-01,-1.49006461639380e-01	3.93167900727201e-01,-8.36277550646985e-01
4.77477485885886e+07	-2.85684069432879e-01,-1.46671687411900e-01	3.87278352145087e-01,-8.39163550283429e-01
4.80480488878879e+07	-2.85952656246026e-01,-1.44315082834852e-01	3.81359628978671e-01,-8.42027824329127e-01
4.83483491871872e+07	-2.86159008176834e-01,-1.41937422125754e-01	3.75411112036766e-01,-8.44870248441053e-01
4.86486494864865e+07	-2.86302342237757e-01,-1.39539496659720e-01	3.69432169848850e-01,-8.47690675800902e-01
4.89489497857858e+07	-2.86381872155184e-01,-1.37122115598284e-01	3.63422158945543e-01,-8.50488936441940e-01
4.92492500850851e+07	-2.86396808442127e-01,-1.34686106537814e-01	3.57380424157596e-01,-8.53264836562319e-01
4.95495503843844e+07	-2.86346358493393e-01,-1.32232316177258e-01	3.51306298934180e-01,-8.56018157824778e-01
4.98498506836837e+07	-2.86229726704206e-01,-1.29761611005449e-01	3.45199105681936e-01,-8.58748656642531e-01
5.01501509829830e+07	-2.86046114613878e-01,-1.27274878007645e-01	3.39058156125702e-01,-8.61456063451386e-01
5.04504512822823e+07	-2.85794721075541e-01,-1.24773025391504e-01	3.32882751692485e-01,-8.64140081967953e-01
5.07507515815816e+07	-2.85474742453633e-01,-1.22256983332066e-01	3.26672183919725e-01,-8.66800388434039e-01
5.10510518808809e+07	-2.85085372850421e-01,-1.19727704735776e-01	3.20425734889406e-01,-8.69436630847256e-01
5.13513521801802e+07	-2.84625804363096e-01,-1.17186166023187e-01	3.14142677689362e-01,-8.72048428177949e-01
5.16516524794795e+07	-2.84095227373029e-01,-1.14633367930111e-01	3.07822276903290e-01,-8.74635369572621e-01
5.19519527787788e+07	-2.83492830868733e-01,-1.12070336326913e-01	3.01463789131068e-01,-8.77197013544086e-01
5.22522530780781e+07	-2.82817802804325e-01,-1.09498123055398e-01	2.95066463540841e-01,-8.79732887148647e-01
5.25525533773774e+07	-2.82069330495141e-01,-1.06917806782948e-01	2.88629542454660e-01,-8.82242485150668e-01
5.28528536766767e+07	-2.81246601052204e-01,-1.04330493873347e-01	2.82152261969406e-01,-8.84725269174944e-01
5.31531539759760e+07	-2.80348801857575e-01,-1.01737319273597e-01	2.75633852614676e-01,-8.87180666847455e-01
5.34534542752753e+07	-2.79375121082379e-01,-9.91394474159849e-02	2.69073540049493e-01,-8.89608070925064e-01
5.37537545745746e+07	-2.78324748249470e-01,-9.65380731347059e-02	2.62470545799790e-01,-8.92006838414906e-01
5.40540548738739e+07	-2.77196874842706e-01,-9.39344225960651e-02	2.55824088038593e-01,-8.94376289684209e-01
5.43543551731732e+07	-2.75990694965039e-01,-9.13297542411782e-02	2.49133382410820e-01,-8.96715707561559e-01
5.46546554724725e+07	-2.74705406047403e-01,-8.87253597401249e-02	2.42397642904835e-01,-8.99024336430546e-01
5.49549557717718e+07	-2.73340209610596e-01,-8.61225649562966e-02	2.35616082772858e-01,-9.01301381316994e-01
5.52552560710711e+07	-2.71894312082475e-01,-8.35227309194463e-02	2.28787915502267e-01,-9.03546006971058e-01
