Freq.	S11(v1)	S21(v1)
1.00000000000000e-02	1.30280300039869e-02,-1.26153338307079e-10	9.86971969996092e-01,-2.50770805783551e-10
3.00300310290290e+05	1.29994432301934e-02,-3.78819179921710e-03	9.86936068601798e-01,-7.53048580793721e-03
6.00600610580581e+05	1.29136962084317e-02,-7.57520242633583e-03	9.86828375994306e-01,-1.50599558798289e-02
9.00900910870871e+05	1.27708288145150e-02,-1.13598516681954e-02	9.86648926873432e-01,-2.25873956819241e-02
1.20120121116116e+06	1.25709074688258e-02,-1.51409605976738e-02	9.86397779031566e-01,-3.01117918301451e-02
1.50150151145145e+06	1.23140250775069e-02,-1.89173524035921e-02	9.86075013292887e-01,-3.76321330387288e-02
1.80180181174174e+06	1.20003009508092e-02,-2.26878530916715e-02	9.85680733428929e-01,-4.51474108152839e-02
2.10210211203203e+06	1.16298806974113e-02,-2.64512921815525e-02	9.85215066049315e-01,-5.26566201519058e-02
2.40240241232232e+06	1.12029360965551e-02,-3.02065033993938e-02	9.84678160469515e-01,-6.01587602118405e-02
2.70270271261261e+06	1.07196649469201e-02,-3.39523253645851e-02	9.84070188554522e-01,-6.76528350102440e-02
3.00300301290290e+06	1.01802908931621e-02,-3.76876022702244e-02	9.83391344539389e-01,-7.51378540886811e-02
3.30330331319319e+06	9.58506323039598e-03,-4.14111845558737e-02	9.82641844826880e-01,-8.26128331818562e-02
3.60360361348348e+06	8.93425668658532e-03,-4.51219295724609e-02	9.81821927762205e-01,-9.00767948764740e-02
3.90390391377377e+06	8.22817118395935e-03,-4.88187022376895e-02	9.80931853385952e-01,-9.75287692605368e-02
4.20420421406406e+06	7.46713157921852e-03,-5.25003756817136e-02	9.79971903164954e-01,-1.04967794562869e-01
4.50450451435435e+06	6.65148738308985e-03,-5.61658318821691e-02	9.78942379701663e-01,-1.12392917781949e-01
4.80480481464464e+06	5.78161246004161e-03,-5.98139622871860e-02	9.77843606422796e-01,-1.19803195302651e-01
5.10510511493494e+06	4.85790470873848e-03,-6.34436684269469e-02	9.76675927247887e-01,-1.27197693501448e-01
5.40540541522523e+06	3.88078572305672e-03,-6.70538625112738e-02	9.75439706237460e-01,-1.34575489337598e-01
5.70570571551552e+06	2.85070043555802e-03,-7.06434680142989e-02	9.74135327222809e-01,-1.41935670931279e-01
6.00600601580581e+06	1.76811674242128e-03,-7.42114202443045e-02	9.72763193416290e-01,-1.49277338126850e-01
6.30630631609610e+06	6.33525112186062e-04,-7.77566668986675e-02	9.71323727004510e-01,-1.56599603041061e-01
6.60660661638639e+06	-5.52561822314335e-04,-8.12781686032876e-02	9.69817368723768e-01,-1.63901590595658e-01
6.90690691667668e+06	-1.78960968775965e-03,-8.47748994354801e-02	9.68244577418770e-01,-1.71182439033329e-01
7.20720721696697e+06	-3.07706280832754e-03,-8.82458474308352e-02	9.66605829586263e-01,-1.78441300417438e-01
7.50750751725726e+06	-4.41434465877855e-03,-9.16900150718346e-02	9.64901618902468e-01,-1.85677341113409e-01
7.80780781754755e+06	-5.80085833013277e-03,-9.51064197597783e-02	9.63132455737029e-01,-1.92889742253221e-01
8.10810811783784e+06	-7.23598700855965e-03,-9.84940942679874e-02	9.61298866652644e-01,-2.00077700181024e-01
8.40840841812813e+06	-8.71909446554753e-03,-1.01852087176660e-01	9.59401393892406e-01,-2.07240426880174e-01
8.70870871841842e+06	-1.02495255594728e-02,-1.05179463288954e-01	9.57440594854682e-01,-2.14377150381326e-01
9.00900901870871e+06	-1.18266067472061e-02,-1.08475304027722e-01	9.55417041556853e-01,-2.21487115150913e-01
9.30930931899900e+06	-1.34496466049830e-02,-1.11738707813033e-01	9.53331320088715e-01,-2.28569582460180e-01
9.60960961928929e+06	-1.51179363581199e-02,-1.14968790419845e-01	9.51184030055894e-01,-2.35623830734115e-01
9.90990991957958e+06	-1.68307504180010e-02,-1.18164685315887e-01	9.48975784014856e-01,-2.42649155880260e-01
1.02102102198699e+07	-1.85873469263445e-02,-1.21325543979363e-01	9.46707206899454e-01,-2.49644871597094e-01
1.05105105201602e+07	-2.03869683050082e-02,-1.24450536196830e-01	9.44378935440789e-01,-2.56610309662184e-01
1.08108108204505e+07	-2.22288418116678e-02,-1.27538850340309e-01	9.41991617579929e-01,-2.63544820199313e-01
1.11111111207407e+07	-2.41121800990634e-02,-1.30589693624865e-01	9.39545911875917e-01,-2.70447771925594e-01
1.14114114210310e+07	-2.60361817783731e-02,-1.33602292345107e-01	9.37042486908304e-01,-2.77318552377180e-01
1.17117117213213e+07	-2.80000319849660e-02,-1.36575892091876e-01	9.34482020676077e-01,-2.84156568114686e-01
1.20120120216116e+07	-3.00029029461776e-02,-1.39509757948699e-01	9.31865199993265e-01,-2.90961244907940e-01
1.23123123219019e+07	-3.20439545501868e-02,-1.42403174668167e-01	9.29192719882123e-01,-2.97732027900167e-01
1.26126126221922e+07	-3.41223349149854e-02,-1.45255446827940e-01	9.26465282964818e-01,-3.04468381751260e-01
1.29129129224825e+07	-3.62371809571915e-02,-1.48065898967679e-01	9.23683598854005e-01,-3.11169790761473e-01
1.32132132227728e+07	-3.83876189592985e-02,-1.50833875705575e-01	9.20848383543450e-01,-3.17835758974074e-01
1.35135135230631e+07	-4.05727651351250e-02,-1.53558741836072e-01	9.17960358799127e-01,-3.24465810258620e-01
1.38138138233534e+07	-4.27917261924620e-02,-1.56239882408332e-01	9.15020251551646e-01,-3.31059488374291e-01
1.41141141236436e+07	-4.50435998922838e-02,-1.58876702785471e-01	9.12028793290580e-01,-3.37616357013331e-01
1.44144144239339e+07	-4.73274756037798e-02,-1.61468628685819e-01	9.08986719461573e-01,-3.44135999825752e-01
1.47147147242242e+07	-4.96424348546831e-02,-1.64015106205694e-01	9.05894768866583e-01,-3.50618020424816e-01
1.50150150245145e+07	-5.19875518760036e-02,-1.66515601824287e-01	9.02753683068149e-01,-3.57062042373799e-01
1.53153153248048e+07	-5.43618941407178e-02,-1.68969602391333e-01	8.99564205798184e-01,-3.63467709154683e-01
1.56156156250951e+07	-5.67645228958316e-02,-1.71376615097406e-01	8.96327082371733e-01,-3.69834684118613e-01
1.59159159253854e+07	-5.91944936869385e-02,-1.73736167427999e-01	8.93043059106669e-01,-3.76162650419130e-01
1.62162162256757e+07	-6.16508568752319e-02,-1.76047807101145e-01	8.89712882749256e-01,-3.82451310928031e-01
1.65165165259660e+07	-6.41326581457821e-02,-1.78311101989428e-01	8.86337299906758e-01,-3.88700388134503e-01
1.68168168262563e+07	-6.66389390071953e-02,-1.80525640026747e-01	8.82917056486976e-01,-3.94909624027985e-01
1.71171171265465e+07	-6.91687372817461e-02,-1.82691029100535e-01	8.79452897145615e-01,-4.01078779965296e-01
1.74174174268368e+07	-7.17210875856675e-02,-1.84806896929599e-01	8.75945564741700e-01,-4.07207636522199e-01
1.77177177271271e+07	-7.42950217992183e-02,-1.86872890928201e-01	8.72395799801416e-01,-4.13295993329973e-01
1.80180180274174e+07	-7.68895695259582e-02,-1.88888678057289e-01	8.68804339991006e-01,-4.19343668897769e-01
1.83183183277077e+07	-7.95037585411065e-02,-1.90853944662871e-01	8.65171919598691e-01,-4.25350500420807e-01
1.86186186279980e+07	-8.21366152282834e-02,-1.92768396302469e-01	8.61499269026384e-01,-4.31316343575152e-01
1.89189189282883e+07	-8.47871650045643e-02,-1.94631757559997e-01	8.57787114291173e-01,-4.37241072299440e-01
1.92192192285786e+07	-8.74544327336451e-02,-1.96443771849857e-01	8.54036176536846e-01,-4.43124578564298e-01
1.95195195288689e+07	-9.01374431262909e-02,-1.98204201210630e-01	8.50247171556154e-01,-4.48966772129631e-01
1.98198198291592e+07	-9.28352211285093e-02,-1.99912826088881e-01	8.46420809323379e-01,-4.54767580290406e-01
2.01201201294494e+07	-9.55467922967862e-02,-2.01569445113996e-01	8.42557793537917e-01,-4.60526947611654e-01
2.04204204297397e+07	-9.82711831602594e-02,-2.03173874864245e-01	8.38658821178864e-01,-4.66244835652846e-01
2.07207207300300e+07	-1.01007421569687e-01,-2.04725949624905e-01	8.34724582070800e-01,-4.71921222682390e-01
2.10210210303203e+07	-1.03754537033146e-01,-2.06225521138886e-01	8.30755758460790e-01,-4.77556103382647e-01
2.13213213306106e+07	-1.06511561038059e-01,-2.07672458350536e-01	8.26753024606973e-01,-4.83149488546002e-01
2.16216216309009e+07	-1.09277527359815e-01,-2.09066647143053e-01	8.22717046378449e-01,-4.88701404762395e-01
2.19219219311912e+07	-1.12051472356553e-01,-2.10407990070395e-01	8.18648480866926e-01,-4.94211894099054e-01
2.22222222314815e+07	-1.14832435250291e-01,-2.11696406083773e-01	8.14547976009818e-01,-4.99681013772484e-01
2.25225225317718e+07	-1.17619458394071e-01,-2.12931830253670e-01	8.10416170225175e-01,-5.05108835813482e-01
2.28228228320621e+07	-1.20411587525587e-01,-2.14114213487972e-01	8.06253692058011e-01,-5.10495446725787e-01
2.31231231323524e+07	-1.23207872006626e-01,-2.15243522246289e-01	8.02061159838484e-01,-5.15840947138191e-01
2.34234234326426e+07	-1.26007365049110e-01,-2.16319738251748e-01	7.97839181351416e-01,-5.21145451451470e-01
2.37237237329329e+07	-1.28809123926934e-01,-2.17342858200003e-01	7.93588353517608e-01,-5.26409087479564e-01
2.40240240332232e+07	-1.31612210174374e-01,-2.18312893466632e-01	7.89309262086441e-01,-5.31631996086262e-01
2.43243243335135e+07	-1.34415689770805e-01,-2.19229869813069e-01	7.85002481339836e-01,-5.36814330817320e-01
2.46246246338038e+07	-1.37218633311704e-01,-2.20093827091740e-01	7.80668573807652e-01,-5.41956257528552e-01
2.49249249340941e+07	-1.40020116166375e-01,-2.20904818950803e-01	7.76308089994045e-01,-5.47057954010274e-01
2.52252252343844e+07	-1.42819218622192e-01,-2.21662912539096e-01	7.71921568114995e-01,-5.52119609608449e-01
2.55255255346747e+07	-1.45615026015680e-01,-2.22368188211708e-01	7.67509533846663e-01,-5.57141424842923e-01
2.58258258349650e+07	-1.48406628850562e-01,-2.23020739236619e-01	7.63072500084437e-01,-5.62123611023032e-01
2.61261261352553e+07	-1.51193122902794e-01,-2.23620671502894e-01	7.58610966712615e-01,-5.67066389860904e-01
2.64264264355455e+07	-1.53973609312921e-01,-2.24168103230984e-01	7.54125420384458e-01,-5.71969993082891e-01
2.67267267358358e+07	-1.56747194665878e-01,-2.24663164685341e-01	7.49616334312374e-01,-5.76834662039216e-01
2.70270270361261e+07	-1.59512991058406e-01,-2.25105997890020e-01	7.45084168068163e-01,-5.81660647312312e-01
2.73273273364164e+07	-1.62270116154109e-01,-2.25496756347443e-01	7.40529367393177e-01,-5.86448208323847e-01
2.76276276367067e+07	-1.65017693227040e-01,-2.25835604761080e-01	7.35952364017720e-01,-5.91197612941219e-01
2.79279279369970e+07	-1.67754851192906e-01,-2.26122718761995e-01	7.31353575490290e-01,-5.95909137082971e-01
2.82282282372873e+07	-1.70480724629291e-01,-2.26358284639952e-01	7.26733405015550e-01,-6.00583064324013e-01
2.85285285375776e+07	-1.73194453784256e-01,-2.26542499079469e-01	7.22092241301553e-01,-6.05219685500560e-01
2.88288288378679e+07	-1.75895184574026e-01,-2.26675568900859e-01	7.17430458415456e-01,-6.09819298314853e-01
2.91291291381582e+07	-1.78582068569989e-01,-2.26757710807084e-01	7.12748415647723e-01,-6.14382206940222e-01
2.94294294384484e+07	-1.81254262974957e-01,-2.26789151136378e-01	7.08046457384652e-01,-6.18908721626212e-01
2.97297297387387e+07	-1.83910930589221e-01,-2.26770125621033e-01	7.03324912988806e-01,-6.23399158304033e-01
3.00300300390290e+07	-1.86551239766760e-01,-2.26700879152950e-01	6.98584096687121e-01,-6.27853838192756e-01
3.03303303393193e+07	-1.89174364361363e-01,-2.26581665555860e-01	6.93824307466741e-01,-6.32273087405797e-01
3.06306306396096e+07	-1.91779483663651e-01,-2.26412747364821e-01	6.89045828977833e-01,-6.36657236558300e-01
3.09309309398999e+07	-1.94365782328608e-01,-2.26194395613132e-01	6.84248929443663e-01,-6.41006620375124e-01
3.12312312401902e+07	-1.96932450294372e-01,-2.25926889627046e-01	6.79433861577331e-01,-6.45321577299719e-01
3.15315315404805e+07	-1.99478682692345e-01,-2.25610516828434e-01	6.74600862505074e-01,-6.49602449103767e-01
3.18318318407708e+07	-2.02003679749033e-01,-2.25245572545835e-01	6.69750153695852e-01,-6.53849580497778e-01
3.21321321410611e+07	-2.04506646679553e-01,-2.24832359833937e-01	6.64881940897210e-01,-6.58063318742339e-01
3.24324324413514e+07	-2.06986793573741e-01,-2.24371189301989e-01	6.59996414076745e-01,-6.62244013260462e-01
3.27327327416416e+07	-2.09443335274546e-01,-2.23862378951188e-01	6.55093747369392e-01,-6.66392015250600e-01
3.30330330419319e+07	-2.11875491249370e-01,-2.23306254021383e-01	6.50174099030031e-01,-6.70507677300529e-01
3.33333333422222e+07	-2.14282485454367e-01,-2.22703146847315e-01	6.45237611391454e-01,-6.74591353001901e-01
3.36336336425125e+07	-2.16663546192420e-01,-2.22053396724577e-01	6.40284410827124e-01,-6.78643396565564e-01
3.39339339428028e+07	-2.19017905964472e-01,-2.21357349785599e-01	6.35314607719046e-01,-6.82664162437347e-01
3.42342342430931e+07	-2.21344801315292e-01,-2.20615358885796e-01	6.30328296429941e-01,-6.86654004914499e-01
3.45345345433834e+07	-2.23643472673140e-01,-2.19827783500133e-01	6.25325555280193e-01,-6.90613277762350e-01
3.48348348436737e+07	-2.25913164184427e-01,-2.18994989630305e-01	6.20306446528780e-01,-6.94542333831389e-01
3.51351351439640e+07	-2.28153123543044e-01,-2.18117349722780e-01	6.15271016358543e-01,-6.98441524674393e-01
3.54354354442543e+07	-2.30362601815013e-01,-2.17195242597772e-01	6.10219294865313e-01,-7.02311200163522e-01
3.57357357445446e+07	-2.32540853258791e-01,-2.16229053389593e-01	6.05151296050831e-01,-7.06151708107387e-01
3.60360360448349e+07	-2.34687135141261e-01,-2.15219173498255e-01	6.00067017819419e-01,-7.09963393867582e-01
3.63363363451252e+07	-2.36800707549971e-01,-2.14166000552844e-01	5.94966441978219e-01,-7.13746599974831e-01
3.66366366454155e+07	-2.38880833201994e-01,-2.13069938386623e-01	5.89849534240757e-01,-7.17501665744415e-01
3.69369369457057e+07	-2.40926777249349e-01,-2.11931397024153e-01	5.84716244234061e-01,-7.21228926890570e-01
3.72372372459960e+07	-2.42937807081797e-01,-2.10750792680623e-01	5.79566505508864e-01,-7.24928715139860e-01
3.75375375462863e+07	-2.44913192126978e-01,-2.09528547773580e-01	5.74400235553126e-01,-7.28601357843131e-01
3.78378378465766e+07	-2.46852203648382e-01,-2.08265090947204e-01	5.69217335808634e-01,-7.32247177585858e-01
3.81381381468669e+07	-2.48754114541434e-01,-2.06960857109395e-01	5.64017691690749e-01,-7.35866491796654e-01
3.84384384471572e+07	-2.50618199128148e-01,-2.05616287481781e-01	5.58801172611131e-01,-7.39459612353679e-01
3.87387387474475e+07	-2.52443732950396e-01,-2.04231829662886e-01	5.53567632003669e-01,-7.43026845188590e-01
3.90390390477378e+07	-2.54229992562630e-01,-2.02807937704699e-01	5.48316907353306e-01,-7.46568489887993e-01
3.93393393480281e+07	-2.55976255323948e-01,-2.01345072202658e-01	5.43048820228022e-01,-7.50084839291784e-01
3.96396396483184e+07	-2.57681799190045e-01,-1.99843700399525e-01	5.37763176314007e-01,-7.53576179088352e-01
3.99399399486087e+07	-2.59345902505633e-01,-1.98304296303040e-01	5.32459765453818e-01,-7.57042787406235e-01
4.02402402488990e+07	-2.60967843797336e-01,-1.96727340817798e-01	5.27138361687942e-01,-7.60484934401909e-01
4.05405405491893e+07	-2.62546901567696e-01,-1.95113321891418e-01	5.21798723299650e-01,-7.63902881843403e-01
4.08408408494796e+07	-2.64082354090568e-01,-1.93462734675269e-01	5.16440592863351e-01,-7.67296882689421e-01
4.11411411497699e+07	-2.65573479208723e-01,-1.91776081699820e-01	5.11063697296264e-01,-7.70667180663742e-01
4.14414414500602e+07	-2.67019554133100e-01,-1.90053873065128e-01	5.05667747914355e-01,-7.74014009824262e-01
4.17417417503505e+07	-2.68419855245501e-01,-1.88296626646220e-01	5.00252440491595e-01,-7.77337594126737e-01
4.20420420506407e+07	-2.69773657903961e-01,-1.86504868314034e-01	4.94817455323785e-01,-7.80638146982555e-01
4.23423423509310e+07	-2.71080236252019e-01,-1.84679132171800e-01	4.89362457296494e-01,-7.83915870810348e-01
4.26426426512213e+07	-2.72338863031983e-01,-1.82819960807234e-01	4.83887095957694e-01,-7.87170956581009e-01
4.29429429515116e+07	-2.73548809402982e-01,-1.80927905560715e-01	4.78391005595176e-01,-7.90403583355863e-01
4.32432432518019e+07	-2.74709344764015e-01,-1.79003526809621e-01	4.72873805319188e-01,-7.93613917817464e-01
4.35435435520922e+07	-2.75819736582776e-01,-1.77047394269147e-01	4.67335099150572e-01,-7.96802113792836e-01
4.38438438523825e+07	-2.76879250230635e-01,-1.75060087309679e-01	4.61774476114739e-01,-7.99968311768608e-01
4.41441441526728e+07	-2.77887148824575e-01,-1.73042195291002e-01	4.56191510341812e-01,-8.03112638397864e-01
4.44444444529631e+07	-2.78842693076301e-01,-1.70994317913652e-01	4.50585761173607e-01,-8.06235205998163e-01
4.47447447532534e+07	-2.79745141149686e-01,-1.68917065587380e-01	4.44956773277462e-01,-8.09336112040531e-01
4.50450450535437e+07	-2.80593748526604e-01,-1.66811059817203e-01	4.39304076767873e-01,-8.12415438628897e-01
4.53453453538340e+07	-2.81387767882310e-01,-1.64676933607069e-01	4.33627187336090e-01,-8.15473251969769e-01
4.56456456541243e+07	-2.82126448970775e-01,-1.62515331881427e-01	4.27925606388419e-01,-8.18509601831684e-01
4.59459459544146e+07	-2.82809038520907e-01,-1.60326911924782e-01	4.22198821193655e-01,-8.21524520994148e-01
4.62462462547049e+07	-2.83434780144186e-01,-1.58112343839634e-01	4.16446305040501e-01,-8.24518024685694e-01
4.65465465549952e+07	-2.84002914254726e-01,-1.55872311022742e-01	4.10667517405367e-01,-8.27490110010724e-01
4.68468468552855e+07	-2.84512678002455e-01,-1.53607510660061e-01	4.04861904131457e-01,-8.30440755364829e-01
4.71471471555757e+07	-2.84963305220373e-01,-1.51318654240411e-01	3.99028897619716e-01,-8.33369919838291e-01
4.74474474558660e+07	-2.85354026386698e-01,-1.49006468088081e-01	3.93167917032542e-01,-8.36277542607426e-01
4.77477477561563e+07	-2.85684068602825e-01,-1.46671693914503e-01	3.87278368511064e-01,-8.39163542313501e-01
4.80480480564466e+07	-2.85952655588195e-01,-1.44315089389086e-01	3.81359645406784e-01,-8.42027816429002e-01
4.83483483567369e+07	-2.86159007692963e-01,-1.41937428729326e-01	3.75411128528568e-01,-8.44870240610958e-01
4.86486486570272e+07	-2.86302341929611e-01,-1.39539503310272e-01	3.69432186405888e-01,-8.47690668041131e-01
4.89489489573175e+07	-2.86381872024514e-01,-1.37122122293432e-01	3.63422175569413e-01,-8.50488928752848e-01
4.92492492576078e+07	-2.86396808490686e-01,-1.34686113275130e-01	3.57380440849914e-01,-8.53264828944328e-01
4.95495495578981e+07	-2.86346358722946e-01,-1.32232322954258e-01	3.51306315696577e-01,-8.56018150278376e-01
4.98498498581884e+07	-2.86229727116514e-01,-1.29761617819607e-01	3.45199122516071e-01,-8.58748649168275e-01
5.01501501584787e+07	-2.86046115210692e-01,-1.27274884856390e-01	3.39058173033262e-01,-8.61456056049898e-01
5.04504504587690e+07	-2.85794721858613e-01,-1.24773032272217e-01	3.32882768675178e-01,-8.64140074639930e-01
5.07507507590593e+07	-2.85474743424717e-01,-1.22256990242071e-01	3.26672200979276e-01,-8.66800381180249e-01
5.10510510593496e+07	-2.85085374011276e-01,-1.19727711672339e-01	3.20425752027550e-01,-8.69436623668547e-01
5.13513513596399e+07	-2.84625805715466e-01,-1.17186172983527e-01	3.14142694907863e-01,-8.72048421075240e-01
5.16516516599302e+07	-2.84095228918663e-01,-1.14633374911384e-01	3.07822294203919e-01,-8.74635362546914e-01
5.19519519602204e+07	-2.83492832609369e-01,-1.12070343326216e-01	3.01463806515614e-01,-8.77197006596460e-01
5.22522522605107e+07	-2.82817804741702e-01,-1.09498130069767e-01	2.95066481011104e-01,-8.79732880280265e-01
5.25525525608010e+07	-2.82069332630987e-01,-1.06917813809354e-01	2.88629560012448e-01,-8.82242478362778e-01
5.28528528610913e+07	-2.81246603388227e-01,-1.04330500908711e-01	2.82152279616550e-01,-8.84725262468875e-01
5.31531531613816e+07	-2.80348804395487e-01,-1.01737326314752e-01	2.75633870352999e-01,-8.87180660224626e-01
5.34534534616719e+07	-2.79375123823908e-01,-9.91394544596781e-02	2.69073557880800e-01,-8.89608064386997e-01
5.37537537619622e+07	-2.78324751196277e-01,-9.65380801776560e-02	2.62470563725934e-01,-8.92006831963193e-01
5.40540540622525e+07	-2.77196877996465e-01,-9.39344296349011e-02	2.55824106061412e-01,-8.94376283320549e-01
5.43543543625428e+07	-2.75990698327414e-01,-9.13297612724343e-02	2.49133400532132e-01,-8.96715701287742e-01
5.46546546628331e+07	-2.74705409620030e-01,-8.87253667602782e-02	2.42397661126473e-01,-8.99024330248463e-01
5.49549549631234e+07	-2.73340213395104e-01,-8.61225719617249e-02	2.35616101096630e-01,-9.01301375228636e-01
5.52552552634137e+07	-2.71894316080452e-01,-8.35227379064654e-02	2.28787933929991e-01,-9.03546000978512e-01
