Freq.	S11(v1)	S21(v1)
4.00000000000000e+07	-2.59673686764986e-01,-1.97991893850348e-01	5.31396931794838e-01,-7.57733165111574e-01
4.00900900900901e+07	-2.60162188448314e-01,-1.97520482199661e-01	5.29801327576136e-01,-7.58766901908032e-01
4.01801801801802e+07	-2.60646863084395e-01,-1.97045712752928e-01	5.28204093403060e-01,-7.59798449120456e-01
4.02702702702703e+07	-2.61127691192829e-01,-1.96567598713130e-01	5.26605222685421e-01,-7.60827813782921e-01
4.03603603603604e+07	-2.61604653291751e-01,-1.96086153341299e-01	5.25004708705654e-01,-7.61855002858859e-01
4.04504504504504e+07	-2.62077729897231e-01,-1.95601389956933e-01	5.23402544619022e-01,-7.62880023239986e-01
4.05405405405405e+07	-2.62546901522832e-01,-1.95113321938433e-01	5.21798723453707e-01,-7.63902881745307e-01
4.06306306306306e+07	-2.63012148679098e-01,-1.94621962723503e-01	5.20193238110940e-01,-7.64923585120053e-01
4.07207207207207e+07	-2.63473451873114e-01,-1.94127325809601e-01	5.18586081365101e-01,-7.65942140034682e-01
4.08108108108108e+07	-2.63930791607949e-01,-1.93629424754378e-01	5.16977245863892e-01,-7.66958553083788e-01
4.09009009009009e+07	-2.64384148382198e-01,-1.93128273176177e-01	5.15366724128469e-01,-7.67972830785096e-01
4.09909909909910e+07	-2.64833502689541e-01,-1.92623884754442e-01	5.13754508553519e-01,-7.68984979578398e-01
4.10810810810811e+07	-2.65278835018179e-01,-1.92116273230249e-01	5.12140591407482e-01,-7.69995005824487e-01
4.11711711711712e+07	-2.65720125850354e-01,-1.91605452406790e-01	5.10524964832679e-01,-7.71002915804090e-01
4.12612612612612e+07	-2.66157355661995e-01,-1.91091436149875e-01	5.08907620845385e-01,-7.72008715716876e-01
4.13513513513513e+07	-2.66590504922067e-01,-1.90574238388438e-01	5.07288551336079e-01,-7.73012411680284e-01
4.14414414414414e+07	-2.67019554092239e-01,-1.90053873115065e-01	5.05667748069506e-01,-7.74014009728536e-01
4.15315315315315e+07	-2.67444483626358e-01,-1.89530354386537e-01	5.04045202684871e-01,-7.75013515811532e-01
4.16216216216216e+07	-2.67865273969872e-01,-1.89003696324431e-01	5.02420906696089e-01,-7.76010935793743e-01
4.17117117117117e+07	-2.68281905559600e-01,-1.88473913115567e-01	5.00794851491737e-01,-7.77006275453189e-01
4.18018018018018e+07	-2.68694358823026e-01,-1.87941019012699e-01	4.99167028335439e-01,-7.77999540480287e-01
4.18918918918919e+07	-2.69102614178060e-01,-1.87405028334988e-01	4.97537428365824e-01,-7.78990736476818e-01
4.19819819819819e+07	-2.69506652032336e-01,-1.86865955468716e-01	4.95906042596925e-01,-7.79979868954761e-01
4.20720720720720e+07	-2.69906452782959e-01,-1.86323814867802e-01	4.94272861918169e-01,-7.80966943335247e-01
4.21621621621621e+07	-2.70301996815968e-01,-1.85778621054452e-01	4.92637877094631e-01,-7.81951964947430e-01
4.22522522522522e+07	-2.70693264505906e-01,-1.85230388619790e-01	4.91001078767203e-01,-7.82934939027377e-01
4.23423423423423e+07	-2.71080236215332e-01,-1.84679132224499e-01	4.89362457452801e-01,-7.83915870716929e-01
4.24324324324324e+07	-2.71462892294446e-01,-1.84124866599472e-01	4.87722003544514e-01,-7.84894765062616e-01
4.25225225225225e+07	-2.71841213080599e-01,-1.83567606546487e-01	4.86079707311836e-01,-7.85871627014505e-01
4.26126126126126e+07	-2.72215178897903e-01,-1.83007366938856e-01	4.84435558900816e-01,-7.86846461425070e-01
4.27027027027027e+07	-2.72584770056710e-01,-1.82444162722160e-01	4.82789548334336e-01,-7.87819273048035e-01
4.27927927927927e+07	-2.72949966853340e-01,-1.81878008914898e-01	4.81141665512200e-01,-7.88790066537285e-01
4.28828828828828e+07	-2.73310749569489e-01,-1.81308920609250e-01	4.79491900211464e-01,-7.89758846445647e-01
4.29729729729729e+07	-2.73667098471947e-01,-1.80736912971747e-01	4.77840242086540e-01,-7.90725617223786e-01
4.30630630630630e+07	-2.74018993812087e-01,-1.80162001244069e-01	4.76186680669504e-01,-7.91690383219014e-01
4.31531531531531e+07	-2.74366415825523e-01,-1.79584200743738e-01	4.74531205370244e-01,-7.92653148674140e-01
4.32432432432432e+07	-2.74709344731644e-01,-1.79003526864927e-01	4.72873805476743e-01,-7.93613917726284e-01
4.33333333333333e+07	-2.75047760733275e-01,-1.78419995079183e-01	4.71214470155254e-01,-7.94572694405704e-01
4.34234234234234e+07	-2.75381644016244e-01,-1.77833620936257e-01	4.69553188450569e-01,-7.95529482634616e-01
4.35135135135135e+07	-2.75710974749014e-01,-1.77244420064877e-01	4.67889949286240e-01,-7.96484286226006e-01
4.36036036036035e+07	-2.76035733082244e-01,-1.76652408173578e-01	4.66224741464854e-01,-7.97437108882404e-01
4.36936936936936e+07	-2.76355899148466e-01,-1.76057601051501e-01	4.64557553668241e-01,-7.98387954194710e-01
4.37837837837837e+07	-2.76671453061715e-01,-1.75460014569235e-01	4.62888374457728e-01,-7.99336825640983e-01
4.38738738738738e+07	-2.76982374917131e-01,-1.74859664679673e-01	4.61217192274408e-01,-8.00283726585221e-01
4.39639639639639e+07	-2.77288644790580e-01,-1.74256567418862e-01	4.59543995439418e-01,-8.01228660276115e-01
4.40540540540540e+07	-2.77590242738335e-01,-1.73650738906884e-01	4.57868772154180e-01,-8.02171629845857e-01
4.41441441441441e+07	-2.77887148796677e-01,-1.73042195348746e-01	4.56191510500704e-01,-8.03112638308868e-01
4.42342342342342e+07	-2.78179342981637e-01,-1.72430953035243e-01	4.54512198441799e-01,-8.04051688560600e-01
4.43243243243243e+07	-2.78466805288540e-01,-1.71817028343916e-01	4.52830823821447e-01,-8.04988783376232e-01
4.44144144144143e+07	-2.78749515691752e-01,-1.71200437739947e-01	4.51147374365028e-01,-8.05923925409457e-01
4.45045045045044e+07	-2.79027454144350e-01,-1.70581197777089e-01	4.49461837679618e-01,-8.06857117191206e-01
4.45945945945945e+07	-2.79300600577727e-01,-1.69959325098645e-01	4.47774201254344e-01,-8.07788361128351e-01
4.46846846846846e+07	-2.79568934901375e-01,-1.69334836438399e-01	4.46084452460616e-01,-8.08717659502474e-01
4.47747747747747e+07	-2.79832437002536e-01,-1.68707748621595e-01	4.44392578552472e-01,-8.09645014468549e-01
4.48648648648648e+07	-2.80091086745871e-01,-1.68078078565948e-01	4.42698566666920e-01,-8.10570428053655e-01
4.49549549549549e+07	-2.80344863973251e-01,-1.67445843282604e-01	4.41002403824197e-01,-8.11493902155695e-01
4.50450450450450e+07	-2.80593748503362e-01,-1.66811059877202e-01	4.39304076928183e-01,-8.12415438542056e-01
4.51351351351350e+07	-2.80837720131499e-01,-1.66173745550866e-01	4.37603572766688e-01,-8.13335038848318e-01
4.52252252252251e+07	-2.81076758629313e-01,-1.65533917601246e-01	4.35900878011775e-01,-8.14252704576936e-01
4.53153153153152e+07	-2.81310843744488e-01,-1.64891593423581e-01	4.34195979220157e-01,-8.15168437095890e-01
4.54054054054053e+07	-2.81539955200520e-01,-1.64246790511772e-01	4.32488862833539e-01,-8.16082237637362e-01
4.54954954954954e+07	-2.81764072696467e-01,-1.63599526459445e-01	4.30779515178973e-01,-8.16994107296381e-01
4.55855855855855e+07	-2.81983175906741e-01,-1.62949818961037e-01	4.29067922469210e-01,-8.17904047029491e-01
4.56756756756756e+07	-2.82197244480796e-01,-1.62297685812948e-01	4.27354070803153e-01,-8.18812057653352e-01
4.57657657657657e+07	-2.82406258043014e-01,-1.61643144914591e-01	4.25637946166138e-01,-8.19718139843411e-01
4.58558558558558e+07	-2.82610196192404e-01,-1.60986214269583e-01	4.23919534430419e-01,-8.20622294132489e-01
4.59459459459458e+07	-2.82809038502459e-01,-1.60326911986868e-01	4.22198821355513e-01,-8.21524520909428e-01
4.60360360360359e+07	-2.83002764520933e-01,-1.59665256281866e-01	4.20475792588632e-01,-8.22424820417670e-01
4.61261261261260e+07	-2.83191353769675e-01,-1.59001265477664e-01	4.18750433665085e-01,-8.23323192753875e-01
4.62162162162161e+07	-2.83374785744400e-01,-1.58334958006211e-01	4.17022730008751e-01,-8.24219637866480e-01
4.63063063063062e+07	-2.83553039914646e-01,-1.57666352409474e-01	4.15292666932414e-01,-8.25114155554333e-01
4.63963963963963e+07	-2.83726095723494e-01,-1.56995467340705e-01	4.13560229638305e-01,-8.26006745465214e-01
4.64864864864864e+07	-2.83893932587473e-01,-1.56322321565634e-01	4.11825403218507e-01,-8.26897407094414e-01
4.65765765765765e+07	-2.84056529896430e-01,-1.55646933963728e-01	4.10088172655418e-01,-8.27786139783299e-01
4.66666666666666e+07	-2.84213867013421e-01,-1.54969323529435e-01	4.08348522822214e-01,-8.28672942717856e-01
4.67567567567566e+07	-2.84365923274566e-01,-1.54289509373462e-01	4.06606438483338e-01,-8.29557814927223e-01
4.68468468468467e+07	-2.84512677988957e-01,-1.53607510724046e-01	4.04861904294983e-01,-8.30440755282214e-01
4.69369369369368e+07	-2.84654110438578e-01,-1.52923346928264e-01	4.03114904805589e-01,-8.31321762493848e-01
4.70270270270269e+07	-2.84790199878219e-01,-1.52237037453341e-01	4.01365424456348e-01,-8.32200835111861e-01
4.71171171171170e+07	-2.84920925535405e-01,-1.51548601887959e-01	3.99613447581714e-01,-8.33077971523191e-01
4.72072072072071e+07	-2.85046266610345e-01,-1.50858059943614e-01	3.97858958409940e-01,-8.33953169950491e-01
4.72972972972972e+07	-2.85166202275908e-01,-1.50165431455951e-01	3.96101941063589e-01,-8.34826428450607e-01
4.73873873873873e+07	-2.85280711677529e-01,-1.49470736386162e-01	3.94342379560138e-01,-8.35697744913037e-01
4.74774774774773e+07	-2.85389773933275e-01,-1.48773994822309e-01	3.92580257812450e-01,-8.36567117058417e-01
4.75675675675674e+07	-2.85493368133760e-01,-1.48075226980787e-01	3.90815559629426e-01,-8.37434542436962e-01
4.76576576576575e+07	-2.85591473342206e-01,-1.47374453207675e-01	3.89048268716526e-01,-8.38300018426916e-01
4.77477477477476e+07	-2.85684068594442e-01,-1.46671693980189e-01	3.87278368676383e-01,-8.39163542232994e-01
4.78378378378377e+07	-2.85771132898920e-01,-1.45966969908110e-01	3.85505843009406e-01,-8.40025110884798e-01
4.79279279279278e+07	-2.85852645236795e-01,-1.45260301735239e-01	3.83730675114389e-01,-8.40884721235247e-01
4.80180180180179e+07	-2.85928584561946e-01,-1.44551710340854e-01	3.81952848289138e-01,-8.41742369958972e-01
4.81081081081080e+07	-2.85998929801105e-01,-1.43841216741184e-01	3.80172345731089e-01,-8.42598053550729e-01
4.81981981981981e+07	-2.86063659853884e-01,-1.43128842090920e-01	3.78389150537994e-01,-8.43451768323777e-01
4.82882882882881e+07	-2.86122753592907e-01,-1.42414607684716e-01	3.76603245708562e-01,-8.44303510408256e-01
4.83783783783782e+07	-2.86176189863950e-01,-1.41698534958678e-01	3.74814614143109e-01,-8.45153275749566e-01
4.84684684684683e+07	-2.86223947486009e-01,-1.40980645491972e-01	3.73023238644322e-01,-8.46001060106718e-01
4.85585585585584e+07	-2.86266005251531e-01,-1.40260961008280e-01	3.71229101917854e-01,-8.46846859050685e-01
4.86486486486485e+07	-2.86302341926492e-01,-1.39539503377456e-01	3.69432186573144e-01,-8.47690667962744e-01
4.87387387387386e+07	-2.86332936250657e-01,-1.38816294617021e-01	3.67632475124054e-01,-8.48532482032806e-01
4.88288288288287e+07	-2.86357766937701e-01,-1.38091356893827e-01	3.65829949989689e-01,-8.49372296257730e-01
4.89189189189188e+07	-2.86376812675484e-01,-1.37364712525603e-01	3.64024593495087e-01,-8.50210105439644e-01
4.90090090090089e+07	-2.86390052126221e-01,-1.36636383982621e-01	3.62216387872042e-01,-8.51045904184228e-01
4.90990990990989e+07	-2.86397463926788e-01,-1.35906393889306e-01	3.60405315259850e-01,-8.51879686899031e-01
4.91891891891890e+07	-2.86399026688912e-01,-1.35174765025893e-01	3.58591357706145e-01,-8.52711447791712e-01
4.92792792792791e+07	-2.86394718999517e-01,-1.34441520330084e-01	3.56774497167680e-01,-8.53541180868350e-01
4.93693693693692e+07	-2.86384519420983e-01,-1.33706682898738e-01	3.54954715511186e-01,-8.54368879931681e-01
4.94594594594593e+07	-2.86368406491475e-01,-1.32970275989535e-01	3.53131994514188e-01,-8.55194538579347e-01
4.95495495495494e+07	-2.86346358725259e-01,-1.32232323022721e-01	3.51306315865908e-01,-8.56018150202144e-01
4.96396396396395e+07	-2.86318354613092e-01,-1.31492847582782e-01	3.49477661168094e-01,-8.56839707982257e-01
4.97297297297296e+07	-2.86284372622512e-01,-1.30751873420245e-01	3.47646011935995e-01,-8.57659204891453e-01
4.98198198198197e+07	-2.86244391198353e-01,-1.30009424453320e-01	3.45811349599151e-01,-8.58476633689327e-01
4.99099099099097e+07	-2.86198388763029e-01,-1.29265524769770e-01	3.43973655502443e-01,-8.59291986921471e-01
4.99999999999998e+07	-2.86146343717013e-01,-1.28520198628646e-01	3.42132910906995e-01,-8.60105256917672e-01
5.00900900900899e+07	-2.86088234439338e-01,-1.27773470462024e-01	3.40289096991083e-01,-8.60916435790112e-01
5.01801801801800e+07	-2.86024039287963e-01,-1.27025364876899e-01	3.38442194851216e-01,-8.61725515431496e-01
5.02702702702701e+07	-2.85953736600324e-01,-1.26275906656956e-01	3.36592185503083e-01,-8.62532487513241e-01
5.03603603603602e+07	-2.85877304693871e-01,-1.25525120764366e-01	3.34739049882538e-01,-8.63337343483623e-01
5.04504504504503e+07	-2.85794721866520e-01,-1.24773032341722e-01	3.32882768846730e-01,-8.64140074565904e-01
5.05405405405404e+07	-2.85705966397275e-01,-1.24019666713813e-01	3.31023323175076e-01,-8.64940671756466e-01
5.06306306306304e+07	-2.85611016546770e-01,-1.23265049389536e-01	3.29160693570382e-01,-8.65739125822930e-01
5.07207207207205e+07	-2.85509850557875e-01,-1.22509206063787e-01	3.27294860659931e-01,-8.66535427302267e-01
5.08108108108106e+07	-2.85402446656339e-01,-1.21752162619316e-01	3.25425804996569e-01,-8.67329566498895e-01
5.09009009009007e+07	-2.85288783051360e-01,-1.20993945128728e-01	3.23553507059927e-01,-8.68121533482756e-01
5.09909909909908e+07	-2.85168837936364e-01,-1.20234579856297e-01	3.21677947257455e-01,-8.68911318087423e-01
5.10810810810809e+07	-2.85042589489586e-01,-1.19474093260013e-01	3.19799105925725e-01,-8.69698909908141e-01
5.11711711711710e+07	-2.84910015874854e-01,-1.18712511993459e-01	3.17916963331545e-01,-8.70484298299898e-01
5.12612612612611e+07	-2.84771095242299e-01,-1.17949862907818e-01	3.16031499673223e-01,-8.71267472375477e-01
5.13513513513512e+07	-2.84625805729132e-01,-1.17186173053834e-01	3.14142695081792e-01,-8.72048421003494e-01
5.14414414414412e+07	-2.84474125460413e-01,-1.16421469683820e-01	3.12250529622299e-01,-8.72827132806422e-01
5.15315315315313e+07	-2.84316032549872e-01,-1.15655780253665e-01	3.10354983295087e-01,-8.73603596158618e-01
5.16216216216214e+07	-2.84151505100784e-01,-1.14889132424819e-01	3.08456036037076e-01,-8.74377799184343e-01
5.17117117117115e+07	-2.83980521206773e-01,-1.14121554066370e-01	3.06553667723153e-01,-8.75149729755744e-01
5.18018018018016e+07	-2.83803058952742e-01,-1.13353073257071e-01	3.04647858167505e-01,-8.75919375490857e-01
5.18918918918917e+07	-2.83619096415787e-01,-1.12583718287398e-01	3.02738587125010e-01,-8.76686723751597e-01
5.19819819819818e+07	-2.83428611666158e-01,-1.11813517661582e-01	3.00825834292614e-01,-8.77451761641720e-01
5.20720720720719e+07	-2.83231582768199e-01,-1.11042500099769e-01	2.98909579310831e-01,-8.78214476004800e-01
5.21621621621620e+07	-2.83027987781373e-01,-1.10270694540056e-01	2.96989801765158e-01,-8.78974853422172e-01
5.22522522522520e+07	-2.82817804761268e-01,-1.09498130140627e-01	2.95066481187585e-01,-8.79732880210882e-01
5.23423423423421e+07	-2.82601011760736e-01,-1.08724836281812e-01	2.93139597058046e-01,-8.80488542421650e-01
5.24324324324322e+07	-2.82377586830874e-01,-1.07950842568303e-01	2.91209128806052e-01,-8.81241825836760e-01
5.25225225225223e+07	-2.82147508022199e-01,-1.07176178831252e-01	2.89275055812201e-01,-8.81992715968007e-01
5.26126126126124e+07	-2.81910753385804e-01,-1.06400875130412e-01	2.87337357409771e-01,-8.82741198054606e-01
5.27027027027025e+07	-2.81667300974521e-01,-1.05624961756329e-01	2.85396012886359e-01,-8.83487257061097e-01
5.27927927927926e+07	-2.81417128844146e-01,-1.04848469232486e-01	2.83451001485502e-01,-8.84230877675239e-01
5.28828828828827e+07	-2.81160215054641e-01,-1.04071428317544e-01	2.81502302408411e-01,-8.84972044305896e-01
5.29729729729728e+07	-2.80896537671463e-01,-1.03293870007484e-01	2.79549894815615e-01,-8.85710741080929e-01
5.30630630630628e+07	-2.80626074766852e-01,-1.02515825537818e-01	2.77593757828710e-01,-8.86446951845057e-01
5.31531531531529e+07	-2.80348804421129e-01,-1.01737326385876e-01	2.75633870532181e-01,-8.87180660157728e-01
5.32432432432430e+07	-2.80064704724125e-01,-1.00958404272951e-01	2.73670211975123e-01,-8.87911849290977e-01
5.33333333333331e+07	-2.79773753776561e-01,-1.00179091166579e-01	2.71702761173106e-01,-8.88640502227283e-01
5.34234234234232e+07	-2.79475929691481e-01,-9.93994192828037e-02	2.69731497110040e-01,-8.89366601657403e-01
5.35135135135133e+07	-2.79171210595746e-01,-9.86194210883916e-02	2.67756398740034e-01,-8.90090129978219e-01
5.36036036036034e+07	-2.78859574631508e-01,-9.78391293031446e-02	2.65777444989357e-01,-8.90811069290556e-01
5.36936936936935e+07	-2.78540999957802e-01,-9.70585769021491e-02	2.63794614758352e-01,-8.91529401397027e-01
5.37837837837835e+07	-2.78215464752095e-01,-9.62777971180629e-02	2.61807886923441e-01,-8.92245107799837e-01
5.38738738738736e+07	-2.77882947211891e-01,-9.54968234434526e-02	2.59817240339171e-01,-8.92958169698591e-01
5.39639639639637e+07	-2.77543425556428e-01,-9.47156896330210e-02	2.57822653840202e-01,-8.93668567988120e-01
5.40540540540538e+07	-2.77196878028323e-01,-9.39344297060030e-02	2.55824106243471e-01,-8.94376283256265e-01
5.41441441441439e+07	-2.76843282895314e-01,-9.31530779484404e-02	2.53821576350273e-01,-8.95081295781676e-01
5.42342342342340e+07	-2.76482618452060e-01,-9.23716689154789e-02	2.51815042948389e-01,-8.95783585531617e-01
5.43243243243241e+07	-2.76114863021873e-01,-9.15902374338061e-02	2.49804484814377e-01,-8.96483132159728e-01
5.44144144144142e+07	-2.75739994958628e-01,-9.08088186038926e-02	2.47789880715703e-01,-8.97179915003828e-01
5.45045045045043e+07	-2.75357992648650e-01,-9.00274478023532e-02	2.45771209413019e-01,-8.97873913083695e-01
5.45945945945943e+07	-2.74968834512550e-01,-8.92461606843998e-02	2.43748449662558e-01,-8.98565105098813e-01
5.46846846846844e+07	-2.74572499007312e-01,-8.84649931860571e-02	2.41721580218337e-01,-8.99253469426179e-01
5.47747747747745e+07	-2.74168964628195e-01,-8.76839815266598e-02	2.39690579834655e-01,-8.99938984118038e-01
5.48648648648646e+07	-2.73758209910840e-01,-8.69031622111534e-02	2.37655427268441e-01,-9.00621626899669e-01
5.49549549549547e+07	-2.73340213433325e-01,-8.61225720325036e-02	2.35616101281742e-01,-9.01301375167131e-01
5.50450450450448e+07	-2.72914953818341e-01,-8.53422480740292e-02	2.33572580644165e-01,-9.01978205985041e-01
5.51351351351349e+07	-2.72482409735299e-01,-8.45622277118973e-02	2.31524844135515e-01,-9.02652096084310e-01
5.52252252252250e+07	-2.72042559902613e-01,-8.37825486173966e-02	2.29472870548262e-01,-9.03323021859913e-01
5.53153153153151e+07	-2.71595383089929e-01,-8.30032487594072e-02	2.27416638690217e-01,-9.03990959368646e-01
5.54054054054051e+07	-2.71140858120441e-01,-8.22243664067663e-02	2.25356127387169e-01,-9.04655884326867e-01
5.54954954954952e+07	-2.70678963873219e-01,-8.14459401307068e-02	2.23291315485613e-01,-9.05317772108250e-01
5.55855855855853e+07	-2.70209679285667e-01,-8.06680088072039e-02	2.21222181855436e-01,-9.05976597741560e-01
5.56756756756754e+07	-2.69732983355887e-01,-7.98906116194540e-02	2.19148705392771e-01,-9.06632335908376e-01
5.57657657657655e+07	-2.69248855145241e-01,-7.91137880602056e-02	2.17070865022757e-01,-9.07284960940866e-01
5.58558558558556e+07	-2.68757273780839e-01,-7.83375779342502e-02	2.14988639702474e-01,-9.07934446819538e-01
5.59459459459457e+07	-2.68258218458154e-01,-7.75620213607436e-02	2.12902008423793e-01,-9.08580767170989e-01
5.60360360360358e+07	-2.67751668443633e-01,-7.67871587757097e-02	2.10810950216412e-01,-9.09223895265674e-01
5.61261261261258e+07	-2.67237603077404e-01,-7.60130309343771e-02	2.08715444150796e-01,-9.09863804015666e-01
5.62162162162159e+07	-2.66716001775987e-01,-7.52396789136129e-02	2.06615469341259e-01,-9.10500465972413e-01
5.63063063063060e+07	-2.66186844035089e-01,-7.44671441143453e-02	2.04511004949066e-01,-9.11133853324519e-01
5.63963963963961e+07	-2.65650109432421e-01,-7.36954682639642e-02	2.02402030185580e-01,-9.11763937895504e-01
5.64864864864862e+07	-2.65105777630596e-01,-7.29246934187111e-02	2.00288524315442e-01,-9.12390691141586e-01
