!
! C:\Users\rflab\Downloads\Lab5_KD_ZW\Q3\0.S2P
!
! Touchstone 1.1 file saved by VNA.EXE V1.65 (www.ke5fx.com/gpib/readme.htm)
! 11/18/2024 10:19:53 PM
!
!    Source: HEWLETT PACKARD,8753D,0,6.14
!  Min freq: 8.750000E+008 Hz
!  Max freq: 9.750200E+008 Hz
!    Points: 801
!    Params: S11 S21 S12 S22
!
!!!!!
# GHZ S MA R 50
0.8750000000000000 0.452422 -31.524836 0.047836 -170.364161 0.046449 -160.012873 0.349569 -111.994607 
0.8751250250000000 0.451023 -31.602044 0.047721 -170.804981 0.046569 -160.490455 0.349509 -112.090330 
0.8752500500000000 0.450007 -31.821075 0.047920 -171.194540 0.046630 -160.889128 0.350052 -112.043506 
0.8753750750000000 0.449506 -31.858384 0.047842 -171.660569 0.046730 -161.455600 0.348966 -112.256399 
0.8755001000000000 0.448138 -32.020070 0.047936 -172.137497 0.046664 -161.818327 0.348817 -112.223086 
0.8756251250000000 0.447544 -32.284514 0.048024 -172.445957 0.046611 -162.388054 0.349305 -112.233648 
0.8757501500000000 0.445900 -32.485475 0.048036 -173.016638 0.046578 -163.038723 0.349045 -112.353985 
0.8758751750000000 0.446271 -32.443548 0.048156 -173.509445 0.046808 -163.465794 0.348273 -112.335614 
0.8760002000000000 0.443447 -32.699220 0.048067 -173.730611 0.046795 -163.636297 0.347614 -112.402023 
0.8761252250000000 0.443912 -32.876161 0.048069 -174.179012 0.046924 -164.230555 0.348562 -112.332388 
0.8762502500000000 0.442600 -33.056748 0.048084 -174.847548 0.046882 -164.767367 0.346983 -112.597771 
0.8763752750000000 0.442259 -33.198814 0.048009 -175.136547 0.046796 -165.120928 0.347150 -112.493560 
0.8765003000000000 0.441008 -33.312342 0.048099 -175.738262 0.047033 -165.711293 0.346358 -112.427638 
0.8766253250000000 0.440143 -33.350712 0.048200 -176.088196 0.047147 -166.324670 0.346283 -112.569377 
0.8767503500000000 0.438582 -33.645284 0.048244 -176.627420 0.047157 -166.713572 0.345997 -112.600041 
0.8768753750000000 0.438178 -33.867699 0.048206 -176.951705 0.047148 -166.839641 0.345523 -112.753391 
0.8770004000000000 0.437511 -33.945563 0.048396 -177.325459 0.047074 -167.442490 0.346584 -112.701741 
0.8771254250000000 0.436275 -34.188063 0.048377 -178.124714 0.047053 -167.931198 0.345187 -112.842750 
0.8772504500000000 0.434759 -34.241112 0.048567 -178.474214 0.047320 -168.533356 0.344672 -112.900839 
0.8773754750000000 0.434935 -34.371350 0.048432 -178.912351 0.047253 -169.082851 0.344408 -112.770614 
0.8775005000000000 0.433978 -34.496907 0.048626 -179.253840 0.047299 -169.460394 0.344792 -112.908929 
0.8776255250000000 0.433226 -34.859924 0.048459 -179.607600 0.047423 -169.844380 0.344537 -112.860731 
0.8777505500000000 0.431979 -34.792563 0.048611 179.685264 0.047351 -170.292570 0.344242 -112.953146 
0.8778755750000000 0.430561 -35.075032 0.048754 179.125763 0.047578 -170.888858 0.343352 -112.955185 
0.8780006000000000 0.430238 -35.246890 0.048752 178.977771 0.047567 -171.305192 0.343636 -113.001485 
0.8781256250000000 0.428968 -35.366860 0.048814 178.358751 0.047649 -171.765457 0.342858 -112.995695 
0.8782506500000000 0.428090 -35.490440 0.048794 177.800066 0.047563 -172.270224 0.343490 -113.100329 
0.8783756750000000 0.427510 -35.578567 0.048779 177.660412 0.047658 -172.845404 0.341931 -113.139503 
0.8785007000000000 0.426459 -35.848922 0.048888 177.065931 0.047834 -173.115852 0.342203 -113.142241 
0.8786257250000000 0.425008 -35.883698 0.048784 176.604209 0.047806 -173.765329 0.341838 -113.207321 
0.8787507500000000 0.423961 -36.039652 0.049063 176.074507 0.047927 -174.221341 0.341267 -113.399081 
0.8788757750000000 0.423422 -36.338426 0.049025 175.443317 0.047907 -174.658937 0.341310 -113.312277 
0.8790008000000000 0.421560 -36.452628 0.049128 175.147136 0.047959 -175.364660 0.340812 -113.454578 
0.8791258250000000 0.421441 -36.691909 0.049273 174.557990 0.048115 -175.844477 0.341174 -113.310977 
0.8792508500000000 0.420670 -36.822102 0.049062 173.981550 0.048071 -176.218892 0.340301 -113.385477 
0.8793758750000000 0.420126 -36.841177 0.049302 173.672043 0.048227 -176.594418 0.339837 -113.424914 
0.8795009000000000 0.418647 -36.953847 0.049274 173.179506 0.048270 -177.245906 0.339690 -113.458134 
0.8796259250000000 0.417781 -37.129804 0.049285 172.787797 0.048301 -177.859140 0.339353 -113.572733 
0.8797509500000000 0.416705 -37.347423 0.049348 172.082237 0.048377 -178.264842 0.339178 -113.698152 
0.8798759750000000 0.415696 -37.535769 0.049536 171.682389 0.048313 -178.787476 0.339313 -113.570079 
0.8800010000000000 0.414909 -37.701818 0.049521 171.367422 0.048516 -179.261148 0.339359 -113.780427 
0.8801260250000000 0.413444 -37.757217 0.049535 170.509748 0.048566 -179.680468 0.338588 -113.753283 
0.8802510500000000 0.412680 -38.013965 0.049492 170.257433 0.048613 179.802169 0.338585 -113.764810 
0.8803760750000000 0.410954 -37.986005 0.049720 169.878578 0.048552 179.241439 0.337977 -113.787566 
0.8805011000000000 0.410920 -38.289988 0.049794 169.222062 0.048659 178.748928 0.337614 -113.814721 
0.8806261250000000 0.409727 -38.484527 0.049738 168.898621 0.048806 178.201698 0.337339 -113.773023 
0.8807511500000000 0.408218 -38.524343 0.049785 168.197154 0.048892 177.603166 0.336468 -113.809993 
0.8808761750000000 0.407626 -38.722441 0.049767 167.781780 0.048926 177.090521 0.336859 -113.780653 
0.8810012000000000 0.406063 -38.764037 0.050019 167.273792 0.049026 176.743754 0.336309 -113.941375 
0.8811262250000000 0.405989 -39.018652 0.050001 166.780125 0.049086 176.080773 0.336009 -114.095106 
0.8812512500000000 0.404572 -39.161996 0.049951 166.301226 0.048951 175.519282 0.336818 -114.084782 
0.8813762750000000 0.404020 -39.343150 0.049963 165.930330 0.048981 175.045142 0.336098 -114.065484 
0.8815013000000000 0.403173 -39.408256 0.050104 165.430512 0.049118 174.556402 0.335656 -114.087843 
0.8816263250000000 0.401508 -39.660318 0.050091 164.769944 0.049213 174.120596 0.334959 -114.255600 
0.8817513500000000 0.400926 -39.839910 0.050084 164.414575 0.049374 173.558862 0.335152 -114.189208 
0.8818763750000001 0.399807 -39.985320 0.050136 163.792019 0.049154 172.880501 0.334322 -114.178623 
0.8820014000000001 0.397859 -40.180617 0.050197 163.437966 0.049303 172.403746 0.335186 -114.163754 
0.8821264250000001 0.397716 -40.241262 0.050234 162.791069 0.049450 172.020539 0.334337 -114.171714 
0.8822514500000001 0.396346 -40.522103 0.050179 162.251011 0.049506 171.349166 0.333271 -114.173442 
0.8823764750000001 0.395280 -40.552357 0.050278 161.798063 0.049534 170.775614 0.333705 -114.300851 
0.8825015000000001 0.393799 -40.672572 0.050509 161.332417 0.049524 170.597176 0.332839 -114.327873 
0.8826265250000001 0.394185 -40.805774 0.050416 160.732872 0.049690 169.762828 0.332884 -114.307019 
0.8827515500000001 0.392097 -40.871921 0.050362 160.352454 0.049554 169.254486 0.332370 -114.289400 
0.8828765750000001 0.391362 -41.214085 0.050455 159.645497 0.049517 168.814718 0.333139 -114.454373 
0.8830016000000001 0.390388 -41.363303 0.050564 159.368577 0.049688 168.294958 0.331867 -114.594834 
0.8831266250000001 0.389705 -41.493631 0.050542 158.668779 0.049674 167.787853 0.331644 -114.548679 
0.8832516500000001 0.388145 -41.718840 0.050544 158.249182 0.049722 167.173909 0.331126 -114.682562 
0.8833766749999999 0.387293 -41.885861 0.050639 157.667997 0.049933 166.564112 0.331086 -114.540546 
0.8835017000000000 0.386417 -41.917257 0.050630 157.301935 0.049887 166.087013 0.331304 -114.610375 
0.8836267250000000 0.384858 -42.015756 0.050592 156.887639 0.050006 165.444312 0.330311 -114.805824 
0.8837517500000000 0.384540 -42.254720 0.050580 156.229461 0.049880 165.141688 0.330387 -114.619158 
0.8838767750000000 0.381995 -42.378991 0.050616 155.781899 0.049969 164.536763 0.330527 -114.672061 
0.8840018000000000 0.381488 -42.600969 0.050605 155.149443 0.050218 164.090769 0.330645 -114.930639 
0.8841268250000000 0.381011 -42.726247 0.050613 154.748308 0.050107 163.411689 0.330745 -114.905107 
0.8842518500000000 0.379892 -43.014301 0.050795 154.151773 0.050113 163.204465 0.329605 -114.944473 
0.8843768750000000 0.378445 -43.067180 0.050750 153.543770 0.050131 162.366117 0.329019 -115.027173 
0.8845019000000000 0.377366 -43.159987 0.050880 153.117006 0.050267 161.890238 0.329809 -114.869560 
0.8846269250000000 0.376402 -43.396829 0.050953 152.703070 0.050266 161.525863 0.328874 -114.909938 
0.8847519500000000 0.376352 -43.496842 0.050860 151.953040 0.050180 160.908729 0.328693 -114.930443 
0.8848769750000000 0.375561 -43.576003 0.050975 151.586137 0.050192 160.308389 0.328276 -114.976021 
0.8850020000000000 0.373555 -43.785214 0.050927 150.988954 0.050280 159.768808 0.328220 -114.980518 
0.8851270250000000 0.372531 -44.037471 0.050978 150.687202 0.050293 159.412414 0.327935 -115.062632 
0.8852520500000000 0.371923 -44.177200 0.050910 150.108680 0.050295 158.724745 0.327726 -115.185786 
0.8853770750000000 0.370749 -44.281322 0.050940 149.581880 0.050382 158.213088 0.327437 -115.103348 
0.8855021000000000 0.369594 -44.432969 0.050947 149.197744 0.050472 157.683930 0.326699 -115.205388 
0.8856271250000000 0.368090 -44.759835 0.050904 148.592219 0.050459 157.199542 0.326402 -115.182594 
0.8857521500000000 0.367614 -44.826796 0.051021 148.121536 0.050393 156.658456 0.325956 -115.255086 
0.8858771750000000 0.366156 -44.922337 0.050968 147.727794 0.050382 155.994782 0.325910 -115.288507 
0.8860022000000000 0.364397 -45.018667 0.050933 147.048451 0.050615 155.648604 0.326179 -115.325529 
0.8861272250000000 0.363373 -45.146315 0.050983 146.520979 0.050451 155.259354 0.326182 -115.301552 
0.8862522500000000 0.362845 -45.172086 0.050974 146.107166 0.050546 154.569184 0.325829 -115.283390 
0.8863772750000000 0.362056 -45.449072 0.051118 145.678430 0.050574 154.179072 0.325305 -115.327005 
0.8865023000000000 0.360763 -45.484946 0.051179 145.115914 0.050560 153.549977 0.324857 -115.424000 
0.8866273250000000 0.360551 -45.703001 0.051110 144.583368 0.050626 153.135680 0.324733 -115.428389 
0.8867523500000000 0.358555 -45.953490 0.051029 144.202666 0.050729 152.478249 0.324868 -115.440900 
0.8868773750000000 0.357765 -46.204458 0.051006 143.576615 0.050628 152.162539 0.324258 -115.528032 
0.8870024000000000 0.357340 -46.254348 0.051250 143.134791 0.050616 151.334398 0.324372 -115.620011 
0.8871274250000000 0.355821 -46.353548 0.051123 142.628607 0.050776 150.980726 0.324067 -115.532251 
0.8872524500000000 0.353798 -46.654945 0.051149 142.240826 0.050714 150.522398 0.323388 -115.631654 
0.8873774750000000 0.352949 -46.732528 0.051075 141.597492 0.050638 150.021164 0.323210 -115.502894 
0.8875025000000000 0.352019 -46.838998 0.051174 141.207788 0.050612 149.438770 0.322900 -115.751335 
0.8876275250000000 0.350623 -47.079200 0.051252 140.849667 0.050768 148.986776 0.322865 -115.688264 
0.8877525500000000 0.349237 -47.158314 0.051310 140.060805 0.050881 148.671939 0.322219 -115.587003 
0.8878775750000000 0.348555 -47.416368 0.051362 139.711418 0.050860 148.031283 0.321207 -115.600949 
0.8880026000000000 0.348153 -47.406721 0.051300 139.170181 0.050752 147.522361 0.321969 -115.795128 
0.8881276250000000 0.345899 -47.461766 0.051217 138.815480 0.050871 146.861672 0.321348 -115.890983 
0.8882526500000000 0.344425 -47.718456 0.051359 138.349673 0.051119 146.472987 0.320668 -115.677375 
0.8883776750000000 0.343508 -47.905904 0.051237 137.872797 0.050991 146.009163 0.321880 -115.899389 
0.8885027000000000 0.342793 -48.038379 0.051316 137.411580 0.051004 145.354311 0.320804 -115.865461 
0.8886277250000000 0.340918 -48.154981 0.051234 137.018490 0.050948 144.955795 0.320803 -115.877640 
0.8887527500000000 0.340636 -48.153968 0.051350 136.285270 0.050945 144.337890 0.320073 -115.971369 
0.8888777750000000 0.338736 -48.381895 0.051398 135.867527 0.051132 144.035477 0.320823 -115.984954 
0.8890028000000000 0.337655 -48.592668 0.051363 135.496489 0.051015 143.484858 0.319880 -116.012570 
0.8891278250000000 0.337176 -48.838469 0.051469 134.963964 0.051163 142.877197 0.319442 -116.038749 
0.8892528500000000 0.334815 -48.856326 0.051510 134.539440 0.051136 142.332510 0.318679 -116.020297 
0.8893778750000000 0.334448 -48.968014 0.051445 133.871867 0.051205 142.003162 0.318639 -116.005512 
0.8895029000000000 0.334008 -49.259016 0.051603 133.659639 0.051294 141.306916 0.318146 -116.024307 
0.8896279250000000 0.331776 -49.351253 0.051421 133.136209 0.051362 141.032159 0.318662 -116.088989 
0.8897529500000000 0.330730 -49.505644 0.051597 132.561062 0.051379 140.398411 0.318275 -116.196511 
0.8898779750000000 0.329381 -49.584392 0.051571 132.148816 0.051367 139.869459 0.317742 -116.225432 
0.8900030000000000 0.327839 -49.848195 0.051623 131.820420 0.051393 139.349581 0.317989 -116.191255 
0.8901280250000000 0.327332 -49.920171 0.051626 131.246268 0.051530 138.965103 0.317389 -116.158530 
0.8902530500000000 0.326629 -50.029584 0.051676 130.836185 0.051475 138.357121 0.316650 -116.224261 
0.8903780750000000 0.325428 -50.223662 0.051684 130.177006 0.051452 137.908900 0.317179 -116.355493 
0.8905031000000000 0.323935 -50.393469 0.051761 129.827472 0.051577 137.462347 0.317069 -116.365288 
0.8906281250000000 0.322736 -50.502077 0.051872 129.301417 0.051659 136.690582 0.317231 -116.486177 
0.8907531500000000 0.321576 -50.581855 0.051831 129.028608 0.051911 136.204369 0.316537 -116.382243 
0.8908781750000000 0.319667 -50.813539 0.051876 128.359439 0.051718 135.917449 0.316509 -116.446466 
0.8910032000000000 0.319144 -50.846473 0.051942 127.991792 0.051708 135.252559 0.316031 -116.483405 
0.8911282250000000 0.317746 -51.091390 0.051877 127.424358 0.051798 134.910490 0.315622 -116.421355 
0.8912532500000000 0.316736 -51.163880 0.051969 126.888406 0.051854 134.210158 0.315321 -116.485691 
0.8913782750000000 0.315117 -51.321998 0.052063 126.493748 0.051982 133.795799 0.315307 -116.530327 
0.8915033000000000 0.313911 -51.445450 0.052077 125.931411 0.051907 133.265379 0.314720 -116.652012 
0.8916283250000000 0.312904 -51.605507 0.052327 125.610032 0.051906 132.822924 0.314640 -116.734042 
0.8917533500000000 0.311440 -51.746603 0.052166 125.024797 0.052179 132.352586 0.314693 -116.579960 
0.8918783750000000 0.310422 -51.935307 0.052306 124.361102 0.052264 131.687712 0.314093 -116.697006 
0.8920034000000000 0.308679 -52.077579 0.052090 124.150329 0.052094 131.207235 0.313779 -116.694639 
0.8921284250000000 0.307635 -52.142214 0.052426 123.731115 0.052192 130.739377 0.313384 -116.737221 
0.8922534500000000 0.306648 -52.352326 0.052491 123.162295 0.052249 130.193619 0.313482 -116.834454 
0.8923784750000000 0.305185 -52.502145 0.052422 122.762036 0.052295 129.582156 0.313071 -116.797337 
0.8925035000000000 0.303675 -52.552004 0.052544 122.301469 0.052266 129.197306 0.312474 -116.915406 
0.8926285250000000 0.302306 -52.710186 0.052519 121.692843 0.052407 128.680651 0.312377 -116.880472 
0.8927535500000000 0.300825 -52.831350 0.052751 121.421016 0.052605 128.039145 0.312499 -116.837810 
0.8928785750000000 0.299524 -53.092747 0.052795 120.753952 0.052532 127.556417 0.311940 -116.858350 
0.8930036000000000 0.298407 -53.158807 0.052730 120.225852 0.052544 127.138197 0.312175 -116.943297 
0.8931286250000000 0.296789 -53.355159 0.052840 119.879047 0.052585 126.733147 0.311930 -116.978687 
0.8932536500000000 0.295572 -53.389808 0.052978 119.347530 0.052839 126.106293 0.311862 -116.978777 
0.8933786750000000 0.293978 -53.629126 0.052865 118.801018 0.052792 125.508083 0.310595 -117.040888 
0.8935037000000000 0.292927 -53.737185 0.053167 118.430498 0.052831 125.120472 0.310880 -116.982590 
0.8936287250000000 0.291921 -53.900405 0.053086 117.861415 0.052882 124.530341 0.310538 -116.970466 
0.8937537500000000 0.290705 -53.963783 0.053283 117.367653 0.052869 123.880400 0.310458 -117.015908 
0.8938787750000000 0.289454 -54.093656 0.053240 116.971714 0.053101 123.416085 0.310307 -117.011098 
0.8940038000000000 0.287636 -54.356323 0.053327 116.241528 0.052985 122.821110 0.309458 -117.211948 
0.8941288250000000 0.286403 -54.412285 0.053456 115.802534 0.053079 122.406292 0.309333 -117.179347 
0.8942538500000000 0.285089 -54.528624 0.053556 115.273677 0.053290 121.894736 0.309823 -117.002954 
0.8943788750000000 0.283795 -54.656424 0.053542 114.904442 0.053279 121.374626 0.309165 -117.211302 
0.8945039000000000 0.282399 -54.804572 0.053659 114.275564 0.053400 120.772474 0.309768 -117.144403 
0.8946289250000000 0.280734 -54.919199 0.053836 113.872415 0.053432 120.279403 0.308875 -117.267602 
0.8947539500000000 0.279427 -55.055920 0.053872 113.335505 0.053380 119.487896 0.308613 -117.235266 
0.8948789750000000 0.278599 -55.261987 0.053839 112.704176 0.053449 119.059371 0.308147 -117.196930 
0.8950040000000000 0.277191 -55.294272 0.053856 112.200445 0.053670 118.524165 0.308219 -117.359163 
0.8951290250000000 0.275565 -55.465166 0.053933 111.911278 0.053638 118.156145 0.308336 -117.370290 
0.8952540500000000 0.273898 -55.651275 0.054157 111.358119 0.053763 117.549595 0.307761 -117.342561 
0.8953790750000000 0.272755 -55.747185 0.054152 110.916964 0.053691 117.108491 0.307778 -117.478458 
0.8955041000000000 0.271739 -55.850382 0.054261 110.167571 0.053864 116.281056 0.307420 -117.442652 
0.8956291250000000 0.270118 -55.988572 0.054387 109.725595 0.053840 115.823410 0.307158 -117.484133 
0.8957541500000000 0.268308 -56.124671 0.054300 109.331075 0.053864 115.377250 0.307292 -117.458271 
0.8958791750000000 0.266863 -56.275407 0.054431 108.675575 0.053915 114.905954 0.307709 -117.472308 
0.8960042000000000 0.266034 -56.294438 0.054398 108.278663 0.053971 114.332351 0.306415 -117.495286 
0.8961292250000000 0.264266 -56.511786 0.054675 107.611333 0.054179 113.729628 0.306218 -117.585271 
0.8962542500000000 0.262792 -56.654092 0.054712 107.017404 0.054064 112.915921 0.306108 -117.570328 
0.8963792750000000 0.261523 -56.779092 0.054742 106.596943 0.054139 112.372663 0.305736 -117.806887 
0.8965043000000000 0.260312 -56.965720 0.054938 106.113159 0.054221 112.012875 0.305476 -117.732422 
0.8966293250000000 0.258445 -56.962930 0.055009 105.406713 0.054342 111.458961 0.305194 -117.779618 
0.8967543500000000 0.257482 -57.199901 0.055160 105.244347 0.054203 110.811842 0.305324 -117.715065 
0.8968793750000000 0.255548 -57.254079 0.055053 104.436811 0.054306 110.257156 0.304855 -117.609075 
0.8970044000000000 0.254419 -57.376468 0.055111 104.048745 0.054326 109.654502 0.304171 -117.660275 
0.8971294250000000 0.252379 -57.528280 0.055256 103.481729 0.054531 109.063628 0.305573 -117.551605 
0.8972544500000000 0.251244 -57.611011 0.055158 102.855023 0.054435 108.661596 0.304451 -117.723506 
0.8973794750000000 0.250367 -57.640751 0.055199 102.427452 0.054549 108.087139 0.303636 -117.703435 
0.8975045000000000 0.248445 -57.913668 0.055364 101.832543 0.054439 107.496653 0.304577 -117.756397 
0.8976295250000000 0.246839 -57.918220 0.055439 101.120506 0.054580 106.955074 0.303922 -117.928816 
0.8977545500000000 0.245587 -58.123477 0.055595 100.856568 0.054698 106.350195 0.303483 -117.963027 
0.8978795750000000 0.244165 -58.114181 0.055593 100.109329 0.054588 105.642632 0.303204 -117.919163 
0.8980046000000000 0.242460 -58.315477 0.055593 99.722154 0.054908 105.188084 0.303281 -117.934293 
0.8981296250000000 0.241093 -58.368615 0.055594 98.901295 0.054739 104.682184 0.303037 -117.945707 
0.8982546500000000 0.239758 -58.508129 0.055766 98.556348 0.054611 103.978000 0.302891 -117.868912 
0.8983796750000000 0.238631 -58.535783 0.055859 97.988442 0.054781 103.629818 0.302319 -117.886899 
0.8985047000000001 0.236966 -58.685083 0.055871 97.343368 0.054764 102.822315 0.302236 -117.980431 
0.8986297250000001 0.235433 -58.805703 0.055847 96.861426 0.054783 102.270032 0.302378 -117.969425 
0.8987547500000001 0.234093 -58.925764 0.055954 96.384191 0.054840 101.882086 0.302406 -118.218910 
0.8988797750000001 0.231787 -59.053391 0.056024 95.693512 0.055016 101.312271 0.301960 -118.159170 
