!
! C:\Users\rflab\Downloads\Lab5_KD_ZW\Q3\100.S2P
!
! Touchstone 1.1 file saved by VNA.EXE V1.65 (www.ke5fx.com/gpib/readme.htm)
! 11/18/2024 10:26:38 PM
!
!    Source: HEWLETT PACKARD,8753D,0,6.14
!  Min freq: 8.750000E+008 Hz
!  Max freq: 9.750200E+008 Hz
!    Points: 801
!    Params: S11 S21 S12 S22
!
!!!!!
# GHZ S MA R 50
0.8750000000000000 0.483747 -33.795328 0.006846 26.752442 0.006711 36.362612 0.349227 -111.855337 
0.8751250250000000 0.480966 -33.947184 0.006919 25.000190 0.006700 35.838202 0.349630 -111.925854 
0.8752500500000000 0.480724 -34.164210 0.006991 25.724431 0.006826 35.713089 0.348978 -111.887934 
0.8753750750000000 0.481271 -34.234212 0.006826 25.372828 0.006774 35.708333 0.348854 -111.917753 
0.8755001000000000 0.478577 -34.312262 0.006802 24.723518 0.006776 34.906805 0.349191 -112.041316 
0.8756251250000000 0.478018 -34.473288 0.006946 25.030910 0.006614 33.782861 0.348993 -112.081456 
0.8757501500000000 0.478264 -34.612841 0.006784 23.393710 0.006671 33.064211 0.348731 -112.028586 
0.8758751750000000 0.477033 -34.817556 0.006773 23.664720 0.006703 32.189853 0.348481 -112.007322 
0.8760002000000000 0.475025 -34.856024 0.006925 21.937665 0.006789 32.896501 0.347737 -112.132895 
0.8761252250000000 0.475147 -35.101760 0.006877 21.794771 0.006760 33.069102 0.347795 -112.183239 
0.8762502500000000 0.473585 -35.121777 0.006791 21.728187 0.006769 32.746383 0.347065 -112.314095 
0.8763752750000000 0.473687 -35.280216 0.006783 20.327890 0.006728 32.864533 0.346607 -112.328814 
0.8765003000000000 0.472529 -35.497668 0.006768 20.859848 0.006776 31.673277 0.346891 -112.244143 
0.8766253250000000 0.471032 -35.472510 0.006775 19.671998 0.006780 31.096437 0.345919 -112.397454 
0.8767503500000000 0.470029 -35.646657 0.006706 20.165507 0.006679 29.562747 0.345665 -112.414798 
0.8768753750000000 0.468822 -35.929619 0.006891 20.677155 0.006699 29.774726 0.345524 -112.424446 
0.8770004000000000 0.467907 -35.860882 0.006895 19.267044 0.006748 30.011039 0.345838 -112.457687 
0.8771254250000000 0.467487 -36.041393 0.006703 18.004449 0.006566 28.653299 0.344758 -112.488005 
0.8772504500000000 0.465940 -36.279964 0.006696 18.117560 0.006738 28.106597 0.344389 -112.551912 
0.8773754750000000 0.465236 -36.336581 0.006829 18.198388 0.006632 28.151482 0.344792 -112.633904 
0.8775005000000000 0.464615 -36.460813 0.006627 17.378865 0.006755 27.929025 0.343568 -112.752182 
0.8776255250000000 0.463397 -36.583885 0.006781 17.422045 0.006643 27.390939 0.343734 -112.712989 
0.8777505500000000 0.462675 -36.770509 0.006738 16.985871 0.006758 25.915961 0.343753 -112.733725 
0.8778755750000000 0.461743 -36.859291 0.006750 17.161353 0.006729 26.450662 0.343779 -112.704368 
0.8780006000000000 0.460426 -36.991802 0.006824 14.636370 0.006626 26.004432 0.343187 -112.745667 
0.8781256250000000 0.460261 -37.178755 0.006759 15.407920 0.006614 25.255206 0.342795 -112.839584 
0.8782506500000000 0.458995 -37.260372 0.006927 15.118142 0.006722 25.501618 0.342894 -112.865802 
0.8783756750000000 0.458403 -37.446256 0.006761 13.923538 0.006644 24.571229 0.342274 -112.843064 
0.8785007000000000 0.456722 -37.492026 0.006697 13.366417 0.006691 24.488226 0.341959 -112.915259 
0.8786257250000000 0.456007 -37.636036 0.006664 13.502275 0.006636 24.104606 0.341687 -113.056814 
0.8787507500000000 0.455240 -37.812490 0.006786 12.139748 0.006759 23.700660 0.341993 -112.968324 
0.8788757750000000 0.454263 -37.876497 0.006642 13.062445 0.006782 21.838059 0.341454 -113.134714 
0.8790008000000000 0.453493 -37.930275 0.006770 12.847015 0.006772 21.876319 0.341478 -113.105137 
0.8791258250000000 0.452122 -38.225539 0.006700 11.577020 0.006593 23.142000 0.340708 -113.154797 
0.8792508500000000 0.451152 -38.453714 0.006621 10.498239 0.006641 22.737267 0.340368 -113.190496 
0.8793758750000000 0.449563 -38.420793 0.006684 11.072647 0.006708 21.206221 0.340356 -113.185777 
0.8795009000000000 0.449462 -38.570198 0.006739 10.548177 0.006625 20.280458 0.339470 -113.176952 
0.8796259250000000 0.448502 -38.638201 0.006777 10.606283 0.006739 20.454506 0.339334 -113.293317 
0.8797509500000000 0.447442 -38.952453 0.006821 8.191281 0.006667 20.109497 0.338683 -113.402643 
0.8798759750000000 0.446392 -38.963231 0.006658 9.255905 0.006662 18.703402 0.339230 -113.199948 
0.8800010000000000 0.446126 -39.157457 0.006635 9.364162 0.006783 18.027338 0.338566 -113.343712 
0.8801260250000000 0.443877 -39.259327 0.006746 9.491616 0.006610 16.884528 0.338123 -113.573416 
0.8802510500000000 0.442662 -39.372646 0.006611 9.377397 0.006729 18.514552 0.338328 -113.484974 
0.8803760750000000 0.442298 -39.554764 0.006714 6.463318 0.006859 16.394036 0.337571 -113.501246 
0.8805011000000000 0.441568 -39.663868 0.006872 6.818297 0.006744 15.720581 0.338175 -113.451146 
0.8806261250000000 0.440018 -39.756474 0.006824 5.208200 0.006680 15.871794 0.337449 -113.544218 
0.8807511500000000 0.438603 -39.811698 0.006805 5.819248 0.006684 15.927995 0.336879 -113.529821 
0.8808761750000000 0.437904 -40.059913 0.006833 6.265572 0.006717 14.713957 0.336465 -113.679660 
0.8810012000000000 0.437494 -40.157387 0.006596 4.149653 0.006754 14.452224 0.336964 -113.653745 
0.8811262250000000 0.436232 -40.478916 0.006863 3.836316 0.006571 14.872229 0.335469 -113.862472 
0.8812512500000000 0.435036 -40.433673 0.006684 4.620046 0.006683 14.238525 0.335758 -113.806512 
0.8813762750000000 0.433959 -40.515199 0.006742 3.414295 0.006739 12.886746 0.335427 -113.768777 
0.8815013000000000 0.433177 -40.555760 0.006742 2.687570 0.006722 12.557464 0.335751 -113.881061 
0.8816263250000000 0.431740 -40.898474 0.006693 3.177563 0.006714 12.097595 0.334685 -113.933313 
0.8817513500000000 0.431352 -40.956557 0.006673 1.768942 0.006785 11.411022 0.334738 -113.992187 
0.8818763750000001 0.430196 -41.098365 0.006673 1.310233 0.006621 11.523563 0.334220 -113.934333 
0.8820014000000001 0.428874 -41.255346 0.006627 1.731837 0.006629 10.820928 0.334246 -113.840851 
0.8821264250000001 0.428315 -41.337233 0.006743 0.948091 0.006730 10.074293 0.334171 -114.018267 
0.8822514500000001 0.426108 -41.409818 0.006731 0.271964 0.006861 9.485237 0.333962 -114.143241 
0.8823764750000001 0.425307 -41.780184 0.006637 0.267559 0.006600 10.153054 0.334169 -114.133027 
0.8825015000000001 0.425279 -41.717371 0.006708 -2.513790 0.006578 9.096348 0.333733 -114.183794 
0.8826265250000001 0.423707 -41.860075 0.006689 0.044930 0.006595 8.737659 0.332613 -114.126356 
0.8827515500000001 0.421850 -41.830088 0.006723 -1.304538 0.006607 8.918450 0.333181 -114.151649 
0.8828765750000001 0.421992 -41.988138 0.006593 -2.619874 0.006632 8.059605 0.333042 -114.277540 
0.8830016000000001 0.420539 -42.174954 0.006701 -1.818821 0.006616 7.921028 0.331877 -114.293083 
0.8831266250000001 0.419148 -42.260076 0.006730 -2.387633 0.006708 7.729214 0.332652 -114.307800 
0.8832516500000001 0.419178 -42.490588 0.006636 -3.493635 0.006626 4.970813 0.331811 -114.280849 
0.8833766749999999 0.418340 -42.510704 0.006534 -4.361184 0.006601 5.720886 0.331548 -114.423009 
0.8835017000000000 0.416178 -42.661304 0.006631 -4.458431 0.006624 5.034229 0.331548 -114.423009 
0.8836267250000000 0.414626 -42.879345 0.006735 -3.759294 0.006615 4.307788 0.330651 -114.528424 
0.8837517500000000 0.413349 -42.971558 0.006445 -4.298242 0.006631 3.178226 0.330656 -114.504788 
0.8838767750000000 0.412042 -43.248845 0.006741 -5.349646 0.006739 3.171962 0.330787 -114.465391 
0.8840018000000000 0.411151 -43.228505 0.006605 -6.491855 0.006648 2.635222 0.330711 -114.639987 
0.8841268250000000 0.410206 -43.302831 0.006606 -5.995369 0.006495 3.923478 0.329834 -114.587410 
0.8842518500000000 0.409121 -43.549252 0.006471 -6.094965 0.006486 2.566033 0.330206 -114.639409 
0.8843768750000000 0.408053 -43.739425 0.006583 -7.148180 0.006567 1.310557 0.328673 -114.656612 
0.8845019000000000 0.407563 -43.844107 0.006626 -7.945846 0.006530 2.247468 0.330060 -114.685973 
0.8846269250000000 0.406427 -43.944327 0.006485 -8.235565 0.006526 0.385148 0.329122 -114.737658 
0.8847519500000000 0.404986 -44.177214 0.006518 -8.328079 0.006567 0.008323 0.328792 -114.676345 
0.8848769750000000 0.404017 -44.156868 0.006657 -9.037918 0.006506 -1.012084 0.328788 -114.700102 
0.8850020000000000 0.403534 -44.368821 0.006557 -9.518492 0.006552 -0.654709 0.328050 -114.777001 
0.8851270250000000 0.401411 -44.485605 0.006676 -10.855701 0.006538 -1.224386 0.327428 -114.821392 
0.8852520500000000 0.400685 -44.526334 0.006419 -10.593773 0.006564 -1.327866 0.328244 -115.002085 
0.8853770750000000 0.399892 -44.632070 0.006573 -10.418974 0.006574 -2.045112 0.327641 -115.015927 
0.8855021000000000 0.398550 -44.736309 0.006625 -11.955347 0.006469 -2.137509 0.327363 -115.050447 
0.8856271250000000 0.396895 -44.985985 0.006531 -12.100013 0.006494 -2.171232 0.326604 -115.018192 
0.8857521500000000 0.396529 -45.048328 0.006589 -13.308181 0.006433 -4.374600 0.326893 -115.088949 
0.8858771750000000 0.395160 -45.193990 0.006595 -12.629463 0.006521 -3.752483 0.326499 -115.079982 
0.8860022000000000 0.394034 -45.387518 0.006605 -13.403226 0.006581 -4.229954 0.326106 -115.059007 
0.8861272250000000 0.392582 -45.469274 0.006576 -14.667013 0.006562 -5.102461 0.326295 -115.167749 
0.8862522500000000 0.391475 -45.547974 0.006488 -15.266941 0.006569 -6.937752 0.325518 -115.065891 
0.8863772750000000 0.390241 -45.765166 0.006441 -15.255489 0.006566 -6.484013 0.325272 -115.163361 
0.8865023000000000 0.389692 -45.786861 0.006389 -15.030849 0.006489 -6.070052 0.324843 -115.204851 
0.8866273250000000 0.388452 -45.997877 0.006470 -15.521401 0.006406 -7.213887 0.324096 -115.177578 
0.8867523500000000 0.386728 -45.923985 0.006331 -15.177716 0.006594 -6.202015 0.324073 -115.245062 
0.8868773750000000 0.386511 -46.250860 0.006428 -17.028984 0.006615 -8.430904 0.324572 -115.292884 
0.8870024000000000 0.386069 -46.257087 0.006571 -16.879255 0.006413 -8.508437 0.323871 -115.333590 
0.8871274250000000 0.383527 -46.489550 0.006407 -17.414184 0.006379 -9.651721 0.323850 -115.389068 
0.8872524500000000 0.381915 -46.648047 0.006535 -18.109721 0.006411 -9.643085 0.323344 -115.527516 
0.8873774750000000 0.380761 -46.758624 0.006532 -18.732571 0.006368 -10.680538 0.323465 -115.421513 
0.8875025000000000 0.380108 -46.890187 0.006546 -19.200432 0.006395 -10.539872 0.322112 -115.559971 
0.8876275250000000 0.378329 -47.042960 0.006506 -19.040526 0.006410 -10.153891 0.322840 -115.516204 
0.8877525500000000 0.378048 -47.037932 0.006384 -20.001573 0.006576 -10.803927 0.321776 -115.510298 
0.8878775750000000 0.376565 -47.068966 0.006367 -20.368968 0.006289 -12.135112 0.321809 -115.585759 
0.8880026000000000 0.375502 -47.267585 0.006388 -20.453181 0.006292 -12.142831 0.321729 -115.568493 
0.8881276250000000 0.374307 -47.279781 0.006401 -21.079341 0.006370 -12.621387 0.321695 -115.643755 
0.8882526500000000 0.373018 -47.577952 0.006333 -22.229601 0.006213 -12.890803 0.321322 -115.542889 
0.8883776750000000 0.371478 -47.736912 0.006341 -22.223831 0.006407 -13.326718 0.322164 -115.591689 
0.8885027000000000 0.370383 -47.860321 0.006359 -23.384475 0.006358 -14.333258 0.320888 -115.658489 
0.8886277250000000 0.368989 -47.894613 0.006417 -23.354273 0.006380 -14.525401 0.320095 -115.678234 
0.8887527500000000 0.367858 -48.065069 0.006332 -24.127211 0.006369 -14.552299 0.320473 -115.718329 
0.8888777750000000 0.366194 -48.097609 0.006327 -23.723960 0.006281 -15.891630 0.320465 -115.828122 
0.8890028000000000 0.365469 -48.307054 0.006299 -23.405610 0.006401 -15.608873 0.320393 -115.876770 
0.8891278250000000 0.364344 -48.332584 0.006281 -23.945046 0.006263 -16.947829 0.320020 -115.951733 
0.8892528500000000 0.362782 -48.461318 0.006269 -25.627572 0.006264 -16.600858 0.319514 -115.977675 
0.8893778750000000 0.361861 -48.538611 0.006348 -26.173360 0.006260 -17.014010 0.319293 -116.009099 
0.8895029000000000 0.361082 -48.620023 0.006418 -25.814013 0.006365 -17.805170 0.318679 -116.008036 
0.8896279250000000 0.359084 -48.757500 0.006301 -26.434164 0.006419 -17.881110 0.319013 -115.905665 
0.8897529500000000 0.358104 -48.821430 0.006274 -26.912674 0.006349 -18.710526 0.318325 -116.002505 
0.8898779750000000 0.356921 -48.912237 0.006281 -27.336354 0.006345 -19.018448 0.318205 -115.945770 
0.8900030000000000 0.354947 -49.147045 0.006342 -27.429179 0.006339 -20.021036 0.317959 -116.267481 
0.8901280250000000 0.354422 -49.135702 0.006270 -27.217885 0.006299 -20.700724 0.317201 -116.089253 
0.8902530500000000 0.352552 -49.233275 0.006321 -28.623223 0.006214 -20.617539 0.317949 -116.164170 
0.8903780750000000 0.350637 -49.443865 0.006293 -28.799476 0.006405 -22.142795 0.317852 -116.191103 
0.8905031000000000 0.349962 -49.526871 0.006175 -28.775896 0.006266 -22.151988 0.316664 -116.204508 
0.8906281250000000 0.348467 -49.633555 0.006134 -29.802331 0.006209 -22.639838 0.316211 -116.288089 
0.8907531500000000 0.347161 -49.684969 0.006254 -31.244726 0.006302 -22.678887 0.316729 -116.303346 
0.8908781750000000 0.345571 -49.984849 0.006240 -31.638053 0.006214 -22.166342 0.315950 -116.379438 
0.8910032000000000 0.344440 -49.893168 0.006158 -30.569590 0.006296 -23.547012 0.315730 -116.485794 
0.8911282250000000 0.343772 -50.045292 0.006295 -30.586025 0.006282 -23.305379 0.315449 -116.232873 
0.8912532500000000 0.342185 -50.155822 0.006196 -33.152606 0.006162 -24.113527 0.315377 -116.393977 
0.8913782750000000 0.340716 -50.283796 0.006095 -33.616095 0.006240 -25.440006 0.315403 -116.416292 
0.8915033000000000 0.339433 -50.375154 0.006113 -33.375238 0.006359 -24.998982 0.314993 -116.478165 
0.8916283250000000 0.338159 -50.441382 0.006208 -33.832269 0.006263 -24.657683 0.314747 -116.599837 
0.8917533500000000 0.337044 -50.520243 0.006321 -33.431738 0.006276 -26.457988 0.314816 -116.525316 
0.8918783750000000 0.335831 -50.636420 0.006274 -34.060219 0.006126 -25.887887 0.314065 -116.512771 
0.8920034000000000 0.333914 -50.732145 0.006155 -33.839656 0.006223 -27.453473 0.313629 -116.664791 
0.8921284250000000 0.332840 -50.788030 0.006271 -34.511778 0.006214 -28.086062 0.314093 -116.659659 
0.8922534500000000 0.331708 -50.944626 0.006254 -34.689624 0.006255 -26.794568 0.313615 -116.647327 
0.8923784750000000 0.330172 -51.058990 0.006215 -34.813587 0.006208 -29.201219 0.313317 -116.787170 
0.8925035000000000 0.328576 -51.111227 0.006192 -35.579737 0.006268 -28.381210 0.313071 -116.772358 
0.8926285250000000 0.326842 -51.202751 0.006164 -36.971388 0.006375 -28.878950 0.312060 -116.740464 
0.8927535500000000 0.325593 -51.270584 0.006319 -37.437578 0.006202 -29.759359 0.312129 -116.790519 
0.8928785750000000 0.324495 -51.508499 0.006190 -37.790205 0.006199 -29.874453 0.312471 -116.790272 
0.8930036000000000 0.322939 -51.503391 0.006315 -37.910463 0.006242 -30.981773 0.312210 -116.745378 
0.8931286250000000 0.321271 -51.610908 0.006324 -37.586635 0.006297 -29.634285 0.311779 -116.936258 
0.8932536500000000 0.319734 -51.636974 0.006184 -40.211717 0.006128 -32.137467 0.311232 -116.911766 
0.8933786750000000 0.318438 -51.830289 0.006183 -39.610102 0.006348 -31.812190 0.311396 -116.934187 
0.8935037000000000 0.316738 -51.855332 0.006174 -38.929663 0.006196 -33.296255 0.311286 -116.906684 
0.8936287250000000 0.315612 -51.958844 0.006251 -40.019351 0.006042 -33.675645 0.311054 -116.909460 
0.8937537500000000 0.314305 -51.987917 0.006070 -39.119512 0.006348 -33.990278 0.310746 -117.045696 
0.8938787750000000 0.313421 -52.095164 0.006289 -41.728067 0.006144 -32.019286 0.309746 -116.956364 
0.8940038000000000 0.311509 -52.240961 0.006122 -41.188440 0.006163 -34.371202 0.310400 -116.945451 
0.8941288250000000 0.309896 -52.298957 0.006045 -41.059434 0.006145 -34.596448 0.310118 -117.041621 
0.8942538500000000 0.308460 -52.361413 0.006235 -41.263836 0.006194 -36.448643 0.309749 -117.044711 
0.8943788750000000 0.307173 -52.388368 0.006058 -43.524988 0.005986 -35.886780 0.309465 -117.090643 
0.8945039000000000 0.305742 -52.521015 0.006109 -43.300022 0.006273 -35.655137 0.309691 -117.110448 
0.8946289250000000 0.303874 -52.588051 0.006195 -44.187575 0.006133 -36.213726 0.309074 -117.172268 
0.8947539500000000 0.302182 -52.674139 0.006228 -43.119888 0.006288 -37.250954 0.308640 -117.226324 
0.8948789750000000 0.301067 -52.789760 0.006161 -44.387012 0.006125 -37.260615 0.308432 -117.287627 
0.8950040000000000 0.299605 -52.815537 0.006119 -46.787151 0.006084 -39.520679 0.308100 -117.316320 
0.8951290250000000 0.298373 -52.875189 0.006134 -45.908634 0.006132 -38.931546 0.308452 -117.375046 
0.8952540500000000 0.296314 -53.054567 0.006196 -45.475488 0.006197 -40.280888 0.307413 -117.347266 
0.8953790750000000 0.295538 -53.096970 0.006062 -45.591188 0.006028 -39.284461 0.307863 -117.428679 
0.8955041000000000 0.293710 -53.190233 0.006001 -48.093840 0.006169 -40.033515 0.306778 -117.427900 
0.8956291250000000 0.292770 -53.171916 0.006319 -47.217169 0.006242 -40.766977 0.307203 -117.457253 
0.8957541500000000 0.290395 -53.320978 0.006156 -47.575561 0.006098 -41.741618 0.307194 -117.422920 
0.8958791750000000 0.289059 -53.357543 0.006191 -48.253395 0.006126 -42.683046 0.307091 -117.416840 
0.8960042000000000 0.287705 -53.414530 0.006158 -49.083042 0.005945 -43.113418 0.305664 -117.491175 
0.8961292250000000 0.285919 -53.404079 0.006206 -49.496600 0.006106 -41.641158 0.306236 -117.393687 
0.8962542500000000 0.284470 -53.596639 0.006107 -49.677730 0.006241 -43.026131 0.305974 -117.454454 
0.8963792750000000 0.283232 -53.634485 0.006174 -50.622176 0.006069 -43.701161 0.305414 -117.593078 
0.8965043000000000 0.281695 -53.724136 0.006242 -50.519493 0.006013 -44.535706 0.305601 -117.629554 
0.8966293250000000 0.279844 -53.612480 0.006195 -51.224479 0.006151 -44.711074 0.305472 -117.558326 
0.8967543500000000 0.278669 -53.750030 0.006088 -51.086489 0.006095 -45.532470 0.305241 -117.574457 
0.8968793750000000 0.276922 -53.778568 0.006128 -51.911506 0.005969 -45.245975 0.304722 -117.641625 
0.8970044000000000 0.275643 -53.835512 0.006222 -51.368997 0.006044 -45.992582 0.304836 -117.811842 
0.8971294250000000 0.273399 -53.872011 0.006219 -52.814693 0.006182 -45.893804 0.304503 -117.760535 
0.8972544500000000 0.272306 -54.002140 0.006068 -53.941010 0.006105 -46.895977 0.303693 -117.840994 
0.8973794750000000 0.271279 -53.928082 0.005975 -53.376564 0.005950 -46.792445 0.303889 -117.824728 
0.8975045000000000 0.269221 -53.966653 0.006205 -54.312861 0.005911 -47.442134 0.303655 -117.870777 
0.8976295250000000 0.267679 -53.993039 0.006226 -54.522263 0.005939 -48.178113 0.303936 -117.816809 
0.8977545500000000 0.266411 -54.139590 0.006122 -53.970493 0.006043 -49.132193 0.302976 -117.899522 
0.8978795750000000 0.264871 -54.082086 0.006012 -56.914888 0.006048 -48.096902 0.303310 -117.950909 
0.8980046000000000 0.263130 -54.061788 0.006096 -57.046397 0.006123 -50.342961 0.303237 -118.017030 
0.8981296250000000 0.261586 -54.146847 0.006168 -55.400233 0.005943 -50.562293 0.302783 -117.935251 
0.8982546500000000 0.260275 -54.110298 0.006094 -58.488832 0.005936 -50.484073 0.302288 -118.066877 
0.8983796750000000 0.258921 -54.178932 0.005971 -58.008680 0.005959 -52.496953 0.301821 -117.937030 
0.8985047000000001 0.257050 -54.161045 0.006016 -58.389369 0.006086 -52.282914 0.301837 -117.961571 
0.8986297250000001 0.255610 -54.254775 0.006102 -58.673051 0.005944 -52.333034 0.301641 -117.978037 
0.8987547500000001 0.254475 -54.189342 0.006031 -59.196268 0.006138 -54.068832 0.301935 -118.027174 
0.8988797750000001 0.252165 -54.253142 0.006118 -59.062282 0.006035 -53.552452 0.301662 -118.176311 
0.8990048000000001 0.250746 -54.279727 0.006040 -60.202945 0.005930 -54.124892 0.300319 -118.184819 
0.8991298250000001 0.249405 -54.261018 0.005885 -61.345820 0.005888 -55.526127 0.300758 -118.248769 
