!
! C:\Users\rflab\Downloads\Lab5_KD_ZW\Q3\120.S2P
!
! Touchstone 1.1 file saved by VNA.EXE V1.65 (www.ke5fx.com/gpib/readme.htm)
! 11/18/2024 10:27:40 PM
!
!    Source: HEWLETT PACKARD,8753D,0,6.14
!  Min freq: 8.750000E+008 Hz
!  Max freq: 9.750200E+008 Hz
!    Points: 801
!    Params: S11 S21 S12 S22
!
!!!!!
# GHZ S MA R 50
0.8750000000000000 0.395751 -31.664664 0.012044 14.758111 0.011614 23.295580 0.349414 -111.756807 
0.8751250250000000 0.394165 -31.822704 0.012055 14.617823 0.011612 23.273967 0.348424 -111.984056 
0.8752500500000000 0.394418 -32.066240 0.012030 14.258769 0.011667 22.754606 0.348870 -111.857250 
0.8753750750000000 0.394008 -32.200601 0.011888 13.959321 0.011382 22.217714 0.348379 -111.992463 
0.8755001000000000 0.392912 -32.459422 0.011810 13.343845 0.011531 22.418278 0.348499 -112.027812 
0.8756251250000000 0.391930 -32.714986 0.011967 12.939858 0.011548 21.622170 0.348171 -112.055067 
0.8757501500000000 0.392282 -32.955107 0.011875 11.995777 0.011518 21.242895 0.347672 -112.213265 
0.8758751750000000 0.391778 -33.120043 0.011853 11.641732 0.011537 20.698505 0.346792 -112.163758 
0.8760002000000000 0.390403 -33.257163 0.011856 11.521437 0.011354 20.185398 0.347164 -112.247538 
0.8761252250000000 0.390130 -33.570737 0.011835 10.417993 0.011469 19.295214 0.347282 -112.228691 
0.8762502500000000 0.389157 -33.809079 0.011892 10.189781 0.011351 19.045378 0.347326 -112.312779 
0.8763752750000000 0.389143 -33.934953 0.011804 10.050619 0.011376 19.276448 0.346528 -112.230551 
0.8765003000000000 0.388206 -34.264718 0.011813 8.856238 0.011441 18.507444 0.346190 -112.280685 
0.8766253250000000 0.387185 -34.299428 0.011778 9.267832 0.011385 17.777766 0.345461 -112.319296 
0.8767503500000000 0.386963 -34.650714 0.011895 7.958603 0.011404 17.284859 0.345285 -112.407951 
0.8768753750000000 0.386339 -34.902106 0.011766 7.835860 0.011491 16.488830 0.345164 -112.531413 
0.8770004000000000 0.385263 -35.033293 0.011775 7.731097 0.011279 17.011548 0.345467 -112.494108 
0.8771254250000000 0.385562 -35.273824 0.011731 7.182792 0.011333 16.142758 0.344358 -112.592525 
0.8772504500000000 0.384227 -35.437164 0.011762 6.517689 0.011435 15.642803 0.344687 -112.723665 
0.8773754750000000 0.383743 -35.754850 0.011830 6.331519 0.011413 15.578436 0.344119 -112.642145 
0.8775005000000000 0.382738 -35.885803 0.011697 5.718031 0.011350 14.694800 0.343518 -112.639840 
0.8776255250000000 0.381937 -36.136935 0.011745 5.115238 0.011400 14.237353 0.343449 -112.810192 
0.8777505500000000 0.381571 -36.356195 0.011665 4.877621 0.011374 13.370915 0.343044 -112.728071 
0.8778755750000000 0.381690 -36.619317 0.011543 5.423274 0.011409 13.048822 0.343114 -112.690031 
0.8780006000000000 0.380652 -36.858874 0.011578 3.728684 0.011291 13.167640 0.342813 -112.794071 
0.8781256250000000 0.380361 -37.041372 0.011642 3.799715 0.011335 12.546584 0.342531 -112.813843 
0.8782506500000000 0.379100 -37.350502 0.011560 3.038378 0.011185 12.137749 0.342292 -112.902784 
0.8783756750000000 0.378776 -37.571119 0.011537 2.861932 0.011334 11.778906 0.341532 -112.851038 
0.8785007000000000 0.377906 -37.672690 0.011701 1.961737 0.011322 11.067629 0.341113 -112.908498 
0.8786257250000000 0.377633 -37.789495 0.011477 2.497927 0.011334 10.388070 0.340665 -113.046272 
0.8787507500000000 0.376589 -38.207686 0.011632 1.750077 0.011273 10.006578 0.341559 -113.032560 
0.8788757750000000 0.375759 -38.497391 0.011774 1.394690 0.011351 9.487643 0.341377 -113.195895 
0.8790008000000000 0.375065 -38.525121 0.011686 0.374080 0.011154 10.418326 0.340336 -113.125733 
0.8791258250000000 0.374636 -38.771701 0.011557 -0.300235 0.011264 8.888895 0.340027 -113.147949 
0.8792508500000000 0.373741 -39.011250 0.011636 -0.746681 0.011177 9.067684 0.339438 -113.112007 
0.8793758750000000 0.373323 -39.214266 0.011492 -1.005711 0.011067 7.857444 0.339234 -113.227696 
0.8795009000000000 0.371804 -39.366007 0.011609 -1.172116 0.011284 7.287776 0.339490 -113.237146 
0.8796259250000000 0.372260 -39.588166 0.011480 -2.011348 0.011172 7.262723 0.338757 -113.262302 
0.8797509500000000 0.371593 -39.795625 0.011489 -2.588093 0.011264 6.568135 0.338563 -113.433914 
0.8798759750000000 0.370195 -40.003937 0.011484 -3.279988 0.011249 6.621010 0.337996 -113.329010 
0.8800010000000000 0.369167 -40.339549 0.011409 -3.059355 0.011216 4.640449 0.337984 -113.284870 
0.8801260250000000 0.369292 -40.391501 0.011567 -3.864665 0.011184 5.048465 0.337467 -113.486380 
0.8802510500000000 0.368396 -40.710183 0.011479 -4.314369 0.011333 4.433096 0.336917 -113.453451 
0.8803760750000000 0.367939 -40.900261 0.011457 -4.121806 0.011150 3.842600 0.337403 -113.513645 
0.8805011000000000 0.366839 -41.235922 0.011451 -5.491227 0.011157 3.143290 0.336454 -113.532965 
0.8806261250000000 0.366787 -41.335031 0.011533 -5.104571 0.011060 3.596521 0.336262 -113.535877 
0.8807511500000000 0.365253 -41.550258 0.011516 -5.898982 0.011110 2.221123 0.336241 -113.605562 
0.8808761750000000 0.365224 -41.743279 0.011543 -6.432722 0.011170 2.042703 0.336133 -113.693119 
0.8810012000000000 0.364046 -42.025238 0.011328 -6.769015 0.011043 1.873136 0.336107 -113.734826 
0.8811262250000000 0.363700 -42.230027 0.011374 -8.034645 0.011232 0.620294 0.335621 -113.714389 
0.8812512500000000 0.362609 -42.373598 0.011411 -7.906966 0.011101 0.691581 0.335030 -113.678987 
0.8813762750000000 0.361657 -42.873076 0.011282 -8.678045 0.011183 -0.171010 0.335280 -113.905305 
0.8815013000000000 0.360955 -42.874081 0.011337 -8.292326 0.011122 -0.589568 0.335222 -113.818442 
0.8816263250000000 0.360375 -43.159024 0.011415 -8.612778 0.011213 -1.201305 0.334059 -113.923688 
0.8817513500000000 0.361091 -43.558320 0.011153 -9.822362 0.011027 -1.620516 0.334053 -113.998634 
0.8818763750000001 0.359592 -43.617654 0.011388 -10.053148 0.011147 -2.677349 0.333935 -114.030534 
0.8820014000000001 0.358681 -43.803782 0.011198 -10.233268 0.010930 -2.550354 0.333737 -113.953968 
0.8821264250000001 0.357793 -44.008183 0.011295 -11.146264 0.011030 -2.571858 0.333474 -114.071619 
0.8822514500000001 0.357526 -44.339465 0.011237 -11.633208 0.011222 -3.890997 0.333235 -113.992314 
0.8823764750000001 0.356809 -44.606708 0.011315 -11.667927 0.011053 -4.475859 0.332913 -114.074473 
0.8825015000000001 0.355879 -44.668215 0.011248 -12.558578 0.011049 -4.484991 0.332884 -114.191824 
0.8826265250000001 0.356003 -45.001741 0.011166 -13.104470 0.011061 -5.194203 0.332362 -114.093899 
0.8827515500000001 0.354137 -45.136162 0.011256 -12.920575 0.010998 -5.428793 0.332733 -113.979032 
0.8828765750000001 0.353886 -45.408779 0.011150 -13.435400 0.011072 -5.506067 0.332215 -114.307184 
0.8830016000000001 0.352958 -45.607774 0.011085 -14.750582 0.010904 -6.029468 0.331489 -114.259739 
0.8831266250000001 0.352757 -45.797397 0.011145 -14.734835 0.010956 -6.984592 0.331778 -114.306567 
0.8832516500000001 0.351205 -46.040342 0.011120 -15.594071 0.010881 -7.944393 0.331502 -114.507689 
0.8833766749999999 0.350614 -46.234322 0.011069 -16.120001 0.011049 -7.628632 0.330616 -114.438265 
0.8835017000000000 0.350018 -46.372453 0.011126 -15.279237 0.010858 -8.609768 0.330310 -114.462356 
0.8836267250000000 0.349153 -46.634457 0.010971 -16.194756 0.010971 -8.153345 0.330631 -114.559072 
0.8837517500000000 0.348973 -46.771763 0.011064 -17.405732 0.010962 -9.828225 0.330138 -114.435196 
0.8838767750000000 0.347914 -47.130963 0.011116 -17.614135 0.010880 -9.938737 0.330141 -114.551340 
0.8840018000000000 0.347272 -47.297009 0.011076 -18.195472 0.010886 -10.736051 0.329513 -114.618750 
0.8841268250000000 0.347605 -47.620571 0.010982 -19.012385 0.010900 -11.054805 0.329315 -114.453617 
0.8842518500000000 0.345778 -47.874282 0.011076 -19.020775 0.010807 -11.266798 0.328939 -114.553494 
0.8843768750000000 0.345511 -48.252775 0.010939 -19.122077 0.010863 -12.276208 0.328424 -114.600382 
0.8845019000000000 0.344651 -48.359725 0.010949 -20.666136 0.010728 -12.005644 0.328535 -114.527207 
0.8846269250000000 0.344350 -48.542511 0.010926 -21.042182 0.010767 -12.692017 0.328361 -114.792991 
0.8847519500000000 0.342666 -48.691906 0.010869 -20.521920 0.010796 -13.257332 0.327581 -114.585755 
0.8848769750000000 0.341983 -48.880450 0.010952 -20.866113 0.010753 -13.498891 0.327720 -114.791915 
0.8850020000000000 0.341358 -49.267032 0.010930 -21.603198 0.010793 -14.510220 0.327025 -114.783364 
0.8851270250000000 0.340879 -49.474926 0.010858 -22.484560 0.010679 -14.826778 0.326575 -114.778499 
0.8852520500000000 0.340079 -49.430778 0.010781 -22.691799 0.010709 -14.666174 0.327155 -114.819937 
0.8853770750000000 0.338314 -49.857273 0.010683 -23.083747 0.010742 -15.990803 0.327152 -114.920350 
0.8855021000000000 0.339331 -50.065781 0.010744 -24.007673 0.010744 -15.591212 0.327033 -115.065668 
0.8856271250000000 0.337344 -50.320185 0.010771 -24.408056 0.010599 -16.110390 0.325599 -114.982179 
0.8857521500000000 0.337207 -50.502819 0.010804 -24.217716 0.010550 -16.594565 0.326165 -114.941757 
0.8858771750000000 0.336353 -50.823438 0.010623 -25.128300 0.010641 -17.755340 0.325682 -115.064254 
0.8860022000000000 0.335768 -51.020560 0.010724 -25.688867 0.010668 -17.732771 0.325011 -115.077985 
0.8861272250000000 0.335010 -51.331225 0.010674 -26.082006 0.010742 -18.497688 0.325449 -115.166517 
0.8862522500000000 0.333220 -51.350434 0.010632 -26.678822 0.010720 -19.029764 0.325415 -114.938006 
0.8863772750000000 0.333026 -51.598893 0.010571 -27.364918 0.010534 -19.484776 0.324984 -115.169336 
0.8865023000000000 0.332658 -51.870079 0.010589 -27.202016 0.010533 -19.396294 0.324762 -115.009417 
0.8866273250000000 0.332382 -51.956375 0.010608 -27.576339 0.010605 -21.087635 0.323959 -115.176993 
0.8867523500000000 0.331228 -52.091679 0.010567 -28.585490 0.010514 -21.404291 0.323948 -115.160037 
0.8868773750000000 0.330998 -52.557987 0.010594 -28.693405 0.010449 -21.893172 0.322994 -115.143779 
0.8870024000000000 0.329656 -52.723264 0.010445 -28.546997 0.010471 -21.003416 0.322830 -115.247245 
0.8871274250000000 0.328909 -52.907879 0.010449 -29.729638 0.010446 -21.644048 0.322750 -115.343861 
0.8872524500000000 0.327433 -53.063888 0.010372 -29.950399 0.010357 -22.500951 0.322450 -115.231145 
0.8873774750000000 0.327077 -53.294224 0.010364 -30.562309 0.010418 -23.168976 0.321886 -115.374607 
0.8875025000000000 0.326541 -53.564376 0.010400 -30.396554 0.010378 -23.941106 0.322595 -115.512975 
0.8876275250000000 0.325139 -53.932498 0.010483 -31.114387 0.010344 -24.174877 0.321939 -115.394225 
0.8877525500000000 0.324740 -53.987876 0.010502 -32.189861 0.010346 -24.669274 0.321349 -115.413978 
0.8878775750000000 0.324110 -54.279829 0.010454 -32.364961 0.010217 -25.603492 0.320915 -115.517220 
0.8880026000000000 0.323431 -54.489343 0.010265 -33.318762 0.010266 -25.072360 0.320745 -115.453268 
0.8881276250000000 0.322091 -54.758918 0.010273 -33.224656 0.010283 -25.686902 0.320849 -115.492627 
0.8882526500000000 0.322016 -55.018430 0.010414 -33.128345 0.010344 -26.648915 0.320815 -115.429125 
0.8883776750000000 0.320440 -55.250492 0.010346 -33.866576 0.010366 -26.760720 0.320887 -115.670681 
0.8885027000000000 0.319831 -55.427422 0.010192 -34.049899 0.010225 -27.329826 0.320371 -115.805934 
0.8886277250000000 0.318356 -55.624427 0.010299 -34.567813 0.010205 -27.936102 0.319936 -115.619130 
0.8887527500000000 0.317445 -55.708777 0.010178 -34.264094 0.010163 -28.304943 0.319799 -115.630952 
0.8888777750000000 0.317323 -55.976765 0.010207 -35.700104 0.010251 -27.802359 0.319610 -115.598585 
0.8890028000000000 0.316374 -56.197275 0.010092 -36.748080 0.010182 -29.588120 0.318930 -115.736302 
0.8891278250000000 0.316122 -56.505533 0.010261 -35.815944 0.010213 -29.720327 0.319010 -115.753662 
0.8892528500000000 0.315074 -56.728583 0.010173 -36.932745 0.010108 -30.817746 0.319019 -115.643370 
0.8893778750000000 0.314269 -56.881659 0.010129 -37.907867 0.010035 -30.538849 0.318705 -115.816680 
0.8895029000000000 0.313689 -57.131646 0.010176 -37.944448 0.010119 -30.941530 0.318430 -115.852881 
0.8896279250000000 0.312954 -57.386958 0.010050 -37.915519 0.010129 -31.419850 0.317995 -115.817483 
0.8897529500000000 0.311781 -57.604936 0.010053 -37.605876 0.010270 -31.518971 0.317834 -115.984408 
0.8898779750000000 0.310740 -57.766167 0.010085 -38.831573 0.010046 -32.688327 0.317222 -115.946307 
0.8900030000000000 0.309959 -58.064879 0.010123 -38.768550 0.010127 -32.328831 0.317602 -115.986460 
0.8901280250000000 0.308958 -58.272372 0.010062 -40.167481 0.010073 -33.053658 0.316862 -116.039389 
0.8902530500000000 0.308764 -58.449628 0.010071 -39.782645 0.010096 -33.272766 0.316992 -115.923659 
0.8903780750000000 0.307340 -58.780112 0.009920 -41.018034 0.009969 -34.109644 0.316016 -116.040463 
0.8905031000000000 0.306416 -58.972143 0.009974 -40.464619 0.009917 -34.762933 0.316572 -116.108074 
0.8906281250000000 0.305404 -59.138361 0.010002 -41.548247 0.009839 -34.541132 0.315806 -116.151543 
0.8907531500000000 0.304272 -59.428983 0.010027 -41.265387 0.009964 -35.122979 0.315424 -116.160953 
0.8908781750000000 0.303512 -59.678450 0.009929 -42.271096 0.009933 -34.934335 0.315235 -116.103656 
0.8910032000000000 0.302738 -59.803422 0.009928 -42.475454 0.010047 -36.415229 0.314466 -116.221886 
0.8911282250000000 0.301798 -60.134757 0.009943 -43.387066 0.010015 -36.582925 0.314604 -116.184766 
0.8912532500000000 0.301137 -60.290051 0.009936 -43.601965 0.009804 -37.598324 0.315055 -116.162960 
0.8913782750000000 0.299722 -60.565180 0.009887 -43.796335 0.009895 -37.087466 0.314261 -116.234105 
0.8915033000000000 0.299022 -60.791480 0.009896 -44.334320 0.009883 -37.667199 0.314260 -116.283882 
0.8916283250000000 0.298255 -61.007740 0.009810 -44.566756 0.009790 -38.171647 0.313890 -116.348309 
0.8917533500000000 0.297466 -61.155217 0.009895 -44.863329 0.009912 -39.066586 0.314889 -116.252146 
0.8918783750000000 0.296468 -61.439195 0.009793 -45.917336 0.009798 -39.890539 0.313357 -116.365424 
0.8920034000000000 0.295299 -61.696244 0.009809 -46.372880 0.009938 -39.742215 0.313137 -116.497633 
0.8921284250000000 0.294438 -61.882452 0.009810 -46.073271 0.009677 -40.219114 0.312700 -116.475029 
0.8922534500000000 0.293736 -62.146373 0.009625 -45.808907 0.009743 -39.991184 0.312250 -116.572568 
0.8923784750000000 0.292823 -62.389408 0.009817 -47.681194 0.009799 -40.541717 0.312427 -116.587572 
0.8925035000000000 0.291569 -62.608890 0.009688 -47.735038 0.009799 -42.333701 0.311608 -116.549987 
0.8926285250000000 0.290525 -62.823961 0.009744 -47.977359 0.009734 -41.294176 0.311499 -116.509823 
0.8927535500000000 0.289322 -63.024133 0.009592 -48.062749 0.009652 -42.948091 0.311459 -116.657950 
0.8928785750000000 0.288625 -63.398381 0.009679 -47.263964 0.009655 -42.584322 0.312059 -116.627702 
0.8930036000000000 0.287486 -63.512474 0.009686 -48.180718 0.009956 -43.800773 0.311104 -116.715866 
0.8931286250000000 0.286347 -63.848682 0.009766 -49.373828 0.009701 -43.105776 0.310327 -116.743954 
0.8932536500000000 0.285171 -63.968288 0.009719 -49.269730 0.009751 -45.081230 0.310777 -116.708481 
0.8933786750000000 0.284519 -64.344698 0.009528 -50.321826 0.009724 -43.750277 0.310203 -116.686047 
0.8935037000000000 0.283524 -64.449955 0.009567 -50.419658 0.009925 -45.342570 0.310777 -116.721054 
0.8936287250000000 0.282580 -64.766111 0.009659 -50.416062 0.009578 -44.112516 0.309988 -116.845053 
0.8937537500000000 0.281603 -64.867941 0.009717 -51.857461 0.009626 -46.989318 0.309974 -116.840023 
0.8938787750000000 0.280843 -65.155940 0.009616 -52.366967 0.009752 -46.828829 0.310205 -116.774282 
0.8940038000000000 0.279809 -65.436330 0.009571 -51.214918 0.009533 -47.223704 0.309174 -116.984903 
0.8941288250000000 0.278819 -65.663738 0.009647 -52.162027 0.009620 -47.091070 0.309020 -116.891486 
0.8942538500000000 0.277543 -65.941882 0.009606 -52.471981 0.009642 -48.311636 0.308640 -116.952693 
0.8943788750000000 0.276213 -66.109816 0.009624 -53.605302 0.009681 -48.532147 0.308368 -116.965708 
0.8945039000000000 0.275732 -66.384236 0.009514 -54.368514 0.009654 -49.539292 0.308077 -116.821414 
0.8946289250000000 0.274305 -66.629408 0.009479 -54.066290 0.009738 -49.975670 0.308436 -116.978305 
0.8947539500000000 0.273340 -66.872814 0.009577 -54.113779 0.009426 -50.165852 0.308041 -116.983910 
0.8948789750000000 0.272470 -67.164169 0.009492 -55.424626 0.009509 -49.997984 0.307757 -117.042737 
0.8950040000000000 0.271523 -67.307063 0.009425 -55.220514 0.009662 -49.963070 0.307812 -117.062980 
0.8951290250000000 0.270738 -67.538375 0.009464 -55.784677 0.009432 -51.179143 0.307784 -117.040156 
0.8952540500000000 0.269062 -67.816048 0.009475 -55.223880 0.009493 -51.045329 0.306634 -117.108240 
0.8953790750000000 0.268564 -68.130894 0.009396 -57.933586 0.009366 -52.013984 0.306717 -117.132312 
0.8955041000000000 0.267482 -68.358211 0.009444 -58.011180 0.009470 -52.825437 0.306123 -117.121929 
0.8956291250000000 0.266440 -68.541040 0.009407 -57.570689 0.009669 -53.300770 0.305726 -117.233909 
0.8957541500000000 0.264963 -68.805186 0.009460 -57.172630 0.009410 -52.730585 0.306575 -117.161913 
0.8958791750000000 0.264078 -69.156452 0.009516 -58.511366 0.009444 -53.856279 0.306016 -117.276720 
0.8960042000000000 0.263194 -69.260833 0.009444 -58.300961 0.009361 -54.359521 0.305766 -117.217203 
0.8961292250000000 0.261847 -69.598702 0.009471 -58.719623 0.009489 -53.508418 0.306010 -117.293347 
0.8962542500000000 0.261067 -69.849236 0.009306 -58.935049 0.009474 -55.131769 0.305312 -117.357778 
0.8963792750000000 0.259921 -70.089608 0.009348 -60.580635 0.009420 -54.704076 0.305123 -117.395423 
0.8965043000000000 0.259092 -70.399737 0.009374 -60.724012 0.009480 -55.546545 0.304254 -117.447911 
0.8966293250000000 0.257667 -70.531728 0.009461 -61.023091 0.009415 -56.428235 0.304493 -117.453655 
0.8967543500000000 0.257011 -70.793742 0.009277 -61.826695 0.009383 -56.666080 0.304606 -117.413516 
0.8968793750000000 0.255432 -71.000056 0.009301 -62.456249 0.009347 -57.140085 0.304524 -117.495936 
0.8970044000000000 0.254733 -71.301323 0.009316 -61.481753 0.009358 -57.337577 0.303874 -117.546818 
0.8971294250000000 0.253099 -71.533367 0.009249 -62.634383 0.009256 -57.954880 0.303996 -117.466674 
0.8972544500000000 0.251858 -71.877903 0.009345 -63.114609 0.009427 -58.754935 0.303700 -117.583438 
0.8973794750000000 0.251721 -71.973627 0.009173 -63.474908 0.009181 -59.836529 0.303742 -117.598753 
0.8975045000000000 0.250371 -72.328101 0.009325 -64.319376 0.009041 -59.084440 0.302727 -117.467873 
0.8976295250000000 0.248710 -72.475501 0.009175 -65.167668 0.009233 -59.768061 0.303387 -117.601245 
0.8977545500000000 0.247928 -72.817418 0.009436 -64.591302 0.009190 -60.496657 0.302862 -117.672761 
0.8978795750000000 0.246670 -73.031202 0.009237 -65.277952 0.009172 -61.408322 0.302563 -117.614404 
0.8980046000000000 0.245715 -73.275540 0.009180 -65.338558 0.009208 -61.448264 0.302236 -117.751399 
0.8981296250000000 0.244491 -73.536394 0.009215 -66.306625 0.009158 -61.770975 0.301974 -117.849557 
0.8982546500000000 0.243170 -73.740517 0.009180 -66.774835 0.009209 -62.227500 0.301811 -117.803602 
0.8983796750000000 0.242485 -74.027364 0.009267 -66.703859 0.009234 -61.927689 0.301750 -117.675553 
0.8985047000000001 0.241397 -74.247127 0.009215 -67.716299 0.009029 -62.602672 0.301149 -117.801143 
0.8986297250000001 0.240261 -74.567442 0.009243 -68.001541 0.009107 -63.644239 0.301296 -117.829081 
0.8987547500000001 0.239311 -74.747113 0.009110 -68.079407 0.009033 -64.733522 0.301451 -117.872548 
0.8988797750000001 0.237547 -75.050562 0.009165 -68.859547 0.009033 -64.260071 0.300773 -117.908006 
0.8990048000000001 0.236481 -75.318165 0.009150 -69.743437 0.009066 -64.542877 0.300224 -117.940419 
0.8991298250000001 0.235628 -75.585791 0.009146 -70.949178 0.008931 -65.154786 0.300248 -117.974170 
