!
! C:\Users\rflab\Downloads\Lab5_KD_ZW\Q3\140.S2P
!
! Touchstone 1.1 file saved by VNA.EXE V1.65 (www.ke5fx.com/gpib/readme.htm)
! 11/18/2024 10:28:50 PM
!
!    Source: HEWLETT PACKARD,8753D,0,6.14
!  Min freq: 8.750000E+008 Hz
!  Max freq: 9.750200E+008 Hz
!    Points: 801
!    Params: S11 S21 S12 S22
!
!!!!!
# GHZ S MA R 50
0.8750000000000000 0.393763 -31.728370 0.017295 11.278942 0.016615 20.270822 0.347869 -111.999291 
0.8751250250000000 0.392455 -31.914712 0.017272 10.801164 0.016643 19.631074 0.347880 -112.177543 
0.8752500500000000 0.392097 -32.284282 0.017306 10.509867 0.016718 19.276306 0.347417 -112.056545 
0.8753750750000000 0.392338 -32.414964 0.017253 9.568022 0.016632 18.691576 0.347283 -112.255810 
0.8755001000000000 0.391962 -32.627208 0.017217 9.584918 0.016519 19.131602 0.347478 -112.307878 
0.8756251250000000 0.390830 -32.637783 0.017089 9.472326 0.016435 18.170008 0.347314 -112.308109 
0.8757501500000000 0.390090 -33.059763 0.017118 8.315641 0.016414 17.690652 0.347129 -112.353280 
0.8758751750000000 0.389879 -33.237914 0.017037 7.950492 0.016455 17.369090 0.346403 -112.326320 
0.8760002000000000 0.389693 -33.424992 0.016987 8.318435 0.016603 16.944478 0.346351 -112.411722 
0.8761252250000000 0.388352 -33.745014 0.017106 7.354437 0.016425 16.272570 0.346263 -112.455947 
0.8762502500000000 0.387568 -33.920306 0.017088 6.472956 0.016490 15.844816 0.346053 -112.530474 
0.8763752750000000 0.387004 -34.107351 0.016880 6.608646 0.016448 15.489068 0.345250 -112.393913 
0.8765003000000000 0.386324 -34.276939 0.016950 6.208110 0.016504 14.472255 0.345018 -112.393368 
0.8766253250000000 0.386255 -34.322243 0.016876 5.554970 0.016419 14.246919 0.344691 -112.580450 
0.8767503500000000 0.385552 -34.594480 0.016821 5.495012 0.016359 14.017624 0.343882 -112.587012 
0.8768753750000000 0.385245 -34.946474 0.016954 4.888646 0.016289 13.809254 0.343736 -112.674251 
0.8770004000000000 0.384304 -35.102909 0.016954 4.762561 0.016274 12.922133 0.343443 -112.689183 
0.8771254250000000 0.383571 -35.417377 0.016834 4.129093 0.016380 12.234994 0.343250 -112.625357 
0.8772504500000000 0.383482 -35.653760 0.016860 3.901815 0.016357 11.805204 0.343578 -112.795644 
0.8773754750000000 0.382404 -35.679594 0.016824 2.921108 0.016321 11.780720 0.342617 -112.702700 
0.8775005000000000 0.381561 -36.016585 0.016883 2.910882 0.016252 10.901771 0.343156 -112.825253 
0.8776255250000000 0.381322 -36.235716 0.016776 1.909033 0.016399 10.650575 0.342069 -112.840846 
0.8777505500000000 0.379754 -36.372160 0.016779 2.214994 0.016378 10.003146 0.342089 -112.861676 
0.8778755750000000 0.380057 -36.627443 0.016653 1.489833 0.016340 9.595352 0.341917 -112.990425 
0.8780006000000000 0.378770 -36.763716 0.016728 0.790510 0.016232 9.100378 0.341417 -112.936993 
0.8781256250000000 0.378621 -37.049079 0.016709 0.533049 0.016386 8.943143 0.340462 -113.005044 
0.8782506500000000 0.377510 -37.290006 0.016756 0.303264 0.016226 8.800169 0.340970 -113.035649 
0.8783756750000000 0.377464 -37.502227 0.016805 -0.292638 0.016145 8.030548 0.340887 -112.963531 
0.8785007000000000 0.376688 -37.736562 0.016679 -1.340065 0.016294 7.628316 0.339492 -113.001790 
0.8786257250000000 0.376363 -37.945482 0.016694 -0.965641 0.016223 7.475114 0.339944 -113.075666 
0.8787507500000000 0.376090 -38.220160 0.016783 -1.784419 0.016217 6.869659 0.339394 -113.120800 
0.8788757750000000 0.374570 -38.260661 0.016623 -2.015374 0.016294 6.195782 0.339478 -113.193181 
0.8790008000000000 0.374452 -38.605845 0.016628 -2.077311 0.016159 5.595182 0.339663 -113.291877 
0.8791258250000000 0.373572 -38.740584 0.016562 -2.729449 0.016144 5.263694 0.338961 -113.225009 
0.8792508500000000 0.372506 -39.041376 0.016651 -3.480537 0.016193 4.868433 0.338434 -113.370225 
0.8793758750000000 0.371747 -39.169602 0.016583 -4.317330 0.016258 4.393554 0.338060 -113.262429 
0.8795009000000000 0.370687 -39.348978 0.016627 -4.487177 0.016127 3.641444 0.338304 -113.227778 
0.8796259250000000 0.370666 -39.519593 0.016578 -4.990015 0.016197 3.666189 0.337416 -113.518409 
0.8797509500000000 0.370005 -39.806779 0.016545 -5.371445 0.016074 3.265261 0.337410 -113.451034 
0.8798759750000000 0.369452 -40.072803 0.016514 -5.587460 0.016168 2.511867 0.336751 -113.375184 
0.8800010000000000 0.368850 -40.365798 0.016457 -6.160897 0.016040 2.351215 0.336406 -113.383541 
0.8801260250000000 0.367035 -40.550650 0.016378 -7.047219 0.016185 1.539691 0.336162 -113.548969 
0.8802510500000000 0.366916 -40.682704 0.016473 -7.106503 0.016055 1.446636 0.335828 -113.483000 
0.8803760750000000 0.366938 -41.007290 0.016518 -7.227178 0.016127 0.650576 0.336645 -113.490493 
0.8805011000000000 0.367040 -41.145150 0.016476 -7.784436 0.016092 0.285242 0.335269 -113.655360 
0.8806261250000000 0.364716 -41.404203 0.016299 -8.367154 0.016000 -0.532778 0.335182 -113.582179 
0.8807511500000000 0.364554 -41.541929 0.016212 -8.958083 0.016030 -0.654469 0.334121 -113.701602 
0.8808761750000000 0.364031 -41.940084 0.016403 -9.186852 0.016129 -1.162089 0.334753 -113.739737 
0.8810012000000000 0.363287 -42.000269 0.016501 -10.193480 0.015963 -1.954880 0.334166 -113.783977 
0.8811262250000000 0.362885 -42.428459 0.016374 -10.245749 0.015969 -2.296628 0.333598 -113.861371 
0.8812512500000000 0.362476 -42.579197 0.016310 -10.416320 0.016035 -2.648673 0.333982 -113.906678 
0.8813762750000000 0.360707 -42.781722 0.016178 -11.258926 0.016111 -3.424219 0.333257 -113.961964 
0.8815013000000000 0.360410 -42.851987 0.016305 -11.286273 0.015991 -3.514948 0.333817 -113.959302 
0.8816263250000000 0.359662 -43.108950 0.016458 -12.057426 0.015932 -3.503811 0.332129 -113.990821 
0.8817513500000000 0.358663 -43.365790 0.016313 -12.519359 0.016051 -4.703145 0.332590 -113.897902 
0.8818763750000001 0.358974 -43.567044 0.016297 -12.982308 0.015978 -5.174304 0.332185 -113.831015 
0.8820014000000001 0.357741 -43.734959 0.016119 -13.518282 0.015987 -5.796297 0.331840 -113.995656 
0.8821264250000001 0.357140 -44.065240 0.016221 -14.368761 0.015780 -5.997952 0.331438 -114.020872 
0.8822514500000001 0.356396 -44.167363 0.016071 -14.446083 0.015995 -6.528819 0.331382 -114.025172 
0.8823764750000001 0.355103 -44.428974 0.016122 -14.777721 0.015884 -6.997016 0.331233 -114.187076 
0.8825015000000001 0.355129 -44.549127 0.016187 -15.563321 0.015818 -7.757854 0.331510 -114.113508 
0.8826265250000001 0.354644 -44.886697 0.016083 -15.817995 0.015773 -8.725355 0.330826 -114.172316 
0.8827515500000001 0.353651 -45.040199 0.016016 -16.284222 0.015783 -8.474791 0.330944 -114.140059 
0.8828765750000001 0.352759 -45.269886 0.016161 -16.465102 0.015833 -8.765578 0.330876 -114.371347 
0.8830016000000001 0.352080 -45.540808 0.016046 -17.326800 0.015833 -8.929570 0.330012 -114.386954 
0.8831266250000001 0.352212 -45.738948 0.016017 -17.821091 0.015724 -9.693135 0.329875 -114.153538 
0.8832516500000001 0.351031 -46.116608 0.016095 -17.806882 0.015724 -10.582725 0.329360 -114.251946 
0.8833766749999999 0.349669 -46.186377 0.015994 -18.577557 0.015807 -10.691646 0.328967 -114.358625 
0.8835017000000000 0.350027 -46.432484 0.016070 -18.960766 0.015753 -10.524194 0.328040 -114.349995 
0.8836267250000000 0.348853 -46.705007 0.015951 -19.720882 0.015735 -11.679049 0.329330 -114.446590 
0.8837517500000000 0.348664 -46.792842 0.015748 -20.097533 0.015688 -12.452118 0.328285 -114.354032 
0.8838767750000000 0.347228 -47.056783 0.015947 -20.149385 0.015591 -13.037436 0.328027 -114.473955 
0.8840018000000000 0.346696 -47.281203 0.015851 -20.729128 0.015681 -13.169085 0.328151 -114.534362 
0.8841268250000000 0.345794 -47.555559 0.015800 -21.712138 0.015570 -13.423386 0.327810 -114.532242 
0.8842518500000000 0.345091 -47.781363 0.015688 -21.758717 0.015576 -13.995406 0.327337 -114.646422 
0.8843768750000000 0.345298 -48.000181 0.015753 -22.517670 0.015586 -13.979274 0.327272 -114.557582 
0.8845019000000000 0.343448 -48.126319 0.015707 -22.290445 0.015566 -15.379801 0.327169 -114.595215 
0.8846269250000000 0.343887 -48.338380 0.015834 -22.957530 0.015461 -15.663341 0.326516 -114.653595 
0.8847519500000000 0.342264 -48.602139 0.015728 -23.177601 0.015565 -16.077524 0.326916 -114.703789 
0.8848769750000000 0.341128 -48.877483 0.015629 -23.691636 0.015495 -16.710726 0.326231 -114.647120 
0.8850020000000000 0.340510 -49.082900 0.015693 -24.294104 0.015437 -17.178982 0.325438 -114.652056 
0.8851270250000000 0.340274 -49.238739 0.015629 -25.004433 0.015430 -17.822375 0.325942 -114.806245 
0.8852520500000000 0.339531 -49.531095 0.015626 -24.977610 0.015568 -18.211858 0.325689 -114.696778 
0.8853770750000000 0.339028 -49.702460 0.015438 -26.259547 0.015345 -18.727732 0.324934 -114.793560 
0.8855021000000000 0.338254 -49.993882 0.015408 -26.309707 0.015412 -18.971985 0.324830 -114.843563 
0.8856271250000000 0.336706 -50.243636 0.015330 -26.490136 0.015437 -19.105457 0.324207 -114.734078 
0.8857521500000000 0.336343 -50.391452 0.015513 -26.905297 0.015252 -19.878430 0.324267 -114.859872 
0.8858771750000000 0.335529 -50.486014 0.015438 -27.429341 0.015200 -20.562359 0.323571 -115.030283 
0.8860022000000000 0.334490 -50.863417 0.015603 -27.564289 0.015255 -20.473045 0.323410 -115.007758 
0.8861272250000000 0.333860 -51.092351 0.015392 -28.176698 0.015211 -21.246418 0.323267 -114.965920 
0.8862522500000000 0.332902 -51.104348 0.015301 -28.513844 0.015334 -21.549961 0.323419 -114.869912 
0.8863772750000000 0.332999 -51.410718 0.015276 -28.886802 0.015187 -22.321221 0.322691 -114.977613 
0.8865023000000000 0.332127 -51.569990 0.015218 -29.641558 0.015082 -22.413633 0.322825 -115.181804 
0.8866273250000000 0.332282 -51.969715 0.015279 -29.874416 0.015123 -23.117930 0.322159 -115.069678 
0.8867523500000000 0.330898 -52.100689 0.015230 -30.465357 0.015096 -23.488035 0.321700 -115.125909 
0.8868773750000000 0.330228 -52.315186 0.015114 -30.860203 0.015064 -23.747772 0.321638 -115.179127 
0.8870024000000000 0.328965 -52.688400 0.015111 -31.300485 0.015067 -24.413938 0.321747 -115.182041 
0.8871274250000000 0.327913 -52.833090 0.015152 -32.147579 0.015107 -24.468195 0.321295 -115.189830 
0.8872524500000000 0.326431 -53.132777 0.015092 -32.119360 0.015061 -25.339970 0.320640 -115.299221 
0.8873774750000000 0.326600 -53.245206 0.014984 -32.371058 0.015065 -25.851332 0.320378 -115.315284 
0.8875025000000000 0.325739 -53.506924 0.014910 -33.489834 0.014890 -25.961114 0.320573 -115.286766 
0.8876275250000000 0.324817 -53.741090 0.014958 -33.260472 0.014995 -26.607430 0.320674 -115.350589 
0.8877525500000000 0.324577 -53.853610 0.015103 -34.282118 0.014883 -26.735807 0.319931 -115.286645 
0.8878775750000000 0.324618 -54.178354 0.014887 -34.953527 0.015082 -27.240696 0.320008 -115.443383 
0.8880026000000000 0.322755 -54.257017 0.015008 -34.807975 0.014919 -28.214680 0.319212 -115.487126 
0.8881276250000000 0.321929 -54.705408 0.014965 -35.237603 0.014884 -28.428806 0.319285 -115.323262 
0.8882526500000000 0.321631 -54.950537 0.014784 -35.539621 0.014871 -28.668820 0.318603 -115.435973 
0.8883776750000000 0.320977 -54.908467 0.014809 -36.163281 0.014710 -28.924719 0.319978 -115.470164 
0.8885027000000000 0.318996 -55.263939 0.014828 -36.110412 0.014856 -29.189643 0.318872 -115.473720 
0.8886277250000000 0.318962 -55.349743 0.014745 -36.868056 0.014832 -29.995753 0.318417 -115.518825 
0.8887527500000000 0.317856 -55.692781 0.014867 -36.873197 0.014751 -30.412960 0.318259 -115.459330 
0.8888777750000000 0.316784 -55.894294 0.014767 -37.840905 0.014796 -30.280358 0.318123 -115.458864 
0.8890028000000000 0.316588 -56.080156 0.014738 -37.911411 0.014710 -31.454917 0.316885 -115.553248 
0.8891278250000000 0.316154 -56.276945 0.014624 -38.284300 0.014606 -31.703202 0.317578 -115.585016 
0.8892528500000000 0.314860 -56.500159 0.014592 -38.737304 0.014625 -31.686557 0.317162 -115.657703 
0.8893778750000000 0.314205 -56.691161 0.014544 -39.316377 0.014694 -32.181566 0.317223 -115.744171 
0.8895029000000000 0.313801 -56.982209 0.014579 -39.104681 0.014640 -33.337595 0.316969 -115.674429 
0.8896279250000000 0.312757 -57.220933 0.014602 -39.659188 0.014533 -33.307886 0.316821 -115.656726 
0.8897529500000000 0.311672 -57.385959 0.014568 -40.842955 0.014487 -33.542042 0.316144 -115.746315 
0.8898779750000000 0.310828 -57.603455 0.014621 -40.352010 0.014617 -34.756500 0.315848 -115.698504 
0.8900030000000000 0.309924 -57.894455 0.014496 -41.073528 0.014479 -34.913173 0.315960 -115.842359 
0.8901280250000000 0.309036 -58.061483 0.014503 -41.398406 0.014560 -35.485333 0.315512 -115.801682 
0.8902530500000000 0.308257 -58.278405 0.014564 -41.416207 0.014543 -35.956095 0.314970 -115.954305 
0.8903780750000000 0.307201 -58.511080 0.014547 -42.122345 0.014473 -35.711917 0.315070 -115.877552 
0.8905031000000000 0.306427 -58.786702 0.014438 -42.381882 0.014430 -36.481014 0.315640 -115.925873 
0.8906281250000000 0.305323 -58.918879 0.014402 -43.131123 0.014458 -36.648806 0.314697 -115.953767 
0.8907531500000000 0.304702 -59.129725 0.014314 -43.095300 0.014375 -37.153839 0.314709 -115.983616 
0.8908781750000000 0.303554 -59.392368 0.014357 -43.823823 0.014497 -37.560423 0.314077 -116.064612 
0.8910032000000000 0.302996 -59.514273 0.014389 -43.673394 0.014289 -37.972076 0.313616 -116.006519 
0.8911282250000000 0.301960 -59.901746 0.014311 -44.314215 0.014384 -38.952881 0.313362 -115.911241 
0.8912532500000000 0.301649 -60.085086 0.014189 -44.289280 0.014328 -38.983502 0.313085 -115.985592 
0.8913782750000000 0.299918 -60.345154 0.014169 -45.473129 0.014375 -39.085745 0.313009 -116.147855 
0.8915033000000000 0.299294 -60.579398 0.014159 -45.779092 0.014374 -39.736219 0.313043 -116.008000 
0.8916283250000000 0.298677 -60.777937 0.014162 -45.593382 0.014331 -40.909203 0.312326 -116.146936 
0.8917533500000000 0.297726 -60.961368 0.014207 -46.581656 0.014321 -40.152910 0.313011 -116.097880 
0.8918783750000000 0.297108 -61.201201 0.014086 -47.282706 0.014224 -41.006326 0.311837 -116.103640 
0.8920034000000000 0.295499 -61.437946 0.014219 -47.627172 0.014304 -41.333267 0.311670 -116.168640 
0.8921284250000000 0.294726 -61.602615 0.014117 -48.338164 0.014258 -42.195440 0.311971 -116.166500 
0.8922534500000000 0.294161 -61.914222 0.014125 -47.944489 0.014215 -41.927208 0.311763 -116.241489 
0.8923784750000000 0.293004 -62.155158 0.013971 -47.909151 0.014233 -42.879405 0.311122 -116.255909 
0.8925035000000000 0.292121 -62.310595 0.014046 -48.581149 0.014158 -43.112520 0.310629 -116.313310 
0.8926285250000000 0.290733 -62.567502 0.014095 -48.971068 0.014189 -42.960043 0.310929 -116.323616 
0.8927535500000000 0.289859 -62.783419 0.013975 -49.623706 0.014099 -43.503523 0.310217 -116.401217 
0.8928785750000000 0.288929 -63.137244 0.014082 -49.318744 0.014190 -43.660238 0.310997 -116.323660 
0.8930036000000000 0.288135 -63.261253 0.014030 -49.749132 0.014047 -44.821212 0.310954 -116.409145 
0.8931286250000000 0.287057 -63.582045 0.014053 -50.931231 0.014044 -45.133430 0.310312 -116.486929 
0.8932536500000000 0.285775 -63.659331 0.014006 -51.334394 0.014134 -45.296616 0.309971 -116.474236 
0.8933786750000000 0.285051 -64.031618 0.014038 -51.692145 0.014222 -45.775667 0.309220 -116.511943 
0.8935037000000000 0.284148 -64.216532 0.013928 -51.575149 0.013874 -46.928858 0.309534 -116.476633 
0.8936287250000000 0.283218 -64.451056 0.013913 -52.275871 0.013933 -46.092699 0.309275 -116.431050 
0.8937537500000000 0.282023 -64.520534 0.014054 -52.228844 0.013973 -47.024490 0.308388 -116.506731 
0.8938787750000000 0.281753 -64.810276 0.014015 -52.890334 0.013874 -47.203465 0.308783 -116.552388 
0.8940038000000000 0.280272 -65.081280 0.013975 -53.222760 0.014152 -47.572682 0.308074 -116.643741 
0.8941288250000000 0.279528 -65.389346 0.013882 -53.561104 0.013926 -48.271468 0.308128 -116.562523 
0.8942538500000000 0.278237 -65.585426 0.013930 -54.098210 0.013999 -48.772938 0.307597 -116.745542 
0.8943788750000000 0.277258 -65.818833 0.013871 -54.481776 0.014154 -49.443087 0.307719 -116.702270 
0.8945039000000000 0.276365 -66.085699 0.013922 -54.662162 0.014000 -49.173896 0.308292 -116.661439 
0.8946289250000000 0.275444 -66.299190 0.013815 -54.891971 0.014017 -50.695769 0.307528 -116.707446 
0.8947539500000000 0.274184 -66.535131 0.013834 -55.383652 0.013680 -50.291845 0.306615 -116.780559 
0.8948789750000000 0.273484 -66.826605 0.013792 -55.624808 0.013891 -50.529853 0.307112 -116.705086 
0.8950040000000000 0.272540 -66.964833 0.013856 -56.493141 0.013709 -50.957676 0.307102 -116.859149 
0.8951290250000000 0.271431 -67.187122 0.013870 -56.420279 0.013892 -51.805206 0.306540 -116.765306 
0.8952540500000000 0.270175 -67.513559 0.013947 -57.590562 0.013803 -51.997086 0.306281 -116.776954 
0.8953790750000000 0.269782 -67.818875 0.013744 -57.495867 0.013898 -52.538786 0.306181 -116.891960 
0.8955041000000000 0.268403 -68.015322 0.013680 -58.349850 0.013869 -53.138381 0.305634 -116.822172 
0.8956291250000000 0.267702 -68.204648 0.013878 -58.695580 0.013843 -53.285240 0.305520 -117.076948 
0.8957541500000000 0.266194 -68.424861 0.013768 -58.242612 0.013780 -54.635867 0.306094 -116.941862 
0.8958791750000000 0.264984 -68.775122 0.013612 -59.233828 0.013787 -54.654887 0.306056 -117.022392 
0.8960042000000000 0.264262 -68.941355 0.013644 -59.218595 0.013443 -54.589907 0.305611 -116.978293 
0.8961292250000000 0.263029 -69.289895 0.013675 -59.857893 0.013718 -54.712832 0.305120 -116.993050 
0.8962542500000000 0.262418 -69.474372 0.013697 -59.887718 0.013754 -55.460374 0.304984 -116.993233 
0.8963792750000000 0.261098 -69.694767 0.013655 -60.947523 0.013720 -56.229294 0.304369 -117.120003 
0.8965043000000000 0.260302 -70.016327 0.013620 -60.472320 0.013751 -56.534759 0.304206 -117.148568 
0.8966293250000000 0.258986 -70.075736 0.013719 -61.274797 0.013714 -57.132150 0.304428 -117.078784 
0.8967543500000000 0.258321 -70.446577 0.013759 -61.798090 0.013577 -57.570791 0.303848 -117.205870 
0.8968793750000000 0.256826 -70.613394 0.013575 -61.978534 0.013625 -57.551868 0.303397 -117.058614 
0.8970044000000000 0.256123 -70.887155 0.013530 -62.968077 0.013669 -57.853939 0.303939 -117.119489 
0.8971294250000000 0.254612 -71.136136 0.013656 -62.492765 0.013506 -58.429463 0.304021 -117.124481 
0.8972544500000000 0.253519 -71.477810 0.013601 -63.370263 0.013581 -58.332394 0.303056 -117.192072 
0.8973794750000000 0.252969 -71.556320 0.013601 -63.447519 0.013415 -59.325447 0.302774 -117.271425 
0.8975045000000000 0.251488 -71.945417 0.013376 -64.387729 0.013605 -60.084988 0.302562 -117.363679 
0.8976295250000000 0.250582 -72.108987 0.013433 -64.566566 0.013658 -59.679492 0.303150 -117.277008 
0.8977545500000000 0.249286 -72.429028 0.013516 -64.283840 0.013609 -60.685656 0.302167 -117.369898 
0.8978795750000000 0.248360 -72.627077 0.013626 -64.587249 0.013491 -61.701306 0.302122 -117.416616 
0.8980046000000000 0.247347 -72.905335 0.013539 -65.128186 0.013352 -61.263801 0.302467 -117.372978 
0.8981296250000000 0.246195 -73.138522 0.013564 -66.874405 0.013464 -62.119926 0.301489 -117.341881 
0.8982546500000000 0.245034 -73.346904 0.013431 -66.136860 0.013335 -61.791933 0.301515 -117.319777 
0.8983796750000000 0.244287 -73.596926 0.013425 -66.838017 0.013637 -62.102522 0.301511 -117.362571 
0.8985047000000001 0.243106 -73.818484 0.013492 -67.431846 0.013445 -62.925145 0.301284 -117.587717 
0.8986297250000001 0.242121 -74.066504 0.013338 -67.154021 0.013257 -63.813738 0.301219 -117.545093 
0.8987547500000001 0.241070 -74.349505 0.013300 -67.879317 0.013318 -64.322158 0.300262 -117.528680 
0.8988797750000001 0.239155 -74.592906 0.013503 -69.246928 0.013466 -63.827830 0.300435 -117.767628 
0.8990048000000001 0.238315 -74.830139 0.013413 -68.929735 0.013207 -65.395632 0.300335 -117.656047 
0.8991298250000001 0.237784 -75.107652 0.013486 -69.322323 0.013185 -64.699945 0.300482 -117.753122 
