!
! C:\Users\rflab\Downloads\Lab5_KD_ZW\Q3\160.S2P
!
! Touchstone 1.1 file saved by VNA.EXE V1.65 (www.ke5fx.com/gpib/readme.htm)
! 11/18/2024 10:30:00 PM
!
!    Source: HEWLETT PACKARD,8753D,0,6.14
!  Min freq: 8.750000E+008 Hz
!  Max freq: 9.750200E+008 Hz
!    Points: 801
!    Params: S11 S21 S12 S22
!
!!!!!
# GHZ S MA R 50
0.8750000000000000 0.395934 -31.340170 0.018533 16.087556 0.017927 25.760806 0.348168 -111.919855 
0.8751250250000000 0.394113 -31.629155 0.018598 16.286397 0.017933 25.363148 0.347730 -112.089936 
0.8752500500000000 0.394768 -31.909133 0.018620 16.086484 0.017959 24.951088 0.347308 -111.998664 
0.8753750750000000 0.393558 -32.071313 0.018507 15.361803 0.017969 24.307052 0.347237 -112.090349 
0.8755001000000000 0.392323 -32.202856 0.018571 14.771257 0.017965 24.020536 0.347121 -112.190534 
0.8756251250000000 0.392695 -32.434653 0.018525 14.778856 0.017843 23.528715 0.346780 -112.159076 
0.8757501500000000 0.392064 -32.617588 0.018460 14.049176 0.017908 23.314387 0.346337 -112.259862 
0.8758751750000000 0.391264 -32.881293 0.018338 13.705972 0.017756 23.285052 0.346029 -112.335325 
0.8760002000000000 0.391102 -33.099217 0.018417 12.710623 0.017895 22.761976 0.345191 -112.343217 
0.8761252250000000 0.389656 -33.294287 0.018417 12.582558 0.017826 21.937455 0.345889 -112.372158 
0.8762502500000000 0.389565 -33.494002 0.018458 12.548390 0.017837 21.102828 0.344398 -112.529260 
0.8763752750000000 0.388695 -33.670734 0.018344 11.908134 0.017680 21.143133 0.344713 -112.403313 
0.8765003000000000 0.387900 -33.976992 0.018271 11.678262 0.017790 20.526557 0.344228 -112.354160 
0.8766253250000000 0.386485 -34.050191 0.018396 11.115939 0.017663 20.386968 0.343934 -112.528353 
0.8767503500000000 0.386696 -34.269470 0.018301 10.815717 0.017827 19.667030 0.343760 -112.551385 
0.8768753750000000 0.386025 -34.548758 0.018209 10.501324 0.017630 19.470977 0.343431 -112.552115 
0.8770004000000000 0.385493 -34.677650 0.018176 10.074677 0.017624 19.415437 0.342745 -112.555504 
0.8771254250000000 0.385006 -34.843941 0.018302 9.674360 0.017687 18.604937 0.342933 -112.697130 
0.8772504500000000 0.384001 -35.034543 0.018367 9.060771 0.017575 17.958122 0.343497 -112.724017 
0.8773754750000000 0.383052 -35.469762 0.018288 8.655739 0.017613 17.582402 0.342364 -112.786836 
0.8775005000000000 0.382912 -35.585716 0.018159 8.246263 0.017583 16.955831 0.342221 -112.769215 
0.8776255250000000 0.382303 -35.791814 0.018058 7.141534 0.017611 16.442780 0.342022 -112.821996 
0.8777505500000000 0.381265 -36.080143 0.018135 7.183699 0.017601 16.238339 0.340750 -112.856297 
0.8778755750000000 0.381360 -36.177548 0.018141 6.747663 0.017653 15.799993 0.340728 -112.807770 
0.8780006000000000 0.380110 -36.332605 0.018117 6.625954 0.017566 14.970283 0.341109 -112.814263 
0.8781256250000000 0.379380 -36.752373 0.018117 6.037100 0.017718 15.317588 0.340065 -112.860341 
0.8782506500000000 0.379737 -36.939418 0.017991 5.792504 0.017510 14.222409 0.340178 -112.958315 
0.8783756750000000 0.377864 -37.222972 0.018081 5.393351 0.017444 13.673867 0.340573 -112.785342 
0.8785007000000000 0.377974 -37.405140 0.018205 5.033820 0.017565 13.548837 0.339543 -112.903092 
0.8786257250000000 0.376851 -37.582592 0.018037 4.606651 0.017584 12.758667 0.338754 -113.077275 
0.8787507500000000 0.376574 -37.755870 0.018038 3.944248 0.017503 12.828474 0.338754 -113.037966 
0.8788757750000000 0.376258 -38.008066 0.017980 3.661438 0.017414 12.040418 0.338360 -113.144985 
0.8790008000000000 0.375475 -38.104525 0.017963 3.180338 0.017578 12.098218 0.338777 -113.126066 
0.8791258250000000 0.374135 -38.345959 0.017962 2.818040 0.017535 10.817969 0.338236 -113.108994 
0.8792508500000000 0.374023 -38.553579 0.017916 2.242216 0.017486 10.565322 0.337322 -113.180898 
0.8793758750000000 0.372572 -38.788799 0.017932 2.148726 0.017424 10.721953 0.337366 -113.211522 
0.8795009000000000 0.372855 -38.880255 0.017938 1.185053 0.017316 9.641285 0.337094 -113.248304 
0.8796259250000000 0.371729 -39.147595 0.018088 0.764303 0.017467 9.509642 0.336869 -113.225169 
0.8797509500000000 0.371540 -39.457291 0.018000 0.324806 0.017464 9.042066 0.336168 -113.486127 
0.8798759750000000 0.370396 -39.587672 0.017983 0.446664 0.017573 8.454183 0.336165 -113.497734 
0.8800010000000000 0.369761 -39.779839 0.017849 -0.367354 0.017388 7.896773 0.336182 -113.530504 
0.8801260250000000 0.369352 -40.116822 0.017911 -1.104404 0.017439 7.383841 0.335628 -113.509156 
0.8802510500000000 0.367885 -40.225467 0.017902 -1.233224 0.017369 7.118764 0.335163 -113.509591 
0.8803760750000000 0.368083 -40.364545 0.017694 -2.103494 0.017444 6.857313 0.335157 -113.572622 
0.8805011000000000 0.367893 -40.743061 0.017794 -2.193039 0.017440 6.102145 0.334926 -113.481712 
0.8806261250000000 0.366412 -40.879758 0.017764 -2.689441 0.017455 5.562019 0.334345 -113.593445 
0.8807511500000000 0.365771 -41.055511 0.017737 -3.304233 0.017286 5.378436 0.334072 -113.591018 
0.8808761750000000 0.365329 -41.278003 0.017807 -3.795498 0.017407 5.139301 0.334144 -113.671329 
0.8810012000000000 0.363568 -41.489955 0.017638 -3.906395 0.017331 4.740866 0.334326 -113.703346 
0.8811262250000000 0.364018 -41.916162 0.017721 -3.916017 0.017503 3.824052 0.333256 -113.715304 
0.8812512500000000 0.362199 -41.989550 0.017810 -4.930272 0.017327 3.360524 0.332696 -113.717559 
0.8813762750000000 0.361897 -42.224772 0.017665 -5.063932 0.017314 2.920565 0.332833 -113.810467 
0.8815013000000000 0.360333 -42.516703 0.017582 -5.893349 0.017222 2.761333 0.333214 -113.867658 
0.8816263250000000 0.360794 -42.653654 0.017618 -6.149423 0.017207 2.000963 0.332854 -113.935292 
0.8817513500000000 0.360563 -42.842601 0.017593 -6.220834 0.017340 2.039231 0.332851 -113.998766 
0.8818763750000001 0.359036 -43.109083 0.017713 -6.796339 0.017262 1.088973 0.331730 -113.848499 
0.8820014000000001 0.358855 -43.149506 0.017718 -7.537377 0.017138 0.443178 0.331114 -113.803247 
0.8821264250000001 0.357798 -43.496660 0.017578 -7.738846 0.017152 -0.207073 0.331404 -113.994627 
0.8822514500000001 0.356701 -43.684464 0.017538 -8.231886 0.017277 -0.028464 0.331772 -113.943229 
0.8823764750000001 0.356602 -43.951133 0.017448 -8.733781 0.017107 -0.667574 0.330651 -113.948525 
0.8825015000000001 0.356235 -44.048978 0.017425 -8.935460 0.017223 -1.043818 0.330431 -114.058127 
0.8826265250000001 0.355790 -44.324079 0.017457 -9.512239 0.017131 -1.604602 0.330347 -114.012465 
0.8827515500000001 0.353736 -44.577073 0.017404 -10.487930 0.017222 -1.967499 0.329901 -113.994782 
0.8828765750000001 0.354155 -44.617717 0.017467 -10.685377 0.017158 -2.226587 0.330214 -114.051733 
0.8830016000000001 0.353629 -44.914350 0.017399 -11.124546 0.017088 -3.077662 0.329038 -114.166446 
0.8831266250000001 0.352832 -45.152432 0.017425 -11.638330 0.017040 -3.282288 0.328647 -114.144535 
0.8832516500000001 0.351592 -45.494081 0.017293 -11.477252 0.016920 -3.959072 0.328611 -114.182368 
0.8833766749999999 0.350303 -45.741219 0.017422 -12.419611 0.017058 -4.437769 0.328463 -114.228954 
0.8835017000000000 0.350770 -45.898865 0.017286 -12.600126 0.017162 -5.001873 0.327801 -114.257668 
0.8836267250000000 0.349680 -46.101465 0.017266 -13.046806 0.017030 -5.417519 0.327345 -114.405052 
0.8837517500000000 0.348395 -46.346904 0.017241 -13.711092 0.017071 -5.710276 0.327702 -114.335767 
0.8838767750000000 0.347713 -46.479372 0.017099 -13.942458 0.016975 -6.312110 0.327413 -114.340971 
0.8840018000000000 0.347305 -46.685891 0.017250 -14.650858 0.017007 -6.772339 0.328128 -114.383975 
0.8841268250000000 0.347062 -46.883109 0.017230 -15.532427 0.016850 -6.675737 0.327171 -114.324972 
0.8842518500000000 0.346490 -47.136156 0.017137 -15.284482 0.016884 -7.546097 0.326567 -114.337601 
0.8843768750000000 0.345411 -47.370293 0.017165 -16.059523 0.016934 -8.204482 0.325688 -114.425298 
0.8845019000000000 0.344742 -47.732107 0.016988 -16.643480 0.016879 -8.238148 0.326688 -114.410292 
0.8846269250000000 0.343591 -47.860157 0.017136 -16.359309 0.016787 -8.922369 0.325595 -114.544843 
0.8847519500000000 0.343201 -48.099695 0.016964 -17.317516 0.016955 -9.809349 0.325875 -114.510568 
0.8848769750000000 0.342264 -48.455566 0.016982 -17.480513 0.016911 -10.219301 0.325364 -114.610732 
0.8850020000000000 0.341347 -48.548317 0.017000 -18.018219 0.016820 -10.542823 0.325647 -114.629265 
0.8851270250000000 0.340483 -48.806579 0.016920 -18.320571 0.016758 -10.685157 0.324902 -114.742808 
0.8852520500000000 0.339541 -48.937614 0.016975 -18.724033 0.016837 -11.507233 0.325150 -114.657576 
0.8853770750000000 0.338738 -49.113443 0.016905 -19.270067 0.016873 -11.952037 0.324148 -114.685481 
0.8855021000000000 0.338732 -49.323965 0.016954 -19.811010 0.016674 -12.032961 0.324352 -114.686652 
0.8856271250000000 0.337687 -49.614648 0.016858 -20.052617 0.016639 -12.542697 0.323898 -114.705768 
0.8857521500000000 0.336714 -49.861984 0.016851 -20.811456 0.016620 -13.434989 0.323755 -114.818520 
0.8858771750000000 0.336221 -49.893130 0.016826 -20.896224 0.016636 -13.198957 0.322890 -114.847764 
0.8860022000000000 0.335507 -50.147729 0.016936 -21.151947 0.016613 -13.761827 0.323303 -114.825760 
0.8861272250000000 0.334473 -50.360431 0.016687 -21.870733 0.016649 -14.110271 0.323009 -114.867763 
0.8862522500000000 0.333705 -50.709671 0.016584 -21.868097 0.016531 -14.612669 0.322282 -114.730434 
0.8863772750000000 0.333595 -50.799108 0.016704 -22.681010 0.016524 -15.347638 0.322451 -114.859981 
0.8865023000000000 0.332547 -51.092201 0.016704 -22.968362 0.016532 -15.727928 0.321614 -114.887168 
0.8866273250000000 0.332229 -51.311424 0.016606 -23.348082 0.016408 -16.585367 0.321654 -114.889802 
0.8867523500000000 0.330559 -51.414950 0.016538 -23.821591 0.016374 -16.223637 0.321473 -115.000801 
0.8868773750000000 0.330446 -51.639346 0.016604 -24.673552 0.016454 -16.970890 0.321342 -114.963638 
0.8870024000000000 0.330036 -51.866430 0.016421 -24.674736 0.016466 -17.260589 0.321233 -114.960669 
0.8871274250000000 0.329074 -52.270891 0.016478 -24.943969 0.016295 -18.521900 0.320780 -114.980335 
0.8872524500000000 0.326905 -52.470044 0.016623 -25.431542 0.016292 -18.042521 0.320456 -115.139844 
0.8873774750000000 0.326378 -52.665612 0.016400 -25.672483 0.016337 -18.477254 0.320379 -115.200545 
0.8875025000000000 0.326412 -52.794764 0.016399 -26.159729 0.016342 -19.067243 0.320288 -115.165971 
0.8876275250000000 0.326080 -53.156916 0.016305 -27.297944 0.016388 -19.910177 0.320350 -115.112515 
0.8877525500000000 0.325076 -53.141929 0.016411 -27.272368 0.016275 -19.939506 0.319641 -115.111734 
0.8878775750000000 0.324313 -53.484861 0.016280 -27.245014 0.016293 -20.070500 0.319655 -115.104464 
0.8880026000000000 0.323167 -53.586761 0.016337 -28.062460 0.016110 -20.493717 0.318864 -115.201413 
0.8881276250000000 0.323104 -53.940809 0.016175 -28.476468 0.016152 -21.658806 0.318356 -115.123081 
0.8882526500000000 0.322162 -54.217824 0.016270 -28.594642 0.016136 -20.990835 0.318139 -115.208136 
0.8883776750000000 0.320964 -54.412610 0.016217 -29.276816 0.016104 -21.755414 0.318336 -115.270415 
0.8885027000000000 0.320022 -54.691303 0.016305 -28.816668 0.016144 -22.627938 0.317548 -115.355861 
0.8886277250000000 0.319223 -54.918234 0.016195 -29.984667 0.016250 -22.530113 0.318108 -115.350627 
0.8887527500000000 0.318311 -55.061305 0.016152 -29.995397 0.016059 -23.386234 0.317607 -115.429980 
0.8888777750000000 0.317534 -55.315640 0.016021 -30.717509 0.016125 -23.377901 0.317168 -115.455516 
0.8890028000000000 0.316823 -55.511654 0.016026 -31.256135 0.016221 -23.921786 0.317604 -115.338848 
0.8891278250000000 0.316364 -55.662278 0.016114 -31.303373 0.016091 -24.280390 0.316740 -115.498463 
0.8892528500000000 0.315131 -55.858266 0.015895 -31.476662 0.016088 -24.950204 0.315567 -115.489544 
0.8893778750000000 0.314580 -55.981569 0.016002 -31.948204 0.015925 -25.329686 0.316747 -115.565155 
0.8895029000000000 0.313911 -56.298345 0.016004 -32.429561 0.016036 -25.582147 0.315735 -115.450497 
0.8896279250000000 0.313138 -56.515907 0.015914 -33.191993 0.015990 -25.892636 0.315585 -115.445007 
0.8897529500000000 0.312180 -56.731691 0.015797 -32.881334 0.015983 -26.016160 0.315647 -115.507167 
0.8898779750000000 0.311112 -56.888248 0.015983 -34.200209 0.015942 -26.919133 0.315745 -115.621427 
0.8900030000000000 0.310423 -57.208260 0.015860 -33.681465 0.015822 -27.306397 0.315651 -115.611240 
0.8901280250000000 0.309238 -57.382661 0.015782 -34.071287 0.015909 -27.434456 0.314805 -115.611166 
0.8902530500000000 0.308952 -57.597167 0.015815 -34.837194 0.015751 -28.441025 0.314646 -115.705131 
0.8903780750000000 0.307796 -57.873888 0.015692 -35.431625 0.015916 -27.902450 0.313808 -115.618106 
0.8905031000000000 0.306663 -58.050523 0.015709 -35.149884 0.015886 -28.843799 0.314453 -115.734437 
0.8906281250000000 0.305893 -58.250006 0.015773 -36.049538 0.015867 -29.059279 0.313704 -115.707540 
0.8907531500000000 0.304891 -58.500696 0.015721 -36.214029 0.015782 -29.579547 0.313860 -115.817593 
0.8908781750000000 0.303979 -58.732406 0.015661 -36.777083 0.015693 -29.763446 0.313194 -115.771052 
0.8910032000000000 0.303183 -58.863647 0.015759 -36.758259 0.015774 -30.972073 0.313791 -115.817430 
0.8911282250000000 0.302314 -59.165687 0.015636 -37.048822 0.015688 -30.883724 0.313349 -115.893739 
0.8912532500000000 0.301698 -59.379150 0.015710 -37.529364 0.015702 -31.182776 0.312951 -115.742954 
0.8913782750000000 0.300346 -59.638800 0.015599 -37.409703 0.015815 -31.562229 0.312940 -115.892860 
0.8915033000000000 0.299708 -59.847715 0.015715 -38.172175 0.015647 -31.808826 0.312368 -115.869103 
0.8916283250000000 0.298885 -60.002968 0.015681 -38.193133 0.015768 -32.389600 0.311833 -115.910542 
0.8917533500000000 0.298059 -60.249668 0.015640 -38.834405 0.015767 -32.784574 0.312080 -115.888513 
0.8918783750000000 0.297118 -60.437236 0.015660 -39.127625 0.015590 -32.646986 0.312069 -116.088950 
0.8920034000000000 0.295748 -60.744973 0.015565 -39.713882 0.015579 -33.844733 0.310995 -116.004325 
0.8921284250000000 0.294985 -60.852121 0.015564 -40.353781 0.015541 -34.120108 0.312453 -116.067014 
0.8922534500000000 0.294336 -61.196100 0.015676 -40.310551 0.015749 -34.462777 0.312137 -116.114107 
0.8923784750000000 0.293402 -61.405001 0.015640 -40.614562 0.015629 -34.992882 0.310554 -116.094193 
0.8925035000000000 0.292222 -61.592261 0.015595 -41.251339 0.015523 -35.330417 0.310458 -116.121738 
0.8926285250000000 0.291045 -61.838814 0.015486 -41.855953 0.015481 -35.500946 0.309865 -116.282408 
0.8927535500000000 0.290505 -62.051250 0.015469 -42.032630 0.015672 -36.221029 0.309757 -116.241924 
0.8928785750000000 0.289181 -62.438450 0.015587 -42.302097 0.015576 -36.465070 0.309831 -116.103175 
0.8930036000000000 0.288446 -62.488793 0.015458 -42.490884 0.015557 -36.693222 0.310087 -116.161576 
0.8931286250000000 0.287281 -62.878295 0.015373 -43.334709 0.015615 -36.665540 0.309814 -116.173824 
0.8932536500000000 0.286249 -62.920000 0.015492 -43.377442 0.015600 -37.834582 0.309691 -116.166107 
0.8933786750000000 0.285248 -63.288286 0.015504 -43.286415 0.015598 -37.889735 0.309228 -116.145274 
0.8935037000000000 0.284292 -63.480330 0.015602 -43.816147 0.015548 -38.304977 0.309376 -116.226361 
0.8936287250000000 0.283503 -63.696984 0.015512 -44.261425 0.015367 -38.243588 0.308638 -116.230616 
0.8937537500000000 0.282622 -63.877653 0.015353 -44.881726 0.015491 -39.327744 0.308635 -116.357289 
0.8938787750000000 0.281718 -64.098366 0.015394 -44.969892 0.015404 -39.394988 0.308403 -116.359675 
0.8940038000000000 0.280913 -64.395360 0.015322 -45.606492 0.015507 -40.340449 0.307911 -116.405058 
0.8941288250000000 0.279573 -64.599982 0.015435 -45.973823 0.015450 -40.233045 0.308019 -116.496513 
0.8942538500000000 0.278486 -64.771644 0.015396 -45.952438 0.015514 -40.517455 0.307692 -116.476104 
0.8943788750000000 0.277681 -65.051572 0.015265 -46.317573 0.015434 -40.647355 0.307296 -116.436549 
0.8945039000000000 0.276866 -65.310645 0.015502 -46.481899 0.015395 -41.694117 0.307617 -116.409995 
0.8946289250000000 0.275501 -65.557097 0.015302 -47.027925 0.015360 -41.575620 0.306941 -116.437669 
0.8947539500000000 0.274428 -65.773555 0.015422 -47.664234 0.015327 -42.445519 0.306702 -116.514055 
0.8948789750000000 0.273864 -66.084199 0.015203 -47.911120 0.015475 -42.812272 0.306552 -116.540811 
0.8950040000000000 0.273021 -66.222837 0.015348 -48.448356 0.015438 -43.425541 0.306340 -116.576527 
0.8951290250000000 0.271653 -66.471793 0.015362 -48.659506 0.015411 -42.645160 0.306408 -116.551019 
0.8952540500000000 0.270713 -66.793350 0.015364 -48.664025 0.015441 -43.417159 0.306252 -116.428455 
0.8953790750000000 0.270024 -66.987623 0.015334 -49.613608 0.015256 -43.885576 0.306218 -116.658251 
0.8955041000000000 0.268945 -67.264106 0.015258 -49.095548 0.015238 -44.426936 0.306382 -116.662040 
0.8956291250000000 0.267600 -67.401999 0.015225 -50.015905 0.015323 -44.710012 0.304943 -116.762498 
0.8957541500000000 0.266638 -67.635376 0.015184 -50.595521 0.015097 -45.477341 0.304546 -116.671610 
0.8958791750000000 0.265355 -67.991196 0.015402 -51.018007 0.015257 -45.427986 0.305215 -116.717491 
0.8960042000000000 0.264551 -68.166678 0.015385 -51.705728 0.015361 -46.261498 0.304917 -116.822785 
0.8961292250000000 0.263533 -68.381548 0.015338 -51.911311 0.015374 -46.181249 0.304786 -116.742078 
0.8962542500000000 0.262482 -68.645150 0.015220 -52.027886 0.015203 -47.389637 0.304677 -116.752410 
0.8963792750000000 0.261366 -68.904858 0.015349 -52.121896 0.015101 -47.303299 0.304057 -116.814522 
0.8965043000000000 0.260636 -69.173463 0.015322 -52.554143 0.015303 -47.676115 0.304134 -116.887724 
0.8966293250000000 0.259359 -69.289691 0.015199 -53.392177 0.015233 -47.793765 0.304443 -116.958029 
0.8967543500000000 0.258691 -69.616426 0.015221 -53.548329 0.015146 -48.383223 0.303440 -116.934856 
0.8968793750000000 0.257017 -69.811436 0.015170 -53.989582 0.015217 -49.165206 0.303427 -116.955486 
0.8970044000000000 0.256287 -70.049251 0.015285 -53.889044 0.015173 -49.165888 0.303159 -116.900384 
0.8971294250000000 0.254654 -70.328391 0.015426 -54.798743 0.015132 -49.786643 0.302826 -116.954974 
0.8972544500000000 0.253913 -70.582886 0.015273 -55.319094 0.015252 -49.904065 0.303110 -117.053941 
0.8973794750000000 0.253100 -70.763256 0.015274 -54.798147 0.015240 -49.972698 0.302662 -116.938389 
0.8975045000000000 0.251926 -71.066827 0.015154 -56.081933 0.015175 -51.113287 0.302315 -117.127646 
0.8976295250000000 0.250937 -71.232314 0.015376 -56.339002 0.014949 -50.990530 0.302101 -117.086626 
0.8977545500000000 0.249972 -71.537399 0.015183 -56.033456 0.015254 -52.309764 0.301835 -117.076712 
0.8978795750000000 0.248729 -71.741794 0.015218 -56.313415 0.015098 -51.703324 0.302419 -117.153305 
0.8980046000000000 0.247529 -72.010713 0.015132 -56.822706 0.015081 -52.522857 0.301863 -117.099991 
0.8981296250000000 0.246466 -72.314378 0.015056 -57.932686 0.014897 -53.487728 0.301926 -117.129669 
0.8982546500000000 0.245552 -72.444403 0.014985 -57.642495 0.015016 -53.301493 0.301124 -117.194791 
0.8983796750000000 0.244586 -72.687558 0.015201 -58.214460 0.015154 -53.471203 0.300922 -117.106868 
0.8985047000000001 0.243352 -72.958016 0.015162 -58.393443 0.015043 -53.975022 0.301163 -117.272616 
0.8986297250000001 0.242451 -73.235829 0.015142 -59.149489 0.015021 -54.398678 0.300962 -117.223722 
0.8987547500000001 0.241242 -73.474658 0.015056 -59.168821 0.015041 -54.449657 0.300985 -117.358771 
0.8988797750000001 0.239665 -73.773507 0.015140 -60.066211 0.014930 -55.435395 0.300223 -117.299567 
0.8990048000000001 0.238822 -73.958553 0.015050 -60.057434 0.014933 -55.663439 0.300761 -117.459470 
0.8991298250000001 0.237817 -74.244468 0.015126 -60.438376 0.015028 -55.984710 0.299639 -117.426274 
