!
! C:\Users\rflab\Downloads\Lab5_KD_ZW\Q3\180.S2P
!
! Touchstone 1.1 file saved by VNA.EXE V1.65 (www.ke5fx.com/gpib/readme.htm)
! 11/18/2024 10:31:11 PM
!
!    Source: HEWLETT PACKARD,8753D,0,6.14
!  Min freq: 8.750000E+008 Hz
!  Max freq: 9.750200E+008 Hz
!    Points: 801
!    Params: S11 S21 S12 S22
!
!!!!!
# GHZ S MA R 50
0.8750000000000000 0.389299 -31.622358 0.018857 14.605517 0.018067 24.539823 0.348377 -112.138796 
0.8751250250000000 0.387882 -31.836230 0.018600 14.817884 0.017945 23.755956 0.348445 -112.258945 
0.8752500500000000 0.388157 -31.999414 0.018639 14.656276 0.018145 23.711445 0.347102 -112.262582 
0.8753750750000000 0.388497 -32.454793 0.018621 14.215591 0.017962 22.721659 0.347284 -112.282907 
0.8755001000000000 0.387790 -32.580120 0.018606 13.640934 0.018095 22.607784 0.346472 -112.354330 
0.8756251250000000 0.386830 -32.826882 0.018671 13.005588 0.018044 22.056158 0.347513 -112.321835 
0.8757501500000000 0.386569 -33.000073 0.018429 12.601487 0.017862 21.841164 0.345793 -112.373256 
0.8758751750000000 0.386201 -33.111177 0.018524 11.938171 0.017996 21.106192 0.345787 -112.357312 
0.8760002000000000 0.385448 -33.444727 0.018523 12.298108 0.017912 20.663863 0.345652 -112.382884 
0.8761252250000000 0.384539 -33.667996 0.018515 11.567475 0.017902 20.330965 0.345528 -112.385917 
0.8762502500000000 0.382632 -33.885881 0.018584 11.110420 0.017768 19.940555 0.345462 -112.505406 
0.8763752750000000 0.383325 -34.165760 0.018502 10.534383 0.017898 19.287458 0.344424 -112.406641 
0.8765003000000000 0.382253 -34.291420 0.018385 10.149329 0.017898 18.893542 0.344777 -112.508676 
0.8766253250000000 0.381439 -34.327676 0.018462 9.796580 0.017864 18.349832 0.344030 -112.725430 
0.8767503500000000 0.381556 -34.588062 0.018378 9.353329 0.017721 17.413977 0.342952 -112.717915 
0.8768753750000000 0.380742 -34.982985 0.018399 8.675255 0.017805 17.828381 0.343919 -112.694555 
0.8770004000000000 0.380454 -34.976960 0.018331 8.183207 0.017717 17.414743 0.343504 -112.673902 
0.8771254250000000 0.380415 -35.208535 0.018475 8.492735 0.017855 16.703341 0.342354 -112.848525 
0.8772504500000000 0.379393 -35.484373 0.018501 7.216584 0.017864 16.139927 0.342995 -112.853182 
0.8773754750000000 0.378976 -35.796195 0.018506 7.024306 0.017762 15.715955 0.342150 -112.740942 
0.8775005000000000 0.378198 -36.015478 0.018316 6.553662 0.017721 15.635353 0.341914 -112.818528 
0.8776255250000000 0.377811 -36.296013 0.018369 6.004789 0.017812 15.031805 0.342232 -112.773923 
0.8777505500000000 0.376467 -36.417514 0.018318 5.916899 0.017818 14.341923 0.341355 -113.030442 
0.8778755750000000 0.376091 -36.601637 0.018398 5.475938 0.017806 13.833047 0.340489 -113.042156 
0.8780006000000000 0.375433 -36.638424 0.018285 5.530994 0.017707 13.701698 0.340395 -112.965218 
0.8781256250000000 0.375095 -36.973847 0.018244 4.812649 0.017856 12.978558 0.340402 -112.981417 
0.8782506500000000 0.373772 -37.170701 0.018236 3.940246 0.017818 12.403417 0.339927 -113.121593 
0.8783756750000000 0.373754 -37.552483 0.018283 3.642718 0.017772 12.130625 0.339948 -113.064186 
0.8785007000000000 0.373085 -37.779620 0.018299 3.244593 0.017817 11.667199 0.339058 -113.105817 
0.8786257250000000 0.372743 -37.971874 0.018298 3.092195 0.017713 11.632391 0.338597 -113.212160 
0.8787507500000000 0.372051 -38.174651 0.018236 2.493728 0.017736 10.853770 0.339038 -113.084830 
0.8788757750000000 0.371010 -38.457403 0.018199 1.810744 0.017691 10.112301 0.338694 -113.328753 
0.8790008000000000 0.371068 -38.600928 0.018346 1.400023 0.017673 9.755626 0.338441 -113.347162 
0.8791258250000000 0.370110 -38.755730 0.018218 0.944853 0.017711 9.421238 0.338062 -113.419992 
0.8792508500000000 0.369167 -39.052964 0.018086 0.809680 0.017733 9.025654 0.337432 -113.342153 
0.8793758750000000 0.368782 -39.242201 0.018160 0.499494 0.017678 8.622313 0.337831 -113.459567 
0.8795009000000000 0.367593 -39.304631 0.018160 -0.201597 0.017664 8.319537 0.337543 -113.294498 
0.8796259250000000 0.367293 -39.558707 0.018248 -0.458141 0.017553 7.504944 0.336815 -113.387407 
0.8797509500000000 0.366770 -39.743928 0.018137 -0.936969 0.017670 7.217823 0.336322 -113.389735 
0.8798759750000000 0.365219 -40.090308 0.018188 -1.760820 0.017728 6.849765 0.335978 -113.398140 
0.8800010000000000 0.366138 -40.253462 0.018057 -2.133865 0.017645 6.510841 0.335868 -113.485699 
0.8801260250000000 0.364393 -40.445163 0.018118 -2.401388 0.017655 6.040118 0.335608 -113.618631 
0.8802510500000000 0.363927 -40.665910 0.018076 -3.139253 0.017796 5.193053 0.335072 -113.630281 
0.8803760750000000 0.363221 -40.927123 0.018042 -3.654923 0.017614 4.568091 0.335126 -113.586351 
0.8805011000000000 0.363630 -41.282723 0.018005 -3.780970 0.017553 4.612157 0.335484 -113.622214 
0.8806261250000000 0.362422 -41.328432 0.018093 -3.705193 0.017544 3.974207 0.334293 -113.768645 
0.8807511500000000 0.362142 -41.544517 0.018044 -4.607973 0.017566 3.423812 0.334403 -113.720401 
0.8808761750000000 0.361247 -41.803375 0.017945 -5.210969 0.017622 2.683103 0.334185 -113.765397 
0.8810012000000000 0.359973 -41.926193 0.017837 -5.645669 0.017499 2.517626 0.334013 -113.892856 
0.8811262250000000 0.360361 -42.197477 0.017901 -5.708466 0.017734 2.339257 0.332963 -113.835056 
0.8812512500000000 0.359315 -42.447669 0.017884 -6.122232 0.017512 1.547812 0.333096 -113.899592 
0.8813762750000000 0.357797 -42.716993 0.017924 -6.709839 0.017628 1.301942 0.332339 -113.917080 
0.8815013000000000 0.356965 -42.810448 0.017975 -7.293930 0.017616 0.477700 0.332863 -113.900088 
0.8816263250000000 0.357385 -43.269953 0.017838 -7.742816 0.017506 0.252837 0.332358 -113.898397 
0.8817513500000000 0.356004 -43.445651 0.018000 -7.960534 0.017600 -0.490544 0.331326 -113.977498 
0.8818763750000001 0.356023 -43.598579 0.017871 -8.244260 0.017525 -0.745193 0.331859 -113.873154 
0.8820014000000001 0.354531 -43.767111 0.017870 -9.476396 0.017608 -1.207257 0.331512 -113.945888 
0.8821264250000001 0.354232 -44.008689 0.017994 -10.057412 0.017475 -1.745081 0.331354 -113.923374 
0.8822514500000001 0.353299 -44.172322 0.017856 -10.005145 0.017577 -2.129956 0.330141 -114.127042 
0.8823764750000001 0.352734 -44.535556 0.017740 -10.882850 0.017556 -2.686932 0.330283 -114.104394 
0.8825015000000001 0.352372 -44.680699 0.017783 -11.262928 0.017418 -2.912537 0.330190 -114.262522 
0.8826265250000001 0.351462 -44.824115 0.017775 -11.607158 0.017507 -3.672900 0.329995 -114.109355 
0.8827515500000001 0.350824 -44.945376 0.017793 -12.097118 0.017489 -4.124570 0.329788 -114.171904 
0.8828765750000001 0.350695 -45.082855 0.017739 -12.320655 0.017374 -4.344194 0.329983 -114.272918 
0.8830016000000001 0.350521 -45.447980 0.017704 -12.788258 0.017437 -4.932278 0.328788 -114.302666 
0.8831266250000001 0.349234 -45.734635 0.017703 -13.634998 0.017425 -5.360509 0.328649 -114.196936 
0.8832516500000001 0.348607 -45.847687 0.017572 -13.911798 0.017505 -5.803464 0.327782 -114.341088 
0.8833766749999999 0.348224 -46.111400 0.017658 -13.909406 0.017426 -6.387979 0.328519 -114.405636 
0.8835017000000000 0.347870 -46.299169 0.017728 -14.686617 0.017370 -6.604902 0.327837 -114.401134 
0.8836267250000000 0.346407 -46.611706 0.017611 -15.107893 0.017301 -7.105427 0.326881 -114.536037 
0.8837517500000000 0.345745 -46.709600 0.017575 -15.681051 0.017348 -7.448112 0.327602 -114.478414 
0.8838767750000000 0.344529 -47.155508 0.017621 -15.809948 0.017281 -8.310312 0.327494 -114.475334 
0.8840018000000000 0.344704 -47.303371 0.017583 -16.641197 0.017292 -8.589043 0.326908 -114.533817 
0.8841268250000000 0.344706 -47.482858 0.017548 -16.929196 0.017210 -9.041621 0.326640 -114.508185 
0.8842518500000000 0.342940 -47.703157 0.017488 -17.404355 0.017382 -9.292295 0.326569 -114.661090 
0.8843768750000000 0.342477 -47.997787 0.017412 -17.993347 0.017207 -10.141529 0.325606 -114.626623 
0.8845019000000000 0.341818 -48.166578 0.017497 -18.172261 0.017254 -10.725487 0.326444 -114.600437 
0.8846269250000000 0.341087 -48.458415 0.017367 -18.568267 0.017253 -11.245336 0.324810 -114.578502 
0.8847519500000000 0.340471 -48.548357 0.017389 -19.321340 0.017194 -11.304322 0.326019 -114.681868 
0.8848769750000000 0.339885 -48.851581 0.017386 -19.508372 0.017288 -11.654577 0.324576 -114.656623 
0.8850020000000000 0.338465 -49.182693 0.017384 -19.707322 0.017204 -12.700369 0.324983 -114.671044 
0.8851270250000000 0.338054 -49.306976 0.017322 -20.132950 0.017117 -12.788844 0.324324 -114.766112 
0.8852520500000000 0.337262 -49.539577 0.017371 -21.227210 0.017134 -13.437552 0.323712 -114.750627 
0.8853770750000000 0.335862 -49.759826 0.017273 -20.912589 0.017076 -13.931469 0.324122 -114.830153 
0.8855021000000000 0.336673 -50.015555 0.017349 -21.583848 0.017163 -13.764442 0.324002 -114.810192 
0.8856271250000000 0.335040 -50.288305 0.017335 -22.250345 0.017020 -14.227019 0.323911 -114.865256 
0.8857521500000000 0.334823 -50.464223 0.017161 -22.457728 0.017071 -15.009764 0.323897 -114.949708 
0.8858771750000000 0.333486 -50.573729 0.017172 -22.932440 0.016971 -15.210779 0.323101 -114.890040 
0.8860022000000000 0.333012 -50.876472 0.017021 -23.525698 0.017043 -15.853789 0.322952 -114.884425 
0.8861272250000000 0.332598 -50.980983 0.017163 -23.736208 0.017033 -16.400581 0.323391 -114.872184 
0.8862522500000000 0.331605 -51.268959 0.017129 -24.144842 0.016979 -16.616020 0.322532 -114.865250 
0.8863772750000000 0.331093 -51.434631 0.017291 -24.480046 0.017034 -17.425590 0.321678 -114.911808 
0.8865023000000000 0.330799 -51.549459 0.017094 -24.734951 0.016935 -17.636010 0.321517 -115.069141 
0.8866273250000000 0.329321 -51.947588 0.017066 -25.410902 0.016997 -18.144189 0.321274 -114.963298 
0.8867523500000000 0.328878 -51.951310 0.017013 -25.710380 0.016856 -18.540539 0.320864 -115.051470 
0.8868773750000000 0.328521 -52.286993 0.017076 -26.152906 0.017000 -18.831351 0.320504 -115.183996 
0.8870024000000000 0.328141 -52.508241 0.016901 -26.679281 0.016877 -19.502895 0.320769 -115.143674 
0.8871274250000000 0.326631 -52.837282 0.016868 -27.035865 0.016963 -19.906048 0.320894 -115.127175 
0.8872524500000000 0.326152 -52.948369 0.017086 -27.443224 0.016769 -19.702489 0.320732 -115.116681 
0.8873774750000000 0.325049 -53.202189 0.016986 -27.756299 0.016683 -20.488196 0.319659 -115.080000 
0.8875025000000000 0.324595 -53.417759 0.016892 -28.367790 0.016717 -20.860561 0.319739 -115.188026 
0.8876275250000000 0.324396 -53.683143 0.016833 -28.525229 0.016761 -21.522936 0.319778 -115.202861 
0.8877525500000000 0.322969 -53.936807 0.016769 -29.024226 0.016720 -21.972543 0.319364 -115.237835 
0.8878775750000000 0.322941 -54.077120 0.016859 -29.775834 0.016687 -22.210038 0.318525 -115.290823 
0.8880026000000000 0.322158 -54.214050 0.016846 -29.651953 0.016770 -23.223401 0.318487 -115.379078 
0.8881276250000000 0.321544 -54.436411 0.016657 -30.124910 0.016672 -23.375467 0.318517 -115.352188 
0.8882526500000000 0.320639 -54.729216 0.016861 -30.491338 0.016762 -23.278639 0.318246 -115.454372 
0.8883776750000000 0.319623 -55.068711 0.016780 -31.277061 0.016605 -24.327666 0.318004 -115.426462 
0.8885027000000000 0.318381 -55.317525 0.016806 -31.580456 0.016537 -24.776753 0.317227 -115.413818 
0.8886277250000000 0.318070 -55.485812 0.016648 -31.421935 0.016770 -24.976539 0.317495 -115.464052 
0.8887527500000000 0.318028 -55.720564 0.016631 -32.077828 0.016616 -25.206026 0.317508 -115.469021 
0.8888777750000000 0.316652 -55.811430 0.016677 -33.331120 0.016491 -25.552953 0.317396 -115.490825 
0.8890028000000000 0.316418 -56.096129 0.016636 -32.945792 0.016637 -25.622052 0.316583 -115.438643 
0.8891278250000000 0.315455 -56.272272 0.016639 -33.301140 0.016531 -26.464532 0.317180 -115.472832 
0.8892528500000000 0.314373 -56.478081 0.016606 -33.778589 0.016577 -26.821546 0.316584 -115.554773 
0.8893778750000000 0.313575 -56.688831 0.016653 -33.990380 0.016567 -27.208147 0.316627 -115.685801 
0.8895029000000000 0.313490 -56.951927 0.016555 -34.426085 0.016535 -27.199070 0.315928 -115.562564 
0.8896279250000000 0.312559 -57.230826 0.016441 -34.896738 0.016511 -27.741742 0.315813 -115.634019 
0.8897529500000000 0.311650 -57.376698 0.016472 -35.206426 0.016597 -28.612031 0.315722 -115.740267 
0.8898779750000000 0.310509 -57.549323 0.016448 -35.301725 0.016439 -29.106256 0.315342 -115.558228 
0.8900030000000000 0.309892 -57.877388 0.016457 -35.540389 0.016576 -29.386299 0.315196 -115.835648 
0.8901280250000000 0.308525 -58.069105 0.016453 -36.113319 0.016483 -29.920457 0.314546 -115.769502 
0.8902530500000000 0.308313 -58.261523 0.016444 -36.664539 0.016415 -30.161073 0.314838 -115.879536 
0.8903780750000000 0.307263 -58.524842 0.016360 -37.050916 0.016484 -31.211612 0.314331 -115.905790 
0.8905031000000000 0.306621 -58.748708 0.016510 -37.409360 0.016380 -30.805860 0.314611 -115.806957 
0.8906281250000000 0.305631 -58.950399 0.016466 -37.864806 0.016514 -30.858776 0.314039 -115.795603 
0.8907531500000000 0.304946 -59.153756 0.016315 -38.189583 0.016477 -31.459123 0.313275 -115.788737 
0.8908781750000000 0.303685 -59.407027 0.016238 -38.965142 0.016297 -32.052292 0.313506 -115.799290 
0.8910032000000000 0.303175 -59.587680 0.016300 -38.703522 0.016363 -32.635105 0.313131 -115.900774 
0.8911282250000000 0.302175 -59.912043 0.016370 -38.716349 0.016267 -32.488188 0.313782 -115.954485 
0.8912532500000000 0.301640 -60.047332 0.016384 -39.303828 0.016351 -33.275756 0.313185 -115.908367 
0.8913782750000000 0.300323 -60.338892 0.016204 -40.095258 0.016310 -33.920491 0.312634 -115.994756 
0.8915033000000000 0.299806 -60.530722 0.016215 -40.386737 0.016385 -34.134962 0.312987 -116.025389 
0.8916283250000000 0.298890 -60.716967 0.016272 -40.415905 0.016431 -34.512814 0.312374 -115.999303 
0.8917533500000000 0.298463 -60.936008 0.016187 -41.040473 0.016303 -35.019479 0.311676 -116.030651 
0.8918783750000000 0.297501 -61.148903 0.016234 -41.228496 0.016165 -35.217433 0.311920 -116.083710 
0.8920034000000000 0.295985 -61.431974 0.016260 -41.469185 0.016245 -35.919298 0.311181 -116.112731 
0.8921284250000000 0.295449 -61.611062 0.016175 -42.179052 0.016378 -35.664104 0.311767 -116.141164 
0.8922534500000000 0.294794 -61.879020 0.016171 -42.122093 0.016462 -35.928540 0.310307 -116.129087 
0.8923784750000000 0.293894 -62.132418 0.016236 -42.714899 0.016190 -36.853702 0.309770 -116.259598 
0.8925035000000000 0.292933 -62.309706 0.016231 -42.953537 0.016490 -37.481593 0.310484 -116.131861 
0.8926285250000000 0.291683 -62.552904 0.016213 -43.524735 0.016319 -38.029137 0.310056 -116.290152 
0.8927535500000000 0.290938 -62.757626 0.016214 -43.739290 0.016274 -38.532109 0.309375 -116.238999 
0.8928785750000000 0.289933 -63.132883 0.016150 -43.918536 0.016297 -38.394581 0.310209 -116.194502 
0.8930036000000000 0.289139 -63.236183 0.016166 -44.806421 0.016189 -39.186932 0.309771 -116.246984 
0.8931286250000000 0.288216 -63.540753 0.016339 -44.724509 0.016266 -39.673952 0.309631 -116.385746 
0.8932536500000000 0.287039 -63.706013 0.016212 -45.245477 0.016392 -39.420163 0.308611 -116.245789 
0.8933786750000000 0.286215 -63.964981 0.016349 -45.625114 0.016412 -40.141050 0.308388 -116.430664 
0.8935037000000000 0.285155 -64.178121 0.016198 -45.063232 0.016304 -40.487871 0.309087 -116.271583 
0.8936287250000000 0.284523 -64.471136 0.016227 -46.750344 0.016286 -41.408125 0.308895 -116.339736 
0.8937537500000000 0.283600 -64.597228 0.016154 -46.853940 0.016279 -41.119923 0.308321 -116.379906 
0.8938787750000000 0.283143 -64.850483 0.016278 -47.078485 0.016216 -41.225538 0.308033 -116.463517 
0.8940038000000000 0.281741 -65.182380 0.016107 -47.024944 0.016183 -41.598190 0.308033 -116.488888 
0.8941288250000000 0.280979 -65.326347 0.016252 -47.837347 0.016167 -42.172743 0.307705 -116.532017 
0.8942538500000000 0.279661 -65.563301 0.016087 -48.378857 0.016289 -42.763803 0.307582 -116.511669 
0.8943788750000000 0.278879 -65.765688 0.016087 -48.825252 0.016179 -43.303008 0.306538 -116.612238 
0.8945039000000000 0.278198 -66.033040 0.016119 -48.761136 0.016210 -44.070363 0.307896 -116.590450 
0.8946289250000000 0.276805 -66.302082 0.016245 -49.000294 0.016262 -44.615076 0.306750 -116.551034 
0.8947539500000000 0.276205 -66.499675 0.016206 -50.309905 0.016165 -44.836259 0.307153 -116.491231 
0.8948789750000000 0.275546 -66.744329 0.016107 -49.664730 0.016154 -44.824212 0.306449 -116.579090 
0.8950040000000000 0.274320 -66.929041 0.016102 -50.361058 0.016101 -45.477551 0.307077 -116.609610 
0.8951290250000000 0.273593 -67.148842 0.016081 -50.620564 0.016361 -45.526633 0.306484 -116.655620 
0.8952540500000000 0.272358 -67.554221 0.016131 -51.257939 0.016254 -45.750031 0.306177 -116.655711 
0.8953790750000000 0.271699 -67.705626 0.016182 -51.277959 0.016200 -46.199728 0.305365 -116.716133 
0.8955041000000000 0.270660 -67.971266 0.016068 -52.065668 0.016170 -46.990825 0.304929 -116.731743 
0.8956291250000000 0.269808 -68.125184 0.016157 -52.273777 0.016176 -47.138251 0.304874 -116.704845 
0.8957541500000000 0.268129 -68.416565 0.016151 -52.423678 0.016231 -47.746910 0.305362 -116.867227 
0.8958791750000000 0.267261 -68.747116 0.016191 -53.439916 0.016190 -47.602250 0.304734 -116.862712 
0.8960042000000000 0.266769 -68.874729 0.016164 -53.507371 0.016170 -47.931906 0.304295 -116.782202 
0.8961292250000000 0.265655 -69.141592 0.016271 -53.770173 0.016100 -48.775294 0.304325 -116.869537 
0.8962542500000000 0.264732 -69.379791 0.016066 -54.046398 0.016036 -48.766156 0.304542 -116.829531 
0.8963792750000000 0.263642 -69.634136 0.016221 -54.427073 0.016155 -49.905351 0.303482 -116.963150 
0.8965043000000000 0.262866 -69.929370 0.016036 -54.962204 0.016090 -50.635567 0.303835 -116.916353 
0.8966293250000000 0.261669 -70.082560 0.016170 -54.942378 0.016322 -50.111494 0.303795 -116.946005 
0.8967543500000000 0.260920 -70.311462 0.016177 -55.180096 0.016202 -51.142925 0.303551 -117.001703 
0.8968793750000000 0.259628 -70.570433 0.016054 -55.621732 0.016217 -50.922913 0.303202 -116.980283 
0.8970044000000000 0.259022 -70.820017 0.016104 -56.365461 0.016180 -51.589948 0.303693 -117.110927 
0.8971294250000000 0.257405 -71.144022 0.016275 -56.757824 0.016197 -52.392642 0.302900 -117.083957 
0.8972544500000000 0.256483 -71.390437 0.016257 -56.863693 0.016366 -52.600569 0.302747 -117.160430 
0.8973794750000000 0.256009 -71.502424 0.016175 -57.254414 0.016027 -53.421939 0.302534 -117.138868 
0.8975045000000000 0.254812 -71.922024 0.016183 -58.089461 0.016085 -53.345481 0.302559 -117.097474 
0.8976295250000000 0.253654 -72.068604 0.016070 -58.202931 0.016105 -54.150725 0.302305 -117.193629 
0.8977545500000000 0.252751 -72.354817 0.016250 -58.298660 0.016229 -54.010250 0.302582 -117.137474 
0.8978795750000000 0.251590 -72.522225 0.016116 -58.709461 0.015968 -54.806426 0.301590 -117.322172 
0.8980046000000000 0.250416 -72.748658 0.016132 -59.498041 0.015862 -55.184359 0.302012 -117.306876 
0.8981296250000000 0.249608 -73.053838 0.016181 -59.673312 0.016053 -55.550898 0.300840 -117.229178 
0.8982546500000000 0.248772 -73.252281 0.016204 -59.585064 0.016260 -55.480407 0.301705 -117.206549 
0.8983796750000000 0.247776 -73.518076 0.016153 -60.144359 0.015934 -56.230986 0.300826 -117.230502 
0.8985047000000001 0.246878 -73.674203 0.016364 -60.527654 0.016189 -56.250954 0.300636 -117.249138 
0.8986297250000001 0.245550 -74.013514 0.016168 -61.038622 0.016096 -57.236424 0.301498 -117.282207 
0.8987547500000001 0.244547 -74.225015 0.016169 -61.400335 0.016128 -57.228948 0.300847 -117.339637 
0.8988797750000001 0.243303 -74.537829 0.016175 -61.948185 0.015931 -57.184187 0.300388 -117.411115 
0.8990048000000001 0.242416 -74.674336 0.016166 -61.988164 0.015968 -58.115410 0.299895 -117.381216 
0.8991298250000001 0.241452 -74.949392 0.016062 -63.199139 0.015938 -58.185412 0.300343 -117.520613 
