!
! C:\Users\rflab\Downloads\Lab5_KD_ZW\Q3\20.S2P
!
! Touchstone 1.1 file saved by VNA.EXE V1.65 (www.ke5fx.com/gpib/readme.htm)
! 11/18/2024 10:20:59 PM
!
!    Source: HEWLETT PACKARD,8753D,0,6.14
!  Min freq: 8.750000E+008 Hz
!  Max freq: 9.750200E+008 Hz
!    Points: 801
!    Params: S11 S21 S12 S22
!
!!!!!
# GHZ S MA R 50
0.8750000000000000 0.453570 -31.764080 0.041271 -177.409461 0.040208 -166.911063 0.349179 -112.036677 
0.8751250250000000 0.452563 -31.997805 0.041342 -177.662587 0.040240 -167.447922 0.349323 -112.108141 
0.8752500500000000 0.452379 -32.062534 0.041431 -178.272045 0.040365 -168.085826 0.349120 -112.132508 
0.8753750750000000 0.451094 -32.272454 0.041250 -178.688476 0.040236 -168.477003 0.348700 -112.122651 
0.8755001000000000 0.450181 -32.401041 0.041505 -178.954640 0.040511 -168.927609 0.348897 -112.228570 
0.8756251250000000 0.449031 -32.547346 0.041343 -179.595566 0.040150 -169.309286 0.348237 -112.386962 
0.8757501500000000 0.448445 -32.708633 0.041403 -179.986802 0.040300 -169.958561 0.347800 -112.383967 
0.8758751750000000 0.447064 -32.813013 0.041465 179.602027 0.040383 -170.339255 0.348041 -112.335051 
0.8760002000000000 0.446176 -32.968344 0.041547 179.105646 0.040354 -170.985560 0.347825 -112.420328 
0.8761252250000000 0.445116 -33.251533 0.041644 178.706160 0.040358 -171.361717 0.347238 -112.264280 
0.8762502500000000 0.443664 -33.202548 0.041517 178.280877 0.040495 -171.841274 0.346396 -112.495997 
0.8763752750000000 0.443177 -33.479963 0.041541 177.655341 0.040456 -172.250772 0.346282 -112.476546 
0.8765003000000000 0.442522 -33.687881 0.041675 177.274431 0.040692 -172.631811 0.346185 -112.477656 
0.8766253250000000 0.441181 -33.765906 0.041503 176.777955 0.040615 -173.260454 0.346117 -112.542530 
0.8767503500000000 0.440360 -33.820567 0.041723 176.296393 0.040655 -173.748566 0.345663 -112.612090 
0.8768753750000000 0.439108 -34.076611 0.041725 175.978952 0.040693 -174.075897 0.344643 -112.732259 
0.8770004000000000 0.438436 -34.167354 0.041629 175.559012 0.040587 -174.550095 0.345520 -112.594570 
0.8771254250000000 0.438016 -34.366558 0.041705 175.020269 0.040703 -175.123760 0.344369 -112.767899 
0.8772504500000000 0.436763 -34.537282 0.041792 174.584209 0.040669 -175.386542 0.344918 -112.762593 
0.8773754750000000 0.436471 -34.675637 0.041824 174.036949 0.040804 -176.156530 0.344029 -112.830207 
0.8775005000000000 0.434744 -34.823486 0.041824 173.758491 0.040954 -176.657201 0.344524 -112.790081 
0.8776255250000000 0.434390 -35.062256 0.041935 173.087681 0.040903 -177.118649 0.344185 -112.852383 
0.8777505500000000 0.432793 -35.210792 0.041879 172.752306 0.040987 -177.599626 0.343257 -112.917667 
0.8778755750000000 0.432149 -35.293330 0.042186 172.235882 0.040975 -178.036647 0.342939 -112.962266 
0.8780006000000000 0.430989 -35.370255 0.041952 172.000315 0.041018 -178.537141 0.343142 -113.042028 
0.8781256250000000 0.430320 -35.605699 0.041946 171.290681 0.041128 -178.937071 0.342604 -113.130232 
0.8782506500000000 0.429199 -35.833437 0.042114 170.718981 0.041020 -179.682966 0.342240 -113.039606 
0.8783756750000000 0.427844 -36.007541 0.042064 170.359994 0.041161 179.920349 0.342430 -112.970630 
0.8785007000000000 0.427668 -36.176471 0.042249 170.069489 0.041326 179.584826 0.341210 -113.051912 
0.8786257250000000 0.426556 -36.184091 0.042204 169.621968 0.041277 179.062720 0.341690 -113.201272 
0.8787507500000000 0.425800 -36.426802 0.042203 168.904882 0.041247 178.736087 0.341406 -113.271890 
0.8788757750000000 0.424336 -36.536947 0.042267 168.486736 0.041466 178.091550 0.341302 -113.296122 
0.8790008000000000 0.423540 -36.686184 0.042238 168.153714 0.041528 177.680998 0.340553 -113.328038 
0.8791258250000000 0.422543 -36.874863 0.042350 167.507291 0.041555 177.050653 0.340340 -113.270764 
0.8792508500000000 0.421871 -37.029050 0.042371 167.167380 0.041429 176.656001 0.340161 -113.356532 
0.8793758750000000 0.420188 -37.270221 0.042467 166.435609 0.041505 176.253181 0.339695 -113.485842 
0.8795009000000000 0.419420 -37.386848 0.042664 165.863730 0.041651 175.548163 0.339685 -113.430426 
0.8796259250000000 0.418914 -37.516040 0.042333 165.732092 0.041640 175.080955 0.339223 -113.509245 
0.8797509500000000 0.417101 -37.707507 0.042567 165.000441 0.041734 174.584626 0.338334 -113.552150 
0.8798759750000000 0.417133 -37.720013 0.042658 164.435710 0.041676 174.034227 0.338200 -113.590308 
0.8800010000000000 0.415568 -37.884393 0.042640 164.208092 0.041733 173.631463 0.338320 -113.598301 
0.8801260250000000 0.414677 -38.178419 0.042808 163.506148 0.041921 173.043449 0.338139 -113.656922 
0.8802510500000000 0.413765 -38.253586 0.042751 163.021870 0.041960 172.406564 0.338032 -113.693051 
0.8803760750000000 0.412546 -38.384454 0.042809 162.615365 0.041937 172.089535 0.337366 -113.680412 
0.8805011000000000 0.412241 -38.637618 0.042788 162.161919 0.042151 171.558971 0.337730 -113.743801 
0.8806261250000000 0.410662 -38.712999 0.042892 161.640788 0.042278 170.791795 0.336437 -113.681746 
0.8807511500000000 0.409336 -38.839933 0.042813 161.099299 0.042244 170.435610 0.336163 -113.872711 
0.8808761750000000 0.407816 -38.984573 0.042878 160.624427 0.042492 170.064126 0.336613 -113.878631 
0.8810012000000000 0.406806 -39.102506 0.043138 160.098056 0.042274 169.605205 0.335915 -113.982564 
0.8811262250000000 0.405870 -39.474605 0.043100 159.582544 0.042255 168.681446 0.335909 -113.954569 
0.8812512500000000 0.404741 -39.460697 0.043184 159.354218 0.042364 168.360717 0.335225 -114.063639 
0.8813762750000000 0.404544 -39.755772 0.043072 158.661742 0.042480 167.851523 0.334950 -114.124686 
0.8815013000000000 0.403298 -39.824161 0.043118 157.959966 0.042553 167.296821 0.335007 -113.903138 
0.8816263250000000 0.402524 -39.986891 0.043109 157.692537 0.042374 166.739396 0.333953 -114.178328 
0.8817513500000000 0.401974 -40.072628 0.043117 156.994096 0.042493 166.327408 0.333794 -114.156096 
0.8818763750000001 0.400130 -40.297947 0.043282 156.608457 0.042453 165.890090 0.333914 -114.227263 
0.8820014000000001 0.400105 -40.341059 0.043399 156.109352 0.042633 165.297274 0.333522 -114.154118 
0.8821264250000001 0.398857 -40.643611 0.043298 155.551868 0.042670 164.618188 0.333188 -114.179886 
0.8822514500000001 0.397140 -40.719966 0.043320 155.209883 0.042618 164.052848 0.333229 -114.234209 
0.8823764750000001 0.396403 -40.805834 0.043448 154.802889 0.042689 163.637912 0.332732 -114.376541 
0.8825015000000001 0.395297 -41.076278 0.043361 154.133783 0.042816 163.176323 0.332631 -114.401761 
0.8826265250000001 0.393927 -41.256070 0.043366 153.564554 0.042907 162.536427 0.332969 -114.415712 
0.8827515500000001 0.393218 -41.394250 0.043470 153.041435 0.042854 162.040039 0.333293 -114.373177 
0.8828765750000001 0.392429 -41.442236 0.043396 152.575614 0.042762 161.830938 0.332316 -114.536276 
0.8830016000000001 0.391137 -41.612567 0.043386 152.213777 0.042801 161.018423 0.331823 -114.476661 
0.8831266250000001 0.390638 -41.755645 0.043650 151.559186 0.042859 160.596596 0.332192 -114.413031 
0.8832516500000001 0.389420 -41.918800 0.043609 151.081941 0.042977 159.841577 0.331089 -114.592565 
0.8833766749999999 0.387924 -42.023392 0.043518 150.627332 0.043113 159.367414 0.331045 -114.537936 
0.8835017000000000 0.387024 -42.357104 0.043580 150.209090 0.042927 159.063746 0.330326 -114.583273 
0.8836267250000000 0.385613 -42.450150 0.043725 149.725931 0.043130 158.114373 0.330557 -114.733771 
0.8837517500000000 0.385619 -42.615449 0.043571 149.121408 0.043076 157.899441 0.330803 -114.586127 
0.8838767750000000 0.384463 -42.820696 0.043621 148.568771 0.043126 157.452259 0.330495 -114.697902 
0.8840018000000000 0.382775 -42.967855 0.043700 148.227364 0.043150 156.770152 0.329715 -114.707735 
0.8841268250000000 0.382480 -43.030971 0.043741 147.327219 0.043075 156.389653 0.329589 -114.799594 
0.8842518500000000 0.379971 -43.198653 0.043845 147.073831 0.043332 155.608857 0.328871 -114.769576 
0.8843768750000000 0.379492 -43.380537 0.043727 146.348745 0.043153 155.060363 0.328670 -114.744668 
0.8845019000000000 0.377929 -43.617664 0.043752 145.906736 0.043340 154.674329 0.329602 -114.880373 
0.8846269250000000 0.377397 -43.781199 0.043801 145.327259 0.043352 153.979475 0.328701 -114.882887 
0.8847519500000000 0.376037 -43.954368 0.043755 145.128093 0.043409 153.547539 0.328662 -114.868401 
0.8848769750000000 0.375382 -44.021724 0.043934 144.331618 0.043353 152.977253 0.327690 -114.882471 
0.8850020000000000 0.374634 -44.155098 0.043922 143.801407 0.043307 152.528703 0.327124 -114.922601 
0.8851270250000000 0.372988 -44.220980 0.043806 143.634048 0.043384 152.069470 0.326950 -114.983932 
0.8852520500000000 0.371843 -44.369888 0.043853 142.999528 0.043443 151.477077 0.326794 -115.114839 
0.8853770750000000 0.371041 -44.603460 0.043875 142.432174 0.043571 150.853065 0.326927 -115.139350 
0.8855021000000000 0.371142 -44.833431 0.043805 141.871642 0.043462 150.406388 0.327447 -115.232388 
0.8856271250000000 0.368454 -44.988257 0.043813 141.236569 0.043520 149.864847 0.325782 -115.127139 
0.8857521500000000 0.368681 -45.097252 0.043984 140.770559 0.043501 149.335246 0.326171 -115.172021 
0.8858771750000000 0.366653 -45.148376 0.043939 140.332952 0.043460 148.854264 0.325969 -115.259934 
0.8860022000000000 0.365540 -45.422802 0.043906 139.995885 0.043599 148.366064 0.325767 -115.134273 
0.8861272250000000 0.364808 -45.638876 0.043955 139.367694 0.043496 147.847344 0.325494 -115.233999 
0.8862522500000000 0.363216 -45.706342 0.043886 138.878491 0.043495 147.190797 0.324742 -115.356166 
0.8863772750000000 0.362571 -45.855961 0.043960 138.186846 0.043501 146.965599 0.325219 -115.357934 
0.8865023000000000 0.360771 -46.077888 0.044119 137.889434 0.043657 146.212040 0.324200 -115.431351 
0.8866273250000000 0.361012 -46.195340 0.044038 137.241373 0.043722 145.683924 0.324126 -115.491403 
0.8867523500000000 0.359147 -46.210157 0.043957 136.789910 0.043683 145.303107 0.324336 -115.443881 
0.8868773750000000 0.358568 -46.525983 0.043956 136.220147 0.043664 144.655510 0.323466 -115.409419 
0.8870024000000000 0.357298 -46.477759 0.044118 135.944128 0.043693 144.141618 0.323210 -115.502894 
0.8871274250000000 0.356193 -46.761887 0.044115 135.472954 0.043688 143.755973 0.323507 -115.537703 
0.8872524500000000 0.354278 -47.008854 0.044022 134.992978 0.043804 143.110142 0.323388 -115.631654 
0.8873774750000000 0.354104 -47.053505 0.044162 134.231815 0.043774 142.673737 0.322178 -115.584438 
0.8875025000000000 0.352687 -47.316115 0.044112 134.080275 0.043708 142.118437 0.321857 -115.515438 
0.8876275250000000 0.350655 -47.518352 0.044105 133.543861 0.043768 141.703239 0.322504 -115.604841 
0.8877525500000000 0.350235 -47.600879 0.043949 132.933573 0.043804 141.140311 0.321660 -115.580435 
0.8878775750000000 0.348479 -47.615766 0.044148 132.438371 0.043931 140.584918 0.320997 -115.836655 
0.8880026000000000 0.347641 -47.819682 0.044185 132.030784 0.043841 140.067086 0.321825 -115.717019 
0.8881276250000000 0.346539 -47.994780 0.044102 131.651448 0.043825 139.527450 0.320886 -115.682857 
0.8882526500000000 0.345262 -48.188775 0.044247 131.002610 0.043861 138.965493 0.321115 -115.717595 
0.8883776750000000 0.344456 -48.201641 0.044182 130.675879 0.043975 138.639908 0.320978 -115.729407 
0.8885027000000000 0.343523 -48.410428 0.044157 130.129104 0.043744 138.199035 0.320288 -115.825274 
0.8886277250000000 0.341105 -48.567173 0.044218 129.490082 0.043891 137.588969 0.319821 -115.865763 
0.8887527500000000 0.340274 -48.714253 0.044163 129.138634 0.043938 136.971906 0.320582 -115.908893 
0.8888777750000000 0.340119 -48.759678 0.044362 128.611338 0.044067 136.485437 0.319412 -115.852618 
0.8890028000000000 0.338056 -48.982425 0.044302 128.009120 0.044123 136.098173 0.319651 -115.965694 
0.8891278250000000 0.337365 -49.192674 0.044284 127.689707 0.044032 135.558095 0.319229 -115.947764 
0.8892528500000000 0.335715 -49.204088 0.044219 127.045863 0.044023 134.945583 0.318096 -115.943101 
0.8893778750000000 0.334805 -49.324786 0.044383 126.616279 0.044064 134.307265 0.319470 -116.024093 
0.8895029000000000 0.334215 -49.712796 0.044277 126.190146 0.044203 133.924813 0.318553 -116.074090 
0.8896279250000000 0.332692 -49.831388 0.044237 125.824861 0.044132 133.537749 0.318336 -116.056561 
0.8897529500000000 0.330741 -49.826207 0.044356 125.344634 0.044314 132.992493 0.318458 -116.064127 
0.8898779750000000 0.330098 -50.057436 0.044418 124.837225 0.044296 132.296759 0.317293 -116.185509 
0.8900030000000000 0.328859 -50.236982 0.044279 124.382812 0.044262 132.243966 0.317632 -116.247467 
0.8901280250000000 0.327695 -50.352239 0.044445 124.058324 0.044336 131.583590 0.317035 -116.153145 
0.8902530500000000 0.326749 -50.405798 0.044468 123.426289 0.044378 130.930644 0.317305 -116.215097 
0.8903780750000000 0.325248 -50.633246 0.044491 122.864365 0.044594 130.387316 0.316280 -116.275769 
0.8905031000000000 0.324003 -50.791099 0.044513 122.379868 0.044428 129.994851 0.317030 -116.301129 
0.8906281250000000 0.322863 -50.919405 0.044654 121.852328 0.044427 129.163062 0.315636 -116.401537 
0.8907531500000000 0.321448 -51.022901 0.044707 121.313801 0.044615 128.860263 0.315543 -116.280063 
0.8908781750000000 0.320147 -51.259162 0.044585 120.973842 0.044560 128.430378 0.315353 -116.235259 
0.8910032000000000 0.319101 -51.252469 0.044801 120.731582 0.044628 127.856299 0.315065 -116.279623 
0.8911282250000000 0.317861 -51.492250 0.044677 119.997614 0.044521 127.214043 0.314888 -116.264571 
0.8912532500000000 0.316834 -51.619444 0.044719 119.494211 0.044546 126.894433 0.314926 -116.403659 
0.8913782750000000 0.315078 -51.777008 0.044733 119.223076 0.044781 126.426235 0.314298 -116.448110 
0.8915033000000000 0.314237 -51.918101 0.044749 118.706155 0.044777 125.948782 0.314352 -116.530229 
0.8916283250000000 0.313303 -52.050135 0.045037 118.084478 0.044815 125.269508 0.314474 -116.550140 
0.8917533500000000 0.311759 -52.177154 0.044899 117.660148 0.044716 124.735337 0.314311 -116.589924 
0.8918783750000000 0.310752 -52.278740 0.045020 117.218582 0.044914 124.165162 0.314229 -116.609851 
0.8920034000000000 0.308666 -52.469568 0.044796 116.714522 0.045019 123.802497 0.313233 -116.657415 
0.8921284250000000 0.307598 -52.574731 0.045282 116.286591 0.044997 123.197663 0.313819 -116.572530 
0.8922534500000000 0.306565 -52.832369 0.045158 115.838841 0.044904 122.790942 0.313301 -116.595001 
0.8923784750000000 0.305049 -52.932924 0.045322 115.281717 0.044950 122.145060 0.313207 -116.747308 
0.8925035000000000 0.303791 -53.013255 0.045270 114.889289 0.045033 121.638822 0.312429 -116.750263 
0.8926285250000000 0.302112 -53.142828 0.045313 114.190469 0.045101 121.148264 0.311911 -116.798201 
0.8927535500000000 0.300910 -53.268979 0.045454 113.897551 0.045165 120.580742 0.312210 -116.695290 
0.8928785750000000 0.299311 -53.582852 0.045243 113.206838 0.045095 120.262193 0.311952 -116.800676 
0.8930036000000000 0.298715 -53.574962 0.045467 112.894977 0.045154 119.556964 0.312062 -116.815636 
0.8931286250000000 0.297024 -53.754704 0.045517 112.319930 0.045385 119.101849 0.311434 -116.823661 
0.8932536500000000 0.295485 -53.851471 0.045475 111.980804 0.045406 118.485612 0.310850 -116.922273 
0.8933786750000000 0.294143 -54.068776 0.045530 111.485396 0.045323 118.036039 0.310759 -117.025532 
0.8935037000000000 0.292633 -54.212272 0.045636 110.819505 0.045456 117.651050 0.310839 -116.980131 
0.8936287250000000 0.291585 -54.344503 0.045706 110.553241 0.045542 116.965333 0.310781 -116.884591 
0.8937537500000000 0.290501 -54.343030 0.045827 109.899578 0.045418 116.608092 0.310412 -116.887504 
0.8938787750000000 0.289114 -54.566024 0.045826 109.514904 0.045640 115.801529 0.310376 -117.010991 
0.8940038000000000 0.287602 -54.769406 0.045910 108.953594 0.045499 115.359768 0.310292 -116.968277 
0.8941288250000000 0.286117 -54.862285 0.045968 108.531930 0.045731 114.839905 0.308845 -116.958758 
0.8942538500000000 0.284921 -54.948139 0.045803 107.817758 0.045761 114.320626 0.308750 -117.123514 
0.8943788750000000 0.283252 -55.155910 0.046002 107.292234 0.045690 113.899593 0.308504 -117.121434 
0.8945039000000000 0.282117 -55.297402 0.046111 107.049064 0.045791 113.073864 0.309907 -117.052033 
0.8946289250000000 0.280488 -55.389220 0.046190 106.438407 0.045777 112.739043 0.308216 -117.097844 
0.8947539500000000 0.279198 -55.563888 0.046142 105.952877 0.045793 111.977345 0.308285 -117.222016 
0.8948789750000000 0.277838 -55.745275 0.046197 105.486246 0.045949 111.637559 0.308516 -117.317847 
0.8950040000000000 0.276658 -55.800712 0.046317 104.897527 0.045988 111.003563 0.307382 -117.292640 
0.8951290250000000 0.275014 -55.994288 0.046221 104.511058 0.045861 110.511419 0.308336 -117.376630 
0.8952540500000000 0.273530 -56.158342 0.046546 103.782839 0.046144 109.810106 0.307303 -117.233029 
0.8953790750000000 0.272598 -56.289477 0.046555 103.234602 0.046275 109.490997 0.307847 -117.305517 
0.8955041000000000 0.271155 -56.438705 0.046466 102.632883 0.046228 108.686129 0.307622 -117.410286 
0.8956291250000000 0.269451 -56.509718 0.046800 102.206639 0.046289 108.107948 0.306892 -117.493846 
0.8957541500000000 0.268177 -56.536888 0.046639 101.657798 0.046393 107.882965 0.306800 -117.448244 
0.8958791750000000 0.266289 -56.795282 0.046749 101.017437 0.046291 107.220233 0.306882 -117.453101 
0.8960042000000000 0.265161 -56.860435 0.046785 100.816095 0.046281 106.611946 0.305686 -117.437385 
0.8961292250000000 0.263749 -57.051858 0.046814 100.108995 0.046447 106.087602 0.306370 -117.454585 
0.8962542500000000 0.262404 -57.131440 0.046988 99.547205 0.046490 105.513043 0.306631 -117.683383 
0.8963792750000000 0.261063 -57.315878 0.046999 98.979517 0.046519 105.028262 0.305905 -117.590162 
0.8965043000000000 0.259441 -57.406316 0.047196 98.613776 0.046605 104.255773 0.305422 -117.737747 
0.8966293250000000 0.257996 -57.486698 0.047028 98.217191 0.046599 103.750135 0.305889 -117.701446 
0.8967543500000000 0.256788 -57.682091 0.047169 97.663846 0.046613 103.299852 0.305450 -117.618578 
0.8968793750000000 0.255089 -57.740670 0.047278 97.123869 0.046492 102.719769 0.304378 -117.678804 
0.8970044000000000 0.253619 -57.840783 0.047375 96.565639 0.046608 102.036951 0.305290 -117.721588 
0.8971294250000000 0.252028 -58.051611 0.047345 96.054193 0.046697 101.502238 0.304873 -117.714201 
0.8972544500000000 0.250576 -58.148826 0.047431 95.424932 0.046596 101.123192 0.304199 -117.787452 
0.8973794750000000 0.249508 -58.231587 0.047350 94.915058 0.046734 100.499568 0.304172 -117.851842 
0.8975045000000000 0.247769 -58.405676 0.047518 94.230958 0.046796 99.994451 0.303733 -117.830523 
0.8976295250000000 0.246389 -58.514418 0.047531 93.704264 0.046792 99.386298 0.304062 -117.849743 
0.8977545500000000 0.244851 -58.658109 0.047581 93.532352 0.046878 98.745631 0.303867 -117.817090 
0.8978795750000000 0.243428 -58.731658 0.047513 92.484858 0.046926 98.183458 0.303625 -117.841280 
0.8980046000000000 0.242032 -58.788758 0.047681 92.079275 0.046904 97.641448 0.303477 -117.807105 
0.8981296250000000 0.240711 -58.992965 0.047852 91.395510 0.046984 96.934317 0.302965 -118.024781 
0.8982546500000000 0.238727 -59.042212 0.047936 90.886875 0.046840 96.333234 0.301977 -118.036052 
0.8983796750000000 0.237665 -59.111627 0.047923 90.615717 0.047020 96.047083 0.302584 -117.876695 
0.8985047000000001 0.235998 -59.236366 0.047915 89.981752 0.047093 95.440662 0.301979 -117.950542 
0.8986297250000001 0.234778 -59.394834 0.047987 89.289451 0.047065 94.891294 0.302407 -118.035240 
0.8987547500000001 0.233090 -59.469792 0.048043 88.801160 0.047167 94.322828 0.302358 -118.122154 
0.8988797750000001 0.231016 -59.500308 0.048075 88.149314 0.047185 93.738430 0.301613 -118.023557 
