!
! C:\Users\rflab\Downloads\Lab5_KD_ZW\Q3\200.S2P
!
! Touchstone 1.1 file saved by VNA.EXE V1.65 (www.ke5fx.com/gpib/readme.htm)
! 11/18/2024 10:32:45 PM
!
!    Source: HEWLETT PACKARD,8753D,0,6.14
!  Min freq: 8.750000E+008 Hz
!  Max freq: 9.750200E+008 Hz
!    Points: 801
!    Params: S11 S21 S12 S22
!
!!!!!
# GHZ S MA R 50
0.8750000000000000 0.387692 -31.546192 0.017053 2.971708 0.016415 11.946423 0.348226 -112.170656 
0.8751250250000000 0.386821 -31.715740 0.017053 2.371807 0.016613 11.291860 0.348028 -112.303346 
0.8752500500000000 0.387751 -31.975741 0.017052 1.971070 0.016653 11.431560 0.347124 -112.097922 
0.8753750750000000 0.386083 -32.151801 0.017115 1.625270 0.016532 10.140461 0.347523 -112.179809 
0.8755001000000000 0.386031 -32.330671 0.017209 1.444866 0.016594 10.098969 0.346632 -112.272581 
0.8756251250000000 0.385671 -32.504233 0.017145 0.621486 0.016536 9.618223 0.346224 -112.267510 
0.8757501500000000 0.385003 -32.807678 0.017077 0.457578 0.016678 8.603176 0.346384 -112.305721 
0.8758751750000000 0.384323 -33.035787 0.017046 -0.387864 0.016551 8.806648 0.345631 -112.400775 
0.8760002000000000 0.384121 -33.281013 0.017000 -0.777869 0.016571 7.569584 0.345739 -112.497320 
0.8761252250000000 0.382797 -33.531708 0.017061 -1.204296 0.016448 7.415514 0.346026 -112.373819 
0.8762502500000000 0.382639 -33.788930 0.016860 -1.841131 0.016468 7.426681 0.344929 -112.569567 
0.8763752750000000 0.382764 -33.902923 0.016900 -2.114993 0.016409 6.775594 0.345025 -112.502532 
0.8765003000000000 0.381957 -34.222059 0.016989 -2.332518 0.016414 6.840518 0.344932 -112.465056 
0.8766253250000000 0.380368 -34.315455 0.017008 -3.053481 0.016448 5.840512 0.344499 -112.648757 
0.8767503500000000 0.380179 -34.493720 0.017052 -3.244530 0.016328 5.564076 0.343982 -112.640591 
0.8768753750000000 0.379642 -34.894102 0.016788 -3.354419 0.016317 5.574323 0.343697 -112.737655 
0.8770004000000000 0.378720 -34.904074 0.016948 -3.338818 0.016396 4.634105 0.343997 -112.672655 
0.8771254250000000 0.377797 -35.123408 0.016936 -4.550636 0.016432 4.070205 0.343458 -112.787471 
0.8772504500000000 0.377771 -35.466387 0.016888 -5.018376 0.016424 3.292208 0.343300 -112.737788 
0.8773754750000000 0.377271 -35.483526 0.016945 -5.341277 0.016466 3.147421 0.342155 -112.795981 
0.8775005000000000 0.376375 -35.703752 0.016980 -5.779757 0.016368 2.514505 0.341119 -112.858014 
0.8776255250000000 0.374957 -36.107430 0.016876 -6.215763 0.016452 1.876858 0.341902 -112.813817 
0.8777505500000000 0.374889 -36.271013 0.016913 -6.963128 0.016442 1.828106 0.341536 -112.984145 
0.8778755750000000 0.375322 -36.595961 0.016979 -7.393256 0.016369 1.629225 0.341102 -112.903779 
0.8780006000000000 0.374485 -36.615432 0.016792 -7.633564 0.016368 0.774482 0.340890 -113.069267 
0.8781256250000000 0.375004 -37.001842 0.016806 -8.122747 0.016360 0.484291 0.340575 -112.957924 
0.8782506500000000 0.372652 -37.036469 0.016840 -9.015305 0.016440 0.159555 0.339524 -113.027505 
0.8783756750000000 0.372007 -37.344630 0.016771 -9.056303 0.016277 -0.671430 0.339837 -112.993889 
0.8785007000000000 0.371471 -37.511479 0.016749 -9.663454 0.016370 -0.804485 0.339643 -113.114095 
0.8786257250000000 0.370690 -37.702464 0.016824 -9.870258 0.016402 -1.489295 0.339306 -113.216854 
0.8787507500000000 0.370597 -37.937671 0.016789 -10.327549 0.016403 -1.872419 0.339403 -113.333202 
0.8788757750000000 0.370062 -38.203406 0.016787 -10.715630 0.016445 -2.203492 0.339911 -113.285051 
0.8790008000000000 0.370225 -38.520776 0.016785 -11.310568 0.016373 -2.129742 0.338305 -113.306495 
0.8791258250000000 0.368341 -38.617551 0.016788 -11.564623 0.016360 -2.870245 0.338108 -113.281438 
0.8792508500000000 0.368380 -38.965959 0.016781 -12.104988 0.016279 -3.745306 0.337083 -113.322559 
0.8793758750000000 0.367194 -39.036110 0.016754 -12.612295 0.016333 -4.336608 0.339014 -113.350291 
0.8795009000000000 0.366530 -39.203313 0.016837 -12.828719 0.016327 -5.056866 0.337876 -113.281486 
0.8796259250000000 0.366215 -39.549418 0.016788 -13.773366 0.016329 -4.760586 0.337016 -113.400920 
0.8797509500000000 0.365651 -39.603835 0.016770 -13.737538 0.016356 -5.302709 0.336806 -113.501263 
0.8798759750000000 0.365055 -39.880694 0.016682 -14.342099 0.016364 -5.880370 0.336606 -113.357520 
0.8800010000000000 0.364944 -40.098496 0.016772 -14.727641 0.016257 -6.223643 0.336540 -113.436000 
0.8801260250000000 0.363706 -40.370027 0.016750 -15.054555 0.016385 -7.121706 0.335635 -113.576872 
0.8802510500000000 0.363429 -40.600252 0.016613 -15.502630 0.016360 -6.903792 0.335689 -113.624008 
0.8803760750000000 0.362991 -40.723032 0.016747 -16.223272 0.016289 -7.447895 0.335738 -113.643099 
0.8805011000000000 0.362861 -41.056276 0.016787 -16.733224 0.016297 -7.893970 0.335523 -113.676225 
0.8806261250000000 0.361364 -41.243960 0.016597 -16.896023 0.016409 -8.552995 0.334595 -113.717351 
0.8807511500000000 0.361134 -41.440544 0.016726 -17.291272 0.016375 -9.635675 0.334300 -113.745273 
0.8808761750000000 0.360174 -41.663175 0.016747 -18.005714 0.016173 -9.613408 0.334479 -113.646143 
0.8810012000000000 0.358965 -41.841671 0.016783 -18.465839 0.016318 -9.920886 0.333962 -113.782280 
0.8811262250000000 0.359110 -42.299737 0.016588 -18.658906 0.016311 -10.394736 0.333591 -113.936419 
0.8812512500000000 0.358350 -42.133368 0.016653 -19.089680 0.016234 -10.691401 0.333455 -113.883699 
0.8813762750000000 0.356940 -42.604034 0.016642 -19.901191 0.016273 -11.602967 0.332932 -113.848900 
0.8815013000000000 0.356194 -42.694553 0.016627 -20.517966 0.016303 -11.858796 0.332040 -113.813307 
0.8816263250000000 0.355725 -42.992366 0.016624 -20.834569 0.016334 -12.397096 0.332857 -113.923542 
0.8817513500000000 0.354564 -43.289325 0.016521 -21.389901 0.016354 -13.032180 0.332005 -113.890830 
0.8818763750000001 0.354208 -43.472677 0.016602 -21.294128 0.016249 -13.955503 0.331933 -113.953929 
0.8820014000000001 0.354150 -43.713400 0.016448 -21.771185 0.016393 -13.651435 0.331428 -113.952308 
0.8821264250000001 0.352903 -43.835006 0.016541 -22.820356 0.016222 -14.381814 0.331513 -114.101732 
0.8822514500000001 0.352483 -44.017805 0.016515 -22.841036 0.016239 -15.114352 0.330676 -114.010271 
0.8823764750000001 0.351106 -44.332672 0.016479 -23.542995 0.016303 -15.498810 0.330773 -114.112768 
0.8825015000000001 0.350967 -44.483902 0.016514 -24.355233 0.016193 -15.392439 0.330381 -114.206985 
0.8826265250000001 0.350708 -44.774375 0.016645 -24.277138 0.016111 -16.273359 0.330630 -114.083301 
0.8827515500000001 0.349745 -44.977017 0.016488 -24.821890 0.016290 -16.515799 0.330626 -114.043037 
0.8828765750000001 0.349347 -45.145104 0.016354 -24.711898 0.016271 -16.581520 0.330282 -114.220496 
0.8830016000000001 0.348773 -45.443128 0.016409 -25.358686 0.016085 -17.672194 0.330137 -114.255029 
0.8831266250000001 0.347865 -45.598911 0.016499 -26.129598 0.016193 -18.156440 0.329960 -114.315461 
0.8832516500000001 0.346847 -45.835949 0.016333 -26.478271 0.016027 -18.624709 0.329300 -114.396490 
0.8833766749999999 0.346991 -46.086844 0.016237 -26.923241 0.016054 -19.142111 0.328732 -114.371314 
0.8835017000000000 0.346226 -46.094607 0.016347 -27.526275 0.016090 -19.763475 0.328810 -114.388501 
0.8836267250000000 0.344720 -46.384589 0.016337 -27.688436 0.016081 -20.481276 0.328542 -114.491533 
0.8837517500000000 0.344594 -46.675823 0.016176 -28.725849 0.016174 -20.589266 0.327813 -114.326973 
0.8838767750000000 0.344078 -47.019877 0.016278 -28.456943 0.015995 -21.159409 0.328257 -114.484957 
0.8840018000000000 0.343794 -47.201498 0.016293 -29.411289 0.016078 -21.248575 0.328138 -114.465129 
0.8841268250000000 0.343397 -47.517549 0.016247 -29.676883 0.016123 -22.106015 0.327295 -114.514695 
0.8842518500000000 0.342081 -47.603212 0.016265 -30.230328 0.016020 -22.439872 0.326740 -114.623764 
0.8843768750000000 0.341848 -47.699128 0.016144 -30.508102 0.015941 -23.107672 0.326762 -114.516144 
0.8845019000000000 0.340297 -48.075235 0.016299 -30.811971 0.015995 -23.266328 0.327125 -114.475368 
0.8846269250000000 0.340230 -48.265099 0.016214 -31.281629 0.015936 -23.694759 0.326203 -114.649354 
0.8847519500000000 0.339562 -48.515922 0.016187 -31.734883 0.015962 -24.110214 0.326061 -114.607717 
0.8848769750000000 0.338674 -48.600135 0.016053 -32.330476 0.016042 -24.947137 0.326071 -114.624590 
0.8850020000000000 0.337771 -48.947265 0.015999 -32.759844 0.015967 -25.360500 0.325541 -114.832918 
0.8851270250000000 0.337302 -49.094233 0.016077 -33.228172 0.015924 -25.457009 0.324742 -114.720233 
0.8852520500000000 0.336071 -49.420990 0.016043 -33.524754 0.015849 -26.167260 0.324846 -114.747319 
0.8853770750000000 0.335837 -49.640133 0.016081 -34.203681 0.015965 -26.816084 0.325015 -114.875851 
0.8855021000000000 0.334915 -49.858520 0.015964 -34.295751 0.015926 -27.105146 0.324811 -114.874778 
0.8856271250000000 0.333840 -50.045222 0.015972 -34.761372 0.015900 -27.912999 0.323872 -114.773259 
0.8857521500000000 0.334491 -50.295159 0.016027 -35.403720 0.015818 -27.859739 0.324205 -114.823355 
0.8858771750000000 0.332624 -50.448164 0.016049 -36.107216 0.015804 -28.513603 0.323599 -114.938552 
0.8860022000000000 0.331507 -50.732672 0.015944 -36.462774 0.015890 -28.941704 0.323347 -114.893737 
0.8861272250000000 0.331305 -51.030682 0.015944 -36.597085 0.015786 -29.095278 0.323223 -114.897936 
0.8862522500000000 0.330547 -51.104753 0.015951 -36.772610 0.015816 -29.699892 0.322974 -114.918452 
0.8863772750000000 0.329786 -51.328191 0.015991 -37.305251 0.015729 -30.335212 0.322546 -115.127261 
0.8865023000000000 0.329342 -51.497322 0.015876 -37.634691 0.015747 -30.813187 0.322234 -115.021481 
0.8866273250000000 0.328707 -51.782569 0.015758 -38.438862 0.015741 -31.043532 0.322352 -115.053591 
0.8867523500000000 0.327632 -52.034920 0.015875 -38.823224 0.015777 -31.386064 0.322059 -115.095942 
0.8868773750000000 0.327194 -52.347182 0.015830 -39.306184 0.015749 -31.696824 0.321989 -115.017870 
0.8870024000000000 0.326753 -52.368596 0.015785 -39.215857 0.015694 -32.409501 0.321419 -115.083280 
0.8871274250000000 0.326336 -52.639834 0.015795 -39.845206 0.015736 -32.624863 0.321183 -115.211263 
0.8872524500000000 0.325046 -52.871898 0.015603 -40.355554 0.015564 -33.351201 0.320673 -115.248138 
0.8873774750000000 0.324082 -53.043777 0.015688 -40.732952 0.015655 -33.566150 0.320410 -115.173822 
0.8875025000000000 0.323661 -53.409405 0.015729 -41.241313 0.015536 -33.900775 0.320568 -115.323349 
0.8876275250000000 0.322581 -53.590838 0.015619 -41.836925 0.015529 -34.265855 0.320314 -115.278413 
0.8877525500000000 0.322114 -53.809199 0.015577 -41.982384 0.015531 -34.644418 0.319944 -115.291583 
0.8878775750000000 0.320497 -54.080525 0.015516 -42.698555 0.015514 -35.148707 0.319503 -115.328994 
0.8880026000000000 0.321285 -54.262721 0.015635 -42.884131 0.015493 -35.193696 0.319416 -115.372731 
0.8881276250000000 0.320159 -54.346456 0.015610 -43.169313 0.015445 -36.794194 0.318851 -115.414772 
0.8882526500000000 0.319355 -54.482058 0.015512 -43.525339 0.015482 -36.536727 0.318770 -115.409582 
0.8883776750000000 0.318555 -54.817089 0.015507 -43.852511 0.015494 -36.764805 0.318838 -115.537385 
0.8885027000000000 0.317126 -55.059695 0.015646 -44.373974 0.015470 -37.940184 0.318122 -115.471145 
0.8886277250000000 0.316648 -55.207937 0.015503 -44.890348 0.015406 -38.095076 0.317809 -115.455305 
0.8887527500000000 0.316298 -55.459736 0.015589 -45.553950 0.015382 -38.217084 0.317972 -115.465714 
0.8888777750000000 0.314535 -55.751017 0.015368 -45.763060 0.015485 -38.516240 0.318026 -115.473274 
0.8890028000000000 0.314785 -55.926322 0.015570 -46.109360 0.015481 -38.764259 0.317407 -115.520428 
0.8891278250000000 0.314090 -56.129292 0.015454 -46.087600 0.015367 -39.723857 0.317584 -115.523464 
0.8892528500000000 0.313005 -56.375780 0.015340 -46.862871 0.015519 -39.769284 0.316642 -115.525310 
0.8893778750000000 0.312107 -56.568639 0.015386 -47.435347 0.015482 -40.151485 0.316270 -115.716959 
0.8895029000000000 0.312043 -56.805710 0.015248 -47.103653 0.015329 -40.251001 0.316973 -115.637426 
0.8896279250000000 0.311179 -57.070482 0.015218 -47.800326 0.015312 -41.036547 0.316848 -115.654338 
0.8897529500000000 0.309925 -57.262914 0.015339 -47.852595 0.015202 -41.629198 0.316942 -115.676818 
0.8898779750000000 0.308844 -57.460205 0.015338 -48.970585 0.015274 -41.443528 0.315790 -115.740445 
0.8900030000000000 0.308387 -57.715154 0.015275 -48.856467 0.015281 -41.863079 0.316043 -115.822757 
0.8901280250000000 0.307327 -57.879421 0.015245 -48.958050 0.015340 -42.450271 0.315167 -115.862875 
0.8902530500000000 0.306848 -58.092163 0.015285 -50.009058 0.015233 -43.136616 0.315386 -115.855920 
0.8903780750000000 0.305861 -58.373963 0.015247 -50.170102 0.015288 -44.039547 0.314833 -115.966460 
0.8905031000000000 0.305037 -58.571250 0.015201 -50.605887 0.015174 -44.082010 0.315015 -115.882402 
0.8906281250000000 0.304330 -58.806163 0.015190 -51.136824 0.015344 -44.308761 0.314319 -115.888341 
0.8907531500000000 0.302964 -59.010504 0.015201 -51.099069 0.015293 -44.532588 0.313838 -115.937153 
0.8908781750000000 0.302238 -59.325452 0.015150 -51.119663 0.015216 -44.892087 0.314011 -116.027156 
0.8910032000000000 0.301625 -59.374269 0.015041 -51.851950 0.015102 -46.093773 0.313926 -115.842664 
0.8911282250000000 0.300580 -59.712153 0.015211 -51.814833 0.015090 -45.343109 0.313863 -115.972089 
0.8912532500000000 0.299919 -59.871138 0.015070 -52.482151 0.015068 -46.731045 0.313108 -116.058064 
0.8913782750000000 0.298634 -60.110226 0.015083 -52.730139 0.015157 -46.544999 0.312594 -115.967165 
0.8915033000000000 0.298181 -60.398040 0.015067 -53.110153 0.015179 -47.574260 0.312952 -116.202745 
0.8916283250000000 0.297172 -60.544488 0.015109 -53.831697 0.015086 -46.930175 0.312477 -116.139625 
0.8917533500000000 0.296447 -60.793578 0.015104 -54.221978 0.015140 -47.817202 0.312592 -116.004689 
0.8918783750000000 0.295958 -60.987580 0.015044 -54.050872 0.015068 -47.690834 0.312735 -116.159977 
0.8920034000000000 0.294509 -61.289088 0.014984 -54.421829 0.015146 -48.481805 0.311902 -116.191493 
0.8921284250000000 0.293732 -61.429926 0.015030 -55.371190 0.015180 -48.926655 0.311686 -116.110948 
0.8922534500000000 0.293105 -61.668540 0.015077 -55.864145 0.014978 -49.587435 0.311436 -116.246167 
0.8923784750000000 0.292137 -61.939824 0.015081 -55.856202 0.015050 -50.031947 0.310972 -116.238152 
0.8925035000000000 0.291114 -62.094461 0.015099 -56.549822 0.015209 -50.482854 0.311637 -116.384393 
0.8926285250000000 0.290033 -62.376662 0.014997 -56.421587 0.015116 -50.884056 0.310219 -116.325574 
0.8927535500000000 0.289035 -62.546181 0.015095 -57.089028 0.015151 -51.288374 0.310573 -116.356069 
0.8928785750000000 0.288089 -62.957232 0.015004 -57.342232 0.015055 -51.508255 0.310887 -116.333639 
0.8930036000000000 0.287438 -63.030962 0.015005 -57.912013 0.014988 -51.981600 0.310504 -116.406386 
0.8931286250000000 0.286517 -63.381728 0.014932 -57.630976 0.015023 -52.373524 0.309903 -116.461591 
0.8932536500000000 0.285289 -63.552814 0.014829 -58.157486 0.015041 -52.547031 0.310192 -116.315475 
0.8933786750000000 0.284148 -63.816091 0.015038 -58.392492 0.015102 -52.520426 0.309767 -116.411071 
0.8935037000000000 0.283337 -63.996584 0.014829 -59.080486 0.015021 -53.098822 0.310026 -116.418770 
0.8936287250000000 0.282581 -64.255463 0.014961 -59.817968 0.015098 -53.311411 0.309370 -116.479121 
0.8937537500000000 0.281525 -64.372443 0.014938 -59.622179 0.014955 -53.817358 0.309220 -116.524580 
0.8938787750000000 0.281187 -64.632240 0.015140 -60.127535 0.015069 -54.523013 0.308538 -116.473806 
0.8940038000000000 0.279564 -64.941353 0.015088 -60.526448 0.014956 -54.857730 0.308360 -116.509269 
0.8941288250000000 0.279097 -65.214361 0.015106 -60.967189 0.014914 -55.368451 0.308169 -116.590436 
0.8942538500000000 0.277685 -65.395284 0.014927 -60.686919 0.014882 -56.152104 0.307815 -116.674291 
0.8943788750000000 0.276900 -65.553434 0.015158 -61.246845 0.014919 -55.764429 0.307474 -116.712555 
0.8945039000000000 0.276006 -65.941670 0.014997 -62.097044 0.014956 -56.996953 0.307883 -116.623475 
0.8946289250000000 0.275054 -66.089797 0.014950 -62.011139 0.014980 -56.513785 0.307193 -116.621045 
0.8947539500000000 0.273778 -66.330937 0.014794 -62.590849 0.015032 -57.616628 0.306969 -116.708983 
0.8948789750000000 0.273195 -66.643830 0.014997 -62.530617 0.014864 -57.910842 0.307264 -116.780096 
0.8950040000000000 0.272334 -66.771906 0.014927 -63.623198 0.014856 -58.051546 0.306487 -116.827844 
0.8951290250000000 0.271336 -67.010834 0.014793 -63.912365 0.015117 -58.526047 0.307291 -116.802991 
0.8952540500000000 0.269983 -67.324837 0.015027 -64.231804 0.014851 -58.974715 0.306369 -116.752647 
0.8953790750000000 0.269485 -67.537107 0.015008 -64.508004 0.015015 -59.359531 0.306349 -116.783297 
0.8955041000000000 0.268324 -67.797432 0.014971 -64.123796 0.014997 -59.728613 0.306309 -116.819070 
0.8956291250000000 0.267313 -67.973885 0.014953 -65.435685 0.014924 -60.064838 0.305247 -116.894237 
0.8957541500000000 0.266223 -68.257730 0.014843 -65.534407 0.014899 -60.331998 0.305369 -116.882584 
0.8958791750000000 0.265126 -68.560479 0.014877 -65.508320 0.014967 -60.797163 0.305841 -116.924286 
0.8960042000000000 0.264317 -68.690573 0.014890 -66.166808 0.014881 -60.949674 0.304578 -116.900092 
0.8961292250000000 0.263335 -69.030896 0.015015 -67.027419 0.014785 -61.568578 0.305474 -116.959278 
0.8962542500000000 0.262501 -69.246315 0.015026 -66.974254 0.015042 -61.912560 0.304937 -117.013811 
0.8963792750000000 0.261382 -69.460790 0.014923 -67.698134 0.015002 -62.203458 0.305101 -117.030232 
0.8965043000000000 0.260465 -69.839944 0.014978 -67.505574 0.014943 -63.042469 0.303910 -117.096380 
0.8966293250000000 0.259108 -69.873621 0.014757 -67.739293 0.014902 -63.028267 0.304536 -117.055497 
0.8967543500000000 0.258355 -70.194113 0.015015 -68.689193 0.014911 -63.780733 0.303793 -117.072140 
0.8968793750000000 0.257527 -70.416276 0.014872 -68.837200 0.014845 -63.757581 0.303042 -117.193394 
0.8970044000000000 0.256300 -70.608211 0.014901 -69.159415 0.014907 -64.307054 0.303189 -117.133750 
0.8971294250000000 0.254957 -70.941523 0.014908 -69.513020 0.014804 -64.364314 0.303120 -117.127437 
0.8972544500000000 0.253905 -71.219890 0.014822 -69.727443 0.014887 -65.740119 0.302858 -117.195062 
0.8973794750000000 0.253685 -71.355800 0.014855 -70.334292 0.014886 -65.329724 0.303347 -117.368066 
0.8975045000000000 0.252130 -71.722960 0.014896 -71.206614 0.014819 -66.145345 0.302873 -117.326713 
0.8976295250000000 0.250946 -71.875726 0.015134 -70.806910 0.014848 -66.255353 0.303413 -117.342105 
0.8977545500000000 0.250215 -72.221376 0.014857 -71.349901 0.014782 -66.421847 0.302127 -117.386840 
0.8978795750000000 0.248974 -72.365695 0.014905 -72.129637 0.014722 -66.776547 0.302360 -117.302132 
0.8980046000000000 0.247844 -72.571277 0.014875 -72.293396 0.014694 -67.894748 0.302303 -117.268644 
0.8981296250000000 0.247004 -72.947487 0.014932 -72.531372 0.014843 -67.735794 0.302099 -117.383021 
0.8982546500000000 0.245972 -73.089332 0.014740 -72.944964 0.014697 -69.453088 0.301762 -117.435772 
0.8983796750000000 0.244867 -73.327767 0.014855 -73.257775 0.014730 -69.067962 0.301430 -117.377050 
0.8985047000000001 0.243809 -73.496537 0.014901 -73.391732 0.014917 -68.998524 0.301674 -117.447680 
0.8986297250000001 0.242790 -73.894345 0.014979 -74.339207 0.014738 -69.851867 0.300911 -117.457738 
0.8987547500000001 0.241959 -74.108199 0.014924 -74.777311 0.014781 -70.031102 0.300706 -117.533768 
0.8988797750000001 0.240276 -74.364483 0.014844 -75.101304 0.014614 -70.659316 0.300588 -117.515919 
0.8990048000000001 0.239416 -74.572253 0.014625 -74.795675 0.014687 -71.077971 0.300692 -117.604033 
