!
! C:\Users\rflab\Downloads\Lab5_KD_ZW\Q3\220.S2P
!
! Touchstone 1.1 file saved by VNA.EXE V1.65 (www.ke5fx.com/gpib/readme.htm)
! 11/18/2024 10:34:04 PM
!
!    Source: HEWLETT PACKARD,8753D,0,6.14
!  Min freq: 8.750000E+008 Hz
!  Max freq: 9.750200E+008 Hz
!    Points: 801
!    Params: S11 S21 S12 S22
!
!!!!!
# GHZ S MA R 50
0.8750000000000000 0.474983 -32.947784 0.014901 -16.616354 0.014618 -5.871266 0.348673 -111.627267 
0.8751250250000000 0.473045 -33.236931 0.014990 -16.765579 0.014551 -6.695579 0.349087 -111.648872 
0.8752500500000000 0.473282 -33.394959 0.014883 -17.104344 0.014559 -7.126877 0.348202 -111.663395 
0.8753750750000000 0.472133 -33.358293 0.014801 -17.980815 0.014638 -7.306517 0.347969 -111.743562 
0.8755001000000000 0.470983 -33.624166 0.014962 -17.822862 0.014601 -7.743762 0.347873 -111.825678 
0.8756251250000000 0.471050 -33.636533 0.014939 -18.756497 0.014545 -8.118943 0.348491 -111.930922 
0.8757501500000000 0.469071 -33.851349 0.014945 -18.926323 0.014582 -9.042174 0.347954 -111.966580 
0.8758751750000000 0.468039 -33.850672 0.014823 -19.147220 0.014578 -8.873833 0.347937 -111.973117 
0.8760002000000000 0.467925 -34.004095 0.014906 -20.438490 0.014530 -9.566186 0.347455 -111.950928 
0.8761252250000000 0.467639 -34.285326 0.014846 -20.327737 0.014436 -9.671405 0.346685 -112.013069 
0.8762502500000000 0.466337 -34.303635 0.014797 -20.931196 0.014493 -10.601587 0.346595 -112.057165 
0.8763752750000000 0.465407 -34.554965 0.014810 -21.038828 0.014398 -10.954906 0.346276 -111.980509 
0.8765003000000000 0.464382 -34.683243 0.014733 -21.727716 0.014562 -11.441659 0.345971 -112.017267 
0.8766253250000000 0.462702 -34.744511 0.014719 -22.152984 0.014639 -12.525165 0.345234 -112.187021 
0.8767503500000000 0.463142 -34.872320 0.014730 -22.588763 0.014592 -12.596633 0.344715 -112.244120 
0.8768753750000000 0.461383 -35.114963 0.014718 -23.056238 0.014523 -12.734892 0.344755 -112.246893 
0.8770004000000000 0.461292 -35.062669 0.014904 -23.185585 0.014501 -13.315169 0.344899 -112.171391 
0.8771254250000000 0.460055 -35.203438 0.014813 -24.195450 0.014443 -13.766483 0.343971 -112.316811 
0.8772504500000000 0.459070 -35.378939 0.014888 -24.343716 0.014413 -14.546554 0.344354 -112.378476 
0.8773754750000000 0.458128 -35.460256 0.014847 -24.811900 0.014510 -14.681075 0.343760 -112.485262 
0.8775005000000000 0.457061 -35.654418 0.014839 -25.351262 0.014480 -15.314028 0.343544 -112.384569 
0.8776255250000000 0.456022 -35.925465 0.014769 -25.995878 0.014576 -15.575676 0.343619 -112.494993 
0.8777505500000000 0.455247 -35.951123 0.014715 -26.533506 0.014519 -16.531620 0.343199 -112.551669 
0.8778755750000000 0.454386 -36.106022 0.014798 -26.518821 0.014555 -16.861770 0.342950 -112.397891 
0.8780006000000000 0.453278 -36.162799 0.014881 -27.428823 0.014425 -16.848730 0.342455 -112.531496 
0.8781256250000000 0.453258 -36.296242 0.014712 -27.955389 0.014595 -17.802720 0.342149 -112.608080 
0.8782506500000000 0.452289 -36.494511 0.014838 -28.283050 0.014501 -18.147777 0.341835 -112.574619 
0.8783756750000000 0.451270 -36.648268 0.014724 -28.427428 0.014479 -18.298898 0.341492 -112.609620 
0.8785007000000000 0.450661 -36.722848 0.014771 -28.688114 0.014511 -18.690969 0.340919 -112.605269 
0.8786257250000000 0.449783 -36.832971 0.014818 -29.681761 0.014432 -19.593980 0.340804 -112.718921 
0.8787507500000000 0.449331 -37.034503 0.014711 -29.889080 0.014436 -19.946889 0.340448 -112.721786 
0.8788757750000000 0.447360 -37.154055 0.014843 -30.927131 0.014416 -20.630130 0.340802 -112.863771 
0.8790008000000000 0.446703 -37.146645 0.014756 -30.718620 0.014552 -20.974430 0.339958 -112.817681 
0.8791258250000000 0.445879 -37.327941 0.014858 -31.389467 0.014602 -21.630463 0.340586 -112.856812 
0.8792508500000000 0.444091 -37.456966 0.014753 -31.500505 0.014359 -21.695418 0.340054 -112.961601 
0.8793758750000000 0.443633 -37.564379 0.014714 -32.073872 0.014568 -22.172644 0.339621 -112.986993 
0.8795009000000000 0.442948 -37.749825 0.014756 -32.660918 0.014500 -22.625075 0.338717 -112.917294 
0.8796259250000000 0.442378 -37.854532 0.014632 -33.491728 0.014452 -23.711428 0.338930 -113.081393 
0.8797509500000000 0.441031 -38.000688 0.014760 -34.193168 0.014518 -23.938420 0.338297 -113.093394 
0.8798759750000000 0.439365 -38.239029 0.014777 -33.819288 0.014535 -24.345334 0.338274 -113.005151 
0.8800010000000000 0.439764 -38.301822 0.014759 -34.143940 0.014586 -24.733538 0.337631 -113.158473 
0.8801260250000000 0.438256 -38.409321 0.014663 -35.423541 0.014553 -25.206520 0.338028 -113.315421 
0.8802510500000000 0.437998 -38.530440 0.014747 -35.512909 0.014541 -25.391935 0.337439 -113.279558 
0.8803760750000000 0.436964 -38.559192 0.014701 -35.839914 0.014594 -26.265333 0.337707 -113.214909 
0.8805011000000000 0.435399 -38.831658 0.014758 -36.533696 0.014579 -27.096412 0.336986 -113.244922 
0.8806261250000000 0.434966 -38.856941 0.014696 -37.309361 0.014534 -27.555427 0.336482 -113.321405 
0.8807511500000000 0.432774 -38.992339 0.014708 -37.535295 0.014654 -27.437239 0.336321 -113.270944 
0.8808761750000000 0.433101 -39.240834 0.014684 -37.540457 0.014627 -28.098861 0.336213 -113.346768 
0.8810012000000000 0.432310 -39.182827 0.014642 -38.435997 0.014521 -28.785248 0.336426 -113.625815 
0.8811262250000000 0.430253 -39.409072 0.014711 -38.960003 0.014548 -29.527781 0.336074 -113.396710 
0.8812512500000000 0.429449 -39.515725 0.014775 -39.635097 0.014373 -29.625105 0.335857 -113.520568 
0.8813762750000000 0.428965 -39.772946 0.014732 -39.905299 0.014584 -30.515877 0.335182 -113.673286 
0.8815013000000000 0.427573 -39.734101 0.014700 -40.707728 0.014468 -31.058971 0.335769 -113.538427 
0.8816263250000000 0.426642 -40.025174 0.014743 -40.824016 0.014471 -31.314732 0.334558 -113.703005 
0.8817513500000000 0.425388 -40.140297 0.014549 -41.005194 0.014439 -31.678647 0.335117 -113.569928 
0.8818763750000001 0.424058 -40.154284 0.014827 -41.669034 0.014600 -32.506649 0.334177 -113.697391 
0.8820014000000001 0.423990 -40.280792 0.014578 -41.792742 0.014520 -32.496451 0.334434 -113.706607 
0.8821264250000001 0.422976 -40.438083 0.014606 -42.859523 0.014511 -32.769947 0.333559 -113.755441 
0.8822514500000001 0.421309 -40.626051 0.014581 -43.370083 0.014513 -33.821124 0.333304 -113.694570 
0.8823764750000001 0.420536 -40.752151 0.014462 -43.355410 0.014466 -34.508819 0.332804 -113.720830 
0.8825015000000001 0.419374 -40.820171 0.014717 -43.201334 0.014473 -34.299508 0.333187 -113.766399 
0.8826265250000001 0.418327 -41.002299 0.014614 -44.348296 0.014376 -35.513605 0.332673 -113.747960 
0.8827515500000001 0.416473 -41.140706 0.014640 -44.725510 0.014389 -35.286945 0.332252 -113.739660 
0.8828765750000001 0.416235 -41.253106 0.014635 -45.545197 0.014460 -35.758852 0.332228 -113.925617 
0.8830016000000001 0.415917 -41.285982 0.014680 -46.085739 0.014462 -36.544214 0.332033 -114.096164 
0.8831266250000001 0.414178 -41.520121 0.014554 -46.581070 0.014550 -37.252955 0.332045 -113.997247 
0.8832516500000001 0.413926 -41.576357 0.014612 -46.953151 0.014375 -37.506598 0.331650 -114.154671 
0.8833766749999999 0.412973 -41.707907 0.014503 -47.075836 0.014485 -37.937526 0.331023 -114.041335 
0.8835017000000000 0.411632 -41.900225 0.014443 -47.780511 0.014395 -38.737766 0.331153 -114.065959 
0.8836267250000000 0.409598 -42.078284 0.014560 -48.209855 0.014462 -39.247807 0.329624 -114.289419 
0.8837517500000000 0.410289 -42.140531 0.014575 -48.814971 0.014268 -39.947029 0.330466 -114.136546 
0.8838767750000000 0.407642 -42.428627 0.014586 -49.242273 0.014348 -40.044268 0.330290 -114.185018 
0.8840018000000000 0.406847 -42.414480 0.014436 -49.646061 0.014456 -40.635107 0.330352 -114.273110 
0.8841268250000000 0.406339 -42.590935 0.014527 -50.868202 0.014378 -41.081542 0.329990 -114.301432 
0.8842518500000000 0.404453 -42.728080 0.014404 -50.570598 0.014486 -41.856430 0.329181 -114.376702 
0.8843768750000000 0.403893 -42.760166 0.014526 -51.348702 0.014273 -42.245871 0.328914 -114.351120 
0.8845019000000000 0.403521 -42.942065 0.014587 -51.695611 0.014420 -42.559565 0.329439 -114.385528 
0.8846269250000000 0.401278 -43.064676 0.014487 -52.433816 0.014213 -43.722248 0.328628 -114.344430 
0.8847519500000000 0.400432 -43.177981 0.014350 -52.734849 0.014346 -43.274733 0.329171 -114.424175 
0.8848769750000000 0.399925 -43.381342 0.014441 -53.410104 0.014231 -44.140683 0.328042 -114.531306 
0.8850020000000000 0.398383 -43.485306 0.014421 -53.581382 0.014227 -44.937523 0.328133 -114.553319 
0.8851270250000000 0.397472 -43.573619 0.014426 -54.131642 0.014236 -44.948431 0.327820 -114.549019 
0.8852520500000000 0.396704 -43.578654 0.014370 -54.490385 0.014238 -45.500687 0.327892 -114.601949 
0.8853770750000000 0.395697 -43.886010 0.014253 -55.062634 0.014355 -46.020137 0.327608 -114.519044 
0.8855021000000000 0.395581 -43.865360 0.014329 -55.662638 0.014168 -46.738856 0.327519 -114.766932 
0.8856271250000000 0.393065 -44.051585 0.014328 -56.174020 0.014221 -47.161817 0.326258 -114.644886 
0.8857521500000000 0.392091 -44.173798 0.014326 -56.323166 0.014215 -47.693219 0.326987 -114.692233 
0.8858771750000000 0.391376 -44.203874 0.014233 -57.671914 0.014287 -48.123660 0.326251 -114.834282 
0.8860022000000000 0.390259 -44.410711 0.014255 -57.696380 0.014168 -48.511859 0.325669 -114.727896 
0.8861272250000000 0.387907 -44.580855 0.014186 -57.999710 0.014301 -48.793414 0.325533 -114.880934 
0.8862522500000000 0.387493 -44.666563 0.014272 -58.873066 0.014245 -49.463609 0.325494 -114.789397 
0.8863772750000000 0.387232 -44.733393 0.014246 -58.258685 0.013934 -49.806820 0.325524 -114.775148 
0.8865023000000000 0.386355 -44.884787 0.014132 -59.172185 0.014089 -50.396786 0.325082 -114.888213 
0.8866273250000000 0.385135 -45.072237 0.014173 -59.812806 0.014213 -50.830151 0.324757 -114.867278 
0.8867523500000000 0.383149 -45.027429 0.014109 -59.991392 0.014205 -51.682034 0.324972 -114.808205 
0.8868773750000000 0.383458 -45.336946 0.014033 -60.971113 0.014009 -52.074544 0.324805 -114.910870 
0.8870024000000000 0.382210 -45.428614 0.014333 -61.327170 0.013842 -52.442830 0.324266 -114.949142 
0.8871274250000000 0.380426 -45.541141 0.014042 -61.219047 0.014152 -52.732037 0.323654 -115.023430 
0.8872524500000000 0.379175 -45.704341 0.014094 -62.591406 0.013897 -53.363652 0.323690 -115.151662 
0.8873774750000000 0.378046 -45.750601 0.014134 -62.536742 0.014007 -54.078885 0.323375 -115.058383 
0.8875025000000000 0.376613 -45.774792 0.013934 -62.785188 0.013978 -54.576619 0.323282 -115.239414 
0.8876275250000000 0.375710 -46.110725 0.014008 -63.471588 0.013940 -54.573494 0.323165 -115.195360 
0.8877525500000000 0.375499 -46.228265 0.014023 -63.764311 0.014009 -54.797396 0.322457 -115.182646 
0.8878775750000000 0.373650 -46.202893 0.014024 -64.349796 0.013859 -55.642345 0.322423 -115.131568 
0.8880026000000000 0.373156 -46.363575 0.014012 -64.713359 0.013926 -55.941024 0.322068 -115.227137 
0.8881276250000000 0.371600 -46.420869 0.014018 -65.244727 0.014024 -56.304000 0.322212 -115.281138 
0.8882526500000000 0.370661 -46.487874 0.014029 -65.365218 0.013966 -56.363094 0.321898 -115.175397 
0.8883776750000000 0.369468 -46.693539 0.013913 -65.222384 0.013794 -57.379020 0.322356 -115.449119 
0.8885027000000000 0.367888 -46.941230 0.014016 -66.730259 0.013870 -57.873722 0.321008 -115.412754 
0.8886277250000000 0.366430 -46.940514 0.013792 -66.634681 0.013915 -58.149251 0.321444 -115.424059 
0.8887527500000000 0.365646 -47.191683 0.013837 -67.257724 0.013722 -58.656882 0.320599 -115.538145 
0.8888777750000000 0.364149 -47.159918 0.013872 -67.062595 0.013957 -59.017435 0.320657 -115.382231 
0.8890028000000000 0.363124 -47.295504 0.013887 -68.287007 0.013889 -59.989662 0.320157 -115.588022 
0.8891278250000000 0.362181 -47.282697 0.013797 -68.377307 0.013781 -60.784799 0.320111 -115.507261 
0.8892528500000000 0.360204 -47.405156 0.013845 -69.037007 0.013905 -60.604348 0.319236 -115.661151 
0.8893778750000000 0.360085 -47.674044 0.013893 -69.024605 0.013808 -60.876781 0.319237 -115.648904 
0.8895029000000000 0.359273 -47.668034 0.013878 -69.669754 0.013840 -60.563633 0.319389 -115.629754 
0.8896279250000000 0.357718 -47.883801 0.013746 -69.608660 0.013735 -61.998184 0.319425 -115.541711 
0.8897529500000000 0.356135 -47.934867 0.013735 -70.679355 0.013841 -62.769350 0.318574 -115.590541 
0.8898779750000000 0.354356 -47.944388 0.013627 -70.872692 0.013749 -63.154122 0.318375 -115.680816 
0.8900030000000000 0.353962 -48.159293 0.013771 -71.075680 0.013781 -63.559971 0.318193 -115.727015 
0.8901280250000000 0.352827 -48.220359 0.013663 -71.945730 0.013667 -63.613743 0.318175 -115.783491 
0.8902530500000000 0.351879 -48.199127 0.013705 -71.789476 0.013792 -64.258855 0.317192 -115.783542 
0.8903780750000000 0.349787 -48.365206 0.013649 -73.009708 0.013645 -64.730786 0.317904 -115.959950 
0.8905031000000000 0.348889 -48.595785 0.013667 -72.706798 0.013624 -64.713051 0.318024 -115.802788 
0.8906281250000000 0.347510 -48.693849 0.013700 -73.989949 0.013670 -65.302467 0.316820 -116.061545 
0.8907531500000000 0.346145 -48.740651 0.013626 -73.913034 0.013689 -66.089385 0.316722 -115.873735 
0.8908781750000000 0.344444 -48.948036 0.013790 -74.352868 0.013578 -66.262434 0.317277 -115.941487 
0.8910032000000000 0.344107 -48.969907 0.013659 -74.709091 0.013626 -66.568663 0.316425 -116.053507 
0.8911282250000000 0.342801 -49.077265 0.013618 -74.808582 0.013691 -67.513062 0.316521 -116.051184 
0.8912532500000000 0.341697 -49.177520 0.013684 -75.403988 0.013631 -67.472029 0.316329 -116.068175 
0.8913782750000000 0.339811 -49.341225 0.013636 -76.120224 0.013661 -68.327826 0.316047 -115.976170 
0.8915033000000000 0.338828 -49.416051 0.013499 -76.113963 0.013663 -68.941250 0.316408 -116.135031 
0.8916283250000000 0.338080 -49.460697 0.013539 -76.774272 0.013660 -69.005283 0.315333 -116.064119 
0.8917533500000000 0.336494 -49.540732 0.013690 -77.401488 0.013586 -69.706620 0.315134 -116.242478 
0.8918783750000000 0.335568 -49.666030 0.013634 -77.727225 0.013653 -70.048700 0.314776 -116.373764 
0.8920034000000000 0.333777 -49.834233 0.013602 -78.477350 0.013621 -70.409318 0.315255 -116.324442 
0.8921284250000000 0.332364 -49.845500 0.013503 -78.271824 0.013462 -70.319278 0.314750 -116.326547 
0.8922534500000000 0.331447 -50.025566 0.013583 -78.965414 0.013422 -71.210364 0.313674 -116.243460 
0.8923784750000000 0.330095 -50.115759 0.013606 -79.099612 0.013635 -71.789360 0.313929 -116.475373 
0.8925035000000000 0.328808 -50.118847 0.013650 -79.590598 0.013404 -72.080068 0.312782 -116.480042 
0.8926285250000000 0.327104 -50.259452 0.013399 -80.367396 0.013616 -72.581585 0.313124 -116.405226 
0.8927535500000000 0.325665 -50.303730 0.013549 -80.859229 0.013554 -73.203447 0.313615 -116.447872 
0.8928785750000000 0.324353 -50.545412 0.013544 -80.957528 0.013743 -73.677776 0.312839 -116.350088 
0.8930036000000000 0.323380 -50.529506 0.013572 -81.094975 0.013431 -73.851759 0.312400 -116.514985 
0.8931286250000000 0.321779 -50.653624 0.013404 -81.423684 0.013553 -74.353090 0.312932 -116.572543 
0.8932536500000000 0.320373 -50.758027 0.013509 -81.605044 0.013456 -74.969970 0.312072 -116.595127 
0.8933786750000000 0.318969 -50.863324 0.013445 -83.119459 0.013493 -75.656323 0.311978 -116.685359 
0.8935037000000000 0.317731 -50.897999 0.013534 -83.315165 0.013549 -75.546085 0.312075 -116.783045 
0.8936287250000000 0.316275 -51.025479 0.013532 -82.964136 0.013488 -77.201841 0.311690 -116.605193 
0.8937537500000000 0.315426 -51.022034 0.013375 -83.732894 0.013480 -76.094511 0.312060 -116.752986 
0.8938787750000000 0.314252 -51.109922 0.013319 -84.217966 0.013460 -77.107925 0.311514 -116.715668 
0.8940038000000000 0.312641 -51.284730 0.013382 -84.228872 0.013573 -77.605244 0.311445 -116.690591 
0.8941288250000000 0.311295 -51.409935 0.013521 -85.627021 0.013419 -78.396981 0.311078 -116.743523 
0.8942538500000000 0.309512 -51.442971 0.013387 -85.657017 0.013549 -78.937627 0.309550 -116.797455 
0.8943788750000000 0.308071 -51.483340 0.013434 -85.823097 0.013499 -79.069528 0.310291 -116.930465 
0.8945039000000000 0.307066 -51.545188 0.013530 -86.617652 0.013464 -79.371366 0.310240 -116.824665 
0.8946289250000000 0.305607 -51.678408 0.013607 -86.729511 0.013475 -80.307025 0.310213 -116.852424 
0.8947539500000000 0.304163 -51.767544 0.013458 -87.701275 0.013374 -80.373786 0.309945 -116.997738 
0.8948789750000000 0.302994 -51.894474 0.013462 -88.035139 0.013224 -81.042729 0.309346 -117.016270 
0.8950040000000000 0.301516 -51.876808 0.013568 -88.002028 0.013427 -81.224133 0.309238 -117.045504 
0.8951290250000000 0.300151 -51.987059 0.013518 -88.613367 0.013430 -81.638018 0.309555 -117.110697 
0.8952540500000000 0.298408 -52.082366 0.013491 -89.627376 0.013481 -82.573833 0.309175 -117.016519 
0.8953790750000000 0.297375 -52.199283 0.013318 -89.622547 0.013338 -82.597030 0.308464 -117.255868 
0.8955041000000000 0.296098 -52.257861 0.013512 -90.088968 0.013411 -83.585565 0.307733 -117.108849 
0.8956291250000000 0.294538 -52.252061 0.013383 -90.971783 0.013392 -83.654849 0.307775 -117.143075 
0.8957541500000000 0.292873 -52.282891 0.013488 -90.668461 0.013361 -84.511587 0.308181 -117.072528 
0.8958791750000000 0.291276 -52.468545 0.013380 -91.404948 0.013349 -84.329728 0.307923 -117.215182 
0.8960042000000000 0.289922 -52.460640 0.013474 -92.235017 0.013374 -85.140336 0.307309 -117.222826 
0.8961292250000000 0.288941 -52.540070 0.013398 -91.811057 0.013374 -85.751080 0.307383 -117.212505 
0.8962542500000000 0.287155 -52.604607 0.013447 -91.617429 0.013189 -86.098423 0.307104 -117.328952 
0.8963792750000000 0.285649 -52.647129 0.013336 -93.226194 0.013281 -86.109023 0.305982 -117.382866 
0.8965043000000000 0.284828 -52.802899 0.013435 -92.958066 0.013266 -87.404171 0.306403 -117.522126 
0.8966293250000000 0.282772 -52.692313 0.013462 -93.972834 0.013371 -87.314120 0.306202 -117.393779 
0.8967543500000000 0.281427 -52.877853 0.013466 -94.492381 0.013198 -87.709886 0.306422 -117.497823 
0.8968793750000000 0.279724 -52.872569 0.013405 -94.500622 0.013141 -88.130671 0.305249 -117.428377 
0.8970044000000000 0.278856 -52.926311 0.013342 -95.150677 0.013021 -89.059984 0.305497 -117.455853 
0.8971294250000000 0.277100 -53.019683 0.013277 -96.007496 0.013168 -89.730267 0.305585 -117.524690 
0.8972544500000000 0.275238 -53.085642 0.013411 -96.820283 0.013103 -89.862381 0.305372 -117.516403 
0.8973794750000000 0.274668 -52.984324 0.013368 -96.348766 0.013214 -89.702274 0.304317 -117.619923 
0.8975045000000000 0.272681 -53.155102 0.013495 -96.247634 0.013209 -91.220459 0.305260 -117.624349 
0.8976295250000000 0.271286 -53.139771 0.013258 -97.564138 0.013129 -90.774108 0.304557 -117.693557 
0.8977545500000000 0.269877 -53.247366 0.013326 -97.682437 0.013095 -92.124339 0.304413 -117.623438 
0.8978795750000000 0.268393 -53.197851 0.013275 -98.556207 0.013078 -92.624760 0.304234 -117.670335 
0.8980046000000000 0.266957 -53.298429 0.013355 -99.138114 0.013194 -93.177992 0.303770 -117.738960 
0.8981296250000000 0.265047 -53.361001 0.013217 -99.452130 0.013166 -93.097642 0.303944 -117.832213 
0.8982546500000000 0.263924 -53.344755 0.013325 -99.799408 0.013108 -93.787734 0.303516 -117.783761 
0.8983796750000000 0.262983 -53.299988 0.013079 -100.422554 0.013162 -93.705550 0.303286 -117.806604 
0.8985047000000001 0.261300 -53.366991 0.013379 -100.734818 0.013233 -93.780842 0.303425 -117.825371 
0.8986297250000001 0.259690 -53.438476 0.013253 -100.544180 0.013181 -96.163938 0.303351 -117.891420 
0.8987547500000001 0.258479 -53.445685 0.013329 -102.218448 0.013096 -95.206137 0.303239 -117.814546 
0.8988797750000001 0.256129 -53.495683 0.013149 -102.533319 0.012993 -95.319320 0.303107 -117.847334 
