!
! C:\Users\rflab\Downloads\Lab5_KD_ZW\Q3\240.S2P
!
! Touchstone 1.1 file saved by VNA.EXE V1.65 (www.ke5fx.com/gpib/readme.htm)
! 11/18/2024 10:35:08 PM
!
!    Source: HEWLETT PACKARD,8753D,0,6.14
!  Min freq: 8.750000E+008 Hz
!  Max freq: 9.750200E+008 Hz
!    Points: 801
!    Params: S11 S21 S12 S22
!
!!!!!
# GHZ S MA R 50
0.8750000000000000 0.476427 -32.708766 0.010814 -38.555249 0.010388 -27.560112 0.349956 -111.533273 
0.8751250250000000 0.475335 -32.837123 0.010574 -38.784904 0.010414 -28.549323 0.349433 -111.642510 
0.8752500500000000 0.475304 -33.041143 0.010691 -38.875317 0.010459 -28.760553 0.349570 -111.590565 
0.8753750750000000 0.474814 -33.246792 0.010771 -40.329747 0.010514 -29.648508 0.349434 -111.561680 
0.8755001000000000 0.472826 -33.223391 0.010592 -40.151690 0.010470 -29.253565 0.349341 -111.713108 
0.8756251250000000 0.472927 -33.383461 0.010679 -40.962331 0.010378 -30.279746 0.348660 -111.784641 
0.8757501500000000 0.471508 -33.572817 0.010678 -41.150784 0.010409 -30.998417 0.348350 -111.940297 
0.8758751750000000 0.471829 -33.644849 0.010737 -41.754197 0.010336 -31.231212 0.348082 -111.763159 
0.8760002000000000 0.469748 -33.827368 0.010695 -42.482986 0.010433 -31.922661 0.348128 -111.890018 
0.8761252250000000 0.468449 -33.978896 0.010697 -42.993075 0.010468 -31.762754 0.347963 -111.835931 
0.8762502500000000 0.467789 -33.992779 0.010642 -42.581258 0.010458 -32.411888 0.347371 -112.037895 
0.8763752750000000 0.467820 -34.224979 0.010732 -43.682177 0.010361 -33.200075 0.347093 -111.991314 
0.8765003000000000 0.466710 -34.476689 0.010614 -43.982462 0.010441 -33.991966 0.347093 -112.018448 
0.8766253250000000 0.465207 -34.439605 0.010740 -43.722735 0.010364 -34.195999 0.346570 -112.140556 
0.8767503500000000 0.465321 -34.612444 0.010721 -44.636005 0.010363 -35.293735 0.346268 -112.111790 
0.8768753750000000 0.464013 -34.845542 0.010563 -45.213974 0.010496 -34.684944 0.345758 -112.239031 
0.8770004000000000 0.463011 -34.849081 0.010730 -45.658997 0.010460 -35.067981 0.344918 -112.219376 
0.8771254250000000 0.462166 -35.025963 0.010675 -45.723896 0.010515 -35.515025 0.345713 -112.247536 
0.8772504500000000 0.461464 -35.198287 0.010770 -46.896424 0.010431 -37.135491 0.345369 -112.281819 
0.8773754750000000 0.460613 -35.298503 0.010701 -47.779379 0.010420 -36.707863 0.344559 -112.287673 
0.8775005000000000 0.460059 -35.424351 0.010792 -47.944107 0.010409 -37.010058 0.344263 -112.274884 
0.8776255250000000 0.458902 -35.618512 0.010461 -48.292719 0.010493 -37.872929 0.344304 -112.398368 
0.8777505500000000 0.456891 -35.742767 0.010630 -48.569871 0.010275 -38.469202 0.343493 -112.377083 
0.8778755750000000 0.456870 -35.817747 0.010628 -48.701624 0.010475 -38.993406 0.344294 -112.327646 
0.8780006000000000 0.455998 -35.901636 0.010606 -49.693757 0.010298 -39.794360 0.343851 -112.561583 
0.8781256250000000 0.455577 -36.158299 0.010546 -50.012662 0.010484 -40.027785 0.342868 -112.524940 
0.8782506500000000 0.454061 -36.281476 0.010567 -51.408430 0.010408 -40.991345 0.342551 -112.729407 
0.8783756750000000 0.453209 -36.427761 0.010593 -51.062272 0.010403 -41.231136 0.342389 -112.491795 
0.8785007000000000 0.453079 -36.408715 0.010600 -50.983153 0.010385 -40.935720 0.342248 -112.567999 
0.8786257250000000 0.451334 -36.555320 0.010679 -52.124566 0.010381 -41.720966 0.341926 -112.651324 
0.8787507500000000 0.451206 -36.799366 0.010530 -52.519358 0.010417 -42.051933 0.341692 -112.689928 
0.8788757750000000 0.449942 -36.876119 0.010723 -53.316607 0.010505 -43.092625 0.342030 -112.732722 
0.8790008000000000 0.448115 -37.009978 0.010596 -53.558624 0.010450 -43.648438 0.341935 -112.905844 
0.8791258250000000 0.448238 -37.269744 0.010627 -53.988315 0.010436 -43.898543 0.340625 -112.898640 
0.8792508500000000 0.446305 -37.305959 0.010635 -54.003606 0.010393 -44.157937 0.340780 -112.921006 
0.8793758750000000 0.445872 -37.546003 0.010431 -54.766798 0.010439 -44.931524 0.340310 -112.971229 
0.8795009000000000 0.445012 -37.588961 0.010708 -55.625642 0.010477 -44.767674 0.340290 -112.989443 
0.8796259250000000 0.444007 -37.778449 0.010572 -56.134333 0.010545 -46.784763 0.340429 -113.057638 
0.8797509500000000 0.443849 -37.919038 0.010552 -56.139027 0.010465 -46.622870 0.339586 -113.157348 
0.8798759750000000 0.441921 -37.968330 0.010662 -56.773314 0.010476 -46.824067 0.339803 -113.085744 
0.8800010000000000 0.441342 -38.145323 0.010522 -58.005350 0.010437 -46.858708 0.338942 -113.086152 
0.8801260250000000 0.439788 -38.180454 0.010626 -58.111537 0.010490 -48.274320 0.338585 -113.286068 
0.8802510500000000 0.439108 -38.379652 0.010563 -58.558051 0.010529 -48.699596 0.338897 -113.212811 
0.8803760750000000 0.438126 -38.471259 0.010696 -59.380990 0.010502 -48.762682 0.338372 -113.189081 
0.8805011000000000 0.437733 -38.650137 0.010446 -60.175637 0.010563 -49.494365 0.338525 -113.262344 
0.8806261250000000 0.437121 -38.796306 0.010667 -60.009231 0.010482 -50.500793 0.338506 -113.359336 
0.8807511500000000 0.435203 -38.898875 0.010602 -60.491335 0.010581 -50.181207 0.338064 -113.250890 
0.8808761750000000 0.434521 -39.059507 0.010568 -61.101086 0.010388 -51.079776 0.338345 -113.309195 
0.8810012000000000 0.433020 -39.205312 0.010530 -62.094636 0.010525 -51.338161 0.337781 -113.530973 
0.8811262250000000 0.433018 -39.249782 0.010620 -62.004692 0.010479 -52.192016 0.337075 -113.515326 
0.8812512500000000 0.432199 -39.461619 0.010463 -62.441148 0.010538 -53.489429 0.337136 -113.539107 
0.8813762750000000 0.430583 -39.567699 0.010728 -63.655896 0.010449 -53.310525 0.336003 -113.577825 
0.8815013000000000 0.429608 -39.659395 0.010598 -63.595200 0.010482 -53.509077 0.336357 -113.494827 
0.8816263250000000 0.429698 -39.747223 0.010527 -64.503960 0.010432 -54.743017 0.336166 -113.719025 
0.8817513500000000 0.427689 -39.963392 0.010605 -64.492683 0.010456 -56.099056 0.335766 -113.641012 
0.8818763750000001 0.426883 -40.121018 0.010707 -64.821559 0.010464 -55.241765 0.335474 -113.657127 
0.8820014000000001 0.425997 -40.345309 0.010687 -65.699285 0.010379 -55.997451 0.334687 -113.636260 
0.8821264250000001 0.424604 -40.597276 0.010722 -66.400242 0.010618 -56.785951 0.334676 -113.722721 
0.8822514500000001 0.422741 -40.505959 0.010598 -66.706291 0.010407 -57.405790 0.333992 -113.677047 
0.8823764750000001 0.422236 -40.651828 0.010686 -66.247792 0.010558 -57.001084 0.334094 -113.846645 
0.8825015000000001 0.421108 -40.715241 0.010594 -67.740776 0.010367 -58.144909 0.334215 -113.803131 
0.8826265250000001 0.420138 -40.848436 0.010445 -68.286023 0.010532 -58.299025 0.333474 -113.916708 
0.8827515500000001 0.419552 -41.039101 0.010547 -69.148654 0.010521 -59.269158 0.333275 -113.891633 
0.8828765750000001 0.419060 -41.247358 0.010504 -69.624470 0.010318 -59.423153 0.333114 -113.984342 
0.8830016000000001 0.418086 -41.386778 0.010611 -69.813413 0.010622 -60.503959 0.332855 -114.142230 
0.8831266250000001 0.416321 -41.441357 0.010545 -71.384801 0.010442 -61.018073 0.332665 -114.030262 
0.8832516500000001 0.415751 -41.682262 0.010566 -70.487242 0.010344 -61.154724 0.332640 -114.072445 
0.8833766749999999 0.414596 -41.731257 0.010527 -71.306536 0.010514 -61.784601 0.331854 -114.104264 
0.8835017000000000 0.414015 -41.831350 0.010593 -71.443535 0.010453 -62.651805 0.331987 -114.117034 
0.8836267250000000 0.412500 -41.863230 0.010549 -71.908218 0.010462 -63.599614 0.331491 -114.247945 
0.8837517500000000 0.411840 -42.062634 0.010520 -72.677122 0.010298 -64.566879 0.332108 -114.240464 
0.8838767750000000 0.410260 -42.348517 0.010319 -74.162977 0.010550 -63.702478 0.331664 -114.390725 
0.8840018000000000 0.408263 -42.479536 0.010527 -73.476751 0.010382 -65.041612 0.331554 -114.271989 
0.8841268250000000 0.408122 -42.698492 0.010434 -74.341619 0.010226 -65.633875 0.330595 -114.468911 
0.8842518500000000 0.407400 -42.692890 0.010528 -75.436331 0.010357 -65.647520 0.330709 -114.384438 
0.8843768750000000 0.406451 -42.842759 0.010399 -75.566139 0.010399 -65.783036 0.329848 -114.388248 
0.8845019000000000 0.404987 -42.993813 0.010481 -75.848700 0.010456 -66.558838 0.329757 -114.366288 
0.8846269250000000 0.403847 -43.064738 0.010401 -76.523779 0.010285 -67.988453 0.330317 -114.426875 
0.8847519500000000 0.402672 -43.248028 0.010325 -77.073412 0.010274 -68.273649 0.329868 -114.421589 
0.8848769750000000 0.402171 -43.270445 0.010389 -77.617234 0.010406 -68.558896 0.329338 -114.475150 
0.8850020000000000 0.401081 -43.429189 0.010324 -78.104666 0.010392 -68.902087 0.329533 -114.587994 
0.8851270250000000 0.399460 -43.619416 0.010378 -78.549129 0.010203 -69.847605 0.328765 -114.602405 
0.8852520500000000 0.398889 -43.682550 0.010319 -79.250878 0.010303 -70.453024 0.328460 -114.626784 
0.8853770750000000 0.397298 -43.709955 0.010371 -79.605614 0.010342 -70.827393 0.327528 -114.719211 
0.8855021000000000 0.396816 -43.990432 0.010433 -80.133400 0.010259 -70.251235 0.328496 -114.805625 
0.8856271250000000 0.395744 -44.229862 0.010321 -80.334888 0.010260 -71.728414 0.327867 -114.733051 
0.8857521500000000 0.394357 -44.296125 0.010300 -81.212290 0.010200 -71.645518 0.327560 -114.769542 
0.8858771750000000 0.393336 -44.248716 0.010301 -81.677097 0.010194 -72.395613 0.327127 -114.822180 
0.8860022000000000 0.392626 -44.518189 0.010358 -81.702038 0.010277 -73.298720 0.326684 -114.858132 
0.8861272250000000 0.391324 -44.655612 0.010244 -81.644355 0.010257 -73.966423 0.326796 -114.925736 
0.8862522500000000 0.390155 -44.778173 0.010368 -82.553026 0.010259 -73.796359 0.326290 -114.925601 
0.8863772750000000 0.389527 -44.885736 0.010362 -83.592545 0.010204 -74.796777 0.326471 -114.904941 
0.8865023000000000 0.388242 -45.007962 0.010255 -84.150238 0.010236 -75.537792 0.326009 -114.895381 
0.8866273250000000 0.387370 -45.162781 0.010344 -84.959096 0.010056 -76.195050 0.325527 -115.005869 
0.8867523500000000 0.385839 -45.233916 0.010337 -85.510071 0.010247 -76.164220 0.325385 -115.041237 
0.8868773750000000 0.385937 -45.496565 0.010153 -85.339383 0.010164 -76.582471 0.324928 -115.084831 
0.8870024000000000 0.383844 -45.502503 0.010312 -86.123717 0.010139 -77.693899 0.325190 -115.158194 
0.8871274250000000 0.382488 -45.709564 0.010236 -86.921141 0.010245 -77.992407 0.324931 -115.060788 
0.8872524500000000 0.380589 -45.828424 0.010173 -87.065977 0.010255 -78.520783 0.324393 -115.200554 
0.8873774750000000 0.379964 -45.842816 0.010276 -87.377641 0.010207 -79.143087 0.324289 -115.161515 
0.8875025000000000 0.379211 -45.970019 0.010196 -87.488334 0.010059 -78.942547 0.324088 -115.237878 
0.8876275250000000 0.378265 -46.171879 0.010180 -88.338591 0.010149 -79.701657 0.324158 -115.124763 
0.8877525500000000 0.377065 -46.308433 0.010238 -89.452917 0.010135 -80.578897 0.323797 -115.268087 
0.8878775750000000 0.374950 -46.447752 0.010088 -89.658751 0.010043 -81.596750 0.323042 -115.301377 
0.8880026000000000 0.374203 -46.435772 0.010164 -90.188154 0.010030 -81.695782 0.322592 -115.537213 
0.8881276250000000 0.373195 -46.653411 0.010256 -91.110874 0.010182 -82.405717 0.322696 -115.336375 
0.8882526500000000 0.372330 -46.756927 0.010115 -91.718115 0.010008 -82.289181 0.322385 -115.434671 
0.8883776750000000 0.370482 -46.954353 0.010137 -91.773747 0.010099 -83.422601 0.322776 -115.479654 
0.8885027000000000 0.369361 -46.963633 0.010075 -92.072218 0.010011 -83.751727 0.321952 -115.525457 
0.8886277250000000 0.369218 -47.046491 0.010090 -92.762888 0.010044 -83.835524 0.321423 -115.492117 
0.8887527500000000 0.367619 -47.220306 0.010089 -93.085945 0.010049 -84.972206 0.321415 -115.565088 
0.8888777750000000 0.365976 -47.424684 0.010096 -93.693652 0.009989 -84.427934 0.321351 -115.528386 
0.8890028000000000 0.365145 -47.542056 0.010064 -94.238801 0.009998 -85.458982 0.320882 -115.580484 
0.8891278250000000 0.364371 -47.668044 0.010111 -94.392697 0.010044 -85.441917 0.320547 -115.657524 
0.8892528500000000 0.362617 -47.761171 0.010088 -95.228510 0.010040 -86.999937 0.319946 -115.660714 
0.8893778750000000 0.360820 -47.956775 0.009894 -95.617176 0.009975 -87.172200 0.319935 -115.795127 
0.8895029000000000 0.361027 -47.992807 0.010074 -95.546788 0.009995 -87.186191 0.319968 -115.719443 
0.8896279250000000 0.359802 -48.111399 0.009978 -95.652559 0.009966 -87.740506 0.319864 -115.831633 
0.8897529500000000 0.358008 -48.142566 0.009980 -97.251665 0.009883 -88.294101 0.319238 -115.813048 
0.8898779750000000 0.357041 -48.279428 0.009902 -97.364917 0.010186 -88.575676 0.318837 -115.878329 
0.8900030000000000 0.355717 -48.444841 0.009958 -97.517045 0.010053 -89.287919 0.319684 -115.865456 
0.8901280250000000 0.354340 -48.603319 0.009925 -98.306450 0.010026 -90.414192 0.318930 -115.925106 
0.8902530500000000 0.353769 -48.771995 0.009903 -98.777417 0.009951 -90.922540 0.319311 -115.940572 
0.8903780750000000 0.352226 -48.960948 0.009993 -98.793968 0.009954 -90.664221 0.318936 -116.052626 
0.8905031000000000 0.350659 -48.962770 0.009920 -99.961715 0.009874 -91.724055 0.318691 -116.037510 
0.8906281250000000 0.349640 -49.181743 0.009971 -100.665608 0.009985 -92.008690 0.317696 -116.021088 
0.8907531500000000 0.348143 -49.124957 0.009905 -100.577464 0.009935 -92.514280 0.316618 -116.024164 
0.8908781750000000 0.347180 -49.270325 0.009818 -100.677949 0.009970 -92.807122 0.317473 -116.126610 
0.8910032000000000 0.345999 -49.241944 0.009893 -101.194574 0.009882 -93.563228 0.316856 -116.175120 
0.8911282250000000 0.345207 -49.495955 0.009856 -101.976463 0.009897 -94.476404 0.317049 -116.133420 
0.8912532500000000 0.343208 -49.549285 0.009838 -102.945076 0.009949 -94.466731 0.316636 -116.243991 
0.8913782750000000 0.341507 -49.702752 0.009938 -102.914049 0.009926 -94.642730 0.316500 -116.219153 
0.8915033000000000 0.340782 -49.791062 0.009984 -103.702421 0.009915 -96.420222 0.316497 -116.342687 
0.8916283250000000 0.339744 -49.878783 0.009921 -103.497231 0.009884 -95.892391 0.316085 -116.503199 
0.8917533500000000 0.338252 -49.970061 0.009700 -103.767095 0.009948 -96.597687 0.315869 -116.337289 
0.8918783750000000 0.337151 -50.080208 0.009824 -104.392377 0.009851 -97.076513 0.315418 -116.346882 
0.8920034000000000 0.335366 -50.229470 0.009793 -104.919917 0.009853 -97.524648 0.314871 -116.458259 
0.8921284250000000 0.334032 -50.267151 0.009830 -105.967160 0.009868 -98.125797 0.314995 -116.378867 
0.8922534500000000 0.333299 -50.472513 0.009857 -106.565975 0.009862 -98.651170 0.314653 -116.391092 
0.8923784750000000 0.331899 -50.546201 0.009795 -106.816255 0.009831 -99.016404 0.314666 -116.470624 
0.8925035000000000 0.330397 -50.612840 0.009899 -107.648569 0.009808 -99.438510 0.313942 -116.579996 
0.8926285250000000 0.328873 -50.735287 0.009855 -107.430263 0.009880 -100.655328 0.313724 -116.550105 
0.8927535500000000 0.327407 -50.787624 0.009771 -107.999044 0.009745 -101.061407 0.314433 -116.547637 
0.8928785750000000 0.326057 -51.019427 0.009883 -109.033804 0.009748 -102.305375 0.313779 -116.707092 
0.8930036000000000 0.324901 -51.027531 0.009754 -108.977942 0.009684 -101.797406 0.313669 -116.642329 
0.8931286250000000 0.323312 -51.234191 0.009865 -109.338796 0.009846 -101.769760 0.313071 -116.784856 
0.8932536500000000 0.321673 -51.233228 0.009836 -108.882906 0.009815 -102.271872 0.312593 -116.760175 
0.8933786750000000 0.320565 -51.423684 0.009751 -110.711817 0.009800 -102.378834 0.312074 -116.770524 
0.8935037000000000 0.319173 -51.473225 0.009863 -110.873441 0.009806 -104.304515 0.312309 -116.880525 
0.8936287250000000 0.318056 -51.593900 0.009780 -110.981752 0.010034 -104.460853 0.312894 -116.819965 
0.8937537500000000 0.316776 -51.579414 0.009629 -112.426276 0.009937 -105.003850 0.311446 -116.715693 
0.8938787750000000 0.315761 -51.691313 0.009846 -112.725304 0.009558 -105.438884 0.311979 -116.773084 
0.8940038000000000 0.313855 -51.916614 0.009834 -113.021659 0.009765 -105.631790 0.311283 -116.793650 
0.8941288250000000 0.312577 -51.988878 0.009679 -113.315342 0.009669 -106.119268 0.310352 -117.089132 
0.8942538500000000 0.311012 -52.038228 0.009663 -114.637701 0.009869 -106.508586 0.310417 -117.026038 
0.8943788750000000 0.309534 -52.136408 0.009842 -114.953504 0.009631 -107.537813 0.309806 -117.090064 
0.8945039000000000 0.308456 -52.246328 0.009808 -114.384477 0.009663 -108.025471 0.310796 -116.939938 
0.8946289250000000 0.306815 -52.358439 0.009846 -115.902372 0.009540 -108.016551 0.309391 -117.119830 
0.8947539500000000 0.305429 -52.400163 0.009695 -115.593347 0.009730 -108.740389 0.309537 -117.159993 
0.8948789750000000 0.304321 -52.558399 0.009723 -115.821075 0.009620 -109.911530 0.309206 -117.213744 
0.8950040000000000 0.302892 -52.569557 0.009597 -117.364615 0.009639 -110.574954 0.309209 -117.264307 
0.8951290250000000 0.301236 -52.613498 0.009741 -117.227372 0.009701 -110.651309 0.309171 -117.201170 
0.8952540500000000 0.299640 -52.772970 0.009719 -116.962328 0.009681 -111.269503 0.309233 -117.211151 
0.8953790750000000 0.298611 -52.873048 0.009693 -117.768913 0.009832 -111.277127 0.308792 -117.348844 
0.8955041000000000 0.297038 -52.942316 0.009788 -119.069787 0.009734 -112.200138 0.308500 -117.373658 
0.8956291250000000 0.295707 -52.984640 0.009636 -119.192027 0.009642 -112.631199 0.308376 -117.446255 
0.8957541500000000 0.293625 -53.058645 0.009746 -120.260878 0.009626 -112.825533 0.307593 -117.281969 
0.8958791750000000 0.292191 -53.183957 0.009574 -121.031299 0.009532 -112.963370 0.308075 -117.436968 
0.8960042000000000 0.291162 -53.163737 0.009758 -120.394283 0.009602 -113.408936 0.307523 -117.442343 
0.8961292250000000 0.289602 -53.384893 0.009602 -121.329750 0.009556 -114.947459 0.307269 -117.511797 
0.8962542500000000 0.288249 -53.441901 0.009661 -122.039559 0.009504 -115.906803 0.307151 -117.481601 
0.8963792750000000 0.286719 -53.511254 0.009689 -122.127329 0.009636 -115.808066 0.306687 -117.629622 
0.8965043000000000 0.285431 -53.655111 0.009705 -123.594817 0.009508 -115.818406 0.306549 -117.617343 
0.8966293250000000 0.283776 -53.573744 0.009648 -122.698815 0.009643 -117.179612 0.306439 -117.460757 
0.8967543500000000 0.282641 -53.703600 0.009745 -124.066406 0.009659 -117.231709 0.305998 -117.561728 
0.8968793750000000 0.280864 -53.765741 0.009528 -124.911683 0.009642 -118.196162 0.305813 -117.476662 
0.8970044000000000 0.279409 -53.717742 0.009681 -125.724024 0.009725 -119.040960 0.305948 -117.679488 
0.8971294250000000 0.277643 -53.980968 0.009559 -124.784093 0.009642 -119.423658 0.305403 -117.694281 
0.8972544500000000 0.276017 -53.998008 0.009667 -126.354416 0.009561 -118.964403 0.305356 -117.763606 
0.8973794750000000 0.275142 -53.967721 0.009557 -126.834448 0.009481 -120.189859 0.305483 -117.741352 
0.8975045000000000 0.273674 -54.119180 0.009603 -127.624448 0.009430 -120.321294 0.305220 -117.764141 
0.8976295250000000 0.271672 -54.131618 0.009593 -127.929437 0.009386 -121.560782 0.304054 -117.951386 
0.8977545500000000 0.270396 -54.263107 0.009544 -126.982116 0.009327 -121.865975 0.304491 -117.781143 
0.8978795750000000 0.268924 -54.225743 0.009562 -128.138608 0.009470 -122.468093 0.304288 -117.856495 
0.8980046000000000 0.267230 -54.226140 0.009574 -129.182995 0.009329 -122.721853 0.303379 -117.901619 
0.8981296250000000 0.265999 -54.346922 0.009499 -128.739763 0.009374 -123.922055 0.303913 -117.968745 
0.8982546500000000 0.264506 -54.338606 0.009550 -130.504482 0.009429 -123.803384 0.303664 -117.941571 
0.8983796750000000 0.263225 -54.351119 0.009542 -130.898802 0.009374 -124.395790 0.303434 -117.958089 
0.8985047000000001 0.261471 -54.359321 0.009603 -131.033916 0.009431 -124.665473 0.303145 -117.941357 
0.8986297250000001 0.259943 -54.523325 0.009608 -132.099234 0.009333 -125.437627 0.302935 -118.099810 
0.8987547500000001 0.258667 -54.535602 0.009437 -132.981044 0.009426 -125.758027 0.302526 -118.010106 
