!
! C:\Users\rflab\Downloads\Lab5_KD_ZW\Q3\260.S2P
!
! Touchstone 1.1 file saved by VNA.EXE V1.65 (www.ke5fx.com/gpib/readme.htm)
! 11/18/2024 10:36:12 PM
!
!    Source: HEWLETT PACKARD,8753D,0,6.14
!  Min freq: 8.750000E+008 Hz
!  Max freq: 9.750200E+008 Hz
!    Points: 801
!    Params: S11 S21 S12 S22
!
!!!!!
# GHZ S MA R 50
0.8750000000000000 0.476991 -32.726195 0.007299 -75.003242 0.007151 -63.123982 0.350112 -111.324713 
0.8751250250000000 0.475803 -32.883824 0.007377 -75.112236 0.007161 -63.675532 0.349477 -111.333141 
0.8752500500000000 0.476299 -32.989551 0.007312 -75.757150 0.007157 -64.135723 0.350463 -111.334459 
0.8753750750000000 0.473681 -33.226283 0.007246 -75.448921 0.007156 -65.960952 0.349388 -111.419459 
0.8755001000000000 0.473331 -33.148069 0.007250 -76.280000 0.007074 -65.064888 0.348141 -111.419015 
0.8756251250000000 0.472579 -33.406844 0.007268 -75.870770 0.007084 -65.080616 0.349092 -111.460065 
0.8757501500000000 0.472254 -33.508311 0.007266 -77.310903 0.007087 -66.480993 0.349251 -111.675904 
0.8758751750000000 0.471152 -33.628308 0.007266 -77.414910 0.007035 -66.327712 0.348368 -111.582377 
0.8760002000000000 0.469519 -33.778898 0.007280 -78.457496 0.007140 -68.084195 0.348764 -111.637562 
0.8761252250000000 0.468657 -33.889776 0.007305 -78.340939 0.007175 -68.594536 0.349115 -111.647025 
0.8762502500000000 0.467274 -34.012841 0.007277 -78.152529 0.007092 -69.143655 0.348253 -111.697923 
0.8763752750000000 0.467180 -34.156155 0.007063 -78.831923 0.007148 -69.512392 0.347958 -111.684776 
0.8765003000000000 0.466623 -34.461242 0.007165 -80.036193 0.007116 -68.753274 0.348338 -111.692359 
0.8766253250000000 0.464708 -34.436242 0.007276 -78.948540 0.007165 -69.942939 0.347890 -111.792076 
0.8767503500000000 0.464586 -34.487584 0.007236 -81.194414 0.007143 -70.362646 0.346831 -111.910937 
0.8768753750000000 0.463222 -34.734426 0.007262 -81.515555 0.007111 -70.838503 0.346264 -111.948621 
0.8770004000000000 0.463151 -34.850831 0.007280 -81.798250 0.007230 -70.620962 0.346412 -111.982313 
0.8771254250000000 0.462086 -34.959004 0.007240 -82.807588 0.007042 -71.701227 0.345839 -111.895300 
0.8772504500000000 0.460886 -35.188606 0.007225 -82.327139 0.007167 -71.262461 0.345651 -112.115170 
0.8773754750000000 0.460645 -35.267856 0.007348 -83.060363 0.007134 -72.916701 0.346113 -112.035001 
0.8775005000000000 0.460033 -35.442900 0.007278 -82.345573 0.007247 -73.321335 0.344888 -111.991583 
0.8776255250000000 0.458422 -35.567602 0.007240 -84.296543 0.007122 -73.207799 0.345569 -112.202615 
0.8777505500000000 0.457186 -35.692618 0.007249 -84.764965 0.007206 -73.634848 0.344968 -112.199554 
0.8778755750000000 0.457226 -35.729064 0.007342 -85.518813 0.007042 -74.905142 0.344872 -112.200612 
0.8780006000000000 0.455675 -35.871783 0.007425 -84.416460 0.007211 -74.324185 0.344327 -112.166340 
0.8781256250000000 0.455558 -36.103000 0.007241 -85.471360 0.007028 -74.104259 0.343312 -112.384016 
0.8782506500000000 0.453674 -36.142985 0.007249 -86.972359 0.007218 -77.013043 0.343620 -112.428843 
0.8783756750000000 0.453021 -36.402097 0.007407 -86.216351 0.007218 -77.148927 0.343607 -112.396740 
0.8785007000000000 0.452245 -36.532360 0.007276 -87.047211 0.007284 -76.816177 0.342575 -112.473415 
0.8786257250000000 0.451147 -36.575335 0.007269 -87.349138 0.007201 -78.007785 0.342786 -112.491946 
0.8787507500000000 0.450656 -36.812861 0.007383 -88.234482 0.007142 -78.582792 0.342311 -112.580175 
0.8788757750000000 0.449994 -36.927011 0.007369 -89.024832 0.007144 -78.643562 0.342820 -112.572395 
0.8790008000000000 0.449329 -36.937217 0.007282 -88.840581 0.007209 -78.050834 0.341961 -112.599023 
0.8791258250000000 0.448084 -37.189102 0.007294 -90.086148 0.007249 -80.049441 0.342485 -112.557032 
0.8792508500000000 0.447021 -37.277880 0.007275 -91.010224 0.007236 -78.993681 0.341696 -112.611996 
0.8793758750000000 0.445411 -37.581632 0.007342 -90.390748 0.007241 -79.677265 0.342443 -112.659538 
0.8795009000000000 0.444500 -37.567761 0.007267 -91.158016 0.007135 -81.189208 0.341231 -112.677808 
0.8796259250000000 0.444679 -37.671678 0.007147 -91.296046 0.007169 -81.288321 0.341232 -112.744421 
0.8797509500000000 0.443120 -37.942465 0.007354 -92.237153 0.007124 -82.531556 0.340844 -112.827442 
0.8798759750000000 0.442101 -37.904982 0.007207 -92.305458 0.007193 -83.181665 0.340460 -112.793300 
0.8800010000000000 0.441551 -38.083719 0.007290 -92.594393 0.007142 -82.809033 0.340476 -112.931554 
0.8801260250000000 0.440213 -38.131909 0.007370 -93.932434 0.007108 -83.984955 0.339660 -113.028918 
0.8802510500000000 0.439463 -38.444496 0.007230 -93.739922 0.007303 -84.586090 0.339873 -113.008089 
0.8803760750000000 0.438612 -38.461517 0.007392 -94.543562 0.007235 -84.895149 0.339162 -113.081483 
0.8805011000000000 0.437733 -38.598975 0.007214 -94.979092 0.007203 -86.402134 0.339567 -113.097167 
0.8806261250000000 0.436228 -38.813483 0.007272 -95.380489 0.007239 -86.230865 0.338937 -113.176230 
0.8807511500000000 0.434986 -38.872937 0.007456 -96.518242 0.007167 -85.466506 0.338593 -113.184352 
0.8808761750000000 0.434516 -38.997916 0.007294 -96.972636 0.007292 -87.387745 0.338194 -112.999677 
0.8810012000000000 0.433205 -39.078676 0.007329 -96.162762 0.007271 -87.139472 0.338452 -113.155185 
0.8811262250000000 0.432378 -39.423709 0.007357 -97.290366 0.007218 -88.091982 0.337507 -113.201312 
0.8812512500000000 0.431148 -39.461038 0.007160 -97.342247 0.007416 -88.050837 0.337279 -113.308193 
0.8813762750000000 0.430023 -39.684793 0.007351 -98.050732 0.007055 -88.784007 0.337700 -113.356317 
0.8815013000000000 0.428514 -39.658767 0.007491 -98.456101 0.007198 -89.628029 0.337334 -113.264603 
0.8816263250000000 0.428157 -39.910936 0.007263 -99.057891 0.007411 -89.203661 0.336544 -113.463974 
0.8817513500000000 0.427574 -39.973647 0.007401 -100.430976 0.007303 -89.902735 0.336194 -113.535270 
0.8818763750000001 0.426977 -40.075602 0.007416 -100.494967 0.007279 -90.709451 0.335525 -113.533894 
0.8820014000000001 0.425659 -40.313908 0.007456 -101.065588 0.007315 -91.348370 0.335874 -113.422802 
0.8821264250000001 0.424896 -40.412048 0.007365 -101.154965 0.007260 -92.386414 0.335463 -113.601028 
0.8822514500000001 0.423206 -40.525559 0.007150 -102.318672 0.007345 -91.852767 0.335287 -113.506047 
0.8823764750000001 0.422170 -40.558620 0.007348 -101.196178 0.007217 -92.055947 0.335277 -113.540984 
0.8825015000000001 0.421500 -40.710406 0.007409 -101.866060 0.007303 -92.762079 0.334845 -113.658678 
0.8826265250000001 0.420196 -40.984719 0.007241 -103.709553 0.007294 -93.827030 0.334785 -113.674531 
0.8827515500000001 0.419189 -41.115484 0.007316 -104.286224 0.007290 -94.697657 0.334728 -113.730180 
0.8828765750000001 0.417792 -41.163289 0.007336 -104.341525 0.007082 -95.087207 0.334307 -113.721924 
0.8830016000000001 0.417777 -41.284749 0.007290 -104.217115 0.007327 -95.486115 0.333638 -113.967284 
0.8831266250000001 0.415807 -41.383325 0.007333 -105.393672 0.007310 -97.225150 0.334168 -113.875359 
0.8832516500000001 0.414623 -41.614977 0.007312 -105.523513 0.007144 -96.931015 0.333635 -113.978984 
0.8833766749999999 0.413824 -41.716180 0.007287 -106.809137 0.007333 -96.504360 0.333083 -113.998194 
0.8835017000000000 0.413227 -41.775859 0.007476 -107.161304 0.007308 -98.271791 0.332625 -114.027603 
0.8836267250000000 0.411386 -42.005221 0.007417 -107.661455 0.007190 -98.873853 0.332798 -113.991292 
0.8837517500000000 0.410496 -42.194757 0.007313 -107.697703 0.007260 -98.060915 0.333019 -114.089372 
0.8838767750000000 0.409654 -42.420126 0.007224 -108.192179 0.007278 -99.092054 0.332269 -114.083780 
0.8840018000000000 0.408867 -42.483259 0.007313 -108.544815 0.007299 -99.840153 0.332185 -114.090221 
0.8841268250000000 0.407413 -42.685369 0.007235 -110.428321 0.007176 -100.750636 0.331681 -114.140729 
0.8842518500000000 0.406933 -42.738897 0.007348 -110.349348 0.007165 -100.770031 0.331445 -114.268886 
0.8843768750000000 0.405852 -42.947795 0.007335 -109.964014 0.007249 -101.261893 0.331338 -114.201991 
0.8845019000000000 0.404858 -42.948874 0.007241 -111.035612 0.007134 -101.805627 0.331422 -114.195506 
0.8846269250000000 0.403838 -43.060094 0.007234 -110.745224 0.007306 -102.530432 0.330470 -114.292881 
0.8847519500000000 0.402092 -43.188581 0.007296 -111.548311 0.007312 -103.873132 0.331419 -114.322999 
0.8848769750000000 0.402112 -43.403996 0.007327 -111.927434 0.007175 -103.537498 0.330239 -114.409775 
0.8850020000000000 0.399905 -43.543639 0.007375 -113.543470 0.007131 -104.866019 0.330403 -114.472418 
0.8851270250000000 0.398686 -43.671023 0.007406 -112.976269 0.007263 -104.537149 0.329690 -114.622158 
0.8852520500000000 0.398260 -43.924223 0.007351 -113.392317 0.007217 -105.528366 0.329744 -114.425519 
0.8853770750000000 0.397004 -43.878776 0.007360 -114.231974 0.007293 -106.609185 0.329490 -114.533107 
0.8855021000000000 0.396522 -44.019306 0.007294 -114.946747 0.007252 -106.273464 0.329493 -114.585378 
0.8856271250000000 0.395091 -44.173805 0.007416 -114.890924 0.007228 -106.309341 0.328930 -114.601015 
0.8857521500000000 0.394378 -44.184855 0.007279 -115.913746 0.007180 -107.836874 0.328884 -114.557910 
0.8858771750000000 0.392725 -44.475807 0.007272 -116.082820 0.007183 -108.491478 0.328261 -114.742398 
0.8860022000000000 0.391749 -44.566030 0.007194 -117.190055 0.007147 -108.642886 0.327980 -114.788545 
0.8861272250000000 0.390448 -44.716579 0.007159 -118.728030 0.007182 -108.776596 0.328118 -114.853667 
0.8862522500000000 0.389388 -44.788849 0.007265 -117.750837 0.007174 -109.508058 0.327129 -114.733699 
0.8863772750000000 0.388792 -45.015902 0.007236 -118.438085 0.007232 -109.466019 0.327513 -114.802731 
0.8865023000000000 0.387584 -45.089321 0.007232 -118.401818 0.007158 -110.473853 0.327276 -114.827761 
0.8866273250000000 0.386552 -45.255882 0.007285 -119.748134 0.007140 -109.871307 0.327085 -114.831515 
0.8867523500000000 0.384328 -45.231630 0.007245 -119.012850 0.007235 -110.614829 0.327384 -114.919137 
0.8868773750000000 0.384583 -45.409904 0.007232 -121.002630 0.007090 -110.454568 0.326074 -114.830946 
0.8870024000000000 0.383556 -45.556066 0.007196 -121.365494 0.007132 -112.422432 0.325671 -114.958515 
0.8871274250000000 0.381857 -45.777106 0.007318 -120.892041 0.007162 -113.265708 0.325931 -115.043797 
0.8872524500000000 0.380721 -45.962936 0.007190 -122.616045 0.007221 -113.548353 0.325188 -114.992198 
0.8873774750000000 0.379090 -46.042105 0.007317 -122.893624 0.007273 -112.586921 0.324908 -115.128090 
0.8875025000000000 0.379008 -46.158152 0.007153 -122.585139 0.007097 -113.857741 0.325010 -115.179069 
0.8876275250000000 0.377482 -46.208704 0.007199 -123.518501 0.007210 -114.590407 0.324362 -115.125656 
0.8877525500000000 0.376359 -46.414401 0.007255 -123.824807 0.007176 -114.950648 0.324734 -115.201979 
0.8878775750000000 0.374551 -46.573127 0.007165 -124.608091 0.007141 -114.906876 0.324004 -115.358239 
0.8880026000000000 0.373986 -46.491170 0.007133 -125.419689 0.006984 -116.862461 0.323117 -115.354927 
0.8881276250000000 0.372938 -46.667829 0.007185 -124.530651 0.007151 -116.857229 0.323752 -115.301733 
0.8882526500000000 0.371370 -46.818092 0.007158 -125.732449 0.007364 -118.080125 0.322808 -115.314999 
0.8883776750000000 0.369977 -47.013856 0.007106 -126.200927 0.007117 -118.191038 0.323228 -115.345658 
0.8885027000000000 0.369131 -47.179364 0.007098 -126.443393 0.007118 -119.352106 0.322914 -115.342053 
0.8886277250000000 0.367704 -47.258485 0.007307 -127.024678 0.007218 -119.103130 0.322810 -115.416772 
0.8887527500000000 0.366559 -47.382011 0.007099 -127.917514 0.007149 -119.273234 0.322320 -115.398037 
0.8888777750000000 0.365156 -47.426747 0.007068 -128.618157 0.007207 -119.738767 0.322301 -115.453786 
0.8890028000000000 0.364105 -47.646199 0.007111 -128.821213 0.007351 -121.047252 0.322232 -115.453551 
0.8891278250000000 0.362755 -47.719170 0.007078 -129.395868 0.007114 -120.544206 0.321582 -115.538861 
0.8892528500000000 0.362079 -47.732801 0.007082 -129.828786 0.007004 -121.702308 0.321117 -115.542245 
0.8893778750000000 0.361015 -47.821442 0.007215 -129.704243 0.007032 -122.808530 0.321277 -115.588993 
0.8895029000000000 0.360797 -48.113114 0.007178 -130.827129 0.007036 -121.215487 0.322011 -115.622797 
0.8896279250000000 0.358240 -48.247699 0.007105 -131.896037 0.007064 -121.853283 0.320723 -115.672653 
0.8897529500000000 0.357733 -48.342305 0.007159 -131.965655 0.007122 -123.218764 0.320293 -115.600645 
0.8898779750000000 0.355699 -48.481583 0.007096 -131.024747 0.007156 -123.431695 0.320006 -115.758638 
0.8900030000000000 0.354532 -48.624083 0.007099 -132.405716 0.007068 -123.252670 0.319954 -115.726734 
0.8901280250000000 0.353122 -48.666652 0.007111 -132.700921 0.007145 -125.928412 0.319321 -115.793639 
0.8902530500000000 0.352456 -48.733332 0.007155 -132.631256 0.007073 -124.472118 0.319945 -115.848918 
0.8903780750000000 0.350677 -48.928991 0.006952 -133.916242 0.007115 -125.273877 0.319626 -115.919165 
0.8905031000000000 0.349462 -49.047302 0.007094 -133.967781 0.007052 -125.716029 0.319466 -115.872324 
0.8906281250000000 0.348271 -49.119886 0.007126 -134.688217 0.007181 -126.516856 0.318750 -115.971356 
0.8907531500000000 0.347874 -49.226157 0.007071 -134.087409 0.007117 -127.765894 0.318708 -115.981095 
0.8908781750000000 0.345182 -49.489086 0.007136 -135.898811 0.006975 -127.363439 0.318318 -116.149887 
0.8910032000000000 0.344922 -49.442136 0.006944 -136.009967 0.007105 -129.242330 0.317716 -116.190950 
0.8911282250000000 0.343951 -49.717963 0.007112 -137.151861 0.007158 -128.166871 0.317869 -116.122239 
0.8912532500000000 0.342621 -49.700112 0.006984 -137.620272 0.006989 -127.919213 0.317647 -116.215480 
0.8913782750000000 0.340815 -49.856130 0.007142 -136.912667 0.007075 -129.568727 0.317700 -116.259851 
0.8915033000000000 0.339980 -50.023219 0.006957 -136.891298 0.006981 -129.629190 0.316731 -116.253974 
0.8916283250000000 0.338684 -50.071806 0.007185 -138.395194 0.006945 -129.958691 0.316919 -116.397275 
0.8917533500000000 0.337746 -50.120858 0.007127 -138.319660 0.007121 -130.826828 0.316950 -116.234447 
0.8918783750000000 0.336351 -50.308253 0.007075 -139.203117 0.007114 -132.277822 0.315595 -116.399040 
0.8920034000000000 0.334506 -50.361746 0.006996 -139.339828 0.007079 -131.974875 0.314967 -116.393738 
0.8921284250000000 0.333254 -50.449034 0.007047 -139.662792 0.007201 -132.627899 0.315732 -116.349574 
0.8922534500000000 0.332270 -50.646534 0.007068 -140.793273 0.007093 -132.588769 0.315649 -116.418892 
0.8923784750000000 0.330782 -50.698325 0.007142 -140.458412 0.007089 -132.022730 0.315485 -116.483247 
0.8925035000000000 0.329508 -50.763797 0.007072 -141.537481 0.007042 -133.600678 0.315402 -116.565043 
0.8926285250000000 0.327909 -50.886737 0.007055 -143.422857 0.007152 -134.230121 0.315252 -116.609690 
0.8927535500000000 0.326814 -50.995935 0.007019 -143.024234 0.007074 -134.612207 0.314747 -116.562568 
0.8928785750000000 0.325005 -51.214997 0.006972 -142.480388 0.006950 -136.437308 0.314831 -116.368824 
0.8930036000000000 0.323875 -51.213718 0.007078 -143.304570 0.007125 -135.916524 0.314229 -116.597400 
0.8931286250000000 0.322294 -51.394842 0.007117 -143.497880 0.007071 -135.917964 0.313779 -116.694639 
0.8932536500000000 0.320993 -51.415053 0.007128 -145.110660 0.007156 -136.009726 0.313329 -116.729769 
0.8933786750000000 0.319536 -51.615802 0.007005 -144.027968 0.007105 -137.227366 0.312687 -116.595052 
0.8935037000000000 0.318312 -51.637454 0.006970 -145.328148 0.007124 -138.348307 0.312946 -116.627524 
0.8936287250000000 0.317082 -51.767358 0.006983 -144.516901 0.007132 -139.571974 0.312728 -116.622562 
0.8937537500000000 0.315531 -51.788924 0.007071 -146.062393 0.007012 -139.484067 0.312634 -116.750150 
0.8938787750000000 0.314473 -51.930687 0.007135 -147.141463 0.007228 -139.583192 0.312487 -116.882863 
0.8940038000000000 0.312844 -52.094376 0.007062 -147.778928 0.007026 -140.394064 0.311681 -116.863600 
0.8941288250000000 0.311431 -52.190753 0.007027 -148.372120 0.007187 -140.386685 0.311561 -116.969143 
0.8942538500000000 0.309884 -52.250963 0.006896 -147.930784 0.007151 -140.319176 0.311738 -116.946334 
0.8943788750000000 0.308505 -52.332067 0.007167 -147.942495 0.007176 -141.298568 0.311206 -116.939444 
0.8945039000000000 0.307230 -52.453968 0.007099 -150.028362 0.007038 -143.013647 0.311536 -117.009331 
0.8946289250000000 0.305935 -52.516255 0.007127 -149.796267 0.007081 -143.268233 0.311018 -117.020131 
0.8947539500000000 0.304238 -52.640431 0.006936 -150.186724 0.006947 -143.588654 0.310390 -117.016007 
0.8948789750000000 0.302918 -52.758363 0.007117 -150.023219 0.006911 -144.002276 0.310099 -117.084527 
0.8950040000000000 0.301890 -52.828335 0.006988 -151.611071 0.007168 -145.190336 0.310541 -117.039709 
0.8951290250000000 0.300430 -52.901948 0.007144 -151.647445 0.006890 -144.358610 0.309960 -117.151618 
0.8952540500000000 0.298636 -53.041686 0.007256 -151.373311 0.007064 -143.813109 0.310033 -116.986259 
0.8953790750000000 0.297607 -53.109545 0.006988 -151.421994 0.007219 -145.974067 0.309652 -117.263314 
0.8955041000000000 0.296268 -53.213918 0.007078 -152.825573 0.006970 -146.768738 0.309174 -117.146775 
0.8956291250000000 0.294724 -53.174594 0.007078 -152.987873 0.006948 -146.847563 0.308842 -117.292999 
0.8957541500000000 0.292732 -53.326621 0.007196 -154.475772 0.006936 -147.668090 0.309167 -117.347885 
0.8958791750000000 0.291231 -53.462121 0.006982 -155.258751 0.007018 -148.327206 0.308970 -117.523034 
0.8960042000000000 0.290189 -53.512130 0.007063 -154.294693 0.007053 -148.209781 0.308312 -117.324696 
0.8961292250000000 0.288889 -53.596147 0.006955 -155.394144 0.007054 -148.027873 0.308079 -117.395077 
0.8962542500000000 0.286979 -53.666890 0.007055 -154.609245 0.006978 -150.197323 0.308010 -117.395252 
0.8963792750000000 0.285325 -53.787686 0.007119 -156.587741 0.006996 -149.824520 0.307422 -117.468070 
0.8965043000000000 0.284265 -53.928521 0.007077 -156.327956 0.007066 -150.255118 0.307258 -117.538547 
0.8966293250000000 0.282833 -53.870129 0.007124 -158.812434 0.006925 -150.660299 0.306871 -117.634084 
0.8967543500000000 0.281242 -53.987483 0.007049 -158.554838 0.007006 -150.505660 0.306525 -117.510267 
0.8968793750000000 0.279630 -53.979291 0.006999 -157.112008 0.006912 -149.758930 0.306278 -117.643810 
0.8970044000000000 0.278317 -54.019734 0.007011 -158.572733 0.007003 -152.991763 0.306360 -117.635862 
0.8971294250000000 0.276694 -54.208870 0.006983 -158.958554 0.006915 -153.334234 0.306952 -117.545889 
0.8972544500000000 0.275403 -54.304745 0.007047 -159.725744 0.007067 -153.576724 0.305547 -117.628470 
0.8973794750000000 0.274056 -54.232020 0.007002 -159.781881 0.006944 -153.982163 0.305310 -117.716401 
0.8975045000000000 0.272415 -54.398528 0.007032 -160.808225 0.007075 -154.346878 0.305532 -117.752672 
0.8976295250000000 0.270503 -54.442407 0.006792 -162.690848 0.006922 -155.753360 0.304903 -117.737171 
0.8977545500000000 0.269387 -54.512128 0.007199 -162.053499 0.006981 -155.516527 0.304356 -117.732859 
0.8978795750000000 0.267579 -54.537152 0.007105 -162.467291 0.006855 -156.621898 0.304879 -117.833462 
0.8980046000000000 0.266139 -54.570394 0.007120 -162.738452 0.006977 -156.902703 0.304149 -117.997244 
0.8981296250000000 0.264580 -54.703171 0.007096 -163.366030 0.006933 -158.554230 0.304426 -117.924004 
0.8982546500000000 0.263195 -54.680889 0.007025 -163.706813 0.007086 -158.593785 0.303460 -117.831679 
0.8983796750000000 0.261748 -54.706154 0.007179 -165.093345 0.006840 -156.508760 0.303229 -117.848099 
0.8985047000000001 0.260288 -54.729786 0.007034 -165.865784 0.006994 -158.916773 0.303045 -117.850173 
0.8986297250000001 0.258788 -54.813427 0.007117 -165.950720 0.007033 -159.955490 0.303120 -118.202107 
