!
! C:\Users\rflab\Downloads\Lab5_KD_ZW\Q3\270.S2P
!
! Touchstone 1.1 file saved by VNA.EXE V1.65 (www.ke5fx.com/gpib/readme.htm)
! 11/18/2024 10:37:21 PM
!
!    Source: HEWLETT PACKARD,8753D,0,6.14
!  Min freq: 8.750000E+008 Hz
!  Max freq: 9.750200E+008 Hz
!    Points: 801
!    Params: S11 S21 S12 S22
!
!!!!!
# GHZ S MA R 50
0.8750000000000000 0.481323 -33.407951 0.006042 -108.096075 0.006036 -99.108869 0.349475 -111.097148 
0.8751250250000000 0.479348 -33.493798 0.006083 -109.507296 0.006060 -98.501787 0.350325 -111.096989 
0.8752500500000000 0.480073 -33.585011 0.006133 -110.265123 0.006001 -100.332127 0.349255 -111.073451 
0.8753750750000000 0.478898 -33.867282 0.006241 -109.593748 0.005982 -100.467028 0.349051 -111.236755 
0.8755001000000000 0.476935 -33.857849 0.006053 -110.717691 0.005973 -100.613752 0.349009 -111.287863 
0.8756251250000000 0.477698 -33.928640 0.006122 -110.714844 0.006037 -101.526476 0.349148 -111.235975 
0.8757501500000000 0.476028 -34.050704 0.006121 -111.889265 0.005936 -101.143846 0.348583 -111.412055 
0.8758751750000000 0.475572 -34.198920 0.005971 -113.473755 0.006045 -101.580259 0.348717 -111.344228 
0.8760002000000000 0.474734 -34.312183 0.006082 -111.981601 0.005949 -102.508881 0.348527 -111.415716 
0.8761252250000000 0.473219 -34.612427 0.006161 -114.543780 0.006006 -102.600844 0.348927 -111.459895 
0.8762502500000000 0.472688 -34.688372 0.006199 -112.436467 0.006037 -104.351269 0.347919 -111.449578 
0.8763752750000000 0.472319 -34.773357 0.006156 -114.818228 0.005969 -104.872158 0.347836 -111.552176 
0.8765003000000000 0.471213 -35.034277 0.006070 -114.541557 0.006095 -104.360241 0.347905 -111.526087 
0.8766253250000000 0.469538 -34.995677 0.006137 -117.038871 0.006023 -105.543537 0.346623 -111.593460 
0.8767503500000000 0.468467 -35.101183 0.006103 -115.255686 0.006009 -107.589465 0.347176 -111.687311 
0.8768753750000000 0.467969 -35.377405 0.006184 -116.401075 0.005942 -106.733596 0.346457 -111.702070 
0.8770004000000000 0.466564 -35.380406 0.006144 -117.992972 0.005948 -106.745441 0.346473 -111.804216 
0.8771254250000000 0.465681 -35.586782 0.006132 -118.201167 0.005977 -106.507932 0.346025 -111.795776 
0.8772504500000000 0.464850 -35.692465 0.006170 -116.915582 0.005956 -107.919958 0.345589 -111.819263 
0.8773754750000000 0.464151 -35.849697 0.006150 -118.057327 0.005990 -108.543117 0.345313 -111.990413 
0.8775005000000000 0.463515 -35.969409 0.006137 -118.422863 0.005969 -108.914006 0.345017 -111.868226 
0.8776255250000000 0.462183 -36.115133 0.006131 -120.066553 0.006059 -109.531580 0.345035 -111.943515 
0.8777505500000000 0.461682 -36.244981 0.006221 -118.995309 0.005956 -109.273381 0.344581 -111.946524 
0.8778755750000000 0.460688 -36.432280 0.006063 -121.201000 0.006021 -109.851304 0.344112 -112.010882 
0.8780006000000000 0.459372 -36.456528 0.006057 -121.059674 0.006048 -109.753487 0.344473 -112.145453 
0.8781256250000000 0.458840 -36.693078 0.006005 -121.257899 0.006076 -112.299915 0.344359 -112.125768 
0.8782506500000000 0.457562 -36.826719 0.006147 -121.052180 0.006059 -112.136340 0.344166 -112.248601 
0.8783756750000000 0.457078 -36.984658 0.006225 -123.004733 0.006068 -113.384211 0.343381 -112.197607 
0.8785007000000000 0.456057 -37.069262 0.006287 -122.625826 0.006006 -112.717146 0.342644 -112.192771 
0.8786257250000000 0.454915 -37.206985 0.006208 -122.805037 0.006235 -112.937376 0.342814 -112.302448 
0.8787507500000000 0.454981 -37.347982 0.006113 -124.097886 0.006046 -114.191894 0.342625 -112.265776 
0.8788757750000000 0.453522 -37.503360 0.006264 -124.809077 0.006029 -115.156509 0.343285 -112.413382 
0.8790008000000000 0.450729 -37.563158 0.006202 -123.424957 0.005954 -115.569680 0.342098 -112.373741 
0.8791258250000000 0.451268 -37.772358 0.006190 -125.246227 0.006126 -115.075084 0.341800 -112.305840 
0.8792508500000000 0.450626 -37.904420 0.006194 -126.416492 0.006159 -115.870711 0.342117 -112.488556 
0.8793758750000000 0.449278 -38.016132 0.006182 -127.260591 0.006087 -117.958166 0.341476 -112.294905 
0.8795009000000000 0.448571 -38.061994 0.006172 -128.551271 0.006172 -117.925114 0.341722 -112.515960 
0.8796259250000000 0.447337 -38.148552 0.006136 -128.563855 0.006103 -117.932649 0.340931 -112.543329 
0.8797509500000000 0.446284 -38.264832 0.006140 -128.447147 0.006056 -118.427555 0.341494 -112.637197 
0.8798759750000000 0.445467 -38.422881 0.006124 -128.229898 0.006275 -118.578840 0.340604 -112.571685 
0.8800010000000000 0.444083 -38.688096 0.006220 -129.769019 0.006072 -119.566838 0.340149 -112.681557 
0.8801260250000000 0.442797 -38.758173 0.006162 -130.418081 0.006053 -119.515356 0.339830 -112.726333 
0.8802510500000000 0.442703 -38.831289 0.006316 -131.835776 0.006178 -121.956626 0.339414 -112.811665 
0.8803760750000000 0.441583 -38.978902 0.006334 -130.114275 0.006067 -120.030844 0.339392 -112.762922 
0.8805011000000000 0.440491 -39.206594 0.006203 -130.860687 0.006030 -121.716734 0.339448 -112.865139 
0.8806261250000000 0.439436 -39.182748 0.006194 -131.867222 0.006158 -124.032129 0.339270 -112.900147 
0.8807511500000000 0.438216 -39.315376 0.006330 -133.260223 0.006163 -123.404831 0.339106 -112.900686 
0.8808761750000000 0.437337 -39.640488 0.006150 -132.634059 0.006122 -124.211123 0.338856 -112.946543 
0.8810012000000000 0.435780 -39.726715 0.006228 -133.725041 0.006111 -123.726029 0.338823 -112.999380 
0.8811262250000000 0.435721 -39.764470 0.006293 -134.441240 0.006112 -124.424033 0.338074 -112.991462 
0.8812512500000000 0.434866 -39.874041 0.006164 -134.533024 0.006129 -125.209665 0.337415 -113.072713 
0.8813762750000000 0.433608 -40.121032 0.006243 -134.588426 0.006197 -126.214729 0.337665 -112.987132 
0.8815013000000000 0.432160 -40.116134 0.006242 -136.940799 0.006080 -125.546034 0.337046 -113.229249 
0.8816263250000000 0.430482 -40.357885 0.006221 -136.832393 0.006177 -126.964543 0.336192 -113.167181 
0.8817513500000000 0.430166 -40.415025 0.006314 -137.904730 0.006156 -125.721327 0.336121 -113.296958 
0.8818763750000001 0.428937 -40.552211 0.006187 -136.508337 0.006119 -127.722660 0.335620 -113.322406 
0.8820014000000001 0.428453 -40.680302 0.006217 -137.533282 0.006130 -129.087157 0.335864 -113.327107 
0.8821264250000001 0.426306 -40.785032 0.006222 -138.233731 0.006199 -129.801055 0.335950 -113.400205 
0.8822514500000001 0.425380 -41.020622 0.006275 -139.357152 0.006212 -130.105157 0.335275 -113.330760 
0.8823764750000001 0.424575 -41.115225 0.006315 -138.848260 0.006312 -129.599421 0.335785 -113.361321 
0.8825015000000001 0.424032 -41.228593 0.006351 -140.529888 0.006286 -130.699350 0.334664 -113.404408 
0.8826265250000001 0.423602 -41.246694 0.006242 -142.209094 0.006145 -130.619622 0.334798 -113.496899 
0.8827515500000001 0.420941 -41.456914 0.006278 -141.274267 0.006199 -133.151582 0.335457 -113.533278 
0.8828765750000001 0.420790 -41.624910 0.006229 -141.158673 0.006111 -132.435192 0.334749 -113.660188 
0.8830016000000001 0.419835 -41.685071 0.006146 -142.398341 0.006137 -133.334662 0.334693 -113.755625 
0.8831266250000001 0.418646 -41.816155 0.006266 -143.069936 0.006190 -133.589123 0.334862 -113.691569 
0.8832516500000001 0.417297 -41.976470 0.006199 -142.783689 0.006218 -134.645793 0.333558 -113.858699 
0.8833766749999999 0.416145 -42.167412 0.006348 -144.511853 0.006118 -133.986383 0.332600 -113.719088 
0.8835017000000000 0.414564 -42.302911 0.006195 -144.192141 0.006074 -135.302136 0.333610 -113.723013 
0.8836267250000000 0.413139 -42.268136 0.006212 -145.352409 0.006070 -135.063643 0.333148 -113.958752 
0.8837517500000000 0.412564 -42.472828 0.006302 -145.553549 0.006183 -136.377982 0.333398 -113.744689 
0.8838767750000000 0.411732 -42.651064 0.006160 -145.996276 0.006191 -136.613584 0.332736 -113.863772 
0.8840018000000000 0.410802 -42.654776 0.006271 -147.082063 0.006121 -137.668064 0.333043 -113.943840 
0.8841268250000000 0.409972 -42.880912 0.006224 -146.018948 0.006164 -138.562649 0.332315 -113.959280 
0.8842518500000000 0.408911 -43.062996 0.006355 -149.687240 0.006200 -139.163537 0.331311 -114.088419 
0.8843768750000000 0.407056 -43.242585 0.006112 -148.204508 0.006157 -139.843895 0.331342 -114.074477 
0.8845019000000000 0.406682 -43.327647 0.006287 -148.080757 0.006227 -138.620073 0.331757 -114.002082 
0.8846269250000000 0.404505 -43.473068 0.006277 -149.158652 0.006199 -140.130657 0.331128 -114.224143 
0.8847519500000000 0.404959 -43.587779 0.006282 -150.634900 0.006059 -140.662059 0.330963 -114.173311 
0.8848769750000000 0.403684 -43.661441 0.006176 -151.626435 0.006192 -142.417958 0.330446 -114.219303 
0.8850020000000000 0.401567 -43.811447 0.006215 -151.535492 0.006230 -142.481941 0.330551 -114.182160 
0.8851270250000000 0.401355 -43.943312 0.006117 -152.869684 0.006038 -142.234153 0.329548 -114.324515 
0.8852520500000000 0.400392 -44.149234 0.006214 -152.559899 0.006160 -142.634230 0.330178 -114.257681 
0.8853770750000000 0.398179 -44.158477 0.006229 -153.827243 0.006193 -144.954129 0.329744 -114.361445 
0.8855021000000000 0.398028 -44.268445 0.006207 -154.230266 0.006116 -144.104004 0.329153 -114.443083 
0.8856271250000000 0.396284 -44.505482 0.006163 -154.283536 0.006244 -145.877932 0.328704 -114.373508 
0.8857521500000000 0.395358 -44.473037 0.006312 -154.515073 0.006253 -146.353553 0.328807 -114.464634 
0.8858771750000000 0.393999 -44.683051 0.006188 -155.522434 0.006243 -146.337854 0.328489 -114.688886 
0.8860022000000000 0.393076 -44.960679 0.006191 -156.408527 0.006176 -148.411051 0.327994 -114.499980 
0.8861272250000000 0.391717 -44.910049 0.006143 -156.383862 0.006196 -148.027333 0.328429 -114.576584 
0.8862522500000000 0.391414 -44.954198 0.006126 -157.171542 0.006036 -149.017613 0.328216 -114.482302 
0.8863772750000000 0.390025 -45.212396 0.006163 -156.997563 0.006043 -149.093621 0.328261 -114.742398 
0.8865023000000000 0.388680 -45.335598 0.006039 -158.527903 0.006144 -150.504419 0.327322 -114.653500 
0.8866273250000000 0.387780 -45.467103 0.006091 -159.573107 0.006125 -150.585391 0.327045 -114.534656 
0.8867523500000000 0.385653 -45.448835 0.006122 -159.371351 0.006175 -150.590432 0.327023 -114.642192 
0.8868773750000000 0.385410 -45.680110 0.006091 -161.051593 0.005950 -151.278124 0.326930 -114.632074 
0.8870024000000000 0.384764 -45.817833 0.006123 -160.247136 0.006162 -151.929858 0.326099 -114.929440 
0.8871274250000000 0.383473 -45.957633 0.006246 -162.090685 0.006224 -152.476965 0.326787 -114.896965 
0.8872524500000000 0.380908 -46.079333 0.006140 -162.139198 0.005969 -152.964150 0.326041 -114.945938 
0.8873774750000000 0.380313 -46.228978 0.006098 -162.976330 0.006181 -153.664237 0.326060 -114.914843 
0.8875025000000000 0.379662 -46.208274 0.006189 -162.660989 0.006164 -154.854308 0.325089 -115.107230 
0.8876275250000000 0.377615 -46.506307 0.006081 -164.760644 0.006171 -154.719941 0.325394 -115.070128 
0.8877525500000000 0.377475 -46.505236 0.006151 -162.659223 0.006063 -155.761159 0.324760 -115.021445 
0.8878775750000000 0.375639 -46.560348 0.006207 -165.413943 0.006103 -154.924684 0.324731 -115.124891 
0.8880026000000000 0.374640 -46.701517 0.006175 -164.713448 0.006170 -155.496685 0.323929 -115.102009 
0.8881276250000000 0.373815 -46.788005 0.006022 -165.466357 0.006178 -157.060378 0.324109 -115.081092 
0.8882526500000000 0.372379 -47.082261 0.006156 -165.919624 0.006150 -158.173016 0.323683 -115.098485 
0.8883776750000000 0.371405 -47.250962 0.006062 -166.521276 0.006147 -158.300939 0.323737 -115.207446 
0.8885027000000000 0.369469 -47.359893 0.006115 -167.456173 0.006164 -160.701588 0.323391 -115.242269 
0.8886277250000000 0.368225 -47.433402 0.006081 -168.208983 0.006146 -158.736833 0.323285 -115.215222 
0.8887527500000000 0.367125 -47.518226 0.006095 -169.169154 0.006223 -160.558501 0.323332 -115.384750 
0.8888777750000000 0.365244 -47.624398 0.006102 -168.300202 0.006158 -160.192777 0.323222 -115.394029 
0.8890028000000000 0.364560 -47.792293 0.006149 -169.161459 0.006102 -161.590538 0.322832 -115.235144 
0.8891278250000000 0.363718 -47.863423 0.005934 -168.913986 0.006044 -162.342631 0.322202 -115.480140 
0.8892528500000000 0.361845 -47.950114 0.005984 -171.587750 0.006152 -161.774308 0.321670 -115.483204 
0.8893778750000000 0.361124 -47.993717 0.006044 -171.543219 0.006219 -163.561623 0.321939 -115.520559 
0.8895029000000000 0.360239 -48.124810 0.006107 -171.699719 0.006160 -162.748901 0.321696 -115.493027 
0.8896279250000000 0.359144 -48.268821 0.006087 -171.897829 0.006085 -163.637061 0.321806 -115.483678 
0.8897529500000000 0.357154 -48.413626 0.006113 -172.924875 0.005990 -164.339656 0.321445 -115.689263 
0.8898779750000000 0.355547 -48.335014 0.006153 -174.155087 0.005974 -165.281575 0.320933 -115.612319 
0.8900030000000000 0.354178 -48.603218 0.006157 -174.020956 0.005933 -166.451794 0.320444 -115.745097 
0.8901280250000000 0.353509 -48.662615 0.006151 -174.354812 0.006157 -165.092021 0.320084 -115.648885 
0.8902530500000000 0.352565 -48.867498 0.005963 -175.684231 0.006037 -166.283174 0.319955 -115.714522 
0.8903780750000000 0.350952 -48.915315 0.006015 -175.968099 0.006068 -166.284821 0.319937 -115.770678 
0.8905031000000000 0.349413 -49.033680 0.006145 -176.391772 0.006129 -168.794096 0.319894 -115.792586 
0.8906281250000000 0.347891 -49.042442 0.006145 -176.365429 0.006127 -168.944540 0.319128 -115.822585 
0.8907531500000000 0.347079 -49.116194 0.006056 -176.822422 0.006105 -168.396918 0.319005 -115.814942 
0.8908781750000000 0.345193 -49.373976 0.006123 -177.853306 0.006058 -169.628587 0.318922 -115.834376 
0.8910032000000000 0.343709 -49.369463 0.006070 -177.271334 0.006104 -170.085880 0.318655 -115.961360 
0.8911282250000000 0.343037 -49.598573 0.006010 -179.027090 0.006001 -169.765196 0.318014 -115.950321 
0.8912532500000000 0.342178 -49.657270 0.006144 -178.790301 0.006054 -170.749848 0.318267 -116.056452 
0.8913782750000000 0.340130 -49.785677 0.006091 179.874405 0.005952 -171.931565 0.318071 -116.183980 
0.8915033000000000 0.339417 -49.832313 0.006032 179.857319 0.006122 -173.168925 0.317012 -116.044577 
0.8916283250000000 0.337976 -49.937416 0.005984 179.034279 0.006033 -173.341752 0.317637 -116.099764 
0.8917533500000000 0.336744 -49.985016 0.005961 -179.901467 0.006117 -173.725410 0.316967 -116.128385 
0.8918783750000000 0.335499 -50.133032 0.006061 179.301331 0.006026 -173.827023 0.316569 -116.194533 
0.8920034000000000 0.333487 -50.260889 0.006028 176.762090 0.005970 -174.210634 0.316348 -116.263480 
0.8921284250000000 0.332387 -50.291416 0.006078 176.606613 0.006036 -175.881810 0.316281 -116.251060 
0.8922534500000000 0.331322 -50.484652 0.006076 176.979060 0.005955 -176.286019 0.316305 -116.347502 
0.8923784750000000 0.329916 -50.489280 0.006171 175.268709 0.006016 -176.983393 0.315826 -116.470971 
0.8925035000000000 0.328555 -50.576347 0.006093 174.377300 0.006001 -177.009943 0.315895 -116.409093 
0.8926285250000000 0.326584 -50.714738 0.005934 173.350685 0.006159 -178.735740 0.314871 -116.445849 
0.8927535500000000 0.325349 -50.772796 0.006106 174.060557 0.006023 -178.727474 0.315444 -116.431193 
0.8928785750000000 0.323821 -50.980523 0.006094 173.625649 0.005919 -178.712100 0.314979 -116.547675 
0.8930036000000000 0.322768 -50.978920 0.006052 172.903258 0.006082 -179.294732 0.314666 -116.433345 
0.8931286250000000 0.321377 -51.103551 0.006086 172.617460 0.006040 179.681116 0.314079 -116.654686 
0.8932536500000000 0.319512 -51.178239 0.006021 172.082291 0.005940 179.333082 0.313683 -116.560068 
0.8933786750000000 0.318064 -51.349200 0.005991 170.045515 0.006066 178.238720 0.313724 -116.612398 
0.8935037000000000 0.317085 -51.345353 0.005957 170.574244 0.006244 176.988477 0.313328 -116.629942 
0.8936287250000000 0.315603 -51.424551 0.005925 170.006313 0.006042 176.595302 0.312703 -116.825127 
0.8937537500000000 0.314352 -51.438346 0.006007 169.634746 0.005923 175.604655 0.312429 -116.775293 
0.8938787750000000 0.312860 -51.588514 0.006008 168.265102 0.005918 175.797288 0.313275 -116.759741 
0.8940038000000000 0.311491 -51.689545 0.006051 168.122035 0.006103 175.893494 0.312688 -116.732598 
0.8941288250000000 0.310052 -51.766905 0.006000 166.545798 0.005953 174.286206 0.312281 -116.845500 
0.8942538500000000 0.308402 -51.853768 0.005994 167.977662 0.006079 174.143186 0.311993 -116.778101 
0.8943788750000000 0.307008 -51.899227 0.006100 167.150568 0.006020 172.398159 0.311871 -116.833339 
0.8945039000000000 0.305734 -52.013660 0.006116 166.703718 0.006081 173.602000 0.312132 -116.890735 
0.8946289250000000 0.303986 -52.099286 0.006097 165.108416 0.006069 171.318870 0.311425 -116.956756 
0.8947539500000000 0.302257 -52.181324 0.006037 164.606950 0.006072 172.600694 0.310977 -117.017678 
0.8948789750000000 0.301279 -52.264743 0.006114 165.280436 0.006074 171.358820 0.311333 -117.059859 
0.8950040000000000 0.299746 -52.248053 0.006001 162.441874 0.005970 170.678732 0.310480 -117.178341 
0.8951290250000000 0.298225 -52.333279 0.006092 162.540829 0.006123 170.811646 0.310296 -117.062768 
0.8952540500000000 0.296566 -52.502767 0.006026 162.157140 0.005970 170.182219 0.309864 -117.024338 
0.8953790750000000 0.295315 -52.566426 0.006055 160.162236 0.005866 167.294623 0.309754 -117.145686 
0.8955041000000000 0.293839 -52.604658 0.005965 162.425465 0.005935 167.547580 0.309706 -117.140729 
0.8956291250000000 0.292242 -52.610163 0.006142 160.986213 0.005886 166.051565 0.309476 -117.280140 
0.8957541500000000 0.290765 -52.679082 0.005920 159.396690 0.005903 167.977006 0.308583 -117.187168 
0.8958791750000000 0.288941 -52.844460 0.006120 160.895886 0.005912 166.294957 0.308954 -117.419292 
0.8960042000000000 0.287633 -52.795756 0.005995 159.196445 0.005827 166.747268 0.308599 -117.329055 
0.8961292250000000 0.286137 -52.978553 0.006058 157.681438 0.005945 165.386959 0.308321 -117.259986 
0.8962542500000000 0.284608 -52.973439 0.006007 157.763223 0.005817 164.173956 0.308392 -117.384088 
0.8963792750000000 0.283390 -53.038782 0.005998 157.496473 0.006026 163.036094 0.308196 -117.418864 
0.8965043000000000 0.282062 -53.103455 0.006052 155.544278 0.006211 162.444852 0.307817 -117.670173 
0.8966293250000000 0.280231 -53.056477 0.006119 155.503016 0.005985 161.944005 0.307862 -117.502341 
0.8967543500000000 0.278711 -53.174654 0.005969 155.803979 0.005997 160.694903 0.307765 -117.559817 
0.8968793750000000 0.277173 -53.220309 0.006023 154.765918 0.005974 161.436341 0.306993 -117.548304 
0.8970044000000000 0.275776 -53.232808 0.005832 154.660729 0.005967 161.114026 0.306526 -117.597012 
0.8971294250000000 0.274032 -53.358540 0.006047 154.038051 0.006075 161.044539 0.306705 -117.531380 
0.8972544500000000 0.272427 -53.387475 0.005895 151.689517 0.005949 161.494621 0.306446 -117.611316 
0.8973794750000000 0.271699 -53.313509 0.005953 151.743536 0.005974 157.443110 0.306139 -117.741379 
0.8975045000000000 0.269601 -53.494599 0.006012 150.941643 0.005933 158.036540 0.306088 -117.717299 
0.8976295250000000 0.267952 -53.477259 0.005935 152.595978 0.005906 158.037535 0.305999 -117.777695 
0.8977545500000000 0.266591 -53.574798 0.006009 149.687763 0.005907 155.676614 0.304574 -117.785938 
0.8978795750000000 0.264999 -53.513469 0.006010 148.137254 0.005874 156.923564 0.305370 -117.823737 
0.8980046000000000 0.263202 -53.517411 0.005937 148.595850 0.005780 155.093625 0.305097 -117.935114 
0.8981296250000000 0.262124 -53.592051 0.005926 149.191204 0.005969 154.111427 0.304307 -117.893688 
0.8982546500000000 0.260321 -53.524725 0.006051 145.804609 0.006024 155.370248 0.304474 -117.922495 
0.8983796750000000 0.259275 -53.630506 0.005969 147.376287 0.006075 152.643514 0.303838 -117.855838 
0.8985047000000001 0.257261 -53.557620 0.006037 146.635017 0.005976 152.963701 0.304059 -117.934640 
0.8986297250000001 0.256083 -53.679072 0.005888 145.401392 0.005793 151.921552 0.303476 -118.015887 
