!
! C:\Users\rflab\Downloads\Lab5_KD_ZW\Q3\280.S2P
!
! Touchstone 1.1 file saved by VNA.EXE V1.65 (www.ke5fx.com/gpib/readme.htm)
! 11/18/2024 10:39:01 PM
!
!    Source: HEWLETT PACKARD,8753D,0,6.14
!  Min freq: 8.750000E+008 Hz
!  Max freq: 9.750200E+008 Hz
!    Points: 801
!    Params: S11 S21 S12 S22
!
!!!!!
# GHZ S MA R 50
0.8750000000000000 0.481079 -33.105382 0.007394 -135.917094 0.007226 -124.401038 0.350087 -111.176280 
0.8751250250000000 0.480037 -33.234437 0.007474 -135.173192 0.007318 -124.934826 0.349887 -111.285443 
0.8752500500000000 0.479540 -33.343193 0.007448 -136.151677 0.007348 -126.013977 0.349579 -111.224608 
0.8753750750000000 0.479757 -33.409057 0.007436 -136.226391 0.007371 -127.178294 0.349315 -111.279012 
0.8755001000000000 0.477077 -33.612814 0.007461 -137.001881 0.007373 -126.049441 0.349361 -111.394329 
0.8756251250000000 0.477313 -33.681941 0.007537 -136.797037 0.007272 -126.674545 0.348947 -111.399429 
0.8757501500000000 0.476565 -33.949558 0.007494 -137.253725 0.007279 -127.451652 0.349028 -111.501863 
0.8758751750000000 0.475258 -34.051295 0.007443 -138.932511 0.007253 -128.802769 0.349215 -111.511325 
0.8760002000000000 0.474327 -34.194114 0.007471 -137.892366 0.007308 -128.690752 0.348454 -111.549815 
0.8761252250000000 0.473128 -34.230250 0.007463 -139.687759 0.007234 -129.487382 0.348731 -111.596566 
0.8762502500000000 0.472201 -34.374075 0.007544 -140.061359 0.007247 -129.815707 0.348304 -111.678358 
0.8763752750000000 0.471462 -34.511963 0.007448 -140.921444 0.007382 -129.525062 0.347272 -111.713523 
0.8765003000000000 0.471184 -34.769793 0.007553 -140.427844 0.007308 -130.453696 0.347307 -111.646221 
0.8766253250000000 0.469664 -34.789811 0.007558 -141.104795 0.007227 -131.568232 0.347454 -111.734125 
0.8767503500000000 0.469629 -34.888006 0.007620 -141.639779 0.007435 -132.049757 0.347046 -111.701300 
0.8768753750000000 0.467814 -35.221366 0.007470 -142.359827 0.007307 -131.746259 0.347346 -111.865906 
0.8770004000000000 0.466900 -35.140207 0.007526 -143.276772 0.007325 -133.063788 0.346269 -111.828605 
0.8771254250000000 0.466197 -35.384858 0.007475 -142.701034 0.007403 -131.775440 0.346428 -111.867014 
0.8772504500000000 0.465042 -35.573736 0.007448 -143.985576 0.007339 -133.394094 0.345758 -112.091588 
0.8773754750000000 0.464075 -35.584975 0.007405 -144.122633 0.007416 -134.244574 0.345472 -111.974351 
0.8775005000000000 0.464460 -35.706166 0.007601 -144.377499 0.007424 -135.127503 0.345358 -111.954661 
0.8776255250000000 0.461941 -35.893650 0.007472 -144.766241 0.007469 -134.974132 0.345627 -112.078538 
0.8777505500000000 0.461516 -36.072363 0.007560 -146.059350 0.007244 -135.576081 0.345336 -112.174686 
0.8778755750000000 0.460525 -36.218728 0.007516 -145.444860 0.007332 -136.818383 0.345393 -112.023268 
0.8780006000000000 0.459622 -36.206793 0.007510 -146.747825 0.007393 -136.905234 0.344923 -112.208079 
0.8781256250000000 0.458613 -36.498165 0.007453 -147.159932 0.007287 -137.524793 0.344063 -112.233635 
0.8782506500000000 0.457611 -36.569562 0.007497 -147.557313 0.007425 -137.511706 0.343843 -112.265062 
0.8783756750000000 0.456817 -36.688858 0.007414 -148.009850 0.007409 -138.475169 0.343139 -112.219646 
0.8785007000000000 0.456041 -36.737619 0.007528 -149.007612 0.007374 -139.284582 0.343032 -112.243448 
0.8786257250000000 0.455124 -36.891027 0.007479 -149.088245 0.007403 -139.286227 0.342566 -112.429833 
0.8787507500000000 0.453971 -37.104076 0.007585 -150.024598 0.007509 -139.468164 0.343089 -112.360731 
0.8788757750000000 0.453187 -37.254188 0.007512 -151.390119 0.007335 -141.177318 0.342230 -112.480743 
0.8790008000000000 0.451624 -37.341850 0.007444 -149.803535 0.007405 -140.655035 0.342286 -112.476833 
0.8791258250000000 0.451862 -37.435644 0.007509 -151.060251 0.007414 -141.103658 0.342158 -112.585272 
0.8792508500000000 0.450096 -37.585879 0.007516 -152.085535 0.007449 -141.794981 0.341804 -112.549036 
0.8793758750000000 0.449310 -37.685213 0.007532 -152.547581 0.007446 -142.572353 0.341764 -112.546274 
0.8795009000000000 0.448386 -37.815988 0.007498 -153.741299 0.007362 -142.656550 0.341410 -112.643107 
0.8796259250000000 0.447642 -37.976564 0.007481 -152.023755 0.007558 -142.951537 0.341417 -112.725842 
0.8797509500000000 0.446678 -38.110501 0.007628 -153.768103 0.007388 -142.866803 0.341081 -112.816249 
0.8798759750000000 0.445180 -38.319368 0.007540 -155.409099 0.007348 -144.164525 0.341424 -112.741982 
0.8800010000000000 0.444274 -38.456977 0.007630 -154.563901 0.007633 -145.167206 0.340195 -112.806488 
0.8801260250000000 0.443148 -38.552590 0.007664 -156.169977 0.007586 -146.852330 0.339316 -112.997637 
0.8802510500000000 0.442920 -38.677069 0.007590 -155.953449 0.007661 -146.997362 0.339388 -112.986840 
0.8803760750000000 0.441858 -38.713885 0.007661 -156.766759 0.007423 -145.899582 0.339132 -112.977220 
0.8805011000000000 0.440925 -38.974116 0.007556 -157.399607 0.007583 -147.305258 0.339423 -113.040306 
0.8806261250000000 0.439973 -39.120651 0.007568 -158.076587 0.007469 -147.492901 0.338798 -113.029166 
0.8807511500000000 0.437892 -39.187704 0.007624 -157.420659 0.007557 -148.317656 0.338084 -113.153771 
0.8808761750000000 0.437004 -39.326567 0.007734 -159.084234 0.007622 -148.835846 0.338292 -113.104940 
0.8810012000000000 0.436555 -39.478649 0.007697 -158.828701 0.007566 -149.739143 0.338837 -113.149797 
0.8811262250000000 0.434964 -39.685381 0.007605 -160.720976 0.007678 -149.343208 0.337903 -113.200632 
0.8812512500000000 0.434384 -39.678273 0.007428 -159.831816 0.007453 -150.682982 0.337491 -113.247568 
0.8813762750000000 0.432792 -39.929721 0.007714 -160.159404 0.007608 -151.534836 0.337179 -113.360648 
0.8815013000000000 0.432449 -40.004623 0.007539 -161.092885 0.007567 -151.828116 0.337214 -113.177474 
0.8816263250000000 0.431960 -40.141155 0.007644 -162.283920 0.007517 -152.527887 0.337237 -113.435520 
0.8817513500000000 0.430384 -40.201167 0.007716 -161.877470 0.007558 -152.487595 0.336594 -113.352754 
0.8818763750000001 0.428894 -40.369580 0.007778 -163.175934 0.007530 -153.236992 0.336622 -113.350696 
0.8820014000000001 0.427819 -40.521723 0.007616 -164.285207 0.007519 -154.093118 0.336571 -113.382769 
0.8821264250000001 0.426357 -40.654675 0.007584 -163.969490 0.007547 -154.442024 0.336340 -113.592463 
0.8822514500000001 0.425981 -40.765810 0.007662 -164.079094 0.007537 -155.631939 0.335510 -113.449732 
0.8823764750000001 0.424669 -40.954102 0.007676 -164.702429 0.007490 -156.715675 0.335323 -113.480689 
0.8825015000000001 0.423494 -41.029202 0.007623 -165.680385 0.007536 -156.422934 0.335869 -113.616258 
0.8826265250000001 0.422371 -41.288540 0.007559 -165.772652 0.007628 -156.570981 0.334776 -113.658093 
0.8827515500000001 0.421160 -41.264623 0.007620 -167.022041 0.007610 -158.221924 0.335185 -113.661642 
0.8828765750000001 0.420947 -41.539371 0.007604 -168.145387 0.007609 -158.214590 0.334632 -113.731710 
0.8830016000000001 0.419120 -41.587799 0.007627 -168.078132 0.007619 -157.770433 0.334538 -113.773039 
0.8831266250000001 0.418469 -41.720120 0.007666 -167.301881 0.007590 -158.955255 0.334167 -113.732450 
0.8832516500000001 0.417753 -41.779708 0.007658 -168.124019 0.007702 -160.464534 0.333793 -113.846532 
0.8833766749999999 0.416549 -41.981442 0.007626 -168.574841 0.007608 -159.912581 0.332953 -113.726809 
0.8835017000000000 0.415507 -42.110923 0.007589 -170.788014 0.007551 -160.878499 0.333592 -113.833156 
0.8836267250000000 0.413107 -42.083642 0.007622 -171.122220 0.007731 -161.430949 0.332826 -113.989157 
0.8837517500000000 0.412852 -42.224264 0.007664 -171.430279 0.007595 -161.340963 0.333796 -113.938023 
0.8838767750000000 0.411704 -42.562236 0.007627 -172.495545 0.007557 -162.070365 0.332517 -114.128004 
0.8840018000000000 0.410634 -42.601078 0.007661 -172.317226 0.007504 -163.183936 0.331997 -114.133613 
0.8841268250000000 0.410019 -42.749887 0.007602 -172.999358 0.007653 -163.550021 0.331872 -114.085528 
0.8842518500000000 0.408729 -42.844193 0.007609 -173.386230 0.007615 -164.380829 0.331411 -114.126945 
0.8843768750000000 0.407602 -43.029453 0.007696 -174.453310 0.007523 -164.523519 0.331099 -114.174289 
0.8845019000000000 0.406766 -43.139450 0.007610 -173.787474 0.007648 -165.429171 0.331532 -114.134922 
0.8846269250000000 0.405784 -43.337669 0.007621 -174.582609 0.007507 -165.191418 0.330688 -114.235220 
0.8847519500000000 0.404200 -43.433661 0.007733 -175.947611 0.007663 -167.196999 0.331386 -114.348759 
0.8848769750000000 0.402514 -43.562292 0.007710 -176.411508 0.007575 -167.279506 0.330987 -114.426459 
0.8850020000000000 0.402241 -43.581315 0.007753 -177.550093 0.007606 -167.876395 0.330555 -114.402371 
0.8851270250000000 0.400670 -43.747051 0.007620 -177.288526 0.007654 -168.664167 0.330457 -114.543806 
0.8852520500000000 0.399656 -43.898597 0.007684 -178.502947 0.007502 -168.728639 0.329921 -114.493085 
0.8853770750000000 0.398859 -44.054515 0.007710 -179.277063 0.007649 -168.956235 0.330004 -114.486491 
0.8855021000000000 0.397914 -44.223176 0.007549 -178.773041 0.007472 -170.571341 0.330190 -114.582439 
0.8856271250000000 0.395995 -44.200678 0.007710 -179.408247 0.007670 -170.935894 0.329037 -114.475616 
0.8857521500000000 0.395154 -44.455570 0.007752 -179.918944 0.007548 -171.553539 0.329022 -114.546866 
0.8858771750000000 0.394532 -44.404555 0.007636 179.971373 0.007690 -172.152757 0.328880 -114.645917 
0.8860022000000000 0.392920 -44.675891 0.007618 178.134817 0.007409 -173.459054 0.328555 -114.701178 
0.8861272250000000 0.391569 -44.755291 0.007603 177.473140 0.007571 -173.592465 0.327809 -114.749426 
0.8862522500000000 0.390044 -44.961962 0.007699 177.358926 0.007621 -173.854196 0.327971 -114.759874 
0.8863772750000000 0.389980 -45.095110 0.007584 176.835556 0.007662 -174.024027 0.327565 -114.898541 
0.8865023000000000 0.388848 -45.151024 0.007647 176.260308 0.007593 -174.330583 0.327389 -114.806842 
0.8866273250000000 0.388150 -45.299430 0.007560 175.568585 0.007583 -175.946729 0.326731 -114.824850 
0.8867523500000000 0.385772 -45.437491 0.007658 175.364053 0.007591 -175.947463 0.326862 -114.938044 
0.8868773750000000 0.385779 -45.562482 0.007660 173.868155 0.007643 -176.362123 0.326294 -114.901636 
0.8870024000000000 0.385044 -45.696813 0.007744 174.002256 0.007554 -176.815756 0.326312 -114.959270 
0.8871274250000000 0.383320 -45.837045 0.007673 173.405404 0.007545 -177.065810 0.326314 -114.947300 
0.8872524500000000 0.380657 -45.963089 0.007496 173.267380 0.007569 -178.978452 0.326619 -115.099684 
0.8873774750000000 0.379825 -46.046597 0.007589 172.896860 0.007592 -178.963607 0.325784 -115.115132 
0.8875025000000000 0.379335 -46.100110 0.007687 173.062790 0.007526 -179.056108 0.324922 -115.222041 
0.8876275250000000 0.378106 -46.337543 0.007555 172.117413 0.007509 -179.694367 0.325293 -115.209135 
0.8877525500000000 0.376447 -46.289234 0.007592 170.732910 0.007679 179.729585 0.324950 -115.219749 
0.8878775750000000 0.374839 -46.557069 0.007642 170.293765 0.007505 179.632301 0.325268 -115.187388 
0.8880026000000000 0.374432 -46.571981 0.007628 169.445911 0.007616 177.699780 0.324302 -115.267697 
0.8881276250000000 0.373413 -46.723670 0.007630 168.617031 0.007585 177.304870 0.324314 -115.284631 
0.8882526500000000 0.372521 -46.845676 0.007559 169.142321 0.007614 176.973631 0.323841 -115.246537 
0.8883776750000000 0.371514 -47.028831 0.007678 167.850572 0.007482 177.044787 0.324088 -115.339249 
0.8885027000000000 0.369379 -47.089126 0.007547 167.606652 0.007701 177.100212 0.323080 -115.441935 
0.8886277250000000 0.367800 -47.168744 0.007578 167.128610 0.007612 176.577689 0.323371 -115.285743 
0.8887527500000000 0.368180 -47.220289 0.007622 165.967233 0.007593 175.584187 0.323227 -115.471489 
0.8888777750000000 0.365636 -47.404949 0.007563 165.784144 0.007435 174.999857 0.323022 -115.470788 
0.8890028000000000 0.364527 -47.609182 0.007652 166.853110 0.007502 173.111230 0.322793 -115.574208 
0.8891278250000000 0.364485 -47.758905 0.007620 165.574165 0.007671 174.127452 0.322765 -115.588650 
0.8892528500000000 0.362865 -47.829226 0.007651 164.232172 0.007611 173.954356 0.322088 -115.676442 
0.8893778750000000 0.361300 -47.868896 0.007651 163.809359 0.007459 173.624619 0.322138 -115.732417 
0.8895029000000000 0.359784 -47.925723 0.007564 163.010139 0.007607 172.265087 0.321884 -115.525237 
0.8896279250000000 0.358947 -48.139513 0.007604 163.526513 0.007474 170.689114 0.320827 -115.736315 
0.8897529500000000 0.357904 -48.183281 0.007614 163.151593 0.007554 171.389117 0.320611 -115.706495 
0.8898779750000000 0.355488 -48.260669 0.007592 162.522113 0.007527 169.557829 0.320369 -115.830342 
0.8900030000000000 0.355137 -48.453951 0.007558 160.931734 0.007622 169.558259 0.320742 -115.767800 
0.8901280250000000 0.353079 -48.528497 0.007579 161.607232 0.007553 170.016118 0.319933 -115.819569 
0.8902530500000000 0.352904 -48.579400 0.007486 160.477768 0.007577 168.687950 0.320384 -115.810844 
0.8903780750000000 0.350861 -48.826268 0.007547 159.947308 0.007592 167.452846 0.319635 -116.009693 
0.8905031000000000 0.349690 -48.897566 0.007532 160.020924 0.007585 167.109049 0.319933 -116.044435 
0.8906281250000000 0.348706 -48.949459 0.007509 159.576399 0.007555 166.982072 0.318791 -115.961626 
0.8907531500000000 0.346975 -49.024560 0.007622 158.481489 0.007556 166.808346 0.319265 -116.036001 
0.8908781750000000 0.345573 -49.207724 0.007566 157.857933 0.007618 165.219201 0.318880 -116.081963 
0.8910032000000000 0.345151 -49.207487 0.007521 157.768245 0.007560 165.442223 0.318153 -116.176701 
0.8911282250000000 0.343148 -49.443478 0.007590 156.777303 0.007718 164.542772 0.318784 -116.108792 
0.8912532500000000 0.342075 -49.464671 0.007644 156.041138 0.007717 163.915528 0.318398 -116.204032 
0.8913782750000000 0.340245 -49.599932 0.007522 155.378085 0.007586 163.121023 0.318494 -116.177125 
0.8915033000000000 0.338859 -49.688343 0.007591 154.403898 0.007604 162.226312 0.317821 -116.316557 
0.8916283250000000 0.338049 -49.782163 0.007637 153.863729 0.007737 161.541604 0.317534 -116.323716 
0.8917533500000000 0.336689 -49.854983 0.007462 154.746647 0.007509 161.115182 0.317604 -116.274531 
0.8918783750000000 0.335555 -49.926885 0.007611 152.311174 0.007499 160.355244 0.316509 -116.421750 
0.8920034000000000 0.333503 -50.085670 0.007504 153.347024 0.007565 160.639899 0.316007 -116.263154 
0.8921284250000000 0.332346 -50.110897 0.007596 152.263904 0.007580 159.206013 0.316536 -116.444007 
0.8922534500000000 0.331311 -50.263690 0.007629 151.495008 0.007624 159.817261 0.316331 -116.493364 
0.8923784750000000 0.329735 -50.377400 0.007672 150.790448 0.007599 158.772767 0.315771 -116.636857 
0.8925035000000000 0.328239 -50.396317 0.007681 150.192912 0.007568 157.283496 0.315184 -116.597310 
0.8926285250000000 0.326705 -50.524385 0.007551 150.355649 0.007541 158.129291 0.315417 -116.731148 
0.8927535500000000 0.325430 -50.589995 0.007699 149.185953 0.007614 157.770150 0.315758 -116.656685 
0.8928785750000000 0.323868 -50.837660 0.007574 148.272212 0.007617 156.669059 0.315294 -116.649384 
0.8930036000000000 0.322784 -50.876584 0.007691 148.766959 0.007604 156.397573 0.314447 -116.639653 
0.8931286250000000 0.321341 -50.968819 0.007681 148.453081 0.007601 155.639340 0.313901 -116.639791 
0.8932536500000000 0.319553 -51.064604 0.007498 147.731002 0.007584 154.429015 0.313520 -116.724675 
0.8933786750000000 0.318140 -51.152218 0.007762 145.714444 0.007412 154.031720 0.313398 -116.767154 
0.8935037000000000 0.317126 -51.199404 0.007618 145.133721 0.007451 153.536622 0.314013 -116.816567 
0.8936287250000000 0.315617 -51.306017 0.007810 144.965138 0.007480 151.896145 0.313210 -116.884624 
0.8937537500000000 0.314075 -51.358893 0.007591 144.907283 0.007554 153.394511 0.312990 -116.842367 
0.8938787750000000 0.312941 -51.403895 0.007829 143.684999 0.007604 150.686089 0.312908 -116.812453 
0.8940038000000000 0.311359 -51.566468 0.007768 143.150149 0.007561 151.165457 0.312579 -116.730164 
0.8941288250000000 0.310033 -51.634820 0.007669 144.367483 0.007665 150.366530 0.312327 -116.998196 
0.8942538500000000 0.308415 -51.722248 0.007614 142.604788 0.007665 149.442114 0.311590 -117.004237 
0.8943788750000000 0.306950 -51.793018 0.007625 142.218511 0.007579 149.596963 0.311850 -117.011398 
0.8945039000000000 0.305766 -51.862210 0.007707 141.520123 0.007550 148.063666 0.311615 -116.951508 
0.8946289250000000 0.304148 -51.896858 0.007633 140.138515 0.007519 148.740265 0.311675 -117.071854 
0.8947539500000000 0.302271 -52.003770 0.007684 140.889839 0.007642 147.272291 0.311538 -117.059525 
0.8948789750000000 0.301367 -52.200594 0.007454 139.995225 0.007715 146.098275 0.311007 -117.077969 
0.8950040000000000 0.299512 -52.158049 0.007784 139.690687 0.007692 145.061664 0.310496 -117.319346 
0.8951290250000000 0.298388 -52.235249 0.007727 139.033776 0.007833 144.775952 0.310439 -117.286729 
0.8952540500000000 0.296555 -52.389525 0.007761 137.706892 0.007631 145.784651 0.309918 -117.253885 
0.8953790750000000 0.295360 -52.457580 0.007798 137.582429 0.007724 143.808535 0.309772 -117.312274 
0.8955041000000000 0.293844 -52.500523 0.007576 137.386315 0.007636 143.134397 0.309762 -117.370371 
0.8956291250000000 0.292380 -52.540438 0.007633 135.747870 0.007746 143.016172 0.309593 -117.389741 
0.8957541500000000 0.290553 -52.575241 0.007705 135.322188 0.007706 142.511394 0.309164 -117.395951 
0.8958791750000000 0.288939 -52.714956 0.007780 135.254510 0.007689 140.801094 0.308984 -117.448321 
0.8960042000000000 0.287716 -52.789156 0.007620 134.755363 0.007593 141.203364 0.308313 -117.429952 
0.8961292250000000 0.286360 -52.828459 0.007766 134.195207 0.007604 141.088256 0.309048 -117.403849 
0.8962542500000000 0.284740 -52.928072 0.007783 133.259784 0.007426 140.128958 0.308403 -117.597063 
0.8963792750000000 0.283018 -52.958963 0.007674 132.886170 0.007699 140.710343 0.308199 -117.604091 
0.8965043000000000 0.281885 -53.068681 0.007656 133.164023 0.007595 139.200692 0.307640 -117.674624 
0.8966293250000000 0.280027 -53.028944 0.007797 131.247399 0.007635 138.194704 0.307606 -117.613725 
0.8967543500000000 0.278836 -53.119446 0.007728 130.653827 0.007613 138.726468 0.306947 -117.765043 
0.8968793750000000 0.276797 -53.134524 0.007870 129.996926 0.007607 135.976531 0.307201 -117.781868 
0.8970044000000000 0.275528 -53.190395 0.007802 129.989396 0.007465 137.434803 0.306668 -117.837537 
0.8971294250000000 0.273905 -53.271183 0.007690 128.505549 0.007582 135.997623 0.307638 -117.844971 
0.8972544500000000 0.272063 -53.334484 0.007550 128.291060 0.007578 135.263866 0.305996 -117.868458 
0.8973794750000000 0.271720 -53.264591 0.007679 127.576187 0.007653 133.762971 0.306030 -117.868305 
0.8975045000000000 0.269175 -53.431505 0.007780 128.177742 0.007526 134.634210 0.306510 -117.940267 
0.8976295250000000 0.267947 -53.374809 0.007778 127.100663 0.007564 132.524426 0.305467 -117.950091 
0.8977545500000000 0.266129 -53.538121 0.007702 125.768797 0.007575 132.425809 0.306040 -117.835049 
0.8978795750000000 0.264686 -53.455129 0.007693 125.943297 0.007507 130.819407 0.305414 -117.851726 
0.8980046000000000 0.263171 -53.448344 0.007787 123.766941 0.007493 130.612567 0.304924 -118.075687 
0.8981296250000000 0.261535 -53.552982 0.007725 123.373249 0.007606 129.876174 0.305214 -118.140896 
0.8982546500000000 0.260294 -53.549622 0.007823 122.774152 0.007659 130.642306 0.304725 -118.066413 
0.8983796750000000 0.258829 -53.519895 0.007712 123.844333 0.007633 130.113296 0.304537 -118.036520 
0.8985047000000001 0.257083 -53.600076 0.007806 121.949363 0.007639 127.205734 0.303825 -118.169984 
0.8986297250000001 0.255598 -53.679769 0.007667 121.513775 0.007593 127.759792 0.303890 -118.143908 
