!
! C:\Users\rflab\Downloads\Lab5_KD_ZW\Q3\300.S2P
!
! Touchstone 1.1 file saved by VNA.EXE V1.65 (www.ke5fx.com/gpib/readme.htm)
! 11/18/2024 10:39:58 PM
!
!    Source: HEWLETT PACKARD,8753D,0,6.14
!  Min freq: 8.750000E+008 Hz
!  Max freq: 9.750200E+008 Hz
!    Points: 801
!    Params: S11 S21 S12 S22
!
!!!!!
# GHZ S MA R 50
0.8750000000000000 0.480584 -33.161295 0.017674 -166.838080 0.017415 -155.677830 0.351112 -111.180888 
0.8751250250000000 0.479353 -33.349132 0.017747 -167.161620 0.017455 -156.589301 0.350937 -111.272169 
0.8752500500000000 0.479895 -33.599125 0.017653 -167.583993 0.017430 -156.783303 0.350143 -111.269131 
0.8753750750000000 0.478634 -33.629274 0.017748 -167.534310 0.017429 -157.329970 0.350185 -111.341508 
0.8755001000000000 0.478346 -33.762043 0.017779 -168.292259 0.017445 -157.744919 0.349939 -111.389434 
0.8756251250000000 0.476790 -33.825351 0.017799 -168.665987 0.017393 -158.077837 0.350480 -111.451214 
0.8757501500000000 0.476358 -33.833616 0.017738 -169.323197 0.017478 -159.026458 0.349752 -111.557246 
0.8758751750000000 0.474834 -34.179286 0.017751 -169.565474 0.017437 -159.329894 0.349752 -111.530324 
0.8760002000000000 0.474635 -34.333776 0.017769 -170.721697 0.017457 -159.589029 0.348863 -111.528703 
0.8761252250000000 0.472855 -34.548523 0.017798 -170.765299 0.017476 -160.211367 0.349481 -111.499463 
0.8762502500000000 0.472097 -34.512911 0.017802 -171.255236 0.017409 -161.325850 0.348106 -111.691345 
0.8763752750000000 0.471230 -34.738810 0.017728 -171.866410 0.017423 -161.489674 0.348300 -111.581403 
0.8765003000000000 0.470895 -34.862121 0.017773 -172.238158 0.017644 -161.344705 0.348490 -111.768794 
0.8766253250000000 0.468986 -34.892749 0.017879 -172.577027 0.017611 -162.125308 0.347561 -111.819155 
0.8767503500000000 0.468993 -35.024088 0.017771 -172.633946 0.017618 -163.101129 0.347799 -111.808874 
0.8768753750000000 0.467395 -35.239342 0.017868 -173.250500 0.017522 -163.731184 0.347136 -111.792984 
0.8770004000000000 0.466461 -35.265326 0.017907 -174.216839 0.017687 -163.797014 0.347181 -111.784573 
0.8771254250000000 0.465284 -35.476297 0.017836 -174.717095 0.017588 -164.217625 0.347340 -111.877118 
0.8772504500000000 0.464959 -35.701399 0.017914 -174.752274 0.017670 -164.834929 0.346774 -111.941851 
0.8773754750000000 0.463984 -35.885522 0.018028 -175.506685 0.017630 -165.556331 0.346284 -112.050826 
0.8775005000000000 0.462961 -35.890899 0.017913 -175.532746 0.017527 -165.936542 0.346662 -112.003722 
0.8776255250000000 0.462347 -36.123709 0.017978 -176.551260 0.017648 -166.525458 0.346034 -112.029428 
0.8777505500000000 0.460620 -36.177110 0.017830 -176.930837 0.017755 -166.082435 0.345519 -112.222418 
0.8778755750000000 0.460001 -36.235854 0.017996 -177.026150 0.017582 -167.360628 0.345315 -112.072207 
0.8780006000000000 0.459044 -36.330528 0.017955 -177.939276 0.017634 -167.725617 0.345029 -112.157138 
0.8781256250000000 0.458620 -36.537822 0.018088 -178.371533 0.017643 -168.191413 0.344894 -112.303199 
0.8782506500000000 0.457206 -36.645411 0.018030 -178.890719 0.017688 -168.659778 0.344204 -112.224023 
0.8783756750000000 0.455921 -36.784763 0.018041 -179.039859 0.017901 -168.992380 0.344108 -112.225084 
0.8785007000000000 0.455687 -37.039504 0.018077 -179.867000 0.017748 -169.197270 0.343753 -112.375712 
0.8786257250000000 0.454583 -37.043377 0.018133 -179.659496 0.017654 -169.995245 0.343272 -112.474893 
0.8787507500000000 0.453023 -37.143935 0.018064 179.246804 0.017779 -170.742814 0.343716 -112.493855 
0.8788757750000000 0.452977 -37.359359 0.018051 178.725481 0.017870 -171.536062 0.343546 -112.505538 
0.8790008000000000 0.451555 -37.448424 0.018172 178.352012 0.017953 -171.769179 0.342743 -112.594347 
0.8791258250000000 0.451095 -37.706026 0.018145 177.466628 0.017795 -171.993227 0.342771 -112.592389 
0.8792508500000000 0.449516 -37.750969 0.018112 177.347161 0.017919 -172.489187 0.342489 -112.612004 
0.8793758750000000 0.448380 -37.932614 0.018184 176.644657 0.017820 -173.368265 0.341875 -112.710346 
0.8795009000000000 0.447649 -37.980847 0.018168 176.147323 0.017902 -173.840814 0.341631 -112.771843 
0.8796259250000000 0.447427 -38.065035 0.018159 175.898103 0.017967 -174.113888 0.341729 -112.837130 
0.8797509500000000 0.445245 -38.320337 0.018229 174.804214 0.017890 -175.079605 0.341217 -112.817740 
0.8798759750000000 0.443459 -38.470145 0.018277 174.778767 0.018063 -175.217767 0.340884 -112.830171 
0.8800010000000000 0.443945 -38.672111 0.018171 173.787313 0.018028 -175.622216 0.340601 -112.783355 
0.8801260250000000 0.441951 -38.694100 0.018221 173.578016 0.017910 -176.657369 0.340553 -113.054313 
0.8802510500000000 0.441286 -38.852269 0.018292 173.215109 0.018062 -176.661252 0.340753 -112.883931 
0.8803760750000000 0.440166 -38.987687 0.018322 172.727374 0.017970 -177.941026 0.340407 -112.930826 
0.8805011000000000 0.439719 -39.139865 0.018360 172.121159 0.018093 -177.761535 0.340035 -112.940653 
0.8806261250000000 0.438958 -39.197618 0.018188 171.712271 0.018067 -179.089611 0.339629 -112.964012 
0.8807511500000000 0.437254 -39.268728 0.018369 171.382758 0.018151 -179.536394 0.339526 -113.172900 
0.8808761750000000 0.436373 -39.430789 0.018260 170.661147 0.018135 -179.650493 0.338985 -113.195202 
0.8810012000000000 0.435520 -39.515393 0.018295 169.870385 0.018037 -179.860646 0.339318 -113.260840 
0.8811262250000000 0.434530 -39.685783 0.018371 169.174808 0.018181 179.302742 0.338305 -113.345857 
0.8812512500000000 0.433236 -39.801693 0.018438 169.042285 0.018189 178.762221 0.338442 -113.386508 
0.8813762750000000 0.431436 -40.030254 0.018263 168.469430 0.018223 178.200645 0.337865 -113.355570 
0.8815013000000000 0.431032 -40.035668 0.018402 168.272532 0.018179 177.904494 0.337904 -113.279442 
0.8816263250000000 0.429538 -40.291340 0.018411 167.303475 0.018170 177.376831 0.337342 -113.450405 
0.8817513500000000 0.429125 -40.311372 0.018499 166.822731 0.018211 176.670555 0.337726 -113.444685 
0.8818763750000001 0.428718 -40.464602 0.018304 166.731946 0.018265 175.933991 0.336671 -113.409304 
0.8820014000000001 0.427302 -40.610614 0.018442 165.725897 0.018247 175.641725 0.336892 -113.404407 
0.8821264250000001 0.426352 -40.682254 0.018528 165.107519 0.018347 174.484712 0.337181 -113.569701 
0.8822514500000001 0.424091 -41.046492 0.018354 165.102337 0.018265 174.066141 0.336136 -113.460198 
0.8823764750000001 0.423701 -41.133513 0.018514 164.144599 0.018272 173.809740 0.336508 -113.579985 
0.8825015000000001 0.422478 -41.201499 0.018508 164.012833 0.018262 172.965897 0.335788 -113.701824 
0.8826265250000001 0.422373 -41.420560 0.018416 163.254165 0.018208 172.663553 0.335545 -113.646087 
0.8827515500000001 0.420703 -41.432834 0.018526 162.822454 0.018280 171.965868 0.335668 -113.602827 
0.8828765750000001 0.419710 -41.549807 0.018489 162.052896 0.018215 171.833834 0.335606 -113.812242 
0.8830016000000001 0.418480 -41.643256 0.018564 161.476634 0.018327 170.997919 0.334535 -113.784705 
0.8831266250000001 0.417142 -41.742317 0.018545 160.855967 0.018454 170.324951 0.333963 -113.873719 
0.8832516500000001 0.416836 -41.937476 0.018503 160.523761 0.018412 169.666766 0.333820 -113.947592 
0.8833766749999999 0.414952 -42.004122 0.018703 159.821449 0.018435 168.998170 0.333585 -113.908206 
0.8835017000000000 0.414255 -42.259070 0.018578 159.270808 0.018436 168.926645 0.333969 -113.953452 
0.8836267250000000 0.413622 -42.215970 0.018644 158.911553 0.018319 168.041918 0.333226 -114.027496 
0.8837517500000000 0.411799 -42.365937 0.018554 158.795224 0.018427 167.688605 0.333502 -114.069482 
0.8838767750000000 0.410968 -42.604536 0.018477 157.433593 0.018437 167.367673 0.333167 -114.210279 
0.8840018000000000 0.409622 -42.740154 0.018490 156.979122 0.018386 166.566331 0.333255 -114.128706 
0.8841268250000000 0.408556 -43.012863 0.018658 156.653351 0.018540 166.058114 0.333004 -114.263173 
0.8842518500000000 0.407604 -42.979385 0.018577 156.244482 0.018516 165.375409 0.332816 -114.306557 
0.8843768750000000 0.406361 -43.166520 0.018526 155.849455 0.018478 165.063631 0.332060 -114.209496 
0.8845019000000000 0.405528 -43.220708 0.018650 154.949834 0.018473 164.363008 0.331749 -114.256825 
0.8846269250000000 0.404237 -43.524058 0.018537 154.535757 0.018564 163.750172 0.331888 -114.246002 
0.8847519500000000 0.402852 -43.480615 0.018567 153.894271 0.018396 163.030469 0.331905 -114.290909 
0.8848769750000000 0.401934 -43.737149 0.018619 153.609491 0.018467 162.660819 0.331402 -114.341781 
0.8850020000000000 0.400169 -43.852104 0.018583 152.935246 0.018462 162.243608 0.331070 -114.419911 
0.8851270250000000 0.399748 -43.934422 0.018766 152.912771 0.018438 161.383237 0.330808 -114.562501 
0.8852520500000000 0.397477 -44.063663 0.018551 151.943612 0.018523 160.732922 0.330479 -114.437395 
0.8853770750000000 0.397481 -44.127456 0.018616 150.986152 0.018502 160.186455 0.329983 -114.593059 
0.8855021000000000 0.397051 -44.341382 0.018502 150.887746 0.018398 159.608365 0.330209 -114.551756 
0.8856271250000000 0.395393 -44.437136 0.018768 150.197703 0.018475 159.251476 0.329540 -114.552419 
0.8857521500000000 0.394409 -44.474911 0.018531 149.322462 0.018506 158.905890 0.329864 -114.713308 
0.8858771750000000 0.393221 -44.698147 0.018628 149.090068 0.018586 158.094309 0.329514 -114.758832 
0.8860022000000000 0.391393 -44.913132 0.018573 148.689116 0.018558 157.706523 0.328577 -114.734630 
0.8861272250000000 0.390065 -44.990496 0.018655 148.604734 0.018562 157.233184 0.328999 -114.817822 
0.8862522500000000 0.388868 -44.988873 0.018617 147.871403 0.018525 156.768888 0.328504 -114.834256 
0.8863772750000000 0.388135 -45.119455 0.018662 146.767958 0.018683 156.026809 0.328310 -114.849912 
0.8865023000000000 0.387234 -45.336851 0.018652 146.608927 0.018602 155.399226 0.327533 -114.924654 
0.8866273250000000 0.386421 -45.471954 0.018656 146.201090 0.018517 155.014842 0.327343 -114.840054 
0.8867523500000000 0.384999 -45.509015 0.018663 146.032223 0.018480 154.363246 0.327538 -115.065587 
0.8868773750000000 0.383740 -45.713689 0.018669 144.606576 0.018536 154.011071 0.326945 -115.019797 
0.8870024000000000 0.382785 -45.778450 0.018637 144.431984 0.018599 153.341664 0.326773 -115.069268 
0.8871274250000000 0.381557 -45.902484 0.018684 144.147869 0.018509 152.765577 0.326384 -115.024337 
0.8872524500000000 0.379548 -46.076688 0.018689 143.632980 0.018622 152.580657 0.326123 -115.128643 
0.8873774750000000 0.378915 -46.109488 0.018839 143.008284 0.018471 151.344205 0.326274 -115.033400 
0.8875025000000000 0.378117 -46.342411 0.018684 142.797292 0.018588 150.819192 0.325655 -115.256277 
0.8876275250000000 0.376612 -46.444657 0.018682 142.091165 0.018507 150.723151 0.325612 -115.075937 
0.8877525500000000 0.375737 -46.507257 0.018670 141.268417 0.018596 149.978113 0.325289 -115.233170 
0.8878775750000000 0.375123 -46.572381 0.018634 141.238975 0.018594 149.176848 0.325745 -115.415106 
0.8880026000000000 0.373430 -46.806401 0.018667 140.185803 0.018607 148.488307 0.324597 -115.427911 
0.8881276250000000 0.372376 -46.876307 0.018803 139.776949 0.018559 148.327308 0.325113 -115.331076 
0.8882526500000000 0.371988 -46.978031 0.018632 139.625193 0.018639 147.930592 0.324115 -115.462420 
0.8883776750000000 0.369421 -47.127411 0.018721 138.634767 0.018614 147.339921 0.324295 -115.566731 
0.8885027000000000 0.367839 -47.281209 0.018756 138.326781 0.018592 146.560179 0.323649 -115.615485 
0.8886277250000000 0.366769 -47.318227 0.018687 137.982799 0.018590 145.987119 0.323632 -115.509112 
0.8887527500000000 0.366746 -47.512398 0.018678 137.244980 0.018686 146.047966 0.323953 -115.577756 
0.8888777750000000 0.364581 -47.535809 0.018695 136.579188 0.018692 144.359712 0.322986 -115.557851 
0.8890028000000000 0.363187 -47.644377 0.018688 135.868358 0.018675 144.486112 0.322571 -115.617156 
0.8891278250000000 0.362830 -47.820970 0.018620 135.921387 0.018619 143.896678 0.322530 -115.614613 
0.8892528500000000 0.360693 -47.827395 0.018671 135.287644 0.018752 143.520582 0.322384 -115.723347 
0.8893778750000000 0.359684 -47.983338 0.018697 135.250066 0.018818 142.975634 0.322192 -115.739834 
0.8895029000000000 0.358576 -48.128949 0.018795 134.586798 0.018731 142.361690 0.322243 -115.783647 
0.8896279250000000 0.357120 -48.198940 0.018685 133.761244 0.018643 142.037368 0.321067 -115.637078 
0.8897529500000000 0.356241 -48.309389 0.018629 133.184900 0.018577 141.398533 0.321027 -115.797746 
0.8898779750000000 0.353966 -48.444408 0.018846 132.231172 0.018705 141.159064 0.321035 -115.875711 
0.8900030000000000 0.353334 -48.545236 0.018667 131.951745 0.018792 140.721216 0.321298 -115.822727 
0.8901280250000000 0.352027 -48.658711 0.018798 131.756880 0.018829 140.003057 0.320268 -115.918010 
0.8902530500000000 0.350973 -48.809161 0.018795 130.911874 0.018626 138.998428 0.319989 -116.015201 
0.8903780750000000 0.349202 -48.867534 0.018744 130.774558 0.018671 138.768932 0.319633 -116.034166 
0.8905031000000000 0.348452 -48.963006 0.018872 130.160346 0.018753 138.221995 0.319902 -116.132398 
0.8906281250000000 0.347144 -49.065444 0.018870 129.516387 0.018879 137.538634 0.319972 -116.095831 
0.8907531500000000 0.345447 -49.092637 0.018965 128.774091 0.018849 136.676959 0.319497 -116.033939 
0.8908781750000000 0.344199 -49.328996 0.018792 128.627577 0.018816 136.757959 0.319133 -116.248961 
0.8910032000000000 0.342928 -49.341472 0.018856 127.920738 0.018848 136.004510 0.319340 -116.175698 
0.8911282250000000 0.341658 -49.475591 0.018808 127.413792 0.018817 135.359332 0.318493 -116.201679 
0.8912532500000000 0.340583 -49.604466 0.018839 126.937781 0.018885 134.727914 0.318694 -116.324594 
0.8913782750000000 0.338680 -49.743934 0.018939 126.601588 0.018829 134.525981 0.318257 -116.338998 
0.8915033000000000 0.337769 -49.850428 0.018941 125.960551 0.018809 133.771506 0.317915 -116.424850 
0.8916283250000000 0.336524 -49.936641 0.018942 125.440097 0.018908 133.088999 0.317163 -116.461503 
0.8917533500000000 0.335133 -50.033101 0.018909 125.277996 0.018963 132.780568 0.317942 -116.434694 
0.8918783750000000 0.333825 -50.080758 0.018943 124.491742 0.018893 132.471542 0.317081 -116.493534 
0.8920034000000000 0.331969 -50.176558 0.018851 123.903905 0.018872 131.759281 0.316781 -116.644037 
0.8921284250000000 0.330697 -50.230302 0.018837 123.351363 0.018911 131.147876 0.316085 -116.478466 
0.8922534500000000 0.329854 -50.356644 0.018978 123.050425 0.019001 130.270967 0.316153 -116.651618 
0.8923784750000000 0.328383 -50.499857 0.018843 122.125584 0.018980 130.038887 0.315936 -116.696236 
0.8925035000000000 0.326641 -50.584418 0.019029 121.811810 0.019048 129.653516 0.315293 -116.636974 
0.8926285250000000 0.325158 -50.686385 0.019007 121.616543 0.018948 129.086301 0.315199 -116.701502 
0.8927535500000000 0.323841 -50.753711 0.019016 120.656247 0.018959 128.513518 0.315172 -116.766025 
0.8928785750000000 0.322375 -50.974674 0.019114 120.184206 0.019030 127.509063 0.314857 -116.664393 
0.8930036000000000 0.321221 -50.986537 0.019090 119.825823 0.018927 127.309309 0.315186 -116.783373 
0.8931286250000000 0.319507 -51.079080 0.019034 118.979327 0.019015 126.571609 0.314275 -116.910903 
0.8932536500000000 0.318081 -51.108405 0.019159 118.473438 0.019054 126.096735 0.313839 -116.926342 
0.8933786750000000 0.316575 -51.328125 0.019107 118.312373 0.019219 125.240528 0.313871 -117.035930 
0.8935037000000000 0.315126 -51.337588 0.018938 117.801279 0.018952 124.565696 0.313880 -116.916319 
0.8936287250000000 0.313985 -51.388465 0.019207 117.398410 0.019045 124.162745 0.313688 -116.884129 
0.8937537500000000 0.312600 -51.414882 0.019212 116.440399 0.019181 123.846503 0.313390 -116.961781 
0.8938787750000000 0.311332 -51.541060 0.019218 116.051339 0.019078 123.343715 0.313146 -116.997064 
0.8940038000000000 0.309747 -51.697241 0.019269 115.426160 0.019169 122.530228 0.312559 -117.007884 
0.8941288250000000 0.308165 -51.772184 0.019170 114.817143 0.019132 121.651468 0.312194 -117.073515 
0.8942538500000000 0.306362 -51.808155 0.019180 114.206048 0.019146 121.253020 0.311927 -117.186775 
0.8943788750000000 0.305185 -51.871247 0.019316 113.310762 0.019047 120.838784 0.312309 -117.188516 
0.8945039000000000 0.303565 -51.971698 0.019237 113.372401 0.019351 120.390385 0.312429 -117.133210 
0.8946289250000000 0.302214 -52.050419 0.019312 112.924784 0.019283 119.455618 0.311422 -117.190292 
0.8947539500000000 0.300660 -52.151279 0.019320 112.143845 0.019268 118.776127 0.311235 -117.245948 
0.8948789750000000 0.299442 -52.265848 0.019338 111.747367 0.019305 118.281774 0.310825 -117.246845 
0.8950040000000000 0.297928 -52.229766 0.019449 111.665243 0.019409 117.924935 0.310542 -117.470329 
0.8951290250000000 0.296713 -52.398177 0.019421 110.572513 0.019264 117.317302 0.310401 -117.420346 
0.8952540500000000 0.294499 -52.471042 0.019487 110.134989 0.019403 116.644390 0.310165 -117.366789 
0.8953790750000000 0.293710 -52.495480 0.019369 109.195918 0.019427 116.178884 0.310108 -117.585091 
0.8955041000000000 0.291986 -52.616892 0.019431 108.894699 0.019225 115.728633 0.309503 -117.528961 
0.8956291250000000 0.290410 -52.636987 0.019386 108.613220 0.019387 114.931248 0.309111 -117.640251 
0.8957541500000000 0.289062 -52.687917 0.019454 107.735895 0.019400 114.259343 0.309537 -117.455592 
0.8958791750000000 0.287385 -52.815540 0.019491 107.632638 0.019450 114.096834 0.309649 -117.562603 
0.8960042000000000 0.285842 -52.788160 0.019590 106.794085 0.019367 113.323069 0.308666 -117.488499 
0.8961292250000000 0.284566 -52.943923 0.019546 105.830580 0.019254 113.078975 0.308734 -117.555433 
0.8962542500000000 0.282759 -52.977359 0.019745 105.410938 0.019367 111.430478 0.308149 -117.647408 
0.8963792750000000 0.281177 -53.100258 0.019501 104.810307 0.019514 111.227893 0.308732 -117.798630 
0.8965043000000000 0.280139 -53.112624 0.019586 103.895503 0.019445 111.057288 0.307962 -117.691246 
0.8966293250000000 0.277976 -53.104309 0.019590 103.312390 0.019538 110.372089 0.307691 -117.772308 
0.8967543500000000 0.277087 -53.159763 0.019717 102.738915 0.019557 109.205394 0.307153 -117.776970 
0.8968793750000000 0.274912 -53.149827 0.019704 102.278559 0.019402 108.692333 0.306967 -117.882169 
0.8970044000000000 0.273810 -53.228443 0.019590 102.302814 0.019502 108.223192 0.306683 -117.903798 
0.8971294250000000 0.272002 -53.357022 0.019725 101.535396 0.019537 107.781331 0.307329 -117.827161 
0.8972544500000000 0.270181 -53.404493 0.019650 100.675683 0.019537 107.343515 0.306388 -117.945927 
0.8973794750000000 0.269552 -53.361670 0.019676 100.297398 0.019349 106.399263 0.305707 -117.955394 
0.8975045000000000 0.267403 -53.471446 0.019880 99.256268 0.019648 105.662706 0.305923 -118.037519 
0.8976295250000000 0.265989 -53.429855 0.019815 98.803608 0.019415 105.230191 0.305504 -118.121474 
0.8977545500000000 0.264437 -53.583716 0.019839 97.863285 0.019444 104.744418 0.305187 -118.192301 
0.8978795750000000 0.262871 -53.528208 0.019935 97.811461 0.019485 104.153911 0.305401 -118.157868 
0.8980046000000000 0.261346 -53.516149 0.019869 97.423820 0.019610 103.470586 0.305108 -118.164529 
0.8981296250000000 0.259770 -53.595890 0.019757 96.596738 0.019499 102.769235 0.304589 -118.115878 
0.8982546500000000 0.258456 -53.549224 0.019824 95.831546 0.019564 101.982592 0.304352 -118.081107 
0.8983796750000000 0.256871 -53.578014 0.019857 95.323976 0.019484 101.616830 0.303494 -118.193635 
0.8985047000000001 0.255308 -53.548907 0.019859 94.801341 0.019474 101.605423 0.303396 -118.170974 
0.8986297250000001 0.253714 -53.685590 0.019943 94.011636 0.019393 100.182622 0.303483 -118.378018 
0.8987547500000001 0.252496 -53.660896 0.019769 93.423919 0.019597 99.337186 0.303103 -118.433204 
0.8988797750000001 0.250455 -53.692110 0.019823 92.862405 0.019481 99.285260 0.302856 -118.425680 
