!
! C:\Users\rflab\Downloads\Lab5_KD_ZW\Q3\320.S2P
!
! Touchstone 1.1 file saved by VNA.EXE V1.65 (www.ke5fx.com/gpib/readme.htm)
! 11/18/2024 10:41:02 PM
!
!    Source: HEWLETT PACKARD,8753D,0,6.14
!  Min freq: 8.750000E+008 Hz
!  Max freq: 9.750200E+008 Hz
!    Points: 801
!    Params: S11 S21 S12 S22
!
!!!!!
# GHZ S MA R 50
0.8750000000000000 0.480149 -33.208291 0.028704 -169.478574 0.028252 -159.116627 0.351071 -111.301057 
0.8751250250000000 0.479651 -33.316988 0.028777 -169.972661 0.028188 -159.514739 0.351145 -111.290976 
0.8752500500000000 0.478848 -33.502703 0.028651 -170.532034 0.028119 -159.975722 0.350371 -111.254645 
0.8753750750000000 0.478515 -33.700200 0.028654 -170.903848 0.028176 -160.430450 0.350268 -111.389824 
0.8755001000000000 0.476712 -33.712448 0.028884 -171.493742 0.028167 -160.904957 0.349505 -111.481826 
0.8756251250000000 0.475597 -33.828741 0.028742 -171.804832 0.028147 -161.407899 0.349754 -111.476491 
0.8757501500000000 0.475523 -33.940946 0.028809 -172.356476 0.028281 -161.703128 0.349428 -111.599773 
0.8758751750000000 0.473683 -34.046353 0.028877 -172.462377 0.028190 -162.424428 0.349493 -111.477174 
0.8760002000000000 0.473657 -34.173328 0.028778 -173.041251 0.028323 -162.941524 0.349071 -111.601423 
0.8761252250000000 0.472717 -34.367166 0.028862 -173.861773 0.028411 -163.526236 0.349241 -111.590364 
0.8762502500000000 0.471090 -34.511577 0.028939 -174.277008 0.028222 -163.900886 0.348196 -111.755710 
0.8763752750000000 0.471036 -34.619785 0.028948 -174.767975 0.028212 -164.253610 0.348351 -111.615923 
0.8765003000000000 0.470432 -34.878752 0.028943 -175.236987 0.028515 -164.580514 0.348185 -111.696962 
0.8766253250000000 0.467851 -34.935071 0.028891 -175.611739 0.028362 -165.042273 0.348116 -111.831264 
0.8767503500000000 0.467846 -34.953747 0.028931 -176.102505 0.028333 -165.597050 0.347930 -111.849007 
0.8768753750000000 0.466276 -35.194165 0.028928 -176.363340 0.028511 -166.127371 0.347449 -111.962138 
0.8770004000000000 0.466468 -35.370347 0.029001 -177.074554 0.028581 -166.476602 0.347109 -111.930500 
0.8771254250000000 0.465637 -35.417637 0.029163 -177.574742 0.028388 -167.106661 0.346774 -111.941851 
0.8772504500000000 0.464130 -35.503739 0.029036 -177.722327 0.028514 -167.581352 0.347069 -111.954831 
0.8773754750000000 0.463477 -35.672753 0.029074 -178.229343 0.028484 -168.477883 0.346357 -112.040468 
0.8775005000000000 0.461884 -35.845071 0.029048 -178.927734 0.028617 -168.645132 0.346289 -112.039562 
0.8776255250000000 0.460928 -36.062235 0.029244 -179.189071 0.028669 -168.984610 0.345664 -112.174318 
0.8777505500000000 0.460180 -36.153643 0.029106 -179.887361 0.028628 -169.667838 0.346009 -112.287507 
0.8778755750000000 0.459322 -36.158782 0.029161 179.913805 0.028622 -169.906203 0.345569 -112.202615 
0.8780006000000000 0.457361 -36.208106 0.029286 179.022266 0.028566 -170.487994 0.345412 -112.246042 
0.8781256250000000 0.457584 -36.491211 0.029252 178.938944 0.028634 -171.229754 0.344877 -112.309810 
0.8782506500000000 0.456121 -36.603471 0.029281 178.447198 0.028632 -171.480182 0.344540 -112.360262 
0.8783756750000000 0.455668 -36.758233 0.029308 178.034580 0.028819 -172.121947 0.344042 -112.278952 
0.8785007000000000 0.454819 -36.939098 0.029315 177.520157 0.028777 -172.294184 0.343557 -112.416685 
0.8786257250000000 0.453618 -37.029097 0.029285 177.159030 0.028924 -172.992613 0.343687 -112.495800 
0.8787507500000000 0.453853 -37.141894 0.029365 176.507012 0.028766 -173.505001 0.342978 -112.555949 
0.8788757750000000 0.451496 -37.247112 0.029350 175.878300 0.028966 -174.069789 0.343140 -112.594379 
0.8790008000000000 0.450700 -37.402183 0.029350 175.329427 0.028949 -174.347253 0.342497 -112.694478 
0.8791258250000000 0.449557 -37.528398 0.029477 174.720652 0.028971 -175.029605 0.342849 -112.703030 
0.8792508500000000 0.449097 -37.691439 0.029468 174.547709 0.028996 -175.442309 0.342015 -112.567561 
0.8793758750000000 0.447117 -37.778770 0.029541 173.817493 0.029059 -176.168664 0.342307 -112.724387 
0.8795009000000000 0.446553 -37.899373 0.029537 173.693721 0.029143 -176.563076 0.342058 -112.730748 
0.8796259250000000 0.445288 -38.086106 0.029623 172.898777 0.029218 -177.021417 0.341613 -112.817513 
0.8797509500000000 0.444948 -38.205346 0.029600 172.405603 0.029069 -177.235781 0.341010 -112.893597 
0.8798759750000000 0.444437 -38.359968 0.029599 171.801504 0.029285 -178.085253 0.340882 -112.869234 
0.8800010000000000 0.443303 -38.523983 0.029764 171.409323 0.029285 -178.544495 0.341243 -112.854776 
0.8801260250000000 0.441596 -38.639715 0.029774 171.137481 0.029329 -179.142956 0.340226 -112.977249 
0.8802510500000000 0.440970 -38.788611 0.029814 170.666636 0.029349 -179.623917 0.340425 -113.029978 
0.8803760750000000 0.438791 -38.759071 0.029785 169.816248 0.029332 179.731741 0.340466 -112.993589 
0.8805011000000000 0.439355 -39.147719 0.029776 169.365242 0.029478 179.295602 0.340116 -113.091254 
0.8806261250000000 0.437242 -39.035477 0.029950 169.078645 0.029421 178.673832 0.339486 -113.130960 
0.8807511500000000 0.436223 -39.270790 0.029827 168.263236 0.029445 178.069707 0.339470 -113.176952 
0.8808761750000000 0.436069 -39.416933 0.030032 168.236905 0.029616 177.789180 0.339278 -113.140394 
0.8810012000000000 0.434495 -39.538156 0.029932 167.416155 0.029470 177.329076 0.339162 -113.238534 
0.8811262250000000 0.432926 -39.733434 0.030007 167.011395 0.029564 176.478766 0.338441 -113.268462 
0.8812512500000000 0.432523 -39.783054 0.029896 166.342321 0.029475 176.118836 0.337604 -113.357728 
0.8813762750000000 0.431297 -40.011390 0.030006 165.860406 0.029546 175.753630 0.337737 -113.370583 
0.8815013000000000 0.429750 -40.025146 0.029945 165.375133 0.029669 175.043335 0.338495 -113.433268 
0.8816263250000000 0.429426 -40.279998 0.030002 164.947746 0.029677 174.630540 0.337086 -113.480577 
0.8817513500000000 0.428395 -40.300477 0.030070 164.379599 0.029575 173.939739 0.337165 -113.446460 
0.8818763750000001 0.427162 -40.405942 0.030091 163.816648 0.029689 173.455741 0.337054 -113.494226 
0.8820014000000001 0.426666 -40.586626 0.030196 163.180128 0.029633 172.982932 0.336565 -113.485108 
0.8821264250000001 0.425750 -40.695057 0.030169 162.569692 0.029814 172.571281 0.336213 -113.607643 
0.8822514500000001 0.423963 -40.856726 0.030101 162.464049 0.030001 171.639619 0.335921 -113.623707 
0.8823764750000001 0.422315 -40.987287 0.030090 161.678755 0.029735 171.263342 0.335880 -113.763222 
0.8825015000000001 0.421800 -41.064649 0.030290 161.149747 0.029920 170.581520 0.335634 -113.810140 
0.8826265250000001 0.421379 -41.304786 0.030171 160.719699 0.029906 170.102740 0.335401 -113.719524 
0.8827515500000001 0.420313 -41.341099 0.030234 160.197864 0.029853 169.634914 0.335373 -113.721620 
0.8828765750000001 0.419376 -41.498327 0.030353 159.800034 0.029947 169.073675 0.335358 -113.870912 
0.8830016000000001 0.418069 -41.671049 0.030279 159.104746 0.029816 168.401098 0.334797 -113.873398 
0.8831266250000001 0.416810 -41.656537 0.030281 158.556465 0.030041 168.162123 0.334577 -113.930122 
0.8832516500000001 0.415999 -41.840523 0.030304 158.170454 0.030007 167.530056 0.333932 -113.887525 
0.8833766749999999 0.414469 -42.024530 0.030246 157.743674 0.030100 167.007294 0.334057 -114.090029 
0.8835017000000000 0.413776 -42.116779 0.030338 157.163728 0.029965 166.606830 0.333799 -114.029506 
0.8836267250000000 0.412570 -42.165353 0.030335 156.726664 0.030054 165.868511 0.332847 -114.177441 
0.8837517500000000 0.410764 -42.296022 0.030275 156.083323 0.030137 165.211768 0.333222 -114.205971 
0.8838767750000000 0.409656 -42.584777 0.030384 155.721258 0.030156 164.782380 0.332986 -114.166687 
0.8840018000000000 0.408559 -42.644920 0.030275 155.167373 0.030069 164.077077 0.332848 -114.229188 
0.8841268250000000 0.407792 -42.796753 0.030378 154.490417 0.030267 163.717847 0.332596 -114.196823 
0.8842518500000000 0.406695 -42.860780 0.030316 153.789611 0.030280 163.066030 0.332101 -114.327612 
0.8843768750000000 0.405347 -43.026114 0.030388 153.185671 0.030296 162.694395 0.331612 -114.255883 
0.8845019000000000 0.404321 -43.117485 0.030486 153.109510 0.030293 162.022521 0.332210 -114.330691 
0.8846269250000000 0.403844 -43.222479 0.030624 152.394376 0.030165 161.409250 0.331875 -114.241201 
0.8847519500000000 0.402276 -43.447688 0.030565 151.680608 0.030204 160.868237 0.331265 -114.404630 
0.8848769750000000 0.400682 -43.606655 0.030598 151.083123 0.030317 160.594953 0.330770 -114.420334 
0.8850020000000000 0.399760 -43.699352 0.030582 150.997109 0.030366 159.816723 0.330381 -114.514921 
0.8851270250000000 0.399038 -43.841100 0.030624 150.246270 0.030283 159.504779 0.330073 -114.486921 
0.8852520500000000 0.398130 -43.926977 0.030568 149.558025 0.030250 158.556822 0.330638 -114.663229 
0.8853770750000000 0.396567 -44.098941 0.030454 149.186408 0.030329 158.228037 0.330158 -114.672314 
0.8855021000000000 0.395480 -44.291863 0.030628 148.667860 0.030299 158.033817 0.330096 -114.712251 
0.8856271250000000 0.394891 -44.359696 0.030667 147.984414 0.030250 156.881580 0.329570 -114.678433 
0.8857521500000000 0.392996 -44.462013 0.030579 147.657087 0.030376 156.627093 0.328894 -114.714986 
0.8858771750000000 0.392206 -44.500329 0.030472 147.273829 0.030249 156.160039 0.328962 -114.715370 
0.8860022000000000 0.391104 -44.772393 0.030559 146.568797 0.030375 155.642978 0.328973 -114.732083 
0.8861272250000000 0.389753 -44.881041 0.030593 146.254446 0.030445 154.944067 0.328101 -114.720046 
0.8862522500000000 0.388080 -44.984069 0.030700 145.955497 0.030462 154.574137 0.328001 -114.745728 
0.8863772750000000 0.387757 -45.095655 0.030614 145.418849 0.030371 153.996580 0.328383 -114.902689 
0.8865023000000000 0.386906 -45.199720 0.030682 144.592751 0.030444 153.311344 0.327658 -114.996910 
0.8866273250000000 0.385986 -45.402001 0.030409 144.066692 0.030539 152.561121 0.326972 -114.852461 
0.8867523500000000 0.384431 -45.381126 0.030741 143.560965 0.030383 152.403783 0.327170 -114.977832 
0.8868773750000000 0.383535 -45.572217 0.030710 142.959295 0.030555 151.860820 0.327031 -114.989122 
0.8870024000000000 0.382872 -45.653940 0.030831 142.687726 0.030472 151.304532 0.326852 -114.997835 
0.8871274250000000 0.381310 -45.809037 0.030648 142.016810 0.030508 150.731419 0.326803 -115.055034 
0.8872524500000000 0.380145 -45.923732 0.030732 141.610099 0.030539 150.242250 0.326963 -114.988793 
0.8873774750000000 0.377904 -45.958652 0.030641 141.160274 0.030500 149.711576 0.326081 -115.138054 
0.8875025000000000 0.377180 -46.283441 0.030684 140.348103 0.030597 149.324753 0.324874 -115.178495 
0.8876275250000000 0.375764 -46.340939 0.030606 140.020711 0.030544 148.547191 0.325342 -115.252605 
0.8877525500000000 0.375252 -46.446587 0.030753 139.575628 0.030497 148.130977 0.325126 -115.335935 
0.8878775750000000 0.374633 -46.488593 0.030659 139.042433 0.030642 147.744349 0.324589 -115.374872 
0.8880026000000000 0.372534 -46.579993 0.030751 138.521548 0.030645 147.007233 0.324257 -115.414666 
0.8881276250000000 0.372039 -46.759957 0.030732 138.049004 0.030602 146.498117 0.324223 -115.477251 
0.8882526500000000 0.370485 -46.815766 0.030787 137.392732 0.030703 146.087811 0.324235 -115.368742 
0.8883776750000000 0.368894 -46.996300 0.030751 136.981856 0.030504 145.758469 0.323740 -115.523942 
0.8885027000000000 0.367547 -47.193800 0.030844 136.599868 0.030723 144.829931 0.323425 -115.532611 
0.8886277250000000 0.366788 -47.181484 0.030761 135.790088 0.030696 144.498740 0.323091 -115.596903 
0.8887527500000000 0.365048 -47.466455 0.030850 135.493466 0.030597 143.982344 0.323008 -115.477999 
0.8888777750000000 0.363645 -47.469176 0.030840 134.825858 0.030731 143.388281 0.322822 -115.559752 
0.8890028000000000 0.362704 -47.542123 0.030993 134.397847 0.030785 142.876641 0.322126 -115.552721 
0.8891278250000000 0.362019 -47.675132 0.030788 134.012307 0.030822 142.353589 0.321809 -115.748567 
0.8892528500000000 0.360893 -47.915013 0.031062 133.505951 0.030776 141.792710 0.321854 -115.690377 
0.8893778750000000 0.358859 -47.834962 0.031025 132.901122 0.030982 141.320630 0.321375 -115.713400 
0.8895029000000000 0.358609 -47.999204 0.030781 132.621894 0.030700 140.785355 0.321303 -115.761884 
0.8896279250000000 0.356474 -48.204747 0.030851 132.011690 0.030889 140.174273 0.321236 -115.737371 
0.8897529500000000 0.355277 -48.243434 0.030944 131.546721 0.031003 139.959977 0.321020 -115.895180 
0.8898779750000000 0.353995 -48.286680 0.030891 130.990573 0.030990 139.190438 0.320975 -115.953550 
0.8900030000000000 0.353043 -48.490262 0.031039 130.650173 0.030847 138.352487 0.320772 -115.928782 
0.8901280250000000 0.351067 -48.467591 0.030835 129.897225 0.030953 138.352238 0.320093 -115.878574 
0.8902530500000000 0.350407 -48.608461 0.031051 129.764113 0.030895 137.736059 0.320033 -115.968852 
0.8903780750000000 0.349315 -48.664093 0.030952 129.068680 0.031023 136.959483 0.319564 -116.046280 
0.8905031000000000 0.346898 -48.812891 0.031039 128.441784 0.031086 136.629681 0.319935 -116.007779 
0.8906281250000000 0.346075 -49.069083 0.031105 128.179424 0.031066 136.011185 0.319209 -116.065305 
0.8907531500000000 0.344831 -49.144882 0.031084 127.893028 0.031117 135.684168 0.318297 -116.004912 
0.8908781750000000 0.343237 -49.234599 0.031120 127.019497 0.030988 135.057357 0.318375 -116.083643 
0.8910032000000000 0.342277 -49.241062 0.031226 126.935703 0.031038 134.495833 0.318155 -116.115277 
0.8911282250000000 0.340877 -49.376724 0.031208 126.163569 0.031064 134.027296 0.318742 -116.118548 
0.8912532500000000 0.339618 -49.486108 0.031173 125.604916 0.031298 133.246731 0.318448 -116.334233 
0.8913782750000000 0.338173 -49.589672 0.031158 125.198030 0.031314 132.704352 0.318108 -116.321686 
0.8915033000000000 0.336906 -49.702689 0.031268 124.630382 0.031237 132.385479 0.317330 -116.323568 
0.8916283250000000 0.335701 -49.784292 0.031444 124.081432 0.031297 131.903499 0.317206 -116.353047 
0.8917533500000000 0.334238 -49.825707 0.031366 123.594410 0.031193 131.488659 0.317985 -116.326507 
0.8918783750000000 0.333542 -49.971588 0.031307 123.267964 0.031361 130.736987 0.316262 -116.505712 
0.8920034000000000 0.331446 -50.087377 0.031315 122.680507 0.031419 130.179877 0.315880 -116.490796 
0.8921284250000000 0.330166 -50.125952 0.031452 122.133541 0.031489 129.684267 0.316086 -116.416613 
0.8922534500000000 0.329232 -50.287586 0.031402 121.536138 0.031380 129.177053 0.315826 -116.520477 
0.8923784750000000 0.327596 -50.389883 0.031550 121.063558 0.031399 128.652205 0.315880 -116.577430 
0.8925035000000000 0.326299 -50.455149 0.031525 120.549389 0.031361 128.093808 0.314475 -116.674455 
0.8926285250000000 0.324437 -50.540148 0.031340 120.082239 0.031421 127.477518 0.314681 -116.748938 
0.8927535500000000 0.323184 -50.627040 0.031542 119.535173 0.031535 127.025146 0.314284 -116.654620 
0.8928785750000000 0.321829 -50.818766 0.031579 119.055945 0.031522 126.373774 0.314788 -116.602316 
0.8930036000000000 0.320485 -50.858775 0.031735 118.644538 0.031636 126.052894 0.314338 -116.637201 
0.8931286250000000 0.319014 -50.979393 0.031716 118.271122 0.031611 125.473785 0.314233 -116.871132 
0.8932536500000000 0.317384 -50.992586 0.031748 117.353248 0.031624 124.857549 0.313835 -116.764383 
0.8933786750000000 0.315991 -51.150936 0.031843 117.392333 0.031778 124.118326 0.312976 -116.799913 
0.8935037000000000 0.314736 -51.230868 0.031910 116.649284 0.031709 123.699619 0.312992 -116.892329 
0.8936287250000000 0.313255 -51.331905 0.031841 116.080006 0.031858 123.233392 0.312937 -116.872408 
0.8937537500000000 0.311957 -51.356375 0.031860 115.609347 0.031657 122.763239 0.313050 -116.987194 
0.8938787750000000 0.310992 -51.430199 0.031954 114.863993 0.031848 121.930095 0.312833 -117.019997 
0.8940038000000000 0.309051 -51.541204 0.032005 114.457237 0.031857 121.343207 0.312598 -116.947785 
0.8941288250000000 0.307524 -51.652759 0.031987 114.261864 0.031931 120.826996 0.312098 -117.076175 
0.8942538500000000 0.306301 -51.711964 0.032089 113.201728 0.032156 120.561003 0.310761 -117.088442 
0.8943788750000000 0.304582 -51.760237 0.032216 112.806171 0.031999 119.869000 0.311085 -117.007470 
0.8945039000000000 0.303191 -51.879701 0.032177 112.265592 0.032027 119.141764 0.311359 -117.032182 
0.8946289250000000 0.301868 -51.918261 0.032175 111.797623 0.032072 118.984116 0.311472 -117.097294 
0.8947539500000000 0.300033 -52.006432 0.032141 110.952797 0.031973 118.194728 0.310818 -117.133648 
0.8948789750000000 0.298906 -52.145540 0.032164 110.635972 0.032156 117.923950 0.310477 -117.127960 
0.8950040000000000 0.297669 -52.183744 0.032275 110.178364 0.032098 116.866537 0.310328 -117.265567 
0.8951290250000000 0.295915 -52.211821 0.032329 109.755236 0.032107 116.450887 0.309952 -117.352210 
0.8952540500000000 0.294311 -52.352980 0.032277 108.962802 0.032210 115.823064 0.309266 -117.309708 
0.8953790750000000 0.293152 -52.392870 0.032508 108.613549 0.032167 115.411782 0.310170 -117.429815 
0.8955041000000000 0.291387 -52.504209 0.032482 108.061515 0.032160 114.402050 0.309317 -117.518163 
0.8956291250000000 0.290052 -52.526053 0.032463 107.425720 0.032238 114.261598 0.308245 -117.423810 
0.8957541500000000 0.288363 -52.620137 0.032360 106.914030 0.032271 113.534758 0.309305 -117.366500 
0.8958791750000000 0.287005 -52.689008 0.032571 106.206255 0.032329 112.854156 0.308954 -117.412964 
0.8960042000000000 0.285476 -52.682359 0.032520 105.977247 0.032203 112.352823 0.307774 -117.507705 
0.8961292250000000 0.283798 -52.873177 0.032728 105.245453 0.032353 112.010295 0.308420 -117.394150 
0.8962542500000000 0.282805 -52.918650 0.032696 104.610186 0.032410 111.031213 0.308749 -117.493316 
0.8963792750000000 0.281114 -52.931055 0.032911 104.115168 0.032366 110.522857 0.306862 -117.606081 
0.8965043000000000 0.279893 -52.992658 0.032830 103.482398 0.032486 109.891430 0.307189 -117.606231 
0.8966293250000000 0.278025 -52.970352 0.032721 102.872954 0.032612 109.352674 0.307273 -117.549968 
0.8967543500000000 0.276602 -53.072571 0.032837 102.652624 0.032467 108.808563 0.306638 -117.692273 
0.8968793750000000 0.274719 -53.107824 0.032984 102.144276 0.032517 108.523160 0.307003 -117.717681 
0.8970044000000000 0.273392 -53.126908 0.032904 101.068928 0.032425 107.489539 0.305837 -117.787298 
0.8971294250000000 0.271290 -53.240964 0.033064 100.745338 0.032553 107.235268 0.306732 -117.908676 
0.8972544500000000 0.270067 -53.317863 0.032939 100.195943 0.032685 106.681629 0.306525 -118.000173 
0.8973794750000000 0.269312 -53.267095 0.033033 99.958345 0.032584 105.777245 0.305687 -117.850586 
0.8975045000000000 0.267230 -53.378733 0.033021 98.942172 0.032728 105.470670 0.305433 -117.840133 
0.8976295250000000 0.265481 -53.373145 0.033066 98.404931 0.032732 104.914858 0.305599 -117.966126 
0.8977545500000000 0.264193 -53.482859 0.033167 97.973070 0.032605 104.005354 0.305425 -117.886261 
0.8978795750000000 0.262677 -53.420333 0.033230 97.218021 0.032697 103.514193 0.305224 -117.912754 
0.8980046000000000 0.261211 -53.412916 0.033324 96.751602 0.032775 103.077090 0.304692 -117.969029 
0.8981296250000000 0.259590 -53.507985 0.033184 96.110710 0.032715 102.320834 0.304453 -118.122992 
0.8982546500000000 0.258154 -53.457592 0.033373 95.513136 0.032656 101.727338 0.303881 -118.128510 
0.8983796750000000 0.256805 -53.552253 0.033198 95.043029 0.032642 101.080131 0.303845 -118.066901 
0.8985047000000001 0.255034 -53.514040 0.033276 94.134988 0.032870 100.572478 0.303650 -118.138705 
0.8986297250000001 0.253357 -53.585588 0.033185 93.865773 0.032835 99.870513 0.303791 -118.212651 
0.8987547500000001 0.251862 -53.552552 0.033434 93.247458 0.032783 99.500685 0.303057 -118.192119 
0.8988797750000001 0.250242 -53.593380 0.033345 92.612979 0.032937 98.676287 0.302864 -118.221572 
