!
! C:\Users\rflab\Downloads\Lab5_KD_ZW\Q3\340.S2P
!
! Touchstone 1.1 file saved by VNA.EXE V1.65 (www.ke5fx.com/gpib/readme.htm)
! 11/18/2024 10:41:57 PM
!
!    Source: HEWLETT PACKARD,8753D,0,6.14
!  Min freq: 8.750000E+008 Hz
!  Max freq: 9.750200E+008 Hz
!    Points: 801
!    Params: S11 S21 S12 S22
!
!!!!!
# GHZ S MA R 50
0.8750000000000000 0.478620 -33.061853 0.040384 -170.704507 0.039548 -160.016427 0.350732 -111.392223 
0.8751250250000000 0.476982 -33.229496 0.040318 -171.051471 0.039452 -160.384185 0.350839 -111.422886 
0.8752500500000000 0.476738 -33.345218 0.040402 -171.581850 0.039514 -161.119003 0.350720 -111.291300 
0.8753750750000000 0.476663 -33.557809 0.040337 -171.973347 0.039571 -161.636663 0.349953 -111.463687 
0.8755001000000000 0.474208 -33.564279 0.040364 -172.593572 0.039764 -161.740610 0.350252 -111.492706 
0.8756251250000000 0.473699 -33.738180 0.040377 -172.923326 0.039596 -162.345329 0.350177 -111.529730 
0.8757501500000000 0.472991 -33.888971 0.040557 -173.245299 0.039655 -162.846216 0.349416 -111.595123 
0.8758751750000000 0.471480 -33.994522 0.040483 -173.762656 0.039549 -163.410863 0.349897 -111.644579 
0.8760002000000000 0.471142 -34.013277 0.040533 -174.331526 0.039677 -163.838951 0.349026 -111.555818 
0.8761252250000000 0.470461 -34.320936 0.040501 -174.744499 0.039729 -164.421111 0.349093 -111.610747 
0.8762502500000000 0.469520 -34.304637 0.040605 -174.979548 0.039849 -164.867550 0.348462 -111.878746 
0.8763752750000000 0.468753 -34.504292 0.040564 -175.471948 0.039701 -165.242709 0.348048 -111.776224 
0.8765003000000000 0.468007 -34.753284 0.040490 -176.172639 0.039843 -165.834701 0.347992 -111.752891 
0.8766253250000000 0.466216 -34.778174 0.040691 -176.506425 0.039789 -166.239542 0.348077 -111.909615 
0.8767503500000000 0.465807 -34.758310 0.040763 -177.028216 0.040003 -166.814543 0.347108 -111.903373 
0.8768753750000000 0.464721 -35.124570 0.040791 -177.392329 0.039968 -167.148225 0.346725 -112.015861 
0.8770004000000000 0.463769 -35.045917 0.040789 -177.834677 0.039966 -167.525766 0.347104 -111.995982 
0.8771254250000000 0.462975 -35.315969 0.040828 -178.259917 0.039995 -168.027187 0.346137 -112.071564 
0.8772504500000000 0.461629 -35.404261 0.040840 -178.651231 0.040045 -168.671871 0.346453 -112.186605 
0.8773754750000000 0.459928 -35.480222 0.040904 -179.310688 0.040159 -168.973457 0.345702 -112.122627 
0.8775005000000000 0.460305 -35.673241 0.040961 -179.695848 0.040238 -169.424057 0.346222 -112.240315 
0.8776255250000000 0.458429 -35.846495 0.041070 179.659402 0.040272 -169.868936 0.345787 -112.264348 
0.8777505500000000 0.457576 -35.992111 0.040984 179.317370 0.040247 -170.355996 0.345737 -112.377110 
0.8778755750000000 0.457915 -36.157350 0.041189 178.803311 0.040416 -170.950200 0.344619 -112.245176 
0.8780006000000000 0.455599 -36.149133 0.040941 178.427609 0.040336 -171.674872 0.345261 -112.278216 
0.8781256250000000 0.455367 -36.411038 0.041227 178.038035 0.040412 -171.914642 0.344362 -112.328494 
0.8782506500000000 0.454513 -36.514432 0.041380 177.522037 0.040531 -172.352261 0.343979 -112.453687 
0.8783756750000000 0.453283 -36.596022 0.041195 176.788388 0.040500 -173.015554 0.343636 -112.301256 
0.8785007000000000 0.452428 -36.693282 0.041449 176.612631 0.040738 -173.216036 0.343527 -112.391210 
0.8786257250000000 0.451221 -36.873004 0.041388 176.186985 0.040650 -173.980440 0.343300 -112.539159 
0.8787507500000000 0.451445 -37.023657 0.041478 175.733048 0.040616 -174.429696 0.342724 -112.573558 
0.8788757750000000 0.449561 -37.182994 0.041520 175.016459 0.040772 -174.679869 0.342992 -112.588104 
0.8790008000000000 0.447774 -37.214316 0.041344 174.835960 0.040791 -175.462185 0.343042 -112.766903 
0.8791258250000000 0.447476 -37.425166 0.041548 174.129499 0.041034 -175.737538 0.342379 -112.647359 
0.8792508500000000 0.446720 -37.482078 0.041729 173.852130 0.040998 -176.094611 0.341654 -112.648214 
0.8793758750000000 0.444970 -37.717141 0.041694 173.092478 0.041010 -176.918024 0.341559 -112.782502 
0.8795009000000000 0.444361 -37.728134 0.041639 172.623016 0.041065 -177.476345 0.341462 -112.717167 
0.8796259250000000 0.444158 -37.947837 0.041816 172.185158 0.041075 -178.017455 0.340875 -112.853071 
0.8797509500000000 0.443285 -38.065949 0.041859 171.536488 0.041125 -178.229927 0.340825 -112.912290 
0.8798759750000000 0.442222 -38.133684 0.041957 171.084924 0.041183 -178.957071 0.340422 -112.857328 
0.8800010000000000 0.440484 -38.359449 0.041830 170.451354 0.041222 -179.376985 0.340534 -112.994297 
0.8801260250000000 0.439480 -38.376778 0.041964 170.244401 0.041155 -179.822088 0.339743 -113.179664 
0.8802510500000000 0.439080 -38.522363 0.041948 169.560709 0.041326 179.563669 0.339238 -113.137681 
0.8803760750000000 0.437981 -38.754578 0.042060 169.089060 0.041404 179.099913 0.338797 -113.186386 
0.8805011000000000 0.437088 -38.876915 0.042051 168.668159 0.041384 178.647830 0.339343 -113.074100 
0.8806261250000000 0.435374 -38.929822 0.042100 168.239020 0.041454 177.967006 0.338448 -113.166710 
0.8807511500000000 0.435145 -38.985188 0.042055 167.737549 0.041519 177.496039 0.339114 -113.258839 
0.8808761750000000 0.433559 -39.209674 0.042205 167.331051 0.041627 176.871724 0.338356 -113.195885 
0.8810012000000000 0.432872 -39.242079 0.042271 166.722478 0.041708 176.568148 0.338821 -113.274481 
0.8811262250000000 0.432343 -39.516626 0.042210 166.348684 0.041744 176.046437 0.337211 -113.347024 
0.8812512500000000 0.430858 -39.532256 0.042376 165.648516 0.041816 175.363976 0.338330 -113.394709 
0.8813762750000000 0.429051 -39.633634 0.042299 165.320214 0.041741 174.766932 0.337051 -113.336186 
0.8815013000000000 0.427160 -39.862700 0.042550 164.866742 0.041913 174.390339 0.337885 -113.545811 
0.8816263250000000 0.427636 -40.028072 0.042528 164.357456 0.041995 174.006392 0.336517 -113.596356 
0.8817513500000000 0.426548 -40.102641 0.042553 163.742054 0.042058 173.144742 0.337263 -113.614532 
0.8818763750000001 0.425883 -40.301812 0.042470 163.075489 0.041970 172.760327 0.336959 -113.625816 
0.8820014000000001 0.424267 -40.324815 0.042568 162.750429 0.042200 172.309011 0.336520 -113.584760 
0.8821264250000001 0.422599 -40.489770 0.042577 162.250924 0.042045 171.758155 0.335902 -113.642199 
0.8822514500000001 0.421496 -40.601523 0.042536 161.641417 0.042137 171.222882 0.335254 -113.753320 
0.8823764750000001 0.420591 -40.751226 0.042592 161.160170 0.042251 170.581474 0.334987 -113.779114 
0.8825015000000001 0.419722 -40.897489 0.042652 160.580568 0.042288 170.225409 0.335290 -113.818994 
0.8826265250000001 0.419539 -41.043411 0.042704 160.053186 0.042373 169.517074 0.334942 -113.890927 
0.8827515500000001 0.416809 -41.161658 0.042962 159.552022 0.042324 169.023773 0.334757 -113.819301 
0.8828765750000001 0.417758 -41.234158 0.042795 159.110994 0.042364 168.616201 0.334499 -113.913131 
0.8830016000000001 0.416284 -41.451454 0.043039 158.647468 0.042431 168.134957 0.334251 -113.920533 
0.8831266250000001 0.415144 -41.486461 0.042932 157.969341 0.042521 167.647647 0.333359 -113.885257 
0.8832516500000001 0.414043 -41.632664 0.043002 157.697421 0.042555 166.860061 0.333275 -113.943314 
0.8833766749999999 0.412671 -41.813521 0.042961 156.996811 0.042609 166.291586 0.333158 -114.078660 
0.8835017000000000 0.411810 -41.886533 0.042946 156.816776 0.042571 165.826781 0.332646 -113.997179 
0.8836267250000000 0.410371 -42.032497 0.043069 156.134377 0.042753 165.188778 0.332616 -114.229899 
0.8837517500000000 0.408835 -42.128834 0.043056 155.670528 0.042609 164.901225 0.332967 -114.133644 
0.8838767750000000 0.407337 -42.337072 0.043071 155.068029 0.042648 164.181668 0.331968 -114.314916 
0.8840018000000000 0.406645 -42.472544 0.043061 154.492799 0.042812 163.731318 0.332033 -114.211654 
0.8841268250000000 0.405852 -42.557560 0.043095 154.018998 0.042700 163.399305 0.331276 -114.293688 
0.8842518500000000 0.404273 -42.678102 0.043089 153.715105 0.042723 162.571361 0.331282 -114.385860 
0.8843768750000000 0.403510 -42.701305 0.043231 152.866298 0.042679 162.050077 0.330660 -114.301286 
0.8845019000000000 0.402749 -42.881292 0.043272 152.535875 0.042795 161.632889 0.330977 -114.346018 
0.8846269250000000 0.401563 -43.047565 0.043243 151.990397 0.042904 161.135724 0.330761 -114.275947 
0.8847519500000000 0.399925 -43.225153 0.043264 151.452032 0.042915 160.431138 0.330946 -114.423835 
0.8848769750000000 0.399991 -43.429538 0.043180 150.804789 0.042948 159.930590 0.329906 -114.372015 
0.8850020000000000 0.398742 -43.469605 0.043215 150.331342 0.043108 159.538015 0.329838 -114.499674 
0.8851270250000000 0.397159 -43.570945 0.043470 150.042154 0.043055 158.952276 0.329723 -114.596238 
0.8852520500000000 0.396429 -43.744572 0.043346 149.306923 0.042992 158.475208 0.329511 -114.630602 
0.8853770750000000 0.394275 -43.792605 0.043329 148.873175 0.043084 157.821301 0.330046 -114.617147 
0.8855021000000000 0.394222 -43.941438 0.043285 148.415316 0.043162 157.436418 0.329581 -114.695100 
0.8856271250000000 0.392798 -44.123336 0.043367 147.906470 0.043177 156.879179 0.328148 -114.546263 
0.8857521500000000 0.391347 -44.173810 0.043433 147.512404 0.043056 156.276156 0.327799 -114.656301 
0.8858771750000000 0.390569 -44.303541 0.043384 146.970852 0.043153 155.637164 0.327198 -114.887107 
0.8860022000000000 0.388930 -44.432543 0.043451 146.447346 0.043061 155.265974 0.327682 -114.700978 
0.8861272250000000 0.387827 -44.687576 0.043622 145.818693 0.043198 154.749724 0.326544 -114.881349 
0.8862522500000000 0.386802 -44.691545 0.043461 145.179371 0.043126 154.412999 0.326494 -114.849948 
0.8863772750000000 0.386076 -44.795034 0.043547 144.802181 0.043213 153.655494 0.326912 -114.969396 
0.8865023000000000 0.385103 -44.865160 0.043692 144.392828 0.043229 153.386338 0.326525 -114.912396 
0.8866273250000000 0.383980 -45.051511 0.043595 143.828507 0.043339 152.825981 0.326621 -114.910487 
0.8867523500000000 0.382438 -45.101837 0.043593 143.271491 0.043347 152.089757 0.326567 -114.903034 
0.8868773750000000 0.382387 -45.252196 0.043543 142.684355 0.043350 151.596964 0.326436 -114.955080 
0.8870024000000000 0.381072 -45.292000 0.043631 142.289998 0.043288 150.927744 0.325945 -115.036670 
0.8871274250000000 0.379632 -45.433158 0.043607 141.886970 0.043386 150.505996 0.325632 -115.032798 
0.8872524500000000 0.378039 -45.662301 0.043657 141.460207 0.043312 149.845447 0.325090 -115.196257 
0.8873774750000000 0.376816 -45.610313 0.043787 140.704452 0.043460 149.595150 0.324515 -115.107054 
0.8875025000000000 0.375857 -45.879992 0.043691 140.329574 0.043610 149.090394 0.324682 -115.283678 
0.8876275250000000 0.374700 -45.961910 0.043683 139.835045 0.043550 148.529272 0.324138 -115.269460 
0.8877525500000000 0.373493 -46.072619 0.043702 139.396541 0.043592 148.095071 0.323961 -115.379810 
0.8878775750000000 0.371843 -46.242002 0.043830 138.821584 0.043351 147.425172 0.323338 -115.336404 
0.8880026000000000 0.370509 -46.273183 0.043818 138.267863 0.043577 146.940802 0.323369 -115.423600 
0.8881276250000000 0.370235 -46.320884 0.043767 138.020577 0.043610 146.477433 0.322898 -115.361376 
0.8882526500000000 0.369019 -46.539736 0.043794 137.320932 0.043467 145.944551 0.322894 -115.283835 
0.8883776750000000 0.367857 -46.623619 0.043840 136.868751 0.043609 145.484896 0.323084 -115.405634 
0.8885027000000000 0.366336 -46.795808 0.043993 136.468618 0.043658 144.831011 0.322261 -115.439081 
0.8886277250000000 0.365058 -46.935950 0.043959 135.875455 0.043776 144.512239 0.322373 -115.417640 
0.8887527500000000 0.363980 -47.132037 0.043843 135.308441 0.043599 143.860028 0.322014 -115.586374 
0.8888777750000000 0.362259 -47.205358 0.044031 134.808696 0.043662 143.469508 0.321928 -115.491365 
0.8890028000000000 0.361463 -47.217060 0.044037 134.396353 0.043756 142.878350 0.321236 -115.586436 
0.8891278250000000 0.360233 -47.392939 0.043964 133.980487 0.043714 142.263585 0.320934 -115.600145 
0.8892528500000000 0.358432 -47.360093 0.044074 133.502523 0.043804 141.848656 0.320655 -115.672463 
0.8893778750000000 0.357798 -47.452475 0.043970 132.871228 0.043959 141.373196 0.320810 -115.780165 
0.8895029000000000 0.357093 -47.783120 0.044248 132.564757 0.043871 141.058148 0.320333 -115.766781 
0.8896279250000000 0.356099 -47.853477 0.043977 132.050189 0.044028 140.209365 0.320072 -115.631756 
0.8897529500000000 0.354571 -47.872775 0.043958 131.652744 0.044215 139.973227 0.319839 -115.797341 
0.8898779750000000 0.352660 -47.842710 0.044204 131.244065 0.044033 139.169893 0.319580 -115.801608 
0.8900030000000000 0.352304 -48.114422 0.044148 130.684795 0.044192 138.827101 0.319740 -115.848467 
0.8901280250000000 0.350136 -48.124887 0.044181 130.166931 0.044189 138.133568 0.318987 -115.883544 
0.8902530500000000 0.348662 -48.143431 0.044356 129.531745 0.044039 137.764700 0.319159 -115.972117 
0.8903780750000000 0.348031 -48.289689 0.044350 129.021544 0.044281 137.162687 0.318487 -116.024894 
0.8905031000000000 0.346214 -48.437550 0.044424 128.790042 0.044271 136.627007 0.318271 -115.995026 
0.8906281250000000 0.345101 -48.642491 0.044404 128.328490 0.044361 136.031303 0.318612 -115.995637 
0.8907531500000000 0.343459 -48.730271 0.044308 127.853562 0.044433 135.669578 0.317968 -116.046140 
0.8908781750000000 0.342013 -48.820331 0.044428 127.267890 0.044414 135.252275 0.317531 -116.035582 
0.8910032000000000 0.341188 -48.838667 0.044470 126.747026 0.044366 134.407797 0.316935 -116.291186 
0.8911282250000000 0.340038 -48.990151 0.044437 126.200959 0.044410 134.074271 0.317323 -116.121485 
0.8912532500000000 0.338806 -49.096151 0.044489 125.741855 0.044595 133.601467 0.316620 -116.300788 
0.8913782750000000 0.337301 -49.193476 0.044635 125.405611 0.044608 133.080231 0.316419 -116.189409 
0.8915033000000000 0.336190 -49.349342 0.044680 124.751774 0.044662 132.485193 0.315435 -116.227904 
0.8916283250000000 0.334763 -49.401258 0.044852 124.381404 0.044648 132.084177 0.316279 -116.300503 
0.8917533500000000 0.334011 -49.483597 0.044815 123.882822 0.044680 131.571797 0.316130 -116.270696 
0.8918783750000000 0.332647 -49.600822 0.044790 123.207569 0.044787 130.980025 0.315952 -116.292800 
0.8920034000000000 0.330739 -49.732445 0.044775 122.975873 0.044749 130.474413 0.315050 -116.349108 
0.8921284250000000 0.329674 -49.725181 0.044911 122.225400 0.044845 130.018985 0.315078 -116.309416 
0.8922534500000000 0.328544 -49.896308 0.045005 121.932023 0.044850 129.484857 0.315362 -116.463382 
0.8923784750000000 0.327180 -50.026785 0.045023 121.418745 0.044891 128.863587 0.314584 -116.614769 
0.8925035000000000 0.325611 -50.030096 0.045091 120.924272 0.045040 128.357425 0.314856 -116.577462 
0.8926285250000000 0.323986 -50.116698 0.045131 120.258184 0.045024 127.803457 0.313560 -116.527649 
0.8927535500000000 0.322657 -50.208998 0.045274 119.915535 0.044984 127.107485 0.313464 -116.580018 
0.8928785750000000 0.320941 -50.428458 0.045186 119.378307 0.045115 126.670301 0.313096 -116.470151 
0.8930036000000000 0.320038 -50.422478 0.045421 118.804790 0.045273 126.281868 0.313643 -116.694703 
0.8931286250000000 0.318489 -50.565930 0.045497 118.311987 0.045188 125.810099 0.313848 -116.719528 
0.8932536500000000 0.316760 -50.616020 0.045531 117.790958 0.045373 125.195255 0.312810 -116.640043 
0.8933786750000000 0.315540 -50.724436 0.045447 117.296334 0.045445 124.656524 0.312564 -116.687641 
0.8935037000000000 0.314154 -50.787348 0.045465 116.801539 0.045526 124.120818 0.312510 -116.692673 
0.8936287250000000 0.312840 -50.919023 0.045691 116.393911 0.045503 123.490238 0.312005 -116.732964 
0.8937537500000000 0.311460 -50.857533 0.045511 116.037770 0.045499 123.005241 0.311952 -116.788150 
0.8938787750000000 0.310293 -51.037900 0.045971 115.439124 0.045715 122.540315 0.311364 -116.760953 
0.8940038000000000 0.308724 -51.195567 0.045852 114.819925 0.045625 122.062254 0.311626 -116.856137 
0.8941288250000000 0.307368 -51.233132 0.045766 114.333689 0.045736 121.396493 0.311274 -116.939362 
0.8942538500000000 0.305675 -51.271856 0.045988 113.948733 0.045769 120.914201 0.310933 -116.952357 
0.8943788750000000 0.304212 -51.367579 0.046076 113.353683 0.045808 120.299709 0.311058 -117.010021 
0.8945039000000000 0.302945 -51.482605 0.046097 112.718887 0.045937 119.634811 0.310810 -116.944950 
0.8946289250000000 0.301531 -51.568869 0.046204 112.376791 0.045649 119.273638 0.309835 -116.970129 
0.8947539500000000 0.300121 -51.589506 0.046187 111.624780 0.046019 118.590752 0.309338 -116.994794 
0.8948789750000000 0.298997 -51.705966 0.046282 111.010384 0.046216 118.046751 0.309510 -117.038773 
0.8950040000000000 0.297442 -51.757931 0.046405 110.647272 0.046140 117.305481 0.309608 -117.086618 
0.8951290250000000 0.296095 -51.793018 0.046411 110.139623 0.046201 116.888742 0.309612 -117.162381 
0.8952540500000000 0.294179 -51.945438 0.046365 109.451674 0.046167 116.529064 0.308652 -117.193364 
0.8953790750000000 0.293238 -51.986943 0.046498 109.222053 0.046258 115.801163 0.308952 -117.301607 
0.8955041000000000 0.291658 -52.067698 0.046579 108.529911 0.046376 115.245529 0.308673 -117.306076 
0.8956291250000000 0.290029 -52.122630 0.046647 107.986729 0.046364 114.740076 0.308334 -117.437506 
0.8957541500000000 0.288365 -52.122899 0.046808 107.491350 0.046451 114.058043 0.308186 -117.279324 
0.8958791750000000 0.286891 -52.318251 0.046849 106.904125 0.046512 113.728933 0.308173 -117.293307 
0.8960042000000000 0.285607 -52.266244 0.046952 106.266070 0.046520 113.184398 0.307780 -117.231984 
0.8961292250000000 0.284204 -52.335189 0.046959 105.757429 0.046654 112.544374 0.307855 -117.221676 
0.8962542500000000 0.282674 -52.443487 0.047129 105.355175 0.046748 111.943366 0.307058 -117.343072 
0.8963792750000000 0.280900 -52.510721 0.047149 104.657447 0.046637 111.307528 0.306763 -117.416480 
0.8965043000000000 0.279408 -52.626962 0.047150 104.331372 0.046735 110.759662 0.307137 -117.402702 
0.8966293250000000 0.277838 -52.537889 0.047405 103.492769 0.046599 110.249992 0.306010 -117.380239 
0.8967543500000000 0.276847 -52.655152 0.047413 103.232333 0.046714 109.548386 0.306154 -117.482032 
0.8968793750000000 0.274997 -52.657029 0.047344 102.666761 0.046602 108.998542 0.305983 -117.550285 
0.8970044000000000 0.273883 -52.667878 0.047568 102.048867 0.046737 108.341789 0.306194 -117.545772 
0.8971294250000000 0.271729 -52.855326 0.047490 101.643446 0.046881 107.986762 0.306411 -117.672700 
0.8972544500000000 0.270202 -52.869961 0.047458 100.895355 0.046882 107.382251 0.305206 -117.636063 
0.8973794750000000 0.269251 -52.830713 0.047582 100.357230 0.047049 106.618924 0.305901 -117.625963 
0.8975045000000000 0.267406 -52.941129 0.047696 99.687575 0.047038 106.027417 0.305197 -117.805236 
0.8976295250000000 0.266109 -52.940207 0.047712 99.157314 0.047044 105.494517 0.304564 -117.764155 
0.8977545500000000 0.264477 -52.977710 0.047658 98.529633 0.047119 104.911552 0.304595 -117.731943 
0.8978795750000000 0.263177 -52.997222 0.047767 98.227815 0.046960 104.352322 0.304480 -117.863391 
0.8980046000000000 0.261534 -53.069274 0.048077 97.364669 0.047148 103.698945 0.304503 -117.698900 
0.8981296250000000 0.260088 -53.157652 0.047960 97.008291 0.047024 103.155217 0.303599 -117.795018 
0.8982546500000000 0.258388 -53.048572 0.048039 96.364560 0.047119 102.407559 0.303358 -117.783108 
0.8983796750000000 0.257340 -53.130102 0.048192 95.936009 0.047299 102.059417 0.303616 -117.708651 
0.8985047000000001 0.255496 -53.068168 0.048249 95.378164 0.047242 101.490491 0.303809 -117.845650 
0.8986297250000001 0.254045 -53.168651 0.048208 94.970723 0.047214 100.806061 0.302782 -117.928796 
0.8987547500000001 0.253114 -53.170513 0.048331 94.384138 0.047324 100.397791 0.302898 -117.982505 
0.8988797750000001 0.250649 -53.210337 0.048247 93.472203 0.047309 99.903604 0.302227 -118.014118 
