!
! C:\Users\rflab\Downloads\Lab5_KD_ZW\Q3\40.S2P
!
! Touchstone 1.1 file saved by VNA.EXE V1.65 (www.ke5fx.com/gpib/readme.htm)
! 11/18/2024 10:22:26 PM
!
!    Source: HEWLETT PACKARD,8753D,0,6.14
!  Min freq: 8.750000E+008 Hz
!  Max freq: 9.750200E+008 Hz
!    Points: 801
!    Params: S11 S21 S12 S22
!
!!!!!
# GHZ S MA R 50
0.8750000000000000 0.454689 -31.622617 0.028373 174.824057 0.027412 -174.349704 0.349120 -111.932545 
0.8751250250000000 0.453713 -31.866290 0.028250 174.428361 0.027559 -175.299587 0.348634 -111.975563 
0.8752500500000000 0.452662 -31.955836 0.028202 174.037234 0.027483 -175.769332 0.349650 -112.053991 
0.8753750750000000 0.452362 -32.219052 0.028104 173.374676 0.027477 -176.139097 0.349100 -112.058110 
0.8755001000000000 0.451094 -32.297718 0.028236 173.144766 0.027576 -176.697070 0.348715 -112.062113 
0.8756251250000000 0.449366 -32.444033 0.028241 172.603787 0.027518 -177.036055 0.349092 -112.161357 
0.8757501500000000 0.448954 -32.611436 0.028219 172.093913 0.027592 -177.769545 0.348425 -112.303709 
0.8758751750000000 0.447973 -32.694070 0.028342 171.789746 0.027504 -178.323025 0.348550 -112.327750 
0.8760002000000000 0.447085 -32.932388 0.028342 171.033385 0.027640 -178.604169 0.348921 -112.356957 
0.8761252250000000 0.446305 -33.130459 0.028336 170.699365 0.027555 -179.175030 0.348033 -112.292134 
0.8762502500000000 0.445644 -33.272739 0.028435 170.026536 0.027800 -179.752342 0.347398 -112.394914 
0.8763752750000000 0.444651 -33.417953 0.028313 169.943720 0.027735 179.755694 0.346020 -112.264969 
0.8765003000000000 0.444169 -33.605455 0.028476 169.463802 0.027720 179.231220 0.346708 -112.316492 
0.8766253250000000 0.442903 -33.612325 0.028400 169.000232 0.027799 178.694742 0.346512 -112.449846 
0.8767503500000000 0.442195 -33.915987 0.028460 168.471684 0.027773 178.480964 0.346368 -112.563568 
0.8768753750000000 0.440766 -34.136777 0.028426 167.963238 0.027800 177.986867 0.345823 -112.557242 
0.8770004000000000 0.439771 -34.246410 0.028555 167.536371 0.027700 177.612405 0.345617 -112.527636 
0.8771254250000000 0.439108 -34.370402 0.028442 166.989831 0.027874 176.779508 0.345274 -112.628041 
0.8772504500000000 0.438487 -34.544470 0.028577 166.655691 0.027837 176.468472 0.345047 -112.748119 
0.8773754750000000 0.436463 -34.578988 0.028609 165.911875 0.027840 176.244665 0.344289 -112.762452 
0.8775005000000000 0.436672 -34.784043 0.028481 165.447253 0.027916 175.446369 0.344283 -112.707776 
0.8776255250000000 0.435265 -35.030523 0.028553 165.029872 0.028009 175.191311 0.344243 -112.809758 
0.8777505500000000 0.434914 -35.129203 0.028587 164.588639 0.027942 174.417836 0.343938 -112.924900 
0.8778755750000000 0.433007 -35.383709 0.028595 164.204215 0.028018 174.107776 0.343852 -112.864740 
0.8780006000000000 0.432342 -35.322353 0.028705 164.032648 0.028002 173.440877 0.343499 -112.856379 
0.8781256250000000 0.431246 -35.634770 0.028766 163.383000 0.027983 173.239743 0.343286 -112.771882 
0.8782506500000000 0.430119 -35.662432 0.028844 162.759659 0.028052 172.581178 0.343023 -112.956303 
0.8783756750000000 0.429752 -35.928357 0.028709 162.172963 0.028112 172.240444 0.342781 -112.873733 
0.8785007000000000 0.428917 -36.107544 0.028845 161.674083 0.028227 171.615296 0.341752 -112.991003 
0.8786257250000000 0.427356 -36.153865 0.028705 161.465120 0.028175 170.755752 0.342726 -113.021734 
0.8787507500000000 0.426203 -36.368967 0.028862 160.785530 0.028196 170.385398 0.341859 -113.111284 
0.8788757750000000 0.426279 -36.486369 0.028748 160.287108 0.028412 170.088722 0.341746 -113.197243 
0.8790008000000000 0.424810 -36.692090 0.028930 159.901999 0.028190 169.643480 0.341438 -113.180432 
0.8791258250000000 0.423212 -36.871555 0.028878 159.428464 0.028388 169.078129 0.340728 -113.253848 
0.8792508500000000 0.423476 -37.046214 0.029065 159.016214 0.028417 168.469850 0.340184 -113.287682 
0.8793758750000000 0.421304 -37.157507 0.029014 158.322393 0.028370 167.911164 0.339572 -113.399404 
0.8795009000000000 0.420862 -37.315284 0.029033 158.211175 0.028356 167.838212 0.340461 -113.317948 
0.8796259250000000 0.420948 -37.494639 0.029018 157.740521 0.028434 167.163533 0.339866 -113.462044 
0.8797509500000000 0.418506 -37.601066 0.029013 157.145147 0.028354 166.398432 0.338207 -113.437553 
0.8798759750000000 0.417231 -37.696352 0.029076 156.530967 0.028415 166.416166 0.338850 -113.519757 
0.8800010000000000 0.417032 -37.985670 0.028959 155.980810 0.028623 165.686891 0.338299 -113.577283 
0.8801260250000000 0.415280 -38.110406 0.029121 155.543312 0.028603 164.969396 0.338387 -113.740041 
0.8802510500000000 0.414787 -38.214762 0.029196 155.053888 0.028660 164.778995 0.338537 -113.695036 
0.8803760750000000 0.414213 -38.366099 0.029184 154.446499 0.028668 164.023715 0.337382 -113.673589 
0.8805011000000000 0.413153 -38.517707 0.029192 154.154876 0.028656 163.293450 0.337728 -113.613961 
0.8806261250000000 0.411796 -38.692633 0.029109 153.347645 0.028636 162.798501 0.337246 -113.672426 
0.8807511500000000 0.410757 -38.702355 0.029310 153.198164 0.028724 162.230408 0.336777 -113.684673 
0.8808761750000000 0.410032 -39.082372 0.029229 152.475155 0.028762 161.567451 0.336593 -113.755197 
0.8810012000000000 0.408710 -39.064710 0.029321 152.219767 0.028833 161.514717 0.336855 -113.792261 
0.8811262250000000 0.408069 -39.367484 0.029531 151.536318 0.028866 160.960448 0.336195 -113.858982 
0.8812512500000000 0.407149 -39.334882 0.029438 150.925576 0.028766 160.392432 0.336281 -113.994696 
0.8813762750000000 0.404862 -39.684752 0.029341 150.508748 0.028763 159.683189 0.336299 -113.925012 
0.8815013000000000 0.403962 -39.835777 0.029383 149.916505 0.029034 159.604318 0.335773 -113.850924 
0.8816263250000000 0.404570 -40.006176 0.029360 149.455000 0.028878 158.833174 0.335621 -113.959312 
0.8817513500000000 0.402454 -40.066188 0.029439 149.136186 0.029024 158.172021 0.334848 -114.149648 
0.8818763750000001 0.401923 -40.286562 0.029389 148.651690 0.028934 157.859831 0.334654 -114.050031 
0.8820014000000001 0.400482 -40.364035 0.029519 148.189258 0.029043 157.112684 0.334044 -114.033714 
0.8821264250000001 0.399418 -40.505374 0.029476 147.546015 0.029013 156.571427 0.334046 -114.188360 
0.8822514500000001 0.398738 -40.704511 0.029407 146.898461 0.029085 156.038653 0.333521 -114.102491 
0.8823764750000001 0.396392 -41.026172 0.029474 146.489382 0.029008 155.627445 0.333611 -114.124260 
0.8825015000000001 0.396545 -40.954252 0.029638 146.087496 0.029038 154.875794 0.333709 -114.225837 
0.8826265250000001 0.395351 -41.216292 0.029554 145.283800 0.029248 154.547896 0.333487 -114.243053 
0.8827515500000001 0.393526 -41.431706 0.029679 144.856548 0.029245 154.018203 0.332983 -114.178428 
0.8828765750000001 0.393452 -41.352313 0.029601 144.330782 0.029238 153.444975 0.333048 -114.432647 
0.8830016000000001 0.392655 -41.627249 0.029552 143.794277 0.029228 153.167414 0.331780 -114.422145 
0.8831266250000001 0.390682 -41.836843 0.029547 143.195568 0.029224 152.267574 0.332240 -114.316771 
0.8832516500000001 0.389800 -42.094912 0.029639 142.780206 0.029287 151.680789 0.331795 -114.478850 
0.8833766749999999 0.389744 -42.165951 0.029619 142.555251 0.029270 151.079948 0.331467 -114.417760 
0.8835017000000000 0.387503 -42.417869 0.029683 141.886710 0.029265 151.079587 0.331361 -114.530420 
0.8836267250000000 0.386380 -42.416761 0.029655 141.482642 0.029299 150.157040 0.330351 -114.592894 
0.8837517500000000 0.386288 -42.739710 0.029593 140.922356 0.029243 149.454116 0.331073 -114.535744 
0.8838767750000000 0.384120 -42.855793 0.029679 140.252411 0.029238 149.017655 0.330628 -114.646598 
0.8840018000000000 0.383427 -42.951951 0.029637 139.813659 0.029301 148.782954 0.330581 -114.603736 
0.8841268250000000 0.383788 -43.166620 0.029783 139.533630 0.029397 148.115582 0.329788 -114.544437 
0.8842518500000000 0.381961 -43.285763 0.029609 138.830211 0.029273 147.638470 0.329361 -114.776997 
0.8843768750000000 0.380748 -43.419996 0.029739 138.295349 0.029402 147.122302 0.328879 -114.722035 
0.8845019000000000 0.378706 -43.617227 0.029809 137.947520 0.029412 146.449563 0.329698 -114.802556 
0.8846269250000000 0.377969 -43.707778 0.029861 137.250687 0.029304 145.897237 0.329246 -114.809643 
0.8847519500000000 0.376629 -43.877214 0.029762 136.538542 0.029431 145.180607 0.329105 -114.832658 
0.8848769750000000 0.376172 -44.092816 0.029760 135.929614 0.029349 144.919202 0.328724 -114.904422 
0.8850020000000000 0.375061 -44.329146 0.029768 135.680137 0.029414 144.240316 0.327761 -115.035584 
0.8851270250000000 0.374567 -44.458658 0.029713 135.172951 0.029255 143.622457 0.327897 -114.871594 
0.8852520500000000 0.372749 -44.552201 0.029852 134.707493 0.029512 143.286007 0.327437 -115.014966 
0.8853770750000000 0.371782 -44.709008 0.029768 133.934301 0.029498 142.672185 0.327830 -114.947610 
0.8855021000000000 0.370538 -44.809805 0.029635 133.700023 0.029637 142.279762 0.327961 -115.160541 
0.8856271250000000 0.369069 -45.050255 0.029808 132.645451 0.029542 141.541819 0.326213 -114.985166 
0.8857521500000000 0.368681 -45.083846 0.029750 132.607024 0.029488 141.126627 0.326693 -115.152701 
0.8858771750000000 0.368058 -45.245227 0.029908 132.055792 0.029578 140.647163 0.325780 -115.239975 
0.8860022000000000 0.366301 -45.529932 0.029752 131.530436 0.029627 139.946244 0.326274 -115.122112 
0.8861272250000000 0.365466 -45.776439 0.029881 131.051746 0.029557 139.349387 0.325709 -115.162841 
0.8862522500000000 0.364211 -45.728198 0.029718 130.507355 0.029539 139.104163 0.325759 -115.093426 
0.8863772750000000 0.363748 -46.069064 0.029843 130.166365 0.029625 138.139462 0.324669 -115.278811 
0.8865023000000000 0.361717 -46.134902 0.029900 129.733276 0.029593 138.033098 0.324884 -115.308543 
0.8866273250000000 0.360896 -46.365360 0.029753 129.142225 0.029540 137.403423 0.324864 -115.250683 
0.8867523500000000 0.359421 -46.389884 0.029900 128.458885 0.029643 136.930732 0.324700 -115.365639 
0.8868773750000000 0.358731 -46.533908 0.029904 128.143579 0.029654 136.318698 0.324341 -115.395660 
0.8870024000000000 0.358394 -46.757961 0.029920 127.387105 0.029553 135.669390 0.324866 -115.464975 
0.8871274250000000 0.356189 -46.798378 0.029851 127.044161 0.029641 135.232037 0.323832 -115.432466 
0.8872524500000000 0.354865 -47.167645 0.029753 126.474298 0.029597 134.749351 0.323445 -115.477051 
0.8873774750000000 0.354202 -47.196152 0.029770 126.067057 0.029669 134.321482 0.323170 -115.626179 
0.8875025000000000 0.353418 -47.300816 0.029842 125.600888 0.029590 133.737244 0.322737 -115.590988 
0.8876275250000000 0.351481 -47.496591 0.029781 125.171037 0.029549 133.225318 0.323447 -115.590717 
0.8877525500000000 0.351464 -47.591781 0.029945 124.680047 0.029632 132.821952 0.322652 -115.622248 
0.8878775750000000 0.348901 -47.733227 0.029941 124.227101 0.029714 132.394545 0.322116 -115.661946 
0.8880026000000000 0.348163 -47.904355 0.029920 123.732605 0.029715 131.851764 0.321232 -115.622948 
0.8881276250000000 0.347321 -47.975562 0.029796 123.286719 0.029811 131.121791 0.321342 -115.776593 
0.8882526500000000 0.345871 -48.295935 0.029948 122.336299 0.029775 130.866037 0.321789 -115.653734 
0.8883776750000000 0.344811 -48.474903 0.029868 122.216947 0.029756 130.206917 0.321514 -115.852422 
0.8885027000000000 0.343225 -48.655215 0.029975 121.503374 0.029702 129.780371 0.321460 -115.845000 
0.8886277250000000 0.341989 -48.731830 0.030017 121.040547 0.029906 129.165741 0.320620 -115.760191 
0.8887527500000000 0.341737 -48.912272 0.029866 120.698930 0.029683 128.628182 0.320577 -115.994252 
0.8888777750000000 0.340091 -49.089754 0.029932 120.293757 0.029780 128.225977 0.320368 -115.854750 
0.8890028000000000 0.338915 -49.248454 0.030081 119.549325 0.029746 127.540035 0.319819 -115.890205 
0.8891278250000000 0.337781 -49.277431 0.029861 119.427133 0.029834 127.129608 0.320646 -115.982187 
0.8892528500000000 0.337155 -49.425150 0.029921 118.782140 0.029903 126.675470 0.318957 -115.922711 
0.8893778750000000 0.336187 -49.509848 0.030028 118.297051 0.029856 126.094254 0.318938 -116.015848 
0.8895029000000000 0.334987 -49.807477 0.030007 117.757345 0.029918 125.593519 0.319072 -116.065099 
0.8896279250000000 0.333109 -50.015322 0.029913 117.452261 0.029840 125.407398 0.318707 -115.993371 
0.8897529500000000 0.331926 -50.136086 0.029951 116.689066 0.030030 124.505619 0.318652 -116.010441 
0.8898779750000000 0.330531 -50.161577 0.029941 116.445881 0.030000 123.996705 0.317381 -116.042719 
0.8900030000000000 0.330387 -50.419396 0.030046 115.754983 0.029925 123.769078 0.317935 -116.171527 
0.8901280250000000 0.328184 -50.592140 0.030059 115.698426 0.029933 123.023260 0.317667 -116.048102 
0.8902530500000000 0.327274 -50.630529 0.030077 115.304009 0.029989 122.578233 0.317445 -116.141367 
0.8903780750000000 0.325964 -50.805696 0.030056 114.385574 0.029951 121.956252 0.317030 -116.288804 
0.8905031000000000 0.324656 -50.961264 0.030034 114.089209 0.029935 121.596740 0.317131 -116.138476 
0.8906281250000000 0.323339 -51.099075 0.030119 113.358672 0.030022 121.090488 0.316894 -116.288669 
0.8907531500000000 0.322054 -51.270244 0.029965 113.033373 0.030045 120.475317 0.316688 -116.313200 
0.8908781750000000 0.320493 -51.430937 0.030031 112.542056 0.029935 120.041480 0.316263 -116.456266 
0.8910032000000000 0.319397 -51.484251 0.030234 112.011497 0.030165 119.425838 0.316017 -116.540305 
0.8911282250000000 0.318406 -51.682390 0.030044 111.577837 0.030204 118.962174 0.315689 -116.508088 
0.8912532500000000 0.317317 -51.811352 0.030045 111.081388 0.030132 118.388458 0.315212 -116.470780 
0.8913782750000000 0.315444 -51.952679 0.030231 110.601737 0.030231 117.811570 0.314872 -116.383758 
0.8915033000000000 0.314470 -52.134767 0.030234 110.202372 0.030159 117.201943 0.315267 -116.428630 
0.8916283250000000 0.313298 -52.278963 0.030231 109.689083 0.030173 117.097946 0.314311 -116.577492 
0.8917533500000000 0.311910 -52.347492 0.030207 108.912030 0.030184 116.430652 0.314747 -116.612252 
0.8918783750000000 0.310704 -52.534677 0.030370 108.802492 0.030372 115.519034 0.313942 -116.530184 
0.8920034000000000 0.309044 -52.722723 0.030224 108.122797 0.030198 115.147190 0.313438 -116.669830 
0.8921284250000000 0.307849 -52.785345 0.030288 107.783434 0.030341 114.572132 0.313629 -116.689709 
0.8922534500000000 0.306983 -53.041250 0.030417 107.186200 0.030294 114.110473 0.313343 -116.759707 
0.8923784750000000 0.305344 -53.150150 0.030448 106.766282 0.030277 113.627515 0.313043 -116.749908 
0.8925035000000000 0.303977 -53.273326 0.030542 106.343502 0.030324 113.078401 0.312579 -116.755183 
0.8926285250000000 0.302321 -53.457465 0.030427 105.838833 0.030411 112.587517 0.312280 -116.807945 
0.8927535500000000 0.301079 -53.542444 0.030447 105.373482 0.030392 112.096540 0.312035 -116.843224 
0.8928785750000000 0.299868 -53.842079 0.030584 104.729559 0.030463 111.636872 0.311817 -116.863486 
0.8930036000000000 0.298977 -53.847723 0.030562 104.429973 0.030529 110.996382 0.311815 -116.763168 
0.8931286250000000 0.297132 -54.035798 0.030655 103.848619 0.030548 110.610894 0.312144 -116.833112 
0.8932536500000000 0.295716 -54.212802 0.030682 103.477309 0.030538 110.083997 0.311450 -116.891441 
0.8933786750000000 0.294102 -54.359686 0.030661 102.761927 0.030477 109.630189 0.310851 -116.947414 
0.8935037000000000 0.293138 -54.422798 0.030643 102.184925 0.030704 108.985345 0.310263 -116.907819 
0.8936287250000000 0.291663 -54.591251 0.030773 101.813486 0.030481 108.534718 0.310851 -116.960001 
0.8937537500000000 0.290421 -54.686642 0.030819 101.277942 0.030745 107.954977 0.310831 -117.113485 
0.8938787750000000 0.289245 -54.832659 0.030815 100.928792 0.030701 107.107703 0.310192 -117.154945 
0.8940038000000000 0.287764 -55.040825 0.030880 100.365306 0.030708 106.694814 0.309967 -117.024195 
0.8941288250000000 0.286250 -55.186638 0.030749 99.890012 0.030722 106.497542 0.309680 -117.019564 
0.8942538500000000 0.284523 -55.326420 0.030918 99.233375 0.030741 105.946374 0.309837 -117.163204 
0.8943788750000000 0.283455 -55.454459 0.030938 98.930392 0.030804 105.297746 0.309075 -117.079914 
0.8945039000000000 0.282220 -55.556410 0.030858 98.201724 0.030782 104.581293 0.309049 -117.324145 
0.8946289250000000 0.280875 -55.681449 0.030984 97.779939 0.030805 104.189398 0.308633 -117.093331 
0.8947539500000000 0.278904 -55.841318 0.031127 97.173789 0.030771 103.346267 0.308883 -117.177712 
0.8948789750000000 0.278056 -56.026523 0.031101 96.797698 0.030951 102.882671 0.308536 -117.312724 
0.8950040000000000 0.276468 -56.090674 0.030938 96.186501 0.030839 102.135595 0.307836 -117.431294 
0.8951290250000000 0.275264 -56.190137 0.031098 95.794165 0.031102 101.851560 0.308148 -117.407572 
0.8952540500000000 0.273754 -56.450764 0.030981 95.319936 0.031012 101.153050 0.307765 -117.300636 
0.8953790750000000 0.272203 -56.588747 0.031151 94.797727 0.030771 100.630128 0.307962 -117.550293 
0.8955041000000000 0.270715 -56.644026 0.031110 93.940957 0.030949 100.252417 0.307290 -117.439203 
0.8956291250000000 0.269359 -56.834759 0.031296 93.518611 0.031027 99.671936 0.307209 -117.527248 
0.8957541500000000 0.268000 -56.921558 0.031479 93.223352 0.030986 99.259388 0.307056 -117.571035 
0.8958791750000000 0.266044 -57.129328 0.031406 92.600191 0.030904 98.468168 0.307165 -117.486648 
0.8960042000000000 0.265309 -57.156271 0.031203 92.143910 0.031102 98.066002 0.306218 -117.430757 
0.8961292250000000 0.263647 -57.435732 0.031336 91.670740 0.031081 97.652732 0.306576 -117.540730 
0.8962542500000000 0.262032 -57.499127 0.031479 90.607549 0.031080 97.018166 0.306142 -117.570199 
0.8963792750000000 0.260397 -57.620220 0.031477 90.579813 0.031268 96.212436 0.306260 -117.668133 
0.8965043000000000 0.259144 -57.811875 0.031715 89.875962 0.031241 95.982090 0.305436 -117.613492 
0.8966293250000000 0.257536 -57.851398 0.031484 89.191217 0.031173 95.181417 0.304743 -117.642822 
0.8967543500000000 0.256319 -57.970382 0.031680 88.692473 0.031179 94.603548 0.305097 -117.769754 
0.8968793750000000 0.254503 -58.099485 0.031532 88.006784 0.031234 93.897162 0.305171 -117.752803 
0.8970044000000000 0.253400 -58.232691 0.031550 87.598920 0.031246 93.285951 0.304343 -117.740613 
0.8971294250000000 0.251629 -58.415939 0.031866 87.138620 0.031354 92.583570 0.305034 -117.753343 
0.8972544500000000 0.249981 -58.569611 0.031851 86.546304 0.031210 92.283612 0.304643 -117.853713 
0.8973794750000000 0.248802 -58.535440 0.031866 86.032389 0.031246 91.763036 0.304164 -117.787590 
0.8975045000000000 0.247162 -58.791780 0.031830 85.473578 0.031341 91.230966 0.303496 -117.789000 
0.8976295250000000 0.245642 -58.882728 0.031828 84.973752 0.031316 90.443198 0.304311 -117.932216 
0.8977545500000000 0.244115 -58.953014 0.031851 84.708647 0.031370 89.839748 0.303599 -117.967640 
0.8978795750000000 0.243010 -59.016499 0.031707 83.731742 0.031314 89.623089 0.303292 -117.858153 
0.8980046000000000 0.241552 -59.220281 0.031964 83.279977 0.031313 88.764423 0.303334 -117.805133 
0.8981296250000000 0.239626 -59.366312 0.031950 82.777398 0.031341 87.956203 0.302161 -118.033841 
0.8982546500000000 0.238107 -59.388878 0.032029 81.879549 0.031350 87.426568 0.302644 -117.972059 
0.8983796750000000 0.237100 -59.551007 0.031855 81.554045 0.031524 87.149194 0.302574 -117.903888 
0.8985047000000001 0.235293 -59.617718 0.031991 80.995941 0.031534 86.334381 0.302054 -118.100399 
0.8986297250000001 0.233832 -59.799936 0.031978 80.673634 0.031256 85.800537 0.301990 -118.083892 
0.8987547500000001 0.232373 -59.875731 0.032139 79.920519 0.031474 85.251638 0.301411 -118.185436 
0.8988797750000001 0.230437 -60.037012 0.032075 79.311489 0.031426 84.821937 0.301051 -118.149698 
0.8990048000000001 0.229207 -60.093081 0.032064 78.772955 0.031418 84.411923 0.300657 -118.212911 
