!
! C:\Users\rflab\Downloads\Lab5_KD_ZW\Q3\60.S2P
!
! Touchstone 1.1 file saved by VNA.EXE V1.65 (www.ke5fx.com/gpib/readme.htm)
! 11/18/2024 10:23:33 PM
!
!    Source: HEWLETT PACKARD,8753D,0,6.14
!  Min freq: 8.750000E+008 Hz
!  Max freq: 9.750200E+008 Hz
!    Points: 801
!    Params: S11 S21 S12 S22
!
!!!!!
# GHZ S MA R 50
0.8750000000000000 0.456440 -31.599728 0.016591 161.695223 0.016121 172.481054 0.349590 -111.788399 
0.8751250250000000 0.454917 -31.713256 0.016654 161.966594 0.016262 171.797197 0.349035 -111.722334 
0.8752500500000000 0.454082 -31.948447 0.016670 161.256160 0.016158 171.347150 0.349295 -111.829293 
0.8753750750000000 0.453479 -32.182566 0.016716 160.829042 0.016085 170.616433 0.349182 -111.890680 
0.8755001000000000 0.452041 -32.237860 0.016653 160.126786 0.016244 170.292703 0.348621 -111.862881 
0.8756251250000000 0.452049 -32.445531 0.016753 159.342784 0.016222 169.776810 0.348759 -112.026706 
0.8757501500000000 0.449819 -32.596255 0.016755 159.213022 0.016136 169.663032 0.348522 -112.037108 
0.8758751750000000 0.450332 -32.715974 0.016768 158.306914 0.016416 168.754054 0.348642 -112.072427 
0.8760002000000000 0.449254 -32.908515 0.016678 158.184604 0.016239 168.176673 0.347756 -112.180483 
0.8761252250000000 0.447497 -33.096181 0.016610 157.938363 0.016388 167.890328 0.347934 -112.092574 
0.8762502500000000 0.446368 -33.207142 0.016668 157.104013 0.016295 167.483183 0.347447 -112.255589 
0.8763752750000000 0.446553 -33.371871 0.016667 157.401072 0.016315 166.502316 0.346664 -112.058045 
0.8765003000000000 0.445453 -33.502812 0.016652 156.180101 0.016227 166.483191 0.346045 -112.208630 
0.8766253250000000 0.443969 -33.684065 0.016826 156.175001 0.016323 165.647126 0.346816 -112.320084 
0.8767503500000000 0.443992 -33.840799 0.016642 155.718813 0.016227 165.330826 0.345840 -112.299011 
0.8768753750000000 0.442210 -34.148478 0.016750 155.311432 0.016259 164.834772 0.345712 -112.433505 
0.8770004000000000 0.442166 -34.178679 0.016745 154.745559 0.016268 164.561636 0.345541 -112.324812 
0.8771254250000000 0.441117 -34.256809 0.016750 153.871154 0.016325 164.153923 0.344896 -112.516915 
0.8772504500000000 0.439595 -34.459558 0.016706 154.047842 0.016348 163.679498 0.344880 -112.523536 
0.8773754750000000 0.438611 -34.480090 0.016822 152.853872 0.016264 162.912344 0.344957 -112.567623 
0.8775005000000000 0.437932 -34.769269 0.016769 152.184543 0.016508 162.445371 0.344720 -112.578503 
0.8776255250000000 0.436481 -34.916212 0.016699 152.567136 0.016517 162.229373 0.343999 -112.633947 
0.8777505500000000 0.435526 -35.163379 0.016815 151.481348 0.016511 161.372485 0.343724 -112.603429 
0.8778755750000000 0.435151 -35.232658 0.016897 151.103077 0.016564 161.445079 0.344215 -112.508889 
0.8780006000000000 0.433439 -35.244353 0.016807 150.482150 0.016517 160.185063 0.343079 -112.742180 
0.8781256250000000 0.433162 -35.572401 0.016767 150.692485 0.016420 159.864222 0.342468 -112.630074 
0.8782506500000000 0.432173 -35.760854 0.016879 149.398215 0.016490 159.787580 0.343128 -112.827229 
0.8783756750000000 0.430866 -35.901161 0.016857 149.346437 0.016423 159.310769 0.342930 -112.774797 
0.8785007000000000 0.430513 -36.023046 0.016889 148.868125 0.016648 158.894624 0.341839 -112.907089 
0.8786257250000000 0.429708 -36.159002 0.016977 148.228667 0.016632 158.085729 0.342307 -112.934989 
0.8787507500000000 0.428298 -36.398366 0.016941 147.711872 0.016657 157.571150 0.341628 -112.994293 
0.8788757750000000 0.427672 -36.607825 0.016934 147.562955 0.016685 156.800985 0.341372 -112.984720 
0.8790008000000000 0.426196 -36.660662 0.016922 146.924282 0.016558 156.377618 0.341263 -113.020311 
0.8791258250000000 0.425494 -36.846475 0.017001 146.123625 0.016773 156.023294 0.340422 -113.002325 
0.8792508500000000 0.424710 -36.938654 0.016948 145.523027 0.016701 155.583394 0.340244 -113.115588 
0.8793758750000000 0.422732 -37.241754 0.017003 145.243869 0.016761 155.221215 0.339791 -113.159408 
0.8795009000000000 0.422447 -37.266004 0.016988 144.737884 0.016670 154.685477 0.340280 -113.129773 
0.8796259250000000 0.421961 -37.415238 0.017107 144.319005 0.016673 154.207369 0.339186 -113.169490 
0.8797509500000000 0.420864 -37.582013 0.017063 144.267639 0.016803 153.625465 0.339298 -113.122122 
0.8798759750000000 0.418992 -37.779266 0.017105 143.124984 0.016791 152.912458 0.338821 -113.235186 
0.8800010000000000 0.419551 -37.952290 0.017011 143.122403 0.016803 152.715070 0.338558 -113.366766 
0.8801260250000000 0.417745 -38.002177 0.017045 142.586402 0.016887 151.592523 0.338221 -113.521029 
0.8802510500000000 0.416320 -38.200979 0.017054 141.897099 0.016808 151.212843 0.337925 -113.379308 
0.8803760750000000 0.415947 -38.319084 0.017284 141.613725 0.016805 150.820965 0.337881 -113.388183 
0.8805011000000000 0.414320 -38.564563 0.017111 140.726785 0.016925 150.696408 0.337730 -113.433132 
0.8806261250000000 0.412517 -38.837876 0.017160 140.310212 0.016782 149.512009 0.337096 -113.536409 
0.8807511500000000 0.412809 -38.854291 0.017263 139.678508 0.016888 149.036235 0.337132 -113.550681 
0.8808761750000000 0.411714 -39.080986 0.017227 139.384586 0.017007 148.957449 0.336208 -113.579650 
0.8810012000000000 0.410280 -39.128381 0.017236 139.076522 0.016845 148.131120 0.336769 -113.668326 
0.8811262250000000 0.409980 -39.333217 0.017175 137.950600 0.016827 146.971904 0.336277 -113.761860 
0.8812512500000000 0.408257 -39.392913 0.017183 137.566514 0.016884 147.401468 0.335505 -113.785745 
0.8813762750000000 0.407316 -39.677228 0.017276 137.501192 0.016949 146.395775 0.335752 -113.829762 
0.8815013000000000 0.406377 -39.753507 0.017315 136.517535 0.017059 146.376563 0.335827 -113.755785 
0.8816263250000000 0.405079 -40.041570 0.017410 136.258428 0.016988 145.530239 0.335073 -113.863941 
0.8817513500000000 0.404686 -40.136398 0.017286 135.715276 0.017092 145.097812 0.334481 -113.828729 
0.8818763750000001 0.403123 -40.326774 0.017192 135.314626 0.017014 144.370481 0.334239 -113.864223 
0.8820014000000001 0.403214 -40.472420 0.017196 135.143812 0.017067 143.953578 0.333976 -113.878504 
0.8821264250000001 0.401510 -40.640029 0.017225 134.339411 0.017053 143.081391 0.334936 -114.017083 
0.8822514500000001 0.399871 -40.752354 0.017253 133.599113 0.017088 142.708649 0.334004 -113.876386 
0.8823764750000001 0.398768 -41.054548 0.017263 133.293100 0.017025 142.307125 0.333805 -114.057692 
0.8825015000000001 0.397505 -40.982752 0.017342 132.432549 0.017088 141.976938 0.333338 -114.122277 
0.8826265250000001 0.396484 -41.245868 0.017400 132.276657 0.017059 141.061041 0.333526 -114.027424 
0.8827515500000001 0.396319 -41.372478 0.017321 131.601839 0.017127 140.714854 0.333043 -114.047251 
0.8828765750000001 0.395226 -41.500361 0.017469 130.928000 0.017193 140.401558 0.332726 -114.284770 
0.8830016000000001 0.394109 -41.777969 0.017404 130.340611 0.017087 139.459061 0.332065 -114.249600 
0.8831266250000001 0.393803 -41.901239 0.017320 130.073787 0.017227 138.700967 0.331862 -114.184499 
0.8832516500000001 0.392478 -42.039043 0.017410 129.663927 0.017137 138.135563 0.331141 -114.408554 
0.8833766749999999 0.391025 -42.276550 0.017356 129.141663 0.017248 138.119703 0.331308 -114.395468 
0.8835017000000000 0.389488 -42.251490 0.017439 128.969314 0.017178 137.369185 0.332070 -114.405164 
0.8836267250000000 0.387266 -42.486598 0.017497 127.839907 0.017163 136.434177 0.331343 -114.421678 
0.8837517500000000 0.387811 -42.581072 0.017503 127.343812 0.017197 135.918954 0.330725 -114.313559 
0.8838767750000000 0.385794 -42.853867 0.017363 127.054933 0.017218 135.881947 0.330409 -114.512720 
0.8840018000000000 0.384659 -43.085538 0.017319 126.260979 0.017197 135.020238 0.330585 -114.388360 
0.8841268250000000 0.383554 -43.305790 0.017498 125.432034 0.017165 134.368585 0.330505 -114.574876 
0.8842518500000000 0.383317 -43.304741 0.017472 125.307933 0.017219 133.947572 0.329279 -114.631603 
0.8843768750000000 0.383121 -43.486276 0.017420 124.781043 0.017211 133.442995 0.329876 -114.514136 
0.8845019000000000 0.381055 -43.575447 0.017487 124.488252 0.017206 133.222313 0.328896 -114.562759 
0.8846269250000000 0.380203 -43.866622 0.017347 123.759965 0.017266 133.098727 0.328715 -114.583070 
0.8847519500000000 0.379122 -43.876442 0.017484 123.466448 0.017244 131.550665 0.328990 -114.572836 
0.8848769750000000 0.378035 -44.131628 0.017414 122.047619 0.017311 131.853614 0.328181 -114.660903 
0.8850020000000000 0.376063 -44.345727 0.017510 122.086091 0.017132 131.089614 0.327894 -114.807167 
0.8851270250000000 0.375580 -44.473280 0.017440 121.371048 0.017233 130.249279 0.327385 -114.754261 
0.8852520500000000 0.374804 -44.681660 0.017524 121.047183 0.017128 129.623200 0.328189 -114.765836 
0.8853770750000000 0.373169 -44.917173 0.017468 120.844131 0.017367 129.143297 0.327138 -114.838983 
0.8855021000000000 0.372878 -44.912132 0.017498 119.768896 0.017351 128.649473 0.327445 -114.878815 
0.8856271250000000 0.371941 -45.192800 0.017470 119.491156 0.017310 127.804945 0.326404 -114.981296 
0.8857521500000000 0.370019 -45.137008 0.017461 119.124205 0.017275 127.578424 0.326740 -114.930244 
0.8858771750000000 0.368894 -45.383769 0.017446 118.660951 0.017148 126.788337 0.326392 -115.065108 
0.8860022000000000 0.368352 -45.550486 0.017513 117.928408 0.017162 126.278310 0.326137 -115.032767 
0.8861272250000000 0.366644 -45.792489 0.017417 117.376012 0.017223 125.687060 0.325671 -115.136260 
0.8862522500000000 0.364998 -45.851966 0.017440 116.995212 0.017263 125.291515 0.326377 -114.894873 
0.8863772750000000 0.364553 -46.124369 0.017498 116.468695 0.017333 124.858242 0.324847 -115.079648 
0.8865023000000000 0.363732 -46.113306 0.017300 116.158229 0.017420 124.173777 0.324830 -115.199983 
0.8866273250000000 0.362704 -46.334684 0.017412 115.662618 0.017323 123.375995 0.324508 -115.256485 
0.8867523500000000 0.360469 -46.397849 0.017499 115.032921 0.017314 123.166622 0.324273 -115.180754 
0.8868773750000000 0.361076 -46.729473 0.017463 114.528633 0.017242 122.192153 0.324317 -115.260524 
0.8870024000000000 0.359752 -46.744452 0.017398 113.889779 0.017425 121.912976 0.324062 -115.228122 
0.8871274250000000 0.358300 -47.034630 0.017432 113.010486 0.017323 121.877991 0.323620 -115.264970 
0.8872524500000000 0.355992 -47.185105 0.017388 112.972061 0.017320 121.632504 0.323078 -115.340247 
0.8873774750000000 0.355055 -47.283236 0.017425 112.621313 0.017240 120.622386 0.322892 -115.409796 
0.8875025000000000 0.354477 -47.348054 0.017378 112.125474 0.017225 120.032887 0.323517 -115.441044 
0.8876275250000000 0.353205 -47.748955 0.017468 111.029425 0.017283 119.616256 0.323427 -115.394778 
0.8877525500000000 0.352260 -47.770378 0.017390 110.476240 0.017283 119.474692 0.322840 -115.276358 
0.8878775750000000 0.351061 -47.979097 0.017400 110.346910 0.017442 119.032993 0.321927 -115.377185 
0.8880026000000000 0.349784 -48.039533 0.017382 110.077374 0.017295 118.276366 0.321493 -115.606678 
0.8881276250000000 0.348781 -48.144136 0.017484 109.507292 0.017326 117.273090 0.321991 -115.540166 
0.8882526500000000 0.347838 -48.325337 0.017415 108.479594 0.017388 117.044281 0.321819 -115.488580 
0.8883776750000000 0.345971 -48.425647 0.017423 108.470651 0.017239 116.278716 0.320785 -115.594814 
0.8885027000000000 0.345474 -48.656485 0.017465 108.252912 0.017434 115.356759 0.321459 -115.681991 
0.8886277250000000 0.343147 -48.789631 0.017573 107.144790 0.017360 115.313538 0.320211 -115.595525 
0.8887527500000000 0.342869 -49.060185 0.017372 106.556742 0.017347 115.135075 0.320764 -115.675219 
0.8888777750000000 0.341454 -49.264009 0.017446 106.337755 0.017425 114.218159 0.320344 -115.632535 
0.8890028000000000 0.340232 -49.361361 0.017575 105.661408 0.017416 114.252061 0.319827 -115.780188 
0.8891278250000000 0.338936 -49.462218 0.017439 105.823165 0.017373 113.322494 0.320031 -115.792907 
0.8892528500000000 0.338193 -49.470215 0.017526 105.141090 0.017315 112.934223 0.319070 -115.864118 
0.8893778750000000 0.337427 -49.923397 0.017416 104.129077 0.017482 112.804997 0.318975 -115.854100 
0.8895029000000000 0.335965 -49.880232 0.017491 103.925624 0.017372 111.831782 0.319291 -115.832756 
0.8896279250000000 0.334878 -49.999895 0.017410 103.881725 0.017329 111.051319 0.319223 -115.832599 
0.8897529500000000 0.333274 -50.186027 0.017459 102.918852 0.017496 110.660591 0.318186 -116.051409 
0.8898779750000000 0.331448 -50.338296 0.017584 102.300291 0.017434 110.115119 0.317891 -115.942692 
0.8900030000000000 0.330616 -50.441935 0.017566 101.950499 0.017368 109.452770 0.318546 -115.958700 
0.8901280250000000 0.329205 -50.652101 0.017510 101.482519 0.017505 109.113125 0.317575 -115.976552 
0.8902530500000000 0.328594 -50.815797 0.017360 100.931536 0.017500 108.715361 0.317639 -116.062836 
0.8903780750000000 0.327030 -50.940645 0.017567 100.763347 0.017555 108.457585 0.317132 -116.101496 
0.8905031000000000 0.325836 -51.118946 0.017453 99.460262 0.017445 107.557324 0.317323 -116.121485 
0.8906281250000000 0.324499 -51.240053 0.017443 99.494253 0.017370 106.690808 0.316450 -116.112836 
0.8907531500000000 0.323145 -51.401036 0.017486 98.853547 0.017465 106.750791 0.316811 -115.982532 
0.8908781750000000 0.321607 -51.609779 0.017665 98.393878 0.017557 105.843650 0.316104 -116.223680 
0.8910032000000000 0.320871 -51.630825 0.017632 97.868453 0.017667 105.343820 0.316118 -116.228640 
0.8911282250000000 0.319511 -51.891033 0.017516 97.288304 0.017527 104.743249 0.315981 -116.216112 
0.8912532500000000 0.318488 -52.001277 0.017677 97.215115 0.017516 104.239767 0.315506 -116.166011 
0.8913782750000000 0.316565 -52.191622 0.017499 96.625015 0.017648 104.157145 0.315351 -116.309645 
0.8915033000000000 0.315515 -52.338154 0.017663 96.127698 0.017419 103.516600 0.315310 -116.307134 
0.8916283250000000 0.314283 -52.456337 0.017625 95.483244 0.017542 102.556851 0.315076 -116.421114 
0.8917533500000000 0.312869 -52.563961 0.017638 95.289510 0.017569 102.393872 0.314666 -116.445763 
0.8918783750000000 0.312019 -52.740629 0.017567 94.586696 0.017533 101.680321 0.314625 -116.418408 
0.8920034000000000 0.310142 -52.954758 0.017617 94.474117 0.017606 101.096294 0.313615 -116.510195 
0.8921284250000000 0.308921 -53.024825 0.017677 93.253557 0.017609 100.692849 0.314010 -116.542635 
0.8922534500000000 0.307899 -53.240281 0.017745 92.951286 0.017466 100.059447 0.313819 -116.572530 
0.8923784750000000 0.306610 -53.377035 0.017667 92.970523 0.017611 99.821416 0.313314 -116.599988 
0.8925035000000000 0.305118 -53.504310 0.017585 92.094760 0.017715 98.997323 0.313847 -116.632317 
0.8926285250000000 0.303457 -53.623338 0.017621 91.699544 0.017730 98.609094 0.312959 -116.595034 
0.8927535500000000 0.302153 -53.725002 0.017564 91.082685 0.017705 97.446574 0.312072 -116.595127 
0.8928785750000000 0.300751 -54.065596 0.017623 90.378266 0.017656 97.551495 0.312359 -116.612613 
0.8930036000000000 0.299523 -54.086360 0.017692 89.916606 0.017782 96.717198 0.312593 -116.760175 
0.8931286250000000 0.298049 -54.308186 0.017824 89.488045 0.017766 96.252902 0.312377 -116.855438 
0.8932536500000000 0.296477 -54.336848 0.017708 89.728469 0.017690 96.251845 0.311446 -116.740802 
0.8933786750000000 0.295212 -54.557673 0.017854 88.478784 0.017718 95.414164 0.310750 -116.761332 
0.8935037000000000 0.293919 -54.706785 0.017737 88.428717 0.017787 94.381976 0.311216 -116.818828 
0.8936287250000000 0.292475 -54.832407 0.017761 87.904417 0.017820 94.029468 0.310601 -116.806741 
0.8937537500000000 0.291263 -54.873712 0.017805 87.409007 0.017761 93.808344 0.311176 -116.854047 
0.8938787750000000 0.289969 -55.080605 0.017879 86.498576 0.017888 92.945998 0.310862 -116.864395 
0.8940038000000000 0.288349 -55.277233 0.017872 85.583948 0.017675 92.396626 0.310588 -116.814301 
0.8941288250000000 0.287239 -55.393979 0.017868 85.499975 0.017769 92.322320 0.309749 -117.032096 
0.8942538500000000 0.285184 -55.533637 0.017884 84.320112 0.017815 91.435623 0.309410 -116.921393 
0.8943788750000000 0.283972 -55.634494 0.018031 84.351215 0.017730 90.588656 0.309273 -116.889952 
0.8945039000000000 0.282921 -55.836832 0.017896 83.835825 0.017920 90.182956 0.309641 -117.061289 
0.8946289250000000 0.281372 -55.953160 0.017901 83.407319 0.017665 89.523615 0.308714 -117.085588 
0.8947539500000000 0.279993 -56.063990 0.018030 82.987755 0.017914 89.231290 0.308346 -117.088745 
0.8948789750000000 0.278696 -56.292525 0.017902 82.331349 0.017858 88.580154 0.308780 -117.165261 
0.8950040000000000 0.277282 -56.332673 0.018013 81.398438 0.017798 88.372621 0.308443 -117.334511 
0.8951290250000000 0.275637 -56.485863 0.017870 81.226872 0.017948 87.798327 0.307804 -117.165874 
0.8952540500000000 0.274216 -56.686638 0.017979 80.812487 0.017711 86.749487 0.308181 -117.203212 
0.8953790750000000 0.272850 -56.820042 0.018005 80.537165 0.017874 86.307547 0.307657 -117.323765 
0.8955041000000000 0.271419 -56.999635 0.018051 80.082323 0.017782 85.841910 0.306972 -117.293610 
0.8956291250000000 0.270012 -57.102918 0.018047 78.894344 0.018026 84.952399 0.306740 -117.290344 
0.8957541500000000 0.268301 -57.200158 0.018067 78.342477 0.017962 84.595426 0.307130 -117.307253 
0.8958791750000000 0.266934 -57.420037 0.018083 78.186367 0.017879 83.872783 0.307132 -117.326331 
0.8960042000000000 0.265738 -57.481617 0.018059 77.411806 0.017952 83.588558 0.306282 -117.373138 
0.8961292250000000 0.264002 -57.641829 0.018177 76.952433 0.017977 83.009951 0.306815 -117.385741 
0.8962542500000000 0.262522 -57.772219 0.018174 76.341497 0.017902 82.038682 0.306159 -117.365789 
0.8963792750000000 0.261182 -57.962681 0.018295 75.565343 0.017927 81.387558 0.305769 -117.671187 
0.8965043000000000 0.259980 -58.114030 0.018266 75.551661 0.017977 81.027383 0.305326 -117.604914 
0.8966293250000000 0.257972 -58.048136 0.018162 74.972082 0.018011 80.653885 0.305161 -117.595213 
0.8967543500000000 0.256936 -58.316714 0.018202 74.517674 0.018031 79.701656 0.304817 -117.564302 
0.8968793750000000 0.255214 -58.355913 0.018349 74.094295 0.018072 79.694598 0.304858 -117.560318 
0.8970044000000000 0.253956 -58.508419 0.018222 73.298729 0.018204 78.906092 0.304783 -117.706845 
0.8971294250000000 0.251819 -58.617677 0.018222 72.825396 0.018099 78.307575 0.304675 -117.575047 
0.8972544500000000 0.250835 -58.839580 0.018312 72.224627 0.018108 77.598193 0.304396 -117.660752 
0.8973794750000000 0.249684 -58.843482 0.018323 71.469796 0.017971 77.324445 0.303862 -117.765647 
0.8975045000000000 0.247901 -59.096730 0.018338 70.739613 0.017993 76.975802 0.304492 -117.787553 
0.8976295250000000 0.246067 -59.159940 0.018188 70.322316 0.018157 75.717042 0.303378 -117.895185 
0.8977545500000000 0.244814 -59.379831 0.018305 69.697606 0.018127 74.826841 0.303932 -117.839999 
0.8978795750000000 0.243255 -59.379554 0.018295 69.396052 0.018001 75.094977 0.303354 -117.861758 
0.8980046000000000 0.241825 -59.447943 0.018428 68.754702 0.018033 74.129108 0.302607 -117.897270 
0.8981296250000000 0.240035 -59.631230 0.018287 68.283478 0.018055 73.468033 0.302536 -117.816145 
0.8982546500000000 0.238908 -59.691154 0.018345 67.300866 0.018053 73.339892 0.302493 -117.856408 
0.8983796750000000 0.237150 -59.833524 0.018236 66.926513 0.018038 71.974079 0.302145 -117.793176 
0.8985047000000001 0.235678 -59.932351 0.018471 66.487171 0.018131 71.533593 0.301748 -117.954214 
0.8986297250000001 0.234142 -60.094174 0.018486 65.935472 0.018071 71.523943 0.301842 -117.944711 
0.8987547500000001 0.232783 -60.159620 0.018481 65.094545 0.018039 70.561142 0.302439 -118.120437 
0.8988797750000001 0.230868 -60.238456 0.018530 64.620578 0.018205 69.980739 0.300946 -118.038475 
0.8990048000000001 0.229642 -60.359471 0.018431 64.389561 0.017968 69.744349 0.300847 -118.157281 
