!
! C:\Users\rflab\Downloads\Lab5_KD_ZW\Q3\80.S2P
!
! Touchstone 1.1 file saved by VNA.EXE V1.65 (www.ke5fx.com/gpib/readme.htm)
! 11/18/2024 10:24:34 PM
!
!    Source: HEWLETT PACKARD,8753D,0,6.14
!  Min freq: 8.750000E+008 Hz
!  Max freq: 9.750200E+008 Hz
!    Points: 801
!    Params: S11 S21 S12 S22
!
!!!!!
# GHZ S MA R 50
0.8750000000000000 0.456376 -32.195855 0.005886 115.125279 0.005666 124.063863 0.350112 -111.921045 
0.8751250250000000 0.454801 -32.464268 0.005803 115.285939 0.005653 124.454760 0.349709 -111.850620 
0.8752500500000000 0.453883 -32.540328 0.005675 113.765265 0.005712 124.770032 0.349443 -111.808845 
0.8753750750000000 0.454186 -32.696485 0.005886 113.021221 0.005747 124.676361 0.349188 -111.852556 
0.8755001000000000 0.452200 -32.669589 0.005830 112.630316 0.005700 123.557136 0.349080 -111.902791 
0.8756251250000000 0.452060 -32.959496 0.005795 113.028364 0.005619 122.729827 0.348415 -112.060487 
0.8757501500000000 0.451648 -33.226743 0.005758 112.522595 0.005729 122.209113 0.348795 -112.067651 
0.8758751750000000 0.450871 -33.270584 0.005833 111.516555 0.005756 122.139722 0.348215 -111.992559 
0.8760002000000000 0.449124 -33.437937 0.005670 112.235848 0.005613 122.111153 0.347332 -112.035125 
0.8761252250000000 0.447808 -33.734464 0.005881 110.485367 0.005725 120.843857 0.347948 -112.178417 
0.8762502500000000 0.447326 -33.782754 0.005797 110.818069 0.005759 120.961311 0.346744 -112.237780 
0.8763752750000000 0.446973 -33.897837 0.005839 109.675069 0.005601 119.866501 0.346764 -112.192803 
0.8765003000000000 0.445836 -34.052824 0.005869 110.050716 0.005630 118.632537 0.346913 -112.226335 
0.8766253250000000 0.445447 -34.129361 0.005928 108.770183 0.005766 119.327296 0.346306 -112.327410 
0.8767503500000000 0.444359 -34.360180 0.005847 108.627763 0.005797 119.546711 0.345737 -112.377110 
0.8768753750000000 0.442999 -34.619518 0.005859 108.530797 0.005866 118.548204 0.345251 -112.487028 
0.8770004000000000 0.442460 -34.706151 0.005833 110.071946 0.005799 117.357304 0.345853 -112.330911 
0.8771254250000000 0.441249 -34.819957 0.006007 107.236142 0.005839 116.538902 0.345268 -112.480394 
0.8772504500000000 0.440625 -34.939356 0.005881 106.919496 0.005733 116.933783 0.345168 -112.585968 
0.8773754750000000 0.439818 -35.114806 0.005894 106.410203 0.005825 117.291908 0.344126 -112.592107 
0.8775005000000000 0.438706 -35.309728 0.005913 106.070756 0.005784 116.165775 0.344589 -112.499650 
0.8776255250000000 0.438703 -35.532580 0.005948 104.220069 0.005821 115.129308 0.343856 -112.616352 
0.8777505500000000 0.437126 -35.707403 0.005990 103.935015 0.005944 115.509392 0.343267 -112.751136 
0.8778755750000000 0.436356 -35.755453 0.005977 103.956982 0.005754 114.772652 0.343818 -112.811952 
0.8780006000000000 0.434216 -35.986366 0.005940 104.039591 0.005673 115.610873 0.343182 -112.690809 
0.8781256250000000 0.433598 -36.148038 0.005902 103.440104 0.005778 115.404086 0.342752 -112.809397 
0.8782506500000000 0.432232 -36.270369 0.005988 105.089250 0.005809 113.729692 0.342432 -112.787588 
0.8783756750000000 0.431826 -36.521264 0.006038 103.056687 0.005853 111.849085 0.342311 -112.818300 
0.8785007000000000 0.430929 -36.581812 0.006056 102.623007 0.005820 112.767730 0.341821 -112.847297 
0.8786257250000000 0.429981 -36.619810 0.005954 101.243338 0.005809 111.691793 0.341332 -112.982006 
0.8787507500000000 0.430954 -36.928728 0.005966 100.891840 0.005885 111.300506 0.341383 -113.028433 
0.8788757750000000 0.428407 -37.113560 0.006058 99.560562 0.005938 110.480928 0.341390 -113.161594 
0.8790008000000000 0.427446 -37.275279 0.006009 101.868989 0.005876 109.441456 0.340704 -113.166245 
0.8791258250000000 0.426509 -37.461484 0.005957 100.598951 0.005814 109.781373 0.340789 -113.082044 
0.8792508500000000 0.426042 -37.538061 0.005963 100.510170 0.005910 109.882394 0.339538 -113.138420 
0.8793758750000000 0.424750 -37.716303 0.005993 99.445833 0.005925 109.475464 0.340019 -113.249235 
0.8795009000000000 0.423255 -37.825890 0.005934 98.940433 0.005843 109.360666 0.340524 -113.251851 
0.8796259250000000 0.422625 -37.884422 0.006033 98.133945 0.005861 107.924140 0.339832 -113.318848 
0.8797509500000000 0.421902 -38.155593 0.006014 97.183056 0.005987 107.350347 0.339090 -113.327910 
0.8798759750000000 0.420573 -38.321850 0.006000 96.291419 0.005881 106.734847 0.338901 -113.240587 
0.8800010000000000 0.420053 -38.603907 0.006016 95.734319 0.005929 105.681118 0.338934 -113.305613 
0.8801260250000000 0.418273 -38.697021 0.006020 95.545755 0.005971 105.566111 0.338393 -113.497118 
0.8802510500000000 0.416855 -38.745628 0.006088 96.395205 0.006007 105.330311 0.338555 -113.417638 
0.8803760750000000 0.416775 -38.889126 0.006132 93.133859 0.005930 105.459988 0.338461 -113.497736 
0.8805011000000000 0.415568 -39.091206 0.006080 95.052654 0.005980 104.263388 0.338376 -113.464567 
0.8806261250000000 0.414811 -39.279617 0.006021 94.332930 0.006094 103.163642 0.336858 -113.599362 
0.8807511500000000 0.414128 -39.294164 0.006067 94.333606 0.005948 103.674746 0.337773 -113.644492 
0.8808761750000000 0.413611 -39.566329 0.006095 93.076276 0.005922 102.378450 0.337230 -113.679253 
0.8810012000000000 0.412129 -39.756142 0.006100 91.881473 0.006063 101.911747 0.337010 -113.826044 
0.8811262250000000 0.410732 -39.904507 0.006064 92.449338 0.005978 101.495466 0.336580 -113.801602 
0.8812512500000000 0.409901 -40.037965 0.005994 92.138134 0.006090 101.584006 0.335601 -113.784218 
0.8813762750000000 0.407631 -40.281196 0.006153 90.395152 0.006169 101.725563 0.335266 -113.758090 
0.8815013000000000 0.406887 -40.277117 0.006071 90.445522 0.005958 99.464206 0.335440 -113.773544 
0.8816263250000000 0.407380 -40.435091 0.006187 89.843223 0.006088 100.056588 0.335681 -113.789546 
0.8817513500000000 0.406581 -40.647245 0.006093 89.890139 0.006065 99.443808 0.335103 -113.901559 
0.8818763750000001 0.405066 -40.831422 0.006092 89.262257 0.006082 97.700323 0.334456 -113.870661 
0.8820014000000001 0.404047 -41.031021 0.006090 88.638422 0.005949 98.850739 0.333977 -113.775382 
0.8821264250000001 0.402781 -41.167750 0.006083 87.830117 0.006164 97.264387 0.334323 -114.012412 
0.8822514500000001 0.401798 -41.354181 0.006135 88.258498 0.006159 96.240744 0.333734 -114.068884 
0.8823764750000001 0.400893 -41.596231 0.006077 86.705214 0.005972 96.262133 0.333342 -114.162212 
0.8825015000000001 0.399469 -41.642996 0.006154 87.099793 0.006158 96.172142 0.333730 -114.195500 
0.8826265250000001 0.398972 -41.694688 0.006220 86.923960 0.006255 94.580103 0.333686 -114.152953 
0.8827515500000001 0.396956 -41.821382 0.006138 86.608583 0.006126 95.711481 0.333157 -114.193760 
0.8828765750000001 0.397314 -42.079785 0.006114 85.239696 0.005994 93.585149 0.332977 -114.201885 
0.8830016000000001 0.395496 -42.312059 0.006270 85.350162 0.006029 94.395230 0.332684 -114.409158 
0.8831266250000001 0.393700 -42.423963 0.006201 84.738560 0.006154 93.667590 0.332478 -114.177144 
0.8832516500000001 0.393889 -42.663982 0.006270 83.050102 0.006098 92.830522 0.331776 -114.318343 
0.8833766749999999 0.392402 -42.809634 0.006209 83.136426 0.006096 91.770523 0.331543 -114.319118 
0.8835017000000000 0.391428 -42.902165 0.006235 82.578792 0.006147 90.613336 0.330967 -114.393232 
0.8836267250000000 0.390476 -43.044381 0.006344 82.728629 0.006121 90.870418 0.330843 -114.524871 
0.8837517500000000 0.389845 -43.210982 0.006194 81.030816 0.006158 90.590108 0.331227 -114.517792 
0.8838767750000000 0.388414 -43.465524 0.006305 82.013910 0.006187 91.238694 0.330542 -114.461461 
0.8840018000000000 0.388292 -43.541489 0.006252 80.601622 0.006129 89.692402 0.331060 -114.530942 
0.8841268250000000 0.386478 -43.678635 0.006261 81.265121 0.006122 88.277138 0.330344 -114.564417 
0.8842518500000000 0.385353 -43.769453 0.006270 80.102835 0.006110 88.745694 0.330109 -114.577223 
0.8843768750000000 0.384157 -44.098795 0.006209 80.241812 0.006207 89.381570 0.329148 -114.466810 
0.8845019000000000 0.383521 -44.203688 0.006167 78.922050 0.006130 86.334152 0.329496 -114.637633 
0.8846269250000000 0.381405 -44.340294 0.006209 77.475012 0.006177 88.037873 0.328764 -114.754709 
0.8847519500000000 0.380731 -44.587566 0.006293 76.891483 0.006227 85.753229 0.328845 -114.683784 
0.8848769750000000 0.380642 -44.662190 0.006292 76.996916 0.006159 85.873140 0.328553 -114.713065 
0.8850020000000000 0.378609 -44.800804 0.006215 75.864599 0.006317 85.531964 0.327914 -114.776265 
0.8851270250000000 0.377744 -45.009824 0.006271 75.674227 0.006103 84.403891 0.327559 -115.022695 
0.8852520500000000 0.376288 -45.096934 0.006414 74.396309 0.006175 84.638944 0.328517 -114.839083 
0.8853770750000000 0.376003 -45.361707 0.006309 73.941588 0.006149 82.747686 0.327902 -114.924115 
0.8855021000000000 0.374945 -45.549052 0.006211 74.732541 0.006226 82.035608 0.327752 -115.006901 
0.8856271250000000 0.373407 -45.763236 0.006268 73.478615 0.006148 82.530464 0.326597 -114.888822 
0.8857521500000000 0.372263 -45.765581 0.006208 73.526267 0.006294 81.951547 0.326769 -115.004614 
0.8858771750000000 0.371722 -45.966281 0.006261 73.491769 0.006307 80.947197 0.327212 -115.056923 
0.8860022000000000 0.370687 -46.152463 0.006172 71.394290 0.006186 80.510085 0.325608 -115.011052 
0.8861272250000000 0.368495 -46.370753 0.006395 71.866332 0.006192 80.853952 0.326144 -114.984820 
0.8862522500000000 0.368139 -46.373762 0.006176 71.451738 0.006146 79.567126 0.325444 -115.101601 
0.8863772750000000 0.366641 -46.644183 0.006409 71.308904 0.006206 78.423302 0.325177 -115.153330 
0.8865023000000000 0.365884 -46.749016 0.006278 70.245184 0.006205 77.403378 0.324757 -115.235807 
0.8866273250000000 0.364561 -46.981004 0.006303 69.985790 0.006407 79.112376 0.325148 -115.268662 
0.8867523500000000 0.363011 -46.953685 0.006394 70.800288 0.006330 76.512324 0.325202 -115.276103 
0.8868773750000000 0.362744 -47.200699 0.006261 68.776383 0.006331 77.786191 0.324761 -115.312887 
0.8870024000000000 0.361789 -47.435659 0.006323 67.992380 0.006224 77.572600 0.324132 -115.317686 
0.8871274250000000 0.360958 -47.629865 0.006186 69.124515 0.006138 76.499243 0.323794 -115.292241 
0.8872524500000000 0.358915 -47.625869 0.006322 67.661710 0.006193 75.312122 0.323419 -115.341539 
0.8873774750000000 0.357689 -47.754267 0.006274 67.057564 0.006251 74.976797 0.323060 -115.269966 
0.8875025000000000 0.357070 -48.050286 0.006294 65.050239 0.006240 74.676522 0.323266 -115.486130 
0.8876275250000000 0.355780 -48.197081 0.006255 66.202051 0.006173 74.027851 0.323167 -115.398667 
0.8877525500000000 0.354713 -48.297475 0.006254 65.138817 0.006307 73.723164 0.322838 -115.540424 
0.8878775750000000 0.353586 -48.525190 0.006195 63.912252 0.006144 72.767478 0.322478 -115.582935 
0.8880026000000000 0.352723 -48.530315 0.006450 64.382211 0.006213 72.795761 0.321142 -115.727400 
0.8881276250000000 0.351897 -48.924154 0.006330 63.807506 0.006266 72.064150 0.322031 -115.705434 
0.8882526500000000 0.350750 -49.074818 0.006290 63.710796 0.006377 70.737244 0.321381 -115.640416 
0.8883776750000000 0.349343 -49.123193 0.006241 62.632294 0.006191 70.611863 0.321605 -115.585128 
0.8885027000000000 0.347468 -49.354228 0.006267 61.463640 0.006171 70.613013 0.321211 -115.715406 
0.8886277250000000 0.345900 -49.381163 0.006313 61.530120 0.006301 68.709079 0.321238 -115.713046 
0.8887527500000000 0.345732 -49.530349 0.006359 61.492061 0.006281 69.658285 0.321111 -115.766281 
0.8888777750000000 0.343993 -49.737215 0.006315 60.419315 0.006399 68.105031 0.321156 -115.720128 
0.8890028000000000 0.343242 -49.857862 0.006240 60.529909 0.006285 68.862932 0.320204 -115.680977 
0.8891278250000000 0.342027 -49.960431 0.006353 60.577826 0.006173 68.208454 0.320188 -115.888541 
0.8892528500000000 0.340079 -50.268156 0.006303 59.103892 0.006218 67.564658 0.319167 -115.849637 
0.8893778750000000 0.339895 -50.309369 0.006311 57.562342 0.006307 67.106878 0.319590 -115.855466 
0.8895029000000000 0.338920 -50.671028 0.006150 58.956247 0.006413 66.685060 0.319415 -115.815904 
0.8896279250000000 0.337001 -50.708955 0.006239 58.485741 0.006398 65.522823 0.318880 -115.856338 
0.8897529500000000 0.336193 -50.717182 0.006334 58.023419 0.006254 65.371303 0.319116 -116.018594 
0.8898779750000000 0.334293 -50.731204 0.006337 56.534742 0.006337 63.012711 0.318403 -116.081230 
0.8900030000000000 0.334046 -50.990317 0.006206 56.955832 0.006353 64.750577 0.318295 -116.041764 
0.8901280250000000 0.331832 -51.232800 0.006240 56.747078 0.006308 63.436882 0.317229 -116.074513 
0.8902530500000000 0.331698 -51.362833 0.006237 55.887166 0.006319 62.781362 0.317786 -116.129510 
0.8903780750000000 0.329951 -51.564487 0.006318 55.186158 0.006333 62.790577 0.317550 -116.242463 
0.8905031000000000 0.328989 -51.733223 0.006303 53.899015 0.006256 62.528674 0.317744 -116.176201 
0.8906281250000000 0.327493 -51.849670 0.006234 53.440365 0.006346 60.721277 0.316981 -116.133335 
0.8907531500000000 0.326192 -51.980213 0.006226 53.253840 0.006317 61.717110 0.316638 -116.169907 
0.8908781750000000 0.324812 -52.182620 0.006432 51.815814 0.006338 61.560865 0.316090 -116.231083 
0.8910032000000000 0.323774 -52.221173 0.006372 53.228714 0.006209 59.710933 0.316047 -116.302790 
0.8911282250000000 0.322412 -52.472238 0.006228 52.975695 0.006396 60.086099 0.316212 -116.275715 
0.8912532500000000 0.321435 -52.636704 0.006492 51.552493 0.006300 58.358690 0.315514 -116.344463 
0.8913782750000000 0.319670 -52.749406 0.006294 50.354486 0.006469 59.210064 0.315621 -116.570003 
0.8915033000000000 0.318822 -52.922788 0.006334 49.773017 0.006305 57.971192 0.315144 -116.408722 
0.8916283250000000 0.317679 -53.035985 0.006307 50.001977 0.006322 56.734257 0.314911 -116.547671 
0.8917533500000000 0.316272 -53.131204 0.006433 49.452143 0.006378 56.088940 0.314652 -116.614759 
0.8918783750000000 0.315022 -53.300505 0.006335 49.395428 0.006441 57.498228 0.313888 -116.522692 
0.8920034000000000 0.313304 -53.535841 0.006476 47.751569 0.006432 55.129426 0.313765 -116.540135 
0.8921284250000000 0.312098 -53.595122 0.006268 49.851184 0.006412 54.700085 0.313328 -116.617471 
0.8922534500000000 0.311252 -53.797506 0.006494 47.934306 0.006416 55.108792 0.313615 -116.547591 
0.8923784750000000 0.309636 -53.952911 0.006327 46.875176 0.006418 53.516626 0.313014 -116.565043 
0.8925035000000000 0.308418 -54.023055 0.006377 45.633127 0.006296 53.832246 0.312593 -116.760175 
0.8926285250000000 0.306698 -54.233337 0.006360 45.932520 0.006307 53.376134 0.312811 -116.727535 
0.8927535500000000 0.305637 -54.357911 0.006372 46.103573 0.006516 52.390507 0.312934 -116.759970 
0.8928785750000000 0.303921 -54.642234 0.006408 45.135667 0.006478 50.912075 0.312865 -116.710013 
0.8930036000000000 0.302917 -54.645517 0.006393 45.432107 0.006372 50.657792 0.312142 -116.757944 
0.8931286250000000 0.301465 -54.879682 0.006538 45.262975 0.006409 50.724989 0.311832 -116.906094 
0.8932536500000000 0.300128 -54.938767 0.006370 43.547212 0.006403 50.081343 0.311514 -116.715668 
0.8933786750000000 0.298577 -55.180207 0.006297 43.413714 0.006396 50.854550 0.311149 -116.869142 
0.8935037000000000 0.297035 -55.231506 0.006369 42.363139 0.006507 49.475670 0.311815 -116.775708 
0.8936287250000000 0.295702 -55.480062 0.006253 42.406840 0.006423 48.669209 0.311670 -116.946426 
0.8937537500000000 0.294546 -55.545135 0.006442 42.918415 0.006420 49.234845 0.310839 -116.992727 
0.8938787750000000 0.293419 -55.697572 0.006475 43.152968 0.006439 48.344264 0.310826 -117.012860 
0.8940038000000000 0.291848 -55.911129 0.006417 41.608086 0.006457 47.534775 0.310719 -117.048253 
0.8941288250000000 0.290656 -55.995414 0.006604 39.782794 0.006559 47.218330 0.309651 -116.984255 
0.8942538500000000 0.288804 -56.090796 0.006378 40.916330 0.006436 47.020656 0.309372 -117.143877 
0.8943788750000000 0.287901 -56.244244 0.006506 39.385130 0.006433 45.636657 0.309670 -117.102922 
0.8945039000000000 0.286314 -56.384455 0.006517 40.046567 0.006552 45.212291 0.308739 -117.038678 
0.8946289250000000 0.284754 -56.540696 0.006481 38.341184 0.006599 44.350070 0.308947 -117.095324 
0.8947539500000000 0.283335 -56.661675 0.006511 38.589689 0.006459 44.006877 0.309344 -117.238728 
0.8948789750000000 0.282301 -56.845920 0.006579 35.726925 0.006468 41.497436 0.308894 -117.249838 
0.8950040000000000 0.280800 -56.950679 0.006599 35.786004 0.006441 43.923147 0.308772 -117.360272 
0.8951290250000000 0.279340 -57.095524 0.006476 35.567104 0.006634 41.693048 0.308121 -117.218565 
0.8952540500000000 0.277800 -57.279722 0.006478 33.739192 0.006505 40.427734 0.307914 -117.292655 
0.8953790750000000 0.276779 -57.410339 0.006670 34.888665 0.006624 39.576399 0.307374 -117.376628 
0.8955041000000000 0.275083 -57.550257 0.006586 34.551891 0.006470 39.548203 0.307300 -117.467164 
0.8956291250000000 0.273740 -57.730893 0.006657 34.260365 0.006512 39.375303 0.307343 -117.414873 
0.8957541500000000 0.271835 -57.800629 0.006575 33.968974 0.006487 37.866487 0.307316 -117.423844 
0.8958791750000000 0.270416 -58.054244 0.006548 31.570596 0.006613 39.426318 0.306840 -117.437923 
0.8960042000000000 0.269299 -58.085808 0.006643 33.280584 0.006708 38.711967 0.305976 -117.467223 
0.8961292250000000 0.267816 -58.218848 0.006467 30.647839 0.006656 36.763999 0.306325 -117.555569 
0.8962542500000000 0.266285 -58.439384 0.006598 30.310389 0.006539 35.718351 0.306048 -117.511742 
0.8963792750000000 0.264880 -58.562448 0.006648 29.726021 0.006667 35.519097 0.306194 -117.619834 
0.8965043000000000 0.263335 -58.679811 0.006641 31.008914 0.006556 35.792986 0.305358 -117.585593 
0.8966293250000000 0.261324 -58.689700 0.006723 29.757982 0.006609 34.059270 0.304637 -117.455802 
0.8967543500000000 0.260622 -58.846961 0.006893 29.727184 0.006632 34.424722 0.304888 -117.596152 
0.8968793750000000 0.258876 -59.003821 0.006641 27.893424 0.006566 33.852780 0.304600 -117.647189 
0.8970044000000000 0.257604 -59.039734 0.006688 28.092427 0.006615 32.680884 0.304118 -117.678482 
0.8971294250000000 0.255790 -59.285945 0.006789 27.996025 0.006584 33.268820 0.304458 -117.664385 
0.8972544500000000 0.254235 -59.465597 0.006698 26.118150 0.006723 33.017223 0.304177 -117.779820 
0.8973794750000000 0.253256 -59.467241 0.006730 25.729865 0.006543 29.597270 0.303627 -117.743396 
0.8975045000000000 0.251589 -59.694796 0.006730 24.858216 0.006538 30.908575 0.303464 -117.814902 
0.8976295250000000 0.249973 -59.725439 0.006515 23.957382 0.006651 29.709725 0.303521 -117.995050 
0.8977545500000000 0.248547 -59.912188 0.006791 24.369366 0.006676 30.134191 0.303558 -117.909842 
0.8978795750000000 0.246997 -59.932867 0.006610 23.645237 0.006604 29.133759 0.303296 -117.945819 
0.8980046000000000 0.245378 -60.059792 0.006706 22.579129 0.006775 29.630346 0.302412 -117.864517 
0.8981296250000000 0.244027 -60.302664 0.006625 23.143903 0.006578 28.121839 0.302192 -117.902996 
0.8982546500000000 0.242422 -60.239910 0.006759 20.799231 0.006514 27.139058 0.302357 -118.072993 
0.8983796750000000 0.241269 -60.423438 0.006724 21.782547 0.006556 26.812913 0.302523 -118.033389 
0.8985047000000001 0.239795 -60.431038 0.006628 20.720556 0.006650 25.699669 0.302282 -117.965996 
0.8986297250000001 0.237993 -60.701874 0.006646 20.024901 0.006710 26.016914 0.301756 -118.117477 
0.8987547500000001 0.236795 -60.697958 0.006507 19.647330 0.006699 25.401272 0.302129 -118.237252 
0.8988797750000001 0.234444 -60.956809 0.006767 18.657097 0.006521 24.053523 0.301336 -118.091095 
0.8990048000000001 0.233374 -60.963044 0.006634 18.914185 0.006564 24.105338 0.300940 -118.141192 
0.8991298250000001 0.232020 -61.091975 0.006751 17.664496 0.006682 22.749762 0.301033 -118.303111 
0.8992548500000001 0.230280 -61.169427 0.006755 16.823207 0.006672 21.640208 0.300774 -118.217479 
