!
! C:\Users\rflab\Downloads\Lab5_KD_ZW\Q3\90.S2P
!
! Touchstone 1.1 file saved by VNA.EXE V1.65 (www.ke5fx.com/gpib/readme.htm)
! 11/18/2024 10:25:32 PM
!
!    Source: HEWLETT PACKARD,8753D,0,6.14
!  Min freq: 8.750000E+008 Hz
!  Max freq: 9.750200E+008 Hz
!    Points: 801
!    Params: S11 S21 S12 S22
!
!!!!!
# GHZ S MA R 50
0.8750000000000000 0.483687 -33.621892 0.004868 61.645278 0.004785 72.027267 0.349386 -111.839517 
0.8751250250000000 0.481978 -33.787670 0.004932 62.411740 0.004793 71.525397 0.348768 -111.869368 
0.8752500500000000 0.482876 -33.855781 0.004922 61.580458 0.004956 71.619970 0.348961 -111.813508 
0.8753750750000000 0.481746 -34.129983 0.004935 60.397953 0.004786 72.003712 0.348270 -111.934722 
0.8755001000000000 0.480244 -34.203056 0.004883 60.794327 0.004853 70.366813 0.348723 -111.904753 
0.8756251250000000 0.479700 -34.366413 0.004875 60.554014 0.004941 71.057044 0.348215 -112.019606 
0.8757501500000000 0.479273 -34.556247 0.004898 58.762658 0.004767 71.265974 0.348204 -112.014954 
0.8758751750000000 0.478540 -34.590010 0.004919 59.748758 0.004745 69.396781 0.347977 -112.002960 
0.8760002000000000 0.476732 -34.784700 0.004982 59.198011 0.004735 68.150383 0.347460 -112.167727 
0.8761252250000000 0.475531 -34.988409 0.004883 59.094776 0.004850 69.589017 0.347895 -112.263402 
0.8762502500000000 0.474169 -34.901092 0.004843 56.444488 0.004863 66.394588 0.346604 -112.274499 
0.8763752750000000 0.473993 -35.249503 0.004928 56.901984 0.004760 66.922738 0.346271 -112.193357 
0.8765003000000000 0.473415 -35.348767 0.004907 57.565538 0.004780 67.969321 0.346552 -112.267062 
0.8766253250000000 0.471047 -35.462161 0.004878 57.012057 0.004836 67.746454 0.345889 -112.251994 
0.8767503500000000 0.471440 -35.541991 0.004872 56.829426 0.004917 65.656985 0.346007 -112.353200 
0.8768753750000000 0.470464 -35.745926 0.004932 55.414156 0.004924 66.891387 0.345111 -112.430838 
0.8770004000000000 0.468337 -35.908110 0.004811 55.698837 0.004978 65.541513 0.344794 -112.436129 
0.8771254250000000 0.467941 -35.927105 0.004951 56.267081 0.004828 66.373055 0.344918 -112.498972 
0.8772504500000000 0.467233 -36.094096 0.004904 55.313302 0.004930 64.064435 0.344638 -112.479759 
0.8773754750000000 0.466119 -36.129000 0.004922 53.045722 0.004854 65.394878 0.344659 -112.527771 
0.8775005000000000 0.465848 -36.353419 0.004951 53.758029 0.004879 63.985857 0.344283 -112.641738 
0.8776255250000000 0.464687 -36.536131 0.004907 54.444198 0.004725 63.959837 0.344290 -112.591739 
0.8777505500000000 0.462812 -36.654172 0.004946 53.632737 0.004850 63.009184 0.343822 -112.800589 
0.8778755750000000 0.462171 -36.791201 0.005038 53.408852 0.004826 62.039745 0.343908 -112.689867 
0.8780006000000000 0.461661 -36.817254 0.004952 52.932600 0.004697 62.204342 0.343673 -112.728275 
0.8781256250000000 0.460687 -37.060055 0.004945 52.664865 0.004879 61.681794 0.342396 -112.707070 
0.8782506500000000 0.459757 -37.083258 0.004984 51.443776 0.004873 61.363592 0.342915 -112.847755 
0.8783756750000000 0.458960 -37.242110 0.004921 50.930103 0.004682 60.290223 0.342324 -112.889399 
0.8785007000000000 0.457414 -37.303007 0.004898 51.125031 0.004844 60.616135 0.342363 -112.825724 
0.8786257250000000 0.457414 -37.394378 0.004974 50.297098 0.004848 60.300553 0.341807 -113.064919 
0.8787507500000000 0.455550 -37.721640 0.004924 49.677951 0.004942 61.545727 0.341081 -112.921932 
0.8788757750000000 0.455292 -37.880379 0.004945 48.248093 0.005030 59.625887 0.341055 -112.990575 
0.8790008000000000 0.453782 -37.989714 0.004948 48.207334 0.004836 58.831817 0.340353 -113.040736 
0.8791258250000000 0.453699 -38.132550 0.004923 48.188104 0.004953 58.490424 0.340887 -113.002595 
0.8792508500000000 0.452072 -38.186231 0.004993 48.868127 0.004743 57.696679 0.340548 -113.222178 
0.8793758750000000 0.451142 -38.286647 0.005010 48.963354 0.004855 58.061426 0.339811 -113.219539 
0.8795009000000000 0.449311 -38.411535 0.004904 47.601127 0.004931 56.400589 0.340003 -113.138498 
0.8796259250000000 0.449415 -38.587509 0.005022 46.396432 0.004899 56.439850 0.339406 -113.243246 
0.8797509500000000 0.448201 -38.708855 0.004907 46.047211 0.004888 55.692973 0.338647 -113.427751 
0.8798759750000000 0.447339 -38.764798 0.004993 45.205080 0.004832 55.472544 0.338440 -113.229123 
0.8800010000000000 0.446270 -39.018691 0.005004 45.270264 0.004874 55.409782 0.338217 -113.363557 
0.8801260250000000 0.445046 -39.275867 0.004972 44.623138 0.004858 56.152405 0.338089 -113.378551 
0.8802510500000000 0.444072 -39.203107 0.005053 43.558641 0.004996 53.636506 0.337967 -113.460813 
0.8803760750000000 0.442496 -39.305951 0.005023 44.326864 0.004895 54.326732 0.338404 -113.592099 
0.8805011000000000 0.442319 -39.467966 0.005120 45.290529 0.004956 52.608554 0.338102 -113.552384 
0.8806261250000000 0.440484 -39.633778 0.005006 44.039053 0.004963 53.887632 0.336909 -113.567268 
0.8807511500000000 0.439883 -39.778853 0.005020 43.360343 0.004968 51.954280 0.337099 -113.615422 
0.8808761750000000 0.439351 -39.841752 0.004994 41.834329 0.004903 53.200315 0.336954 -113.688513 
0.8810012000000000 0.437523 -39.997454 0.005009 42.163984 0.004918 51.187487 0.336741 -113.761100 
0.8811262250000000 0.436977 -40.136023 0.005131 41.247038 0.004838 50.618816 0.336179 -113.917073 
0.8812512500000000 0.436617 -40.173215 0.005061 40.311483 0.004966 50.610722 0.336144 -113.749119 
0.8813762750000000 0.434885 -40.397854 0.004837 40.073845 0.004880 49.727804 0.335604 -113.772573 
0.8815013000000000 0.433584 -40.491287 0.005037 39.869454 0.005055 48.637128 0.335969 -113.784928 
0.8816263250000000 0.433487 -40.693387 0.004875 40.354504 0.005034 50.623155 0.335240 -114.005391 
0.8817513500000000 0.432154 -40.794828 0.004927 39.860242 0.004978 47.037795 0.335046 -113.814644 
0.8818763750000001 0.430405 -40.926050 0.005007 39.113972 0.004897 49.027156 0.334701 -113.926423 
0.8820014000000001 0.429407 -41.055108 0.005112 37.686557 0.004978 47.554628 0.334670 -113.940204 
0.8821264250000001 0.427639 -41.193808 0.005058 37.888720 0.005001 48.080191 0.334450 -113.996985 
0.8822514500000001 0.427302 -41.331431 0.004954 36.676887 0.004975 47.913600 0.333718 -114.024205 
0.8823764750000001 0.425474 -41.424841 0.004981 36.744830 0.004998 46.929114 0.333701 -114.094433 
0.8825015000000001 0.424497 -41.505603 0.005088 36.110668 0.004941 46.403667 0.333597 -114.182812 
0.8826265250000001 0.424776 -41.656612 0.005096 37.262318 0.005000 45.904108 0.333336 -114.185660 
0.8827515500000001 0.422602 -41.813758 0.005172 36.458883 0.005040 44.616651 0.332629 -114.119407 
0.8828765750000001 0.421814 -41.917884 0.005149 35.577156 0.004950 45.058536 0.332428 -114.273307 
0.8830016000000001 0.420800 -42.053161 0.005004 33.944462 0.004997 43.697082 0.332599 -114.185077 
0.8831266250000001 0.419868 -42.179283 0.005083 34.071701 0.004893 43.128210 0.332386 -114.218865 
0.8832516500000001 0.419338 -42.335119 0.004996 32.764804 0.004990 43.877303 0.331947 -114.409078 
0.8833766749999999 0.417564 -42.474952 0.005120 34.036375 0.004919 41.935195 0.330969 -114.381434 
0.8835017000000000 0.416935 -42.548315 0.005060 32.069489 0.004966 41.886209 0.331064 -114.263877 
0.8836267250000000 0.415143 -42.618210 0.005094 32.063945 0.005063 41.613828 0.330527 -114.468478 
0.8837517500000000 0.414701 -42.763368 0.005156 31.795310 0.005004 40.923462 0.330267 -114.471562 
0.8838767750000000 0.412777 -43.013716 0.005016 31.296325 0.004840 39.843877 0.330242 -114.525900 
0.8840018000000000 0.412033 -43.101691 0.004972 30.596220 0.005026 41.515723 0.330665 -114.597128 
0.8841268250000000 0.411135 -43.251004 0.005078 29.198316 0.005056 37.928071 0.330191 -114.646426 
0.8842518500000000 0.410095 -43.317444 0.005064 29.683986 0.004955 37.913186 0.329779 -114.731820 
0.8843768750000000 0.409011 -43.563970 0.005183 29.187201 0.005080 38.811844 0.329315 -114.657949 
0.8845019000000000 0.407796 -43.596086 0.005092 29.685661 0.005110 38.624742 0.329282 -114.683907 
0.8846269250000000 0.405945 -43.764861 0.004925 28.579908 0.005072 37.574507 0.328815 -114.557494 
0.8847519500000000 0.405704 -43.863191 0.005142 28.856426 0.004945 36.799173 0.329216 -114.671654 
0.8848769750000000 0.404614 -44.029758 0.005049 28.668328 0.005032 37.577861 0.328869 -114.857572 
0.8850020000000000 0.403658 -44.188278 0.005139 27.154657 0.005037 37.492537 0.328199 -114.858869 
0.8851270250000000 0.402136 -44.186749 0.004994 26.533248 0.004903 36.169957 0.327983 -114.929288 
0.8852520500000000 0.401296 -44.428464 0.005000 27.066022 0.005019 34.529546 0.327756 -114.983049 
0.8853770750000000 0.399765 -44.401537 0.004992 24.841655 0.005084 33.880831 0.327551 -114.982069 
0.8855021000000000 0.398800 -44.694628 0.005049 24.670084 0.004995 35.841594 0.327312 -114.942669 
0.8856271250000000 0.396854 -44.833320 0.005117 25.117853 0.005142 34.961986 0.326691 -114.898869 
0.8857521500000000 0.396539 -44.922045 0.005129 24.923580 0.005052 32.844075 0.327034 -114.888664 
0.8858771750000000 0.395449 -45.004682 0.005014 23.725158 0.005054 31.524638 0.325916 -115.050924 
0.8860022000000000 0.394381 -45.037619 0.004949 23.724836 0.004994 32.479165 0.325746 -115.088568 
0.8861272250000000 0.393608 -45.260723 0.005134 22.778677 0.005108 32.038838 0.325667 -115.071388 
0.8862522500000000 0.391228 -45.368177 0.004960 21.484356 0.005119 30.999454 0.325558 -115.068488 
0.8863772750000000 0.390248 -45.597226 0.005082 21.985086 0.005000 31.423869 0.325504 -115.262875 
0.8865023000000000 0.389224 -45.600381 0.004997 22.135407 0.005082 31.521567 0.325250 -115.218573 
0.8866273250000000 0.388754 -45.796712 0.005207 21.207039 0.005054 29.961466 0.324749 -115.194811 
0.8867523500000000 0.386473 -45.865409 0.005122 21.749902 0.005099 30.567688 0.324646 -115.358217 
0.8868773750000000 0.386668 -46.141609 0.005094 20.945866 0.005119 29.552251 0.324094 -115.291009 
0.8870024000000000 0.385413 -46.031421 0.005026 21.119077 0.005043 28.634674 0.323984 -115.300234 
0.8871274250000000 0.383637 -46.227993 0.004993 19.142612 0.004973 27.252959 0.323300 -115.309648 
0.8872524500000000 0.382005 -46.361111 0.005106 20.420149 0.005101 26.931543 0.323870 -115.459171 
0.8873774750000000 0.380643 -46.596688 0.005028 17.759574 0.005113 28.250091 0.323227 -115.471489 
0.8875025000000000 0.380237 -46.617912 0.004982 18.273677 0.005044 26.548095 0.323202 -115.449622 
0.8876275250000000 0.378183 -46.870383 0.005064 18.161951 0.005046 27.151043 0.323042 -115.541065 
0.8877525500000000 0.377374 -46.825217 0.005076 17.105498 0.004999 25.973510 0.322640 -115.605239 
0.8878775750000000 0.376960 -46.905993 0.005135 15.494499 0.005006 26.752975 0.322055 -115.588924 
0.8880026000000000 0.375274 -46.996966 0.005035 18.543048 0.005052 23.974018 0.321579 -115.713950 
0.8881276250000000 0.373582 -47.275934 0.004990 17.122452 0.005042 24.856498 0.321386 -115.591764 
0.8882526500000000 0.372742 -47.325883 0.005120 15.724046 0.005026 23.495534 0.321254 -115.542672 
0.8883776750000000 0.372157 -47.319560 0.005076 13.925294 0.005035 25.400115 0.322082 -115.586581 
0.8885027000000000 0.370031 -47.520171 0.005057 14.425411 0.005093 22.425937 0.321068 -115.800278 
0.8886277250000000 0.368753 -47.691708 0.005105 13.670183 0.005100 24.557007 0.320548 -115.645335 
0.8887527500000000 0.368653 -47.719292 0.005067 13.680514 0.005127 21.054344 0.320941 -115.853576 
0.8888777750000000 0.366349 -48.013493 0.005084 12.451297 0.005037 22.965722 0.320373 -115.781534 
0.8890028000000000 0.365677 -48.037669 0.005092 12.849447 0.005143 21.462035 0.320247 -115.822731 
0.8891278250000000 0.364150 -48.183024 0.005093 12.780726 0.005068 19.580577 0.319593 -115.806531 
0.8892528500000000 0.363421 -48.289952 0.005128 12.447907 0.005048 20.509803 0.318734 -116.003228 
0.8893778750000000 0.361067 -48.297683 0.004952 10.905841 0.005001 19.995243 0.318394 -115.978057 
0.8895029000000000 0.361247 -48.433178 0.004983 10.257771 0.005026 20.290099 0.319767 -116.083303 
0.8896279250000000 0.359410 -48.657552 0.005041 12.068834 0.005024 19.415300 0.319127 -116.060287 
0.8897529500000000 0.357782 -48.746953 0.005126 8.432732 0.005118 18.652700 0.318772 -116.054798 
0.8898779750000000 0.355782 -48.801128 0.005211 10.097575 0.005028 17.604937 0.318524 -116.113344 
0.8900030000000000 0.355258 -48.995104 0.005005 9.392327 0.005213 17.452186 0.317992 -116.117487 
0.8901280250000000 0.353560 -48.968773 0.005118 9.773425 0.005021 17.139139 0.317758 -116.156542 
0.8902530500000000 0.352555 -49.096110 0.005008 7.721182 0.005026 16.275427 0.317940 -116.060860 
0.8903780750000000 0.351280 -49.245108 0.005043 9.285100 0.005019 15.912497 0.317292 -116.197840 
0.8905031000000000 0.350690 -49.303526 0.004966 8.584079 0.005161 15.365152 0.318000 -116.269969 
0.8906281250000000 0.348379 -49.406865 0.005093 8.531025 0.005024 15.551763 0.316312 -116.137371 
0.8907531500000000 0.347937 -49.546143 0.005068 7.318583 0.005012 14.362780 0.315614 -116.193403 
0.8908781750000000 0.345726 -49.652419 0.005039 6.471319 0.005043 14.172233 0.316145 -116.213812 
0.8910032000000000 0.344920 -49.618368 0.005144 4.569585 0.005186 13.608219 0.315651 -116.307412 
0.8911282250000000 0.344122 -49.948195 0.005112 4.705499 0.005103 13.560288 0.315705 -116.339654 
0.8912532500000000 0.343528 -49.888131 0.005054 5.794242 0.005069 13.895071 0.315309 -116.356729 
0.8913782750000000 0.340658 -50.055099 0.005108 3.264389 0.005072 12.108117 0.316071 -116.522993 
0.8915033000000000 0.339741 -50.123589 0.005089 3.225545 0.005033 12.062146 0.314966 -116.443404 
0.8916283250000000 0.338625 -50.204680 0.005081 4.798912 0.005059 12.144551 0.315621 -116.520457 
0.8917533500000000 0.337068 -50.291403 0.005153 2.625430 0.005069 12.713845 0.314407 -116.463081 
0.8918783750000000 0.335841 -50.384757 0.005035 2.051601 0.005181 12.360091 0.314434 -116.522774 
0.8920034000000000 0.333672 -50.518494 0.004945 3.599254 0.005035 9.443584 0.314720 -116.527787 
0.8921284250000000 0.332765 -50.505594 0.005136 2.035154 0.005097 10.819026 0.314161 -116.472960 
0.8922534500000000 0.331908 -50.714488 0.005005 1.042769 0.005188 9.611678 0.313396 -116.567537 
0.8923784750000000 0.330258 -50.805211 0.005055 1.921580 0.005079 9.100155 0.313017 -116.814863 
0.8925035000000000 0.328656 -50.920603 0.005150 0.071613 0.005071 6.311042 0.314011 -116.716950 
0.8926285250000000 0.327119 -50.980812 0.005327 1.089826 0.005056 8.870235 0.312292 -116.750352 
0.8927535500000000 0.325651 -51.047950 0.005190 -0.923876 0.005114 8.209809 0.312920 -116.729984 
0.8928785750000000 0.324260 -51.275356 0.005097 -0.327003 0.005093 6.251042 0.312962 -116.782427 
0.8930036000000000 0.323214 -51.286129 0.005108 -1.671555 0.005082 6.373437 0.312006 -116.783101 
0.8931286250000000 0.321527 -51.435306 0.005078 -1.307576 0.005236 6.395226 0.311695 -116.881163 
0.8932536500000000 0.319914 -51.425129 0.005308 -1.497890 0.005071 5.450043 0.311000 -116.927118 
0.8933786750000000 0.318293 -51.540099 0.005120 -3.826499 0.005076 5.862941 0.310910 -117.055505 
0.8935037000000000 0.317107 -51.588197 0.005153 -3.262171 0.005073 4.293384 0.311384 -116.979420 
0.8936287250000000 0.315897 -51.700231 0.005176 -3.842689 0.005020 5.067808 0.310959 -116.912087 
0.8937537500000000 0.314513 -51.710061 0.005058 -5.764605 0.005069 3.343515 0.310662 -117.003025 
0.8938787750000000 0.313059 -51.862690 0.005242 -2.794607 0.005191 3.721287 0.310513 -117.023396 
0.8940038000000000 0.311725 -51.966113 0.005266 -3.709506 0.005054 1.113549 0.310154 -116.930626 
0.8941288250000000 0.310276 -52.042970 0.005291 -3.485176 0.005192 2.497664 0.309848 -117.105128 
0.8942538500000000 0.308432 -52.113592 0.005104 -6.242663 0.005187 1.791231 0.310437 -117.157004 
0.8943788750000000 0.306848 -52.247958 0.005107 -5.892655 0.005294 0.301907 0.309413 -117.146326 
0.8945039000000000 0.305740 -52.249908 0.005234 -6.418592 0.005278 0.918915 0.309378 -117.114803 
0.8946289250000000 0.304248 -52.279501 0.005082 -5.370629 0.005401 -1.760757 0.309010 -117.248321 
0.8947539500000000 0.302376 -52.421709 0.005102 -7.583320 0.005247 -0.721138 0.308299 -117.325993 
0.8948789750000000 0.301231 -52.528727 0.005188 -8.429478 0.005250 -0.468347 0.308722 -117.224896 
0.8950040000000000 0.299722 -52.502379 0.005000 -9.523855 0.005258 0.290999 0.308530 -117.316552 
0.8951290250000000 0.298159 -52.633964 0.005255 -9.733289 0.005263 -3.066670 0.307778 -117.478458 
0.8952540500000000 0.296857 -52.764318 0.005133 -9.281179 0.005207 -2.506190 0.308038 -117.312677 
0.8953790750000000 0.295128 -52.814326 0.005221 -9.661485 0.005180 -3.103026 0.307393 -117.358762 
0.8955041000000000 0.293743 -52.889620 0.005261 -10.403542 0.005155 -3.945915 0.306742 -117.408886 
0.8956291250000000 0.292156 -52.909266 0.005403 -11.518188 0.005333 -4.733861 0.307324 -117.426376 
0.8957541500000000 0.290676 -52.911142 0.005352 -12.671107 0.005253 -4.814179 0.307020 -117.545671 
0.8958791750000000 0.289087 -53.082325 0.005314 -12.847217 0.005170 -4.559805 0.306731 -117.663892 
0.8960042000000000 0.287821 -53.063884 0.005377 -12.749535 0.005185 -6.039345 0.306308 -117.592637 
0.8961292250000000 0.286340 -53.158192 0.005239 -13.445533 0.005279 -6.772577 0.306562 -117.542044 
0.8962542500000000 0.284602 -53.256664 0.005239 -13.902811 0.005159 -6.826788 0.305948 -117.611738 
0.8963792750000000 0.283314 -53.270194 0.005401 -15.227617 0.005284 -8.663211 0.306199 -117.732216 
0.8965043000000000 0.281920 -53.349035 0.005224 -15.473442 0.005190 -7.737429 0.305830 -117.791162 
0.8966293250000000 0.279997 -53.281844 0.005299 -14.107520 0.005357 -7.242984 0.305636 -117.568029 
0.8967543500000000 0.278792 -53.472545 0.005324 -15.574242 0.005260 -8.857325 0.304913 -117.642219 
0.8968793750000000 0.277160 -53.493481 0.005395 -15.650825 0.005093 -9.887406 0.305296 -117.779211 
0.8970044000000000 0.275661 -53.456140 0.005381 -16.699975 0.005238 -9.788611 0.304957 -117.595913 
0.8971294250000000 0.273825 -53.588591 0.005318 -15.917879 0.005179 -10.721740 0.304615 -117.788339 
0.8972544500000000 0.272138 -53.610071 0.005337 -17.069230 0.005289 -10.632189 0.304600 -117.776855 
0.8973794750000000 0.271094 -53.599665 0.005433 -17.289980 0.005158 -9.720495 0.303714 -117.786830 
0.8975045000000000 0.269495 -53.743890 0.005278 -19.502198 0.005106 -12.944681 0.304484 -117.840260 
0.8976295250000000 0.267634 -53.690662 0.005359 -17.727971 0.005183 -14.371188 0.302999 -117.864571 
0.8977545500000000 0.266180 -53.794889 0.005394 -19.347891 0.005259 -12.155524 0.303828 -117.938249 
0.8978795750000000 0.264452 -53.729810 0.005263 -19.632529 0.005220 -13.895346 0.303408 -117.967223 
0.8980046000000000 0.263055 -53.790838 0.005176 -20.485000 0.005337 -13.858086 0.303534 -117.987264 
0.8981296250000000 0.261620 -53.761695 0.005330 -20.964642 0.005266 -14.671738 0.302464 -117.895318 
0.8982546500000000 0.259981 -53.790908 0.005295 -22.135818 0.005212 -14.315313 0.302596 -118.022681 
0.8983796750000000 0.258841 -53.838409 0.005396 -22.032711 0.005320 -17.093474 0.302419 -117.922668 
0.8985047000000001 0.256834 -53.802063 0.005340 -23.234199 0.005268 -16.367439 0.302184 -118.152812 
0.8986297250000001 0.255425 -53.857123 0.005321 -22.904640 0.005349 -15.905761 0.301955 -118.021909 
0.8987547500000001 0.254145 -53.829469 0.005288 -24.051417 0.005105 -17.173158 0.301889 -118.090889 
0.8988797750000001 0.252039 -53.879037 0.005296 -23.347277 0.005159 -18.553856 0.300837 -118.135232 
0.8990048000000001 0.250683 -53.892492 0.005362 -26.692659 0.005120 -18.181842 0.300300 -118.104161 
0.8991298250000001 0.249275 -53.877861 0.005295 -24.913711 0.005267 -19.927039 0.300649 -118.332654 
0.8992548500000001 0.247622 -53.782226 0.005230 -25.619999 0.005383 -19.378664 0.300567 -118.291504 
0.8993798750000001 0.245775 -53.762224 0.005340 -26.598232 0.005431 -21.786467 0.301058 -118.330250 
