!
! C:\Users\rflab\Downloads\q2\0.S1P
!
! Touchstone 1.1 file saved by VNA.EXE V1.65 (www.ke5fx.com/gpib/readme.htm)
! 11/20/2024 11:05:42 AM
!
!    Source: HEWLETT PACKARD,8753D,0,6.14
!  Min freq: 3.000000E+008 Hz
!  Max freq: 1.000000E+009 Hz
!    Points: 801
!    Params: S21
!
!!!!!
# GHZ S MA R 50
0.3000000000000000 0.000050 -123.982099 
0.3008750000000000 0.000174 -114.482879 
0.3017500000000000 0.000094 -174.568356 
0.3026250000000000 0.000049 108.379108 
0.3035000000000000 0.000085 -21.219148 
0.3043750000000000 0.000167 89.647989 
0.3052500000000000 0.000061 -5.672664 
0.3061250000000000 0.000079 146.268596 
0.3070000000000000 0.000048 138.687692 
0.3078750000000000 0.000156 172.311494 
0.3087500000000000 0.000072 112.335887 
0.3096250000000000 0.000043 -146.210370 
0.3105000000000000 0.000148 -67.578692 
0.3113750000000000 0.000166 -147.473655 
0.3122500000000000 0.000076 82.133841 
0.3131250000000000 0.000034 41.762052 
0.3140000000000000 0.000057 -130.760855 
0.3148750000000000 0.000103 -66.121808 
0.3157500000000000 0.000049 167.730700 
0.3166250000000000 0.000121 61.742637 
0.3175000000000000 0.000026 115.530296 
0.3183750000000000 0.000017 25.469591 
0.3192500000000000 0.000040 168.803916 
0.3201250000000000 0.000053 115.438293 
0.3210000000000000 0.000085 61.395725 
0.3218750000000000 0.000012 85.963077 
0.3227500000000000 0.000032 -68.368479 
0.3236250000000000 0.000052 6.140050 
0.3245000000000000 0.000125 -36.213766 
0.3253750000000000 0.000047 130.767553 
0.3262500000000000 0.000124 177.549208 
0.3271250000000000 0.000052 -38.694905 
0.3280000000000000 0.000072 -153.591196 
0.3288750000000000 0.000014 20.420632 
0.3297500000000000 0.000067 156.011605 
0.3306250000000000 0.000060 -95.074214 
0.3315000000000000 0.000086 -109.472912 
0.3323750000000000 0.000039 118.464589 
0.3332500000000000 0.000053 52.205145 
0.3341250000000000 0.000100 147.963018 
0.3350000000000000 0.000070 -105.639181 
0.3358750000000000 0.000084 -175.894295 
0.3367500000000000 0.000032 128.764182 
0.3376250000000000 0.000063 121.895895 
0.3385000000000000 0.000105 40.832432 
0.3393750000000000 0.000000 -40.518797 
0.3402500000000000 0.000034 -167.642866 
0.3411250000000000 0.000041 34.232216 
0.3420000000000000 0.000124 -135.629385 
0.3428750000000000 0.000046 24.091672 
0.3437500000000000 0.000067 -78.224784 
0.3446250000000000 0.000103 -12.668413 
0.3455000000000000 0.000056 -56.590236 
0.3463750000000000 0.000071 66.044881 
0.3472500000000000 0.000096 169.035400 
0.3481250000000000 0.000040 -18.067587 
0.3490000000000000 0.000088 99.027658 
0.3498750000000000 0.000017 -118.388641 
0.3507500000000000 0.000106 -100.957517 
0.3516250000000000 0.000111 134.598352 
0.3525000000000000 0.000063 27.200685 
0.3533750000000000 0.000059 -155.350806 
0.3542500000000000 0.000054 89.390556 
0.3551250000000000 0.000087 -100.065673 
0.3560000000000000 0.000139 -40.808229 
0.3568750000000000 0.000129 -139.915638 
0.3577500000000000 0.000048 78.043308 
0.3586250000000000 0.000042 -102.025877 
0.3595000000000000 0.000113 172.159410 
0.3603750000000000 0.000068 -174.831248 
0.3612500000000000 0.000031 173.188228 
0.3621250000000000 0.000063 6.665874 
0.3630000000000000 0.000054 -104.064866 
0.3638750000000000 0.000022 14.114933 
0.3647500000000000 0.000070 -178.793596 
0.3656250000000000 0.000144 90.589955 
0.3665000000000000 0.000025 -176.151512 
0.3673750000000000 0.000007 44.847344 
0.3682500000000000 0.000091 -154.726440 
0.3691250000000000 0.000159 124.291120 
0.3700000000000000 0.000061 63.441247 
0.3708750000000000 0.000187 158.302663 
0.3717500000000000 0.000052 -59.589650 
0.3726250000000000 0.000046 -99.210653 
0.3735000000000000 0.000052 59.110256 
0.3743750000000000 0.000092 -172.915855 
0.3752500000000000 0.000070 -135.006445 
0.3761250000000000 0.000025 -71.649330 
0.3770000000000000 0.000046 -138.373542 
0.3778750000000000 0.000038 83.581382 
0.3787500000000000 0.000036 55.579622 
0.3796250000000000 0.000045 -38.587468 
0.3805000000000000 0.000058 -159.001943 
0.3813750000000000 0.000066 -122.608430 
0.3822500000000000 0.000041 7.220049 
0.3831250000000000 0.000128 162.655923 
0.3840000000000000 0.000073 -84.160702 
0.3848750000000000 0.000095 -149.087940 
0.3857500000000000 0.000061 162.504792 
0.3866250000000000 0.000075 74.128712 
0.3875000000000000 0.000083 -67.321215 
0.3883750000000000 0.000051 3.981041 
0.3892500000000000 0.000147 -5.260639 
0.3901250000000000 0.000115 152.853040 
0.3910000000000000 0.000130 160.192870 
0.3918750000000000 0.000058 71.256162 
0.3927500000000000 0.000045 -89.378547 
0.3936250000000000 0.000043 -155.533863 
0.3945000000000000 0.000070 -134.419670 
0.3953750000000000 0.000074 6.532732 
0.3962500000000000 0.000096 128.714407 
0.3971250000000000 0.000131 -30.631460 
0.3980000000000000 0.000021 46.542013 
0.3988750000000000 0.000016 -113.479600 
0.3997500000000000 0.000103 -98.819637 
0.4006250000000000 0.000084 -40.100497 
0.4015000000000000 0.000133 114.198266 
0.4023750000000000 0.000098 -44.133347 
0.4032500000000000 0.000042 127.377179 
0.4041250000000000 0.000125 -119.949591 
0.4050000000000000 0.000063 -54.835209 
0.4058750000000000 0.000100 -129.780448 
0.4067500000000000 0.000013 116.416860 
0.4076250000000000 0.000032 126.400745 
0.4085000000000000 0.000044 -42.301877 
0.4093750000000000 0.000085 159.829203 
0.4102500000000000 0.000082 68.646534 
0.4111250000000000 0.000101 -4.072243 
0.4120000000000000 0.000093 46.103782 
0.4128750000000000 0.000144 102.529124 
0.4137500000000000 0.000113 26.951555 
0.4146250000000000 0.000047 -91.637416 
0.4155000000000000 0.000052 129.703227 
0.4163750000000000 0.000084 -122.698147 
0.4172500000000000 0.000053 -61.390496 
0.4181250000000000 0.000116 137.092245 
0.4190000000000000 0.000046 95.748601 
0.4198750000000000 0.000061 -132.435858 
0.4207500000000000 0.000207 98.142618 
0.4216250000000000 0.000073 123.061963 
0.4225000000000000 0.000045 -43.201776 
0.4233750000000000 0.000118 12.079597 
0.4242500000000000 0.000061 -7.005706 
0.4251250000000000 0.000013 -79.309931 
0.4260000000000000 0.000029 -52.415823 
0.4268750000000000 0.000157 -41.613137 
0.4277500000000000 0.000051 90.879717 
0.4286250000000000 0.000089 -86.829169 
0.4295000000000000 0.000046 150.335630 
0.4303750000000000 0.000045 -171.923711 
0.4312500000000000 0.000058 137.874872 
0.4321250000000000 0.000125 61.073505 
0.4330000000000000 0.000086 18.760516 
0.4338750000000000 0.000043 31.673273 
0.4347500000000000 0.000113 51.989070 
0.4356250000000000 0.000064 -23.014956 
0.4365000000000000 0.000069 -148.376948 
0.4373750000000000 0.000012 29.799545 
0.4382500000000000 0.000121 60.922375 
0.4391250000000000 0.000009 -62.403933 
0.4400000000000000 0.000080 16.023163 
0.4408750000000000 0.000078 83.840740 
0.4417500000000000 0.000170 53.463991 
0.4426250000000000 0.000072 23.137539 
0.4435000000000000 0.000046 -23.412265 
0.4443750000000000 0.000177 40.205273 
0.4452500000000000 0.000114 29.940566 
0.4461250000000000 0.000160 74.383791 
0.4470000000000000 0.000059 16.190108 
0.4478750000000000 0.000018 -120.948721 
0.4487500000000000 0.000154 -7.289785 
0.4496250000000000 0.000051 19.494350 
0.4505000000000000 0.000016 -116.814512 
0.4513750000000000 0.000192 21.771259 
0.4522500000000000 0.000165 -5.343427 
0.4531250000000000 0.000097 3.052529 
0.4540000000000000 0.000135 -55.693544 
0.4548750000000000 0.000074 -24.377080 
0.4557500000000000 0.000103 13.462125 
0.4566250000000000 0.000079 -96.618489 
0.4575000000000000 0.000201 35.933181 
0.4583750000000000 0.000043 17.025049 
0.4592500000000000 0.000205 -2.498768 
0.4601250000000000 0.000067 -10.149844 
0.4610000000000000 0.000035 160.308847 
0.4618750000000000 0.000076 10.634648 
0.4627500000000000 0.000052 155.658013 
0.4636250000000000 0.000048 8.194298 
0.4645000000000000 0.000045 140.258815 
0.4653750000000000 0.000066 -44.460694 
0.4662500000000000 0.000090 -18.966084 
0.4671250000000000 0.000084 -88.302621 
0.4680000000000000 0.000005 -95.497902 
0.4688750000000000 0.000066 -10.902000 
0.4697500000000000 0.000131 -35.653057 
0.4706250000000000 0.000161 -24.750312 
0.4715000000000000 0.000151 -90.217135 
0.4723750000000000 0.000091 -23.388370 
0.4732500000000000 0.000107 -42.464269 
0.4741250000000000 0.000118 -67.605158 
0.4750000000000000 0.000171 -55.601424 
0.4758750000000000 0.000202 -59.896606 
0.4767500000000000 0.000088 -69.522442 
0.4776250000000000 0.000141 -92.241761 
0.4785000000000000 0.000113 -40.497373 
0.4793750000000000 0.000140 -46.447019 
0.4802500000000000 0.000161 -94.524922 
0.4811250000000000 0.000175 -54.929863 
0.4820000000000000 0.000141 -76.266848 
0.4828750000000000 0.000101 -78.116655 
0.4837500000000000 0.000132 -118.827618 
0.4846250000000000 0.000072 -9.709049 
0.4855000000000000 0.000191 -66.387740 
0.4863750000000000 0.000040 -121.399276 
0.4872500000000000 0.000079 -134.754145 
0.4881250000000000 0.000176 -132.759991 
0.4890000000000000 0.000225 -81.597250 
0.4898750000000000 0.000119 -168.987980 
0.4907500000000000 0.000148 -168.556122 
0.4916250000000000 0.000056 -111.121195 
0.4925000000000000 0.000192 -118.113098 
0.4933750000000000 0.000215 -91.911267 
0.4942500000000000 0.000117 -81.758258 
0.4951250000000000 0.000087 -79.916243 
0.4960000000000000 0.000082 -155.297904 
0.4968750000000000 0.000133 -138.649531 
0.4977500000000000 0.000045 -154.304153 
0.4986250000000000 0.000134 -105.554409 
0.4995000000000000 0.000178 -133.111440 
0.5003750000000000 0.000156 -134.716340 
0.5012500000000000 0.000212 -137.706554 
0.5021250000000000 0.000249 -127.640703 
0.5030000000000000 0.000103 -159.055866 
0.5038750000000000 0.000250 -120.847325 
0.5047500000000000 0.000181 -119.130736 
0.5056250000000000 0.000097 -118.235866 
0.5065000000000000 0.000089 -110.986213 
0.5073750000000000 0.000267 -153.210657 
0.5082500000000000 0.000231 -137.796010 
0.5091250000000001 0.000181 166.384337 
0.5100000000000000 0.000122 -109.323396 
0.5108750000000000 0.000252 -123.083940 
0.5117500000000000 0.000213 -162.445283 
0.5126250000000000 0.000331 -148.695456 
0.5135000000000000 0.000203 -174.524749 
0.5143750000000000 0.000216 -162.294133 
0.5152500000000000 0.000230 -162.813013 
0.5161249999999999 0.000233 -162.018816 
0.5170000000000000 0.000165 -165.314768 
0.5178750000000000 0.000247 -169.305865 
0.5187500000000000 0.000261 -178.079623 
0.5196250000000000 0.000339 -161.340163 
0.5205000000000000 0.000238 -159.874569 
0.5213750000000000 0.000186 -177.319373 
0.5222500000000000 0.000299 176.071630 
0.5231250000000000 0.000263 -178.283458 
0.5240000000000000 0.000426 166.258715 
0.5248750000000000 0.000351 171.925999 
0.5257500000000001 0.000276 -169.476736 
0.5266250000000000 0.000459 -171.730938 
0.5275000000000000 0.000404 173.742174 
0.5283750000000000 0.000297 164.361411 
0.5292500000000000 0.000289 154.084383 
0.5301250000000000 0.000425 168.419644 
0.5310000000000000 0.000409 168.227797 
0.5318750000000000 0.000489 154.546035 
0.5327500000000000 0.000458 167.243494 
0.5336250000000000 0.000438 160.663932 
0.5345000000000000 0.000325 147.662931 
0.5353750000000001 0.000432 136.582568 
0.5362500000000000 0.000635 145.687170 
0.5371250000000000 0.000340 143.325744 
0.5380000000000000 0.000586 140.636221 
0.5388750000000000 0.000517 143.765974 
0.5397500000000000 0.000507 150.832314 
0.5406250000000000 0.000509 142.939123 
0.5415000000000000 0.000422 130.580672 
0.5423750000000001 0.000632 137.120815 
0.5432500000000000 0.000560 132.403260 
0.5441250000000000 0.000560 115.132441 
0.5450000000000000 0.000678 124.374985 
0.5458750000000000 0.000703 123.024884 
0.5467500000000000 0.000597 117.206372 
0.5476250000000000 0.000659 114.082797 
0.5485000000000000 0.000670 106.986147 
0.5493750000000000 0.000668 105.767063 
0.5502500000000000 0.000697 106.973775 
0.5511250000000000 0.000761 108.996271 
0.5520000000000001 0.000712 104.047884 
0.5528750000000000 0.000704 103.846189 
0.5537500000000000 0.000846 90.633701 
0.5546250000000000 0.000758 99.609682 
0.5555000000000000 0.000950 101.974750 
0.5563750000000000 0.000777 84.608540 
0.5572500000000000 0.000919 91.291189 
0.5581250000000000 0.000865 88.157988 
0.5590000000000001 0.000813 87.580046 
0.5598750000000000 0.000827 73.198086 
0.5607500000000000 0.000804 74.755680 
0.5616250000000000 0.000900 73.644740 
0.5625000000000000 0.001038 75.365834 
0.5633750000000000 0.000961 73.375329 
0.5642500000000000 0.000926 65.536663 
0.5651250000000000 0.001039 58.010985 
0.5660000000000000 0.001047 60.171745 
0.5668750000000000 0.000892 60.753047 
0.5677500000000000 0.001051 58.109328 
0.5686250000000001 0.001111 51.465054 
0.5695000000000000 0.001101 52.371256 
0.5703750000000000 0.001109 50.462635 
0.5712500000000000 0.001127 45.209919 
0.5721250000000000 0.001172 45.271893 
0.5730000000000000 0.001296 41.378799 
0.5738750000000000 0.001057 41.647217 
0.5747500000000000 0.001293 40.169685 
0.5756250000000001 0.001193 40.623647 
0.5765000000000000 0.001310 37.958211 
0.5773750000000000 0.001250 31.512453 
0.5782500000000000 0.001322 29.933350 
0.5791250000000000 0.001416 24.968070 
0.5800000000000000 0.001343 21.090467 
0.5808750000000000 0.001347 17.412230 
0.5817500000000000 0.001357 19.656530 
0.5826250000000000 0.001461 21.444621 
0.5835000000000000 0.001574 15.426057 
0.5843750000000000 0.001503 14.572985 
0.5852500000000001 0.001509 6.578834 
0.5861250000000000 0.001642 5.230576 
0.5870000000000000 0.001594 3.669323 
0.5878750000000000 0.001737 4.802169 
0.5887500000000000 0.001701 -2.988730 
0.5896250000000000 0.001792 0.221055 
0.5905000000000000 0.001772 -3.420319 
0.5913750000000000 0.001851 -8.867667 
0.5922500000000001 0.002040 -8.525964 
0.5931250000000000 0.001897 -9.704362 
0.5940000000000000 0.001956 -12.790953 
0.5948750000000000 0.002260 -16.890045 
0.5957500000000000 0.002215 -21.293606 
0.5966250000000000 0.002073 -21.417182 
0.5975000000000000 0.002242 -23.551046 
0.5983750000000000 0.002243 -23.438099 
0.5992500000000000 0.002376 -27.928948 
0.6001250000000000 0.002304 -29.662891 
0.6010000000000000 0.002560 -33.389684 
0.6018750000000001 0.002457 -34.920729 
0.6027500000000000 0.002601 -40.270906 
0.6036250000000000 0.002847 -43.495103 
0.6045000000000000 0.002799 -45.624559 
0.6053750000000000 0.002788 -48.022987 
0.6062500000000000 0.003011 -50.162181 
0.6071250000000000 0.003085 -52.754173 
0.6080000000000000 0.003177 -55.671937 
0.6088750000000001 0.003238 -60.111476 
0.6097500000000000 0.003319 -63.021711 
0.6106250000000000 0.003332 -63.329518 
0.6115000000000000 0.003587 -70.287766 
0.6123750000000000 0.003760 -69.671252 
0.6132500000000000 0.003689 -75.545660 
0.6141250000000000 0.003827 -76.626024 
0.6150000000000000 0.004047 -80.224137 
0.6158750000000000 0.004071 -81.466576 
0.6167500000000000 0.004125 -84.767492 
0.6176250000000000 0.004329 -88.396940 
0.6185000000000001 0.004517 -92.041738 
0.6193750000000000 0.004611 -93.663923 
0.6202500000000000 0.004676 -98.500718 
0.6211250000000000 0.004835 -99.751206 
0.6220000000000000 0.004993 -103.311007 
0.6228750000000000 0.005019 -106.100174 
0.6237500000000000 0.005465 -109.093406 
0.6246250000000000 0.005460 -112.485727 
0.6254999999999999 0.005525 -116.764069 
0.6263750000000000 0.005782 -119.823422 
0.6272500000000000 0.005948 -123.337175 
0.6281250000000000 0.006115 -126.125586 
0.6290000000000000 0.006233 -128.960334 
0.6298750000000000 0.006458 -132.453532 
0.6307500000000000 0.006556 -134.790798 
0.6316250000000000 0.006849 -138.279340 
0.6325000000000000 0.007019 -141.423472 
0.6333750000000000 0.007219 -143.933948 
0.6342500000000000 0.007386 -148.385953 
0.6351250000000001 0.007591 -150.214049 
0.6360000000000000 0.007827 -153.817380 
0.6368750000000000 0.008232 -157.728353 
0.6377500000000000 0.008369 -161.565053 
0.6386250000000000 0.008657 -163.477597 
0.6395000000000000 0.008783 -168.039731 
0.6403750000000000 0.009088 -171.338863 
0.6412500000000000 0.009437 -173.361202 
0.6421250000000000 0.009693 -176.804848 
0.6430000000000000 0.010037 -179.738688 
0.6438750000000000 0.010186 176.156128 
0.6447500000000001 0.010656 172.936360 
0.6456250000000000 0.010951 169.913399 
0.6465000000000000 0.011298 166.112723 
0.6473750000000000 0.011531 163.017988 
0.6482500000000000 0.011964 159.764420 
0.6491250000000000 0.012349 155.654727 
0.6500000000000000 0.012708 152.288829 
0.6508750000000000 0.013200 149.255609 
0.6517500000000001 0.013531 145.467656 
0.6526250000000000 0.014288 141.966703 
0.6535000000000000 0.014536 138.263273 
0.6543750000000000 0.015181 135.237966 
0.6552500000000000 0.015704 131.024549 
0.6561250000000000 0.016329 127.347749 
0.6570000000000000 0.016894 123.933154 
0.6578750000000000 0.017432 119.842852 
0.6587500000000000 0.018128 116.006982 
0.6596250000000000 0.018950 112.131240 
0.6605000000000000 0.019654 108.566826 
0.6613750000000001 0.020468 104.321783 
0.6622500000000000 0.021382 100.230332 
0.6631250000000000 0.022109 96.093737 
0.6640000000000000 0.023103 91.913723 
0.6648750000000000 0.024185 87.326232 
0.6657500000000000 0.025352 82.793191 
0.6666250000000000 0.026345 78.316664 
0.6675000000000000 0.027621 73.032819 
0.6683750000000001 0.028863 68.492480 
0.6692500000000000 0.030115 63.207746 
0.6701250000000000 0.031525 57.605119 
0.6710000000000000 0.032708 52.074908 
0.6718750000000000 0.034117 46.538122 
0.6727500000000000 0.035395 40.565796 
0.6736250000000000 0.036605 34.444404 
0.6745000000000000 0.038054 27.943252 
0.6753750000000000 0.039165 21.231430 
0.6762500000000000 0.040227 14.582471 
0.6771250000000000 0.041110 7.456387 
0.6780000000000001 0.041852 0.436072 
0.6788750000000000 0.042216 -6.722691 
0.6797500000000000 0.042401 -14.066241 
0.6806250000000000 0.042404 -21.264914 
0.6815000000000000 0.042004 -28.245431 
0.6823750000000000 0.041490 -35.187096 
0.6832500000000000 0.040811 -42.139681 
0.6841250000000000 0.039760 -48.484916 
0.6850000000000001 0.038861 -55.128242 
0.6858750000000000 0.037684 -61.216647 
0.6867500000000000 0.036372 -67.097708 
0.6876250000000000 0.035122 -72.901384 
0.6885000000000000 0.033890 -78.336539 
0.6893750000000000 0.032811 -83.538056 
0.6902500000000000 0.031677 -88.788976 
0.6911250000000000 0.030576 -93.708990 
0.6920000000000000 0.029313 -98.395826 
0.6928750000000000 0.028252 -102.817467 
0.6937500000000000 0.027316 -107.372164 
0.6946250000000001 0.026487 -111.639744 
0.6955000000000000 0.025658 -115.980291 
0.6963750000000000 0.024593 -119.825911 
0.6972500000000000 0.023831 -124.057642 
0.6981250000000000 0.023124 -127.658206 
0.6990000000000000 0.022260 -131.505506 
0.6998750000000000 0.021620 -135.371712 
0.7007500000000000 0.020963 -139.128420 
0.7016250000000001 0.020481 -142.446042 
0.7025000000000000 0.019909 -146.210974 
0.7033750000000000 0.019255 -149.692295 
0.7042500000000000 0.018781 -153.233278 
0.7051250000000000 0.018280 -156.442676 
0.7060000000000000 0.017776 -159.453308 
0.7068750000000000 0.017316 -162.407286 
0.7077500000000000 0.016835 -166.246354 
0.7086250000000000 0.016351 -169.287145 
0.7095000000000000 0.016025 -171.888220 
0.7103750000000000 0.015647 -175.199819 
0.7112500000000001 0.015251 -178.806809 
0.7121250000000000 0.014942 178.756544 
0.7130000000000000 0.014657 175.024285 
0.7138750000000000 0.014404 172.402097 
0.7147500000000000 0.013986 169.470110 
0.7156250000000000 0.013813 166.553811 
0.7165000000000000 0.013506 163.245148 
0.7173750000000000 0.013311 160.321328 
0.7182500000000001 0.012891 157.653520 
0.7191250000000000 0.012671 155.168979 
