!
! C:\Users\rflab\Downloads\q2\0.S2P
!
! Touchstone 1.1 file saved by VNA.EXE V1.65 (www.ke5fx.com/gpib/readme.htm)
! 11/20/2024 11:05:23 AM
!
!    Source: HEWLETT PACKARD,8753D,0,6.14
!  Min freq: 3.000000E+008 Hz
!  Max freq: 1.000000E+009 Hz
!    Points: 801
!    Params: S11 S21 S12 S22
!
!!!!!
# GHZ S MA R 50
0.3000000000000000 0.998457 -179.464116 0.000091 60.291596 0.000039 -163.268058 1.110956 91.889017 
0.3008750000000000 0.999110 -179.586976 0.000006 177.587213 0.000069 -113.924039 1.108469 91.609186 
0.3017500000000000 0.999827 -179.482339 0.000053 161.420541 0.000112 49.302683 1.111618 91.308815 
0.3026250000000000 0.999489 -179.499659 0.000066 -6.734512 0.000098 -75.236748 1.109552 91.024381 
0.3035000000000000 0.999671 -179.508496 0.000053 -84.323259 0.000102 116.819804 1.110608 90.654960 
0.3043750000000000 0.997556 -179.572310 0.000065 108.519455 0.000078 59.183677 1.111165 90.346194 
0.3052500000000000 0.998406 -179.609453 0.000167 114.263525 0.000114 4.611605 1.111390 90.059785 
0.3061250000000000 0.998649 -179.618302 0.000012 -57.575544 0.000184 154.122768 1.111698 89.855299 
0.3070000000000000 0.999628 -179.599435 0.000009 -100.942050 0.000056 32.252553 1.111999 89.399326 
0.3078750000000000 0.998124 -179.677664 0.000087 -44.472935 0.000092 170.734207 1.111865 89.194798 
0.3087500000000000 0.999334 -179.819781 0.000074 -37.796855 0.000041 -85.869818 1.113033 88.809130 
0.3096250000000000 0.998698 -179.742630 0.000053 -174.547094 0.000132 -38.454224 1.114754 88.516003 
0.3105000000000000 0.998849 -179.754923 0.000075 -7.939073 0.000038 35.282046 1.114278 88.270474 
0.3113750000000000 0.997076 -179.808851 0.000127 -116.209369 0.000036 26.953525 1.115352 87.930196 
0.3122500000000000 0.998751 -179.870447 0.000070 -172.417513 0.000062 -100.181571 1.114979 87.615624 
0.3131250000000000 0.999430 -179.751566 0.000058 -30.016171 0.000108 108.532258 1.115888 87.272496 
0.3140000000000000 0.998664 -179.791646 0.000056 7.046005 0.000078 104.586657 1.114992 86.940559 
0.3148750000000000 0.997263 -179.752780 0.000086 84.137653 0.000106 -105.496606 1.116006 86.682854 
0.3157500000000000 0.998546 -179.732085 0.000040 108.960350 0.000015 -72.091239 1.116860 86.324642 
0.3166250000000000 0.999362 -179.858279 0.000016 -84.714062 0.000116 127.104066 1.118259 85.959391 
0.3175000000000000 1.000373 -179.786759 0.000028 26.920371 0.000025 30.078912 1.116116 85.659447 
0.3183750000000000 0.998786 -179.795173 0.000071 -39.360665 0.000103 -95.589369 1.116918 85.492990 
0.3192500000000000 0.998322 -179.942202 0.000027 51.828706 0.000070 -147.533044 1.115639 85.069498 
0.3201250000000000 0.999665 -179.961519 0.000045 58.035704 0.000113 126.511468 1.119197 84.784072 
0.3210000000000000 0.997225 -179.889536 0.000087 -90.180027 0.000050 -164.600583 1.118274 84.550474 
0.3218750000000000 0.997925 -179.971965 0.000085 115.679070 0.000078 25.790444 1.118871 84.207926 
0.3227500000000000 0.997955 -179.977223 0.000063 -175.546576 0.000096 -135.423616 1.118780 83.861743 
0.3236250000000000 1.000795 179.884686 0.000100 -36.816183 0.000103 115.882061 1.118976 83.627026 
0.3245000000000000 0.999176 179.943999 0.000073 -147.129616 0.000165 5.792781 1.120494 83.359268 
0.3253750000000000 0.997956 179.959702 0.000034 79.425099 0.000083 36.058336 1.119479 82.978825 
0.3262500000000000 0.998963 179.940488 0.000080 -81.359406 0.000031 66.048983 1.122163 82.687897 
0.3271250000000000 1.000549 179.961553 0.000032 -77.170654 0.000090 50.918973 1.121105 82.356916 
0.3280000000000000 0.999756 179.954525 0.000133 25.501851 0.000102 -159.948671 1.120510 82.072485 
0.3288750000000000 0.998017 179.929920 0.000046 -99.089910 0.000088 93.474656 1.121982 81.764991 
0.3297500000000000 0.999604 179.923033 0.000041 112.008370 0.000096 -74.972562 1.119239 81.390902 
0.3306250000000000 1.000245 179.930076 0.000063 -98.016524 0.000010 19.833428 1.121392 81.126755 
0.3315000000000000 0.999237 179.987752 0.000125 -142.939920 0.000115 -22.188346 1.121811 80.735501 
0.3323750000000000 0.998657 179.971985 0.000043 -129.867927 0.000052 58.163530 1.122179 80.394224 
0.3332500000000000 0.998414 179.943956 0.000036 29.680857 0.000031 79.874370 1.122421 80.029565 
0.3341250000000000 0.999391 179.914268 0.000062 70.605053 0.000069 92.476478 1.123543 79.761414 
0.3350000000000000 0.998505 179.929954 0.000103 -142.754991 0.000020 172.179313 1.121659 79.439716 
0.3358750000000000 0.998907 179.807453 0.000086 -139.485769 0.000045 -109.877703 1.122658 79.103651 
0.3367500000000000 0.997782 179.745902 0.000133 168.584177 0.000094 2.368073 1.123770 78.845083 
0.3376250000000000 0.998756 179.788166 0.000087 -142.794315 0.000112 178.413079 1.123288 78.602143 
0.3385000000000000 0.999433 179.707831 0.000055 3.713365 0.000128 138.300626 1.124962 78.232212 
0.3393750000000000 0.997942 179.665338 0.000086 163.057496 0.000080 95.299800 1.124309 77.923271 
0.3402500000000000 0.998755 179.796920 0.000044 73.199611 0.000037 50.241189 1.124314 77.512687 
0.3411250000000000 0.998946 179.700685 0.000026 -117.377758 0.000082 142.748315 1.124318 77.311959 
0.3420000000000000 0.999761 179.814609 0.000096 128.793181 0.000059 -19.101434 1.125589 76.931336 
0.3428750000000000 0.999464 179.702589 0.000080 -77.635785 0.000094 -170.160738 1.125186 76.597708 
0.3437500000000000 0.999579 179.800584 0.000061 -80.529685 0.000113 -65.758761 1.125305 76.346649 
0.3446250000000000 1.000316 179.734305 0.000109 -146.982890 0.000077 -51.616585 1.125177 75.983356 
0.3455000000000000 0.998737 179.646346 0.000092 92.894513 0.000061 -82.669006 1.126149 75.723503 
0.3463750000000000 0.998918 179.670919 0.000129 94.444788 0.000079 -13.913341 1.124827 75.349959 
0.3472500000000000 0.998307 179.670718 0.000042 26.900125 0.000011 121.527338 1.124742 75.049759 
0.3481250000000000 0.998191 179.614622 0.000081 -75.687143 0.000124 115.364000 1.128485 74.702482 
0.3490000000000000 0.998133 179.597085 0.000114 121.586829 0.000080 -169.048138 1.125389 74.317536 
0.3498750000000000 0.998144 179.512999 0.000049 -125.047463 0.000078 169.609797 1.125478 74.073378 
0.3507500000000000 0.999174 179.566000 0.000085 -148.879065 0.000076 -42.302004 1.126313 73.581193 
0.3516250000000000 0.998821 179.476563 0.000088 -164.937300 0.000078 106.094901 1.126135 73.306404 
0.3525000000000000 0.999125 179.487223 0.000079 -43.566600 0.000049 130.539741 1.127635 73.011727 
0.3533750000000000 0.998977 179.455641 0.000043 69.644143 0.000052 -108.387255 1.125006 72.697533 
0.3542500000000000 0.998587 179.415153 0.000109 -70.725170 0.000065 -139.550757 1.127948 72.376865 
0.3551250000000000 0.999766 179.485803 0.000087 71.347358 0.000159 178.939000 1.128376 72.045275 
0.3560000000000000 1.000591 179.475742 0.000090 -83.363151 0.000058 59.274181 1.128437 71.707150 
0.3568750000000000 0.999551 179.492692 0.000082 -20.708768 0.000041 -23.565755 1.129385 71.396641 
0.3577500000000000 0.999368 179.490851 0.000082 59.084704 0.000075 -60.242739 1.127325 71.145189 
0.3586250000000000 0.999639 179.517223 0.000146 91.439963 0.000084 -38.309094 1.128280 70.814248 
0.3595000000000000 0.998448 179.523654 0.000076 -169.401415 0.000108 -158.577688 1.129599 70.539005 
0.3603750000000000 0.997966 179.481374 0.000126 26.461632 0.000081 64.212828 1.129336 70.152876 
0.3612500000000000 0.998946 179.457379 0.000020 -140.132145 0.000013 -31.625905 1.127771 69.899798 
0.3621250000000000 0.998466 179.411582 0.000120 -114.903844 0.000083 -139.138616 1.128396 69.581062 
0.3630000000000000 0.997794 179.411186 0.000050 139.499861 0.000115 -104.616177 1.126549 69.161283 
0.3638750000000000 0.998145 179.334308 0.000019 120.187185 0.000059 111.547600 1.128595 68.855699 
0.3647500000000000 0.998602 179.201530 0.000024 78.104773 0.000145 127.034912 1.129080 68.596013 
0.3656250000000000 0.997890 179.241265 0.000074 -158.585768 0.000041 160.961836 1.128623 68.166935 
0.3665000000000000 0.997746 179.206100 0.000116 169.337484 0.000022 -16.115214 1.125658 67.794757 
0.3673750000000000 0.996742 179.194773 0.000047 -128.009773 0.000021 -155.983291 1.125622 67.505121 
0.3682500000000000 0.999149 179.210718 0.000111 34.382429 0.000052 -58.552963 1.127034 67.084166 
0.3691250000000000 0.999721 179.244402 0.000057 174.317412 0.000088 -106.794833 1.128663 66.779025 
0.3700000000000000 0.998420 179.194377 0.000062 -99.131124 0.000034 -79.730788 1.128665 66.559737 
0.3708750000000000 0.998707 179.145581 0.000019 136.887884 0.000091 -16.847437 1.126375 66.098977 
0.3717500000000000 0.998777 179.112376 0.000138 52.727719 0.000057 -37.167426 1.128731 65.755023 
0.3726250000000000 1.001104 179.088235 0.000101 175.224799 0.000124 -85.838102 1.128656 65.433466 
0.3735000000000000 0.999213 179.335020 0.000034 108.510056 0.000026 124.744696 1.129406 65.106565 
0.3743750000000000 0.999122 179.193194 0.000052 24.757679 0.000157 -127.149720 1.129237 64.839432 
0.3752500000000000 0.998354 179.217092 0.000097 -95.664828 0.000055 -2.591645 1.128418 64.521604 
0.3761250000000000 0.999019 179.121344 0.000082 -77.353816 0.000062 -26.041658 1.129057 64.104000 
0.3770000000000000 0.998429 179.157602 0.000090 -41.273680 0.000079 63.628782 1.129691 63.847498 
0.3778750000000000 0.999051 179.114369 0.000020 79.606809 0.000119 54.707998 1.129830 63.588599 
0.3787500000000000 0.998457 179.057793 0.000055 -146.105912 0.000083 171.227622 1.126364 63.254437 
0.3796250000000000 0.996506 179.048932 0.000009 168.192692 0.000076 150.795488 1.127028 62.947873 
0.3805000000000000 0.998837 179.010883 0.000028 -76.617834 0.000068 79.649351 1.128276 62.614335 
0.3813750000000000 0.998465 179.028026 0.000124 152.414839 0.000106 126.197677 1.129057 62.250547 
0.3822500000000000 0.997740 178.908130 0.000092 60.503144 0.000101 -65.707168 1.125905 61.976296 
0.3831250000000000 0.999836 178.936659 0.000065 -0.170211 0.000074 3.329662 1.127104 61.469769 
0.3840000000000000 0.998699 178.963466 0.000050 -83.423893 0.000069 -29.463515 1.127659 61.089075 
0.3848750000000000 1.000157 178.985959 0.000062 -138.166910 0.000067 -59.025053 1.127672 60.787863 
0.3857500000000000 0.998736 178.942493 0.000081 -175.668680 0.000059 -179.227544 1.127517 60.466707 
0.3866250000000000 0.999458 178.882015 0.000027 -115.711823 0.000080 -127.667906 1.128018 60.152833 
0.3875000000000000 0.999040 178.946314 0.000119 129.122976 0.000186 150.466265 1.126307 59.733281 
0.3883750000000000 0.999410 178.932708 0.000093 156.245231 0.000109 173.483584 1.128889 59.436292 
0.3892500000000000 0.997456 178.935873 0.000023 128.176610 0.000100 170.570022 1.126572 58.907414 
0.3901250000000000 0.998311 178.843941 0.000043 -89.085201 0.000103 -33.710849 1.128054 58.800718 
0.3910000000000000 0.999488 178.798056 0.000070 120.525013 0.000049 -65.429634 1.126370 58.381313 
0.3918750000000000 0.998560 178.747898 0.000027 99.572284 0.000095 22.072663 1.125836 58.112488 
0.3927500000000000 0.998053 178.717471 0.000035 -34.631264 0.000080 -176.533536 1.126049 57.697683 
0.3936250000000000 0.999566 178.750907 0.000088 63.522528 0.000158 -23.133618 1.127736 57.446994 
0.3945000000000000 0.997800 178.662810 0.000119 -62.601642 0.000097 143.566901 1.126245 57.203020 
0.3953750000000000 0.998077 178.656171 0.000085 133.611157 0.000035 -109.683194 1.126250 56.792202 
0.3962500000000000 0.998232 178.579283 0.000053 107.445968 0.000188 124.375916 1.125417 56.421971 
0.3971250000000000 0.999468 178.689539 0.000063 126.379740 0.000127 -171.254603 1.126973 56.224730 
0.3980000000000000 0.999320 178.678844 0.000087 -81.675117 0.000129 162.198273 1.125375 55.795399 
0.3988750000000000 0.999868 178.681317 0.000046 133.984630 0.000121 -51.388280 1.122512 55.567691 
0.3997500000000000 0.997818 178.694384 0.000079 68.805483 0.000044 -74.008611 1.121391 55.118857 
0.4006250000000000 0.998964 178.652115 0.000057 -152.892796 0.000079 -39.203033 1.123188 54.852135 
0.4015000000000000 0.999543 178.654644 0.000050 -30.440370 0.000176 86.936962 1.124761 54.336546 
0.4023750000000000 0.999795 178.635740 0.000062 -169.971804 0.000075 0.107799 1.122632 54.093324 
0.4032500000000000 0.999772 178.618213 0.000073 172.941820 0.000037 -158.619355 1.121011 53.677902 
0.4041250000000000 0.998244 178.621357 0.000108 -173.193959 0.000042 -118.728684 1.122587 53.275896 
0.4050000000000000 0.998364 178.556698 0.000074 134.478543 0.000052 20.664478 1.123352 52.861131 
0.4058750000000000 0.996952 178.573952 0.000145 75.061785 0.000092 -94.821573 1.124290 52.541593 
0.4067500000000000 0.997841 178.496343 0.000079 110.978917 0.000117 134.669813 1.122249 52.217667 
0.4076250000000000 0.997991 178.501830 0.000027 -90.716384 0.000022 97.408570 1.119395 51.771008 
0.4085000000000000 0.997223 178.446298 0.000093 -119.648821 0.000092 -94.274864 1.121556 51.400576 
0.4093750000000000 0.998655 178.327669 0.000068 114.628793 0.000087 23.182799 1.122100 51.087096 
0.4102500000000000 0.997138 178.309338 0.000135 -160.852446 0.000137 -158.318650 1.119886 50.874939 
0.4111250000000000 0.998703 178.354024 0.000098 121.833924 0.000019 30.724298 1.119316 50.422840 
0.4120000000000000 0.998986 178.336979 0.000069 140.476288 0.000107 -158.847379 1.119261 50.103619 
0.4128750000000000 1.000904 178.231805 0.000013 173.851893 0.000056 -1.444876 1.119106 49.807131 
0.4137500000000000 0.998033 178.412510 0.000010 84.635804 0.000047 111.216133 1.120686 49.437289 
0.4146250000000000 0.999655 178.283847 0.000072 51.931081 0.000043 61.596766 1.119216 49.203833 
0.4155000000000000 1.000285 178.305913 0.000057 84.839896 0.000067 -142.394145 1.119411 48.939565 
0.4163750000000000 1.000357 178.405707 0.000074 -55.291868 0.000168 -17.351604 1.118805 48.496509 
0.4172500000000000 0.998197 178.269069 0.000073 136.503905 0.000059 46.041538 1.117613 48.170014 
0.4181250000000000 0.998671 178.297917 0.000159 74.805503 0.000123 36.868510 1.118110 47.898407 
0.4190000000000000 0.998726 178.308520 0.000037 43.999511 0.000031 170.750465 1.116691 47.429918 
0.4198750000000000 0.997849 178.235157 0.000033 56.188193 0.000014 132.941558 1.117880 47.064278 
0.4207500000000000 0.998129 178.169050 0.000044 121.524215 0.000010 5.213807 1.114568 46.677510 
0.4216250000000000 0.999342 178.239545 0.000162 37.693110 0.000133 -150.303003 1.115921 46.276474 
0.4225000000000000 0.998218 178.174473 0.000079 -157.636446 0.000162 -178.260624 1.114529 46.029526 
0.4233750000000000 0.999064 178.083212 0.000094 172.934148 0.000013 173.032041 1.115063 45.627599 
0.4242500000000000 0.999006 178.077844 0.000042 23.914046 0.000015 -120.898162 1.114099 45.230835 
0.4251250000000000 0.999397 178.087351 0.000097 67.914538 0.000039 88.032053 1.111936 44.844332 
0.4260000000000000 1.000018 178.069295 0.000049 -68.659718 0.000130 64.675467 1.112797 44.486679 
0.4268750000000000 1.000028 178.053565 0.000045 11.166302 0.000085 -21.516510 1.112345 44.193007 
0.4277500000000000 0.998957 178.056735 0.000051 73.900658 0.000101 -12.736809 1.110900 43.862470 
0.4286250000000000 0.998999 178.142624 0.000045 86.488853 0.000055 -75.734907 1.112611 43.508525 
0.4295000000000000 0.999200 178.111483 0.000120 155.971037 0.000112 107.096573 1.111987 43.231828 
0.4303750000000000 1.000460 178.098127 0.000052 121.956176 0.000087 51.458975 1.111073 42.793896 
0.4312500000000000 0.999254 178.123845 0.000093 44.610923 0.000091 131.763992 1.110272 42.446790 
0.4321250000000000 1.000082 178.116653 0.000195 66.966118 0.000120 -14.933019 1.109694 42.179991 
0.4330000000000000 0.998601 178.091079 0.000096 73.886346 0.000131 -7.519867 1.110570 41.787563 
0.4338750000000000 0.998934 177.944598 0.000090 -7.051625 0.000078 65.568228 1.109302 41.495834 
0.4347500000000000 0.998771 178.061625 0.000101 41.729600 0.000117 -96.635776 1.107024 41.137191 
0.4356250000000000 0.998078 177.849918 0.000024 -104.058158 0.000005 -80.029480 1.107707 40.734500 
0.4365000000000000 0.998771 178.010826 0.000084 35.677826 0.000154 50.782595 1.105875 40.341645 
0.4373750000000000 0.998036 177.914698 0.000070 69.090169 0.000178 23.457394 1.105591 40.010493 
0.4382500000000000 0.997650 177.850748 0.000039 123.741525 0.000134 -28.330549 1.104410 39.620700 
0.4391250000000000 0.999405 177.875539 0.000053 155.862008 0.000112 80.987418 1.102918 39.282268 
0.4400000000000000 0.999611 177.749939 0.000044 14.280069 0.000067 62.504687 1.103330 38.901369 
0.4408750000000000 1.000639 177.764493 0.000055 53.433712 0.000098 101.773900 1.103860 38.469323 
0.4417500000000000 1.000053 177.819175 0.000098 72.947666 0.000060 -17.033014 1.103858 38.162567 
0.4426250000000000 0.999211 177.845356 0.000048 53.380696 0.000016 50.138389 1.100671 37.764636 
0.4435000000000000 0.999110 177.813609 0.000037 -157.383907 0.000070 19.362393 1.101526 37.473745 
0.4443750000000000 0.999307 177.793029 0.000147 -12.269965 0.000066 80.073595 1.098893 37.015015 
0.4452500000000000 0.999965 177.768237 0.000147 31.131831 0.000163 90.882091 1.099939 36.854635 
0.4461250000000000 0.999151 177.752404 0.000058 171.915200 0.000141 141.254680 1.100089 36.251274 
0.4470000000000000 0.998139 177.758890 0.000040 82.952346 0.000044 38.378415 1.097240 36.064164 
0.4478750000000000 0.999763 177.750283 0.000057 -13.305124 0.000172 -10.487326 1.097335 35.734022 
0.4487500000000000 0.997684 177.710508 0.000075 -19.911874 0.000002 53.786046 1.097749 35.303631 
0.4496250000000000 0.997501 177.666233 0.000135 -51.059146 0.000050 23.940503 1.097658 34.936950 
0.4505000000000000 0.998324 177.584017 0.000066 46.832655 0.000072 120.156524 1.096031 34.708674 
0.4513750000000000 0.998090 177.611501 0.000091 -120.138836 0.000082 -171.327476 1.094712 34.349263 
0.4522500000000000 0.997699 177.480755 0.000041 101.450410 0.000042 -13.108968 1.094017 33.856742 
0.4531250000000000 0.997771 177.466906 0.000107 -37.693096 0.000052 -68.738823 1.094782 33.484530 
0.4540000000000000 0.998834 177.474863 0.000101 67.878119 0.000158 -24.885468 1.092966 33.217960 
0.4548750000000000 0.999766 177.454457 0.000170 -19.563845 0.000094 -9.676239 1.090720 32.878169 
0.4557500000000000 0.999951 177.412921 0.000174 19.989198 0.000054 -66.094823 1.088970 32.491140 
0.4566250000000000 0.998905 177.308576 0.000075 -82.223050 0.000175 -32.844977 1.089326 32.057786 
0.4575000000000000 1.001026 177.405211 0.000063 66.970229 0.000062 4.035944 1.089996 31.676863 
0.4583750000000000 0.999286 177.404190 0.000020 -109.706321 0.000110 -17.045501 1.087574 31.370727 
0.4592500000000000 0.999042 177.403555 0.000102 -9.396030 0.000070 9.599392 1.087128 30.933967 
0.4601250000000000 0.999883 177.421498 0.000011 -121.249079 0.000058 -22.935795 1.085003 30.708382 
0.4610000000000000 0.997181 177.400461 0.000110 15.447218 0.000163 6.204460 1.084214 30.268974 
0.4618750000000000 0.999053 177.314229 0.000027 35.236272 0.000035 -108.409166 1.085351 29.980674 
0.4627500000000000 0.997556 177.276857 0.000132 -38.700698 0.000122 9.123861 1.081964 29.544031 
0.4636250000000000 0.998726 177.266030 0.000093 -4.596555 0.000123 -135.523155 1.082028 29.167616 
0.4645000000000000 0.998613 177.292010 0.000144 -46.313734 0.000093 43.017902 1.080548 28.745287 
0.4653750000000000 0.998026 177.190438 0.000111 -32.725084 0.000054 9.571853 1.081404 28.341275 
0.4662500000000000 0.997823 177.177586 0.000176 -39.001491 0.000122 -58.064430 1.081325 28.148960 
0.4671250000000000 0.998606 177.155260 0.000105 9.491111 0.000110 5.443006 1.079179 27.754919 
0.4680000000000000 0.998835 177.034962 0.000118 -69.649134 0.000112 -108.611072 1.078813 27.282658 
0.4688750000000000 0.998108 177.095955 0.000049 -78.644453 0.000146 -120.370155 1.077999 27.027855 
0.4697500000000000 0.999482 176.994843 0.000060 -39.903536 0.000048 -55.791173 1.077037 26.631846 
0.4706250000000000 0.998707 177.109967 0.000049 -27.483604 0.000177 -38.468489 1.076285 26.274432 
0.4715000000000000 0.999719 177.175936 0.000051 -48.270743 0.000077 -64.235588 1.075081 25.936601 
