!
! C:\Users\rflab\Downloads\q2\100.S1P
!
! Touchstone 1.1 file saved by VNA.EXE V1.65 (www.ke5fx.com/gpib/readme.htm)
! 11/20/2024 11:10:13 AM
!
!    Source: HEWLETT PACKARD,8753D,0,6.14
!  Min freq: 3.000000E+008 Hz
!  Max freq: 1.000000E+009 Hz
!    Points: 801
!    Params: S21
!
!!!!!
# GHZ S MA R 50
0.3000000000000000 0.000088 101.208058 
0.3008750000000000 0.000075 85.487058 
0.3017500000000000 0.000061 135.911040 
0.3026250000000000 0.000115 110.416912 
0.3035000000000000 0.000096 -56.374052 
0.3043750000000000 0.000107 -74.122840 
0.3052500000000000 0.000089 173.311975 
0.3061250000000000 0.000157 -112.403550 
0.3070000000000000 0.000125 -137.055590 
0.3078750000000000 0.000082 -46.612984 
0.3087500000000000 0.000031 -88.320513 
0.3096250000000000 0.000017 -97.984084 
0.3105000000000000 0.000076 -141.474842 
0.3113750000000000 0.000061 45.721562 
0.3122500000000000 0.000095 -135.397350 
0.3131250000000000 0.000124 -144.648657 
0.3140000000000000 0.000117 121.459907 
0.3148750000000000 0.000057 111.504482 
0.3157500000000000 0.000088 -74.041612 
0.3166250000000000 0.000060 -33.701821 
0.3175000000000000 0.000040 114.851282 
0.3183750000000000 0.000137 -64.961124 
0.3192500000000000 0.000092 -38.119005 
0.3201250000000000 0.000085 178.125233 
0.3210000000000000 0.000049 97.693672 
0.3218750000000000 0.000087 -150.538912 
0.3227500000000000 0.000019 -92.720846 
0.3236250000000000 0.000168 153.874931 
0.3245000000000000 0.000134 -45.132732 
0.3253750000000000 0.000027 158.451885 
0.3262500000000000 0.000071 30.403251 
0.3271250000000000 0.000103 53.903254 
0.3280000000000000 0.000066 -78.508061 
0.3288750000000000 0.000030 51.316286 
0.3297500000000000 0.000069 -104.615806 
0.3306250000000000 0.000101 -121.782513 
0.3315000000000000 0.000034 -135.932626 
0.3323750000000000 0.000027 106.979779 
0.3332500000000000 0.000149 -39.126330 
0.3341250000000000 0.000081 -33.829984 
0.3350000000000000 0.000024 101.527605 
0.3358750000000000 0.000057 -42.153488 
0.3367500000000000 0.000077 -22.226102 
0.3376250000000000 0.000066 -30.284429 
0.3385000000000000 0.000036 -39.768127 
0.3393750000000000 0.000113 -82.015435 
0.3402500000000000 0.000084 -119.726857 
0.3411250000000000 0.000042 96.834802 
0.3420000000000000 0.000016 -124.967724 
0.3428750000000000 0.000015 143.870957 
0.3437500000000000 0.000045 43.997402 
0.3446250000000000 0.000046 106.049920 
0.3455000000000000 0.000075 -79.602791 
0.3463750000000000 0.000079 -143.108479 
0.3472500000000000 0.000108 51.751812 
0.3481250000000000 0.000077 122.072067 
0.3490000000000000 0.000136 98.252623 
0.3498750000000000 0.000066 -79.590871 
0.3507500000000000 0.000062 139.310292 
0.3516250000000000 0.000131 61.590912 
0.3525000000000000 0.000027 89.113295 
0.3533750000000000 0.000098 175.631528 
0.3542500000000000 0.000087 26.457805 
0.3551250000000000 0.000030 141.986125 
0.3560000000000000 0.000100 -16.121455 
0.3568750000000000 0.000097 91.639416 
0.3577500000000000 0.000113 -75.466148 
0.3586250000000000 0.000010 -41.619898 
0.3595000000000000 0.000054 129.821343 
0.3603750000000000 0.000070 105.723663 
0.3612500000000000 0.000073 149.052703 
0.3621250000000000 0.000055 -20.692650 
0.3630000000000000 0.000031 108.305519 
0.3638750000000000 0.000037 171.189263 
0.3647500000000000 0.000049 104.824455 
0.3656250000000000 0.000143 -55.753959 
0.3665000000000000 0.000167 -93.721666 
0.3673750000000000 0.000077 -33.515967 
0.3682500000000000 0.000118 -156.874893 
0.3691250000000000 0.000118 5.126060 
0.3700000000000000 0.000093 -12.594805 
0.3708750000000000 0.000136 -108.422041 
0.3717500000000000 0.000052 -71.692424 
0.3726250000000000 0.000097 -150.610110 
0.3735000000000000 0.000090 -178.566068 
0.3743750000000000 0.000049 157.664215 
0.3752500000000000 0.000046 -67.504990 
0.3761250000000000 0.000121 168.102704 
0.3770000000000000 0.000068 -85.111271 
0.3778750000000000 0.000091 -81.341290 
0.3787500000000000 0.000099 174.956414 
0.3796250000000000 0.000036 -42.066124 
0.3805000000000000 0.000096 60.981397 
0.3813750000000000 0.000150 41.916735 
0.3822500000000000 0.000074 -176.602160 
0.3831250000000000 0.000080 -57.667147 
0.3840000000000000 0.000069 -52.667058 
0.3848750000000000 0.000134 169.295265 
0.3857500000000000 0.000048 38.875333 
0.3866250000000000 0.000085 -53.987589 
0.3875000000000000 0.000078 -71.245761 
0.3883750000000000 0.000107 12.570467 
0.3892500000000000 0.000042 -40.577418 
0.3901250000000000 0.000023 84.311580 
0.3910000000000000 0.000052 2.210129 
0.3918750000000000 0.000078 -113.534576 
0.3927500000000000 0.000134 -44.644285 
0.3936250000000000 0.000036 77.306387 
0.3945000000000000 0.000082 -143.283924 
0.3953750000000000 0.000108 65.245910 
0.3962500000000000 0.000084 126.156920 
0.3971250000000000 0.000102 71.735902 
0.3980000000000000 0.000051 -134.216837 
0.3988750000000000 0.000055 -124.093677 
0.3997500000000000 0.000071 -53.372392 
0.4006250000000000 0.000049 -74.454479 
0.4015000000000000 0.000110 -165.517723 
0.4023750000000000 0.000047 -11.262188 
0.4032500000000000 0.000067 11.186572 
0.4041250000000000 0.000139 38.149474 
0.4050000000000000 0.000090 -15.677318 
0.4058750000000000 0.000037 35.378552 
0.4067500000000000 0.000112 61.609150 
0.4076250000000000 0.000112 105.689835 
0.4085000000000000 0.000013 112.976959 
0.4093750000000000 0.000092 81.928757 
0.4102500000000000 0.000031 -169.190385 
0.4111250000000000 0.000096 -173.746725 
0.4120000000000000 0.000085 28.167108 
0.4128750000000000 0.000117 -119.758000 
0.4137500000000000 0.000074 -34.040542 
0.4146250000000000 0.000063 -95.228653 
0.4155000000000000 0.000082 44.849465 
0.4163750000000000 0.000098 76.038462 
0.4172500000000000 0.000082 -130.508072 
0.4181250000000000 0.000147 -170.858889 
0.4190000000000000 0.000044 11.213730 
0.4198750000000000 0.000057 38.810881 
0.4207500000000000 0.000174 69.203335 
0.4216250000000000 0.000074 -176.618834 
0.4225000000000000 0.000160 -44.610443 
0.4233750000000000 0.000077 103.591513 
0.4242500000000000 0.000103 -131.643868 
0.4251250000000000 0.000096 167.294720 
0.4260000000000000 0.000076 -50.957689 
0.4268750000000000 0.000016 -173.772099 
0.4277500000000000 0.000027 -58.451428 
0.4286250000000000 0.000108 57.153719 
0.4295000000000000 0.000049 89.973617 
0.4303750000000000 0.000044 -146.664620 
0.4312500000000000 0.000097 -42.638064 
0.4321250000000000 0.000211 76.213912 
0.4330000000000000 0.000007 150.903867 
0.4338750000000000 0.000068 -74.525104 
0.4347500000000000 0.000118 -176.874116 
0.4356250000000000 0.000098 32.576304 
0.4365000000000000 0.000108 100.805801 
0.4373750000000000 0.000157 -54.674517 
0.4382500000000000 0.000114 -53.113266 
0.4391250000000000 0.000068 -154.949729 
0.4400000000000000 0.000036 -115.347024 
0.4408750000000000 0.000042 -119.465400 
0.4417500000000000 0.000050 -86.873327 
0.4426250000000000 0.000080 10.190792 
0.4435000000000000 0.000070 -173.500384 
0.4443750000000000 0.000049 -175.739566 
0.4452500000000000 0.000097 -108.874198 
0.4461250000000000 0.000114 -39.602029 
0.4470000000000000 0.000090 -116.644908 
0.4478750000000000 0.000060 157.021508 
0.4487500000000000 0.000084 37.913603 
0.4496250000000000 0.000043 -113.542682 
0.4505000000000000 0.000073 170.045686 
0.4513750000000000 0.000053 69.146799 
0.4522500000000000 0.000022 -163.208818 
0.4531250000000000 0.000081 41.599125 
0.4540000000000000 0.000071 -105.116661 
0.4548750000000000 0.000096 36.579248 
0.4557500000000000 0.000140 59.194226 
0.4566250000000000 0.000101 59.057245 
0.4575000000000000 0.000028 38.197609 
0.4583750000000000 0.000073 -124.008195 
0.4592500000000000 0.000114 162.014169 
0.4601250000000000 0.000149 26.408770 
0.4610000000000000 0.000106 -43.013497 
0.4618750000000000 0.000094 155.080117 
0.4627500000000000 0.000040 13.853459 
0.4636250000000000 0.000069 100.666584 
0.4645000000000000 0.000063 -50.915144 
0.4653750000000000 0.000020 -7.559954 
0.4662500000000000 0.000076 83.371889 
0.4671250000000000 0.000138 130.918353 
0.4680000000000000 0.000057 -65.221730 
0.4688750000000000 0.000075 -126.707101 
0.4697500000000000 0.000185 126.201495 
0.4706250000000000 0.000083 91.716868 
0.4715000000000000 0.000099 168.724674 
0.4723750000000000 0.000124 33.504499 
0.4732500000000000 0.000069 13.024327 
0.4741250000000000 0.000034 -62.091291 
0.4750000000000000 0.000132 94.011451 
0.4758750000000000 0.000101 -135.948630 
0.4767500000000000 0.000061 -9.007826 
0.4776250000000000 0.000141 -45.924960 
0.4785000000000000 0.000041 164.516696 
0.4793750000000000 0.000086 131.956344 
0.4802500000000000 0.000128 85.736790 
0.4811250000000000 0.000114 -34.494778 
0.4820000000000000 0.000106 -9.008408 
0.4828750000000000 0.000123 173.248272 
0.4837500000000000 0.000046 -100.190783 
0.4846250000000000 0.000020 30.379533 
0.4855000000000000 0.000069 74.378166 
0.4863750000000000 0.000133 50.937950 
0.4872500000000000 0.000034 55.443131 
0.4881250000000000 0.000139 -8.860880 
0.4890000000000000 0.000020 7.268220 
0.4898750000000000 0.000110 -4.577694 
0.4907500000000000 0.000170 94.997213 
0.4916250000000000 0.000109 -2.444953 
0.4925000000000000 0.000139 55.804161 
0.4933750000000000 0.000019 50.994447 
0.4942500000000000 0.000070 -2.036366 
0.4951250000000000 0.000077 96.569364 
0.4960000000000000 0.000108 -8.304045 
0.4968750000000000 0.000097 -45.184393 
0.4977500000000000 0.000101 -39.734081 
0.4986250000000000 0.000077 24.430192 
0.4995000000000000 0.000080 106.862572 
0.5003750000000000 0.000084 59.521666 
0.5012500000000000 0.000139 -2.652852 
0.5021250000000000 0.000052 134.985515 
0.5030000000000000 0.000059 -68.779982 
0.5038750000000000 0.000193 -50.337738 
0.5047500000000000 0.000039 -114.927849 
0.5056250000000000 0.000059 -54.503075 
0.5065000000000000 0.000098 -57.458718 
0.5073750000000000 0.000058 95.356167 
0.5082500000000000 0.000132 -48.514561 
0.5091250000000001 0.000121 15.832430 
0.5100000000000000 0.000049 76.004093 
0.5108750000000000 0.000016 56.568738 
0.5117500000000000 0.000101 -90.727661 
0.5126250000000000 0.000118 -28.752232 
0.5135000000000000 0.000123 -105.256342 
0.5143750000000000 0.000129 -53.087574 
0.5152500000000000 0.000062 -98.130588 
0.5161249999999999 0.000166 -74.273217 
0.5170000000000000 0.000113 -147.664797 
0.5178750000000000 0.000144 -56.748051 
0.5187500000000000 0.000116 49.611441 
0.5196250000000000 0.000067 -109.238945 
0.5205000000000000 0.000143 -109.611122 
0.5213750000000000 0.000109 -172.227429 
0.5222500000000000 0.000132 -40.487455 
0.5231250000000000 0.000178 -74.191854 
0.5240000000000000 0.000048 7.889695 
0.5248750000000000 0.000143 -88.344643 
0.5257500000000001 0.000110 -55.954757 
0.5266250000000000 0.000110 -149.209352 
0.5275000000000000 0.000141 -138.007845 
0.5283750000000000 0.000029 -129.184667 
0.5292500000000000 0.000053 159.408105 
0.5301250000000000 0.000100 -73.602905 
0.5310000000000000 0.000118 -111.630249 
0.5318750000000000 0.000107 -123.931485 
0.5327500000000000 0.000108 -67.330268 
0.5336250000000000 0.000228 -102.101308 
0.5345000000000000 0.000134 -130.532702 
0.5353750000000001 0.000100 179.250771 
0.5362500000000000 0.000076 -107.706886 
0.5371250000000000 0.000129 -107.797671 
0.5380000000000000 0.000079 -134.494048 
0.5388750000000000 0.000081 -153.485637 
0.5397500000000000 0.000229 -150.262031 
0.5406250000000000 0.000193 -143.883069 
0.5415000000000000 0.000182 178.262812 
0.5423750000000001 0.000079 -150.090794 
0.5432500000000000 0.000082 -159.603033 
0.5441250000000000 0.000240 159.644140 
0.5450000000000000 0.000175 154.992113 
0.5458750000000000 0.000153 170.415309 
0.5467500000000000 0.000088 -140.834717 
0.5476250000000000 0.000236 -157.582264 
0.5485000000000000 0.000122 174.338826 
0.5493750000000000 0.000259 133.551941 
0.5502500000000000 0.000203 157.801054 
0.5511250000000000 0.000354 157.796392 
0.5520000000000001 0.000296 166.082017 
0.5528750000000000 0.000230 156.691200 
0.5537500000000000 0.000188 148.214279 
0.5546250000000000 0.000384 155.505038 
0.5555000000000000 0.000247 172.154718 
0.5563750000000000 0.000062 124.340952 
0.5572500000000000 0.000198 -170.195479 
0.5581250000000000 0.000200 158.427772 
0.5590000000000001 0.000108 164.612934 
0.5598750000000000 0.000288 144.051766 
0.5607500000000000 0.000222 112.242307 
0.5616250000000000 0.000134 135.304387 
0.5625000000000000 0.000193 153.472584 
0.5633750000000000 0.000263 142.347539 
0.5642500000000000 0.000140 120.256209 
0.5651250000000000 0.000223 103.537302 
0.5660000000000000 0.000233 110.535442 
0.5668750000000000 0.000183 114.173823 
0.5677500000000000 0.000390 129.238939 
0.5686250000000001 0.000367 104.622439 
0.5695000000000000 0.000313 114.796470 
0.5703750000000000 0.000431 110.691914 
0.5712500000000000 0.000342 98.084505 
0.5721250000000000 0.000356 90.447988 
0.5730000000000000 0.000259 117.001554 
0.5738750000000000 0.000229 78.486344 
0.5747500000000000 0.000401 132.958829 
0.5756250000000001 0.000295 105.456705 
0.5765000000000000 0.000420 70.251491 
0.5773750000000000 0.000430 88.360584 
0.5782500000000000 0.000402 98.042094 
0.5791250000000000 0.000408 83.859745 
0.5800000000000000 0.000466 95.318661 
0.5808750000000000 0.000579 79.499832 
0.5817500000000000 0.000475 88.516492 
0.5826250000000000 0.000526 72.391500 
0.5835000000000000 0.000505 75.601040 
0.5843750000000000 0.000353 90.423205 
0.5852500000000001 0.000428 62.597858 
0.5861250000000000 0.000541 63.419415 
0.5870000000000000 0.000522 72.221525 
0.5878750000000000 0.000424 55.928893 
0.5887500000000000 0.000494 51.392518 
0.5896250000000000 0.000615 51.338892 
0.5905000000000000 0.000616 59.416758 
0.5913750000000000 0.000573 72.864821 
0.5922500000000001 0.000541 56.514927 
0.5931250000000000 0.000620 51.421109 
0.5940000000000000 0.000640 46.090316 
0.5948750000000000 0.000659 41.975266 
0.5957500000000000 0.000693 34.516897 
0.5966250000000000 0.000557 29.002227 
0.5975000000000000 0.000661 39.174844 
0.5983750000000000 0.000740 27.006541 
0.5992500000000000 0.000849 30.773336 
0.6001250000000000 0.000752 30.372505 
0.6010000000000000 0.000775 18.549221 
0.6018750000000001 0.000844 16.857344 
0.6027500000000000 0.000823 18.609404 
0.6036250000000000 0.000926 12.576435 
0.6045000000000000 0.000922 7.915316 
0.6053750000000000 0.000952 3.790928 
0.6062500000000000 0.001005 3.568279 
0.6071250000000000 0.000934 -3.704575 
0.6080000000000000 0.001013 -0.505479 
0.6088750000000001 0.000921 -3.983691 
0.6097500000000000 0.001058 -13.535047 
0.6106250000000000 0.001096 -9.272287 
0.6115000000000000 0.001007 -16.288837 
0.6123750000000000 0.001080 -20.449792 
0.6132500000000000 0.001210 -27.604801 
0.6141250000000000 0.001162 -29.006360 
0.6150000000000000 0.001225 -34.507941 
0.6158750000000000 0.001252 -25.860919 
0.6167500000000000 0.001278 -42.876387 
0.6176250000000000 0.001255 -38.014341 
0.6185000000000001 0.001402 -47.090750 
0.6193750000000000 0.001412 -44.878582 
0.6202500000000000 0.001527 -51.685904 
0.6211250000000000 0.001445 -55.046505 
0.6220000000000000 0.001672 -55.113402 
0.6228750000000000 0.001535 -65.628217 
0.6237500000000000 0.001612 -64.499039 
0.6246250000000000 0.001680 -70.899634 
0.6254999999999999 0.001771 -78.630324 
0.6263750000000000 0.001751 -77.397552 
0.6272500000000000 0.001834 -77.684108 
0.6281250000000000 0.001817 -84.805911 
0.6290000000000000 0.001809 -87.427955 
0.6298750000000000 0.001965 -90.340649 
0.6307500000000000 0.002139 -93.994839 
0.6316250000000000 0.002009 -98.135391 
0.6325000000000000 0.002097 -100.867808 
0.6333750000000000 0.002115 -103.418227 
0.6342500000000000 0.002355 -110.652454 
0.6351250000000001 0.002425 -111.480316 
0.6360000000000000 0.002330 -116.441800 
0.6368750000000000 0.002480 -117.817805 
0.6377500000000000 0.002528 -123.917864 
0.6386250000000000 0.002526 -128.532247 
0.6395000000000000 0.002814 -130.932961 
0.6403750000000000 0.002774 -136.121258 
0.6412500000000000 0.002706 -139.832425 
0.6421250000000000 0.002943 -142.497905 
0.6430000000000000 0.002985 -146.276927 
0.6438750000000000 0.003042 -149.758762 
0.6447500000000001 0.003238 -152.519729 
0.6456250000000000 0.003314 -156.365193 
0.6465000000000000 0.003364 -158.972987 
0.6473750000000000 0.003375 -165.486728 
0.6482500000000000 0.003518 -168.605533 
0.6491250000000000 0.003703 -171.785376 
0.6500000000000000 0.003755 -177.474418 
0.6508750000000000 0.004018 179.823221 
0.6517500000000001 0.004160 176.122363 
0.6526250000000000 0.004201 170.187539 
0.6535000000000000 0.004517 169.388709 
0.6543750000000000 0.004389 164.345764 
0.6552500000000000 0.004808 160.283673 
0.6561250000000000 0.004891 156.817916 
0.6570000000000000 0.004979 151.671560 
0.6578750000000000 0.005230 147.355328 
0.6587500000000000 0.005387 143.562242 
0.6596250000000000 0.005624 138.814076 
0.6605000000000000 0.005812 135.260911 
0.6613750000000001 0.005958 130.332488 
0.6622500000000000 0.006301 125.920741 
0.6631250000000000 0.006440 122.312739 
0.6640000000000000 0.006812 118.589654 
0.6648750000000000 0.007107 112.855841 
0.6657500000000000 0.007436 107.685533 
0.6666250000000000 0.007709 103.724640 
0.6675000000000000 0.008060 96.941714 
0.6683750000000001 0.008351 91.115671 
0.6692500000000000 0.008615 85.727527 
0.6701250000000000 0.009037 81.345312 
0.6710000000000000 0.009481 75.819082 
0.6718750000000000 0.009816 68.983669 
0.6727500000000000 0.010179 63.013635 
0.6736250000000000 0.010596 56.073940 
0.6745000000000000 0.010616 49.839204 
0.6753750000000000 0.011171 42.550409 
0.6762500000000000 0.011416 35.857053 
0.6771250000000000 0.011604 27.738142 
0.6780000000000001 0.011904 20.479225 
0.6788750000000000 0.012096 13.807254 
0.6797500000000000 0.011908 6.105073 
0.6806250000000000 0.011925 -2.364961 
0.6815000000000000 0.011812 -9.712527 
0.6823750000000000 0.011542 -17.002135 
0.6832500000000000 0.011380 -23.728477 
0.6841250000000000 0.011161 -30.433521 
0.6850000000000001 0.010824 -37.770498 
0.6858750000000000 0.010402 -44.032378 
0.6867500000000000 0.009994 -49.904264 
0.6876250000000000 0.009694 -56.666355 
0.6885000000000000 0.009334 -62.526506 
0.6893750000000000 0.008986 -67.506423 
0.6902500000000000 0.008637 -72.680509 
0.6911250000000000 0.008214 -78.318268 
0.6920000000000000 0.008006 -82.846206 
0.6928750000000000 0.007677 -88.316362 
0.6937500000000000 0.007317 -92.341646 
0.6946250000000001 0.007179 -98.063904 
0.6955000000000000 0.006794 -102.742953 
0.6963750000000000 0.006705 -106.955643 
0.6972500000000000 0.006346 -110.447700 
0.6981250000000000 0.005964 -114.048535 
0.6990000000000000 0.005885 -120.090359 
0.6998750000000000 0.005782 -123.104282 
0.7007500000000000 0.005565 -127.693712 
0.7016250000000001 0.005247 -131.094326 
0.7025000000000000 0.005090 -134.457240 
0.7033750000000000 0.004946 -137.743034 
0.7042500000000000 0.004705 -141.360594 
0.7051250000000000 0.004662 -147.138020 
0.7060000000000000 0.004301 -149.534614 
0.7068750000000000 0.004279 -153.473497 
0.7077500000000000 0.004197 -156.638997 
0.7086250000000000 0.004076 -160.458458 
0.7095000000000000 0.003827 -162.673446 
0.7103750000000000 0.003972 -167.265254 
0.7112500000000001 0.003755 -169.077508 
0.7121250000000000 0.003543 -173.888878 
0.7130000000000000 0.003607 -175.746539 
0.7138750000000000 0.003322 179.956828 
0.7147500000000000 0.003316 176.582983 
0.7156250000000000 0.003079 172.975678 
0.7165000000000000 0.003134 169.834337 
0.7173750000000000 0.003022 166.857842 
0.7182500000000001 0.003069 162.719910 
0.7191250000000000 0.002858 161.704851 
