!
! C:\Users\rflab\Downloads\q2\120.S1P
!
! Touchstone 1.1 file saved by VNA.EXE V1.65 (www.ke5fx.com/gpib/readme.htm)
! 11/20/2024 11:10:50 AM
!
!    Source: HEWLETT PACKARD,8753D,0,6.14
!  Min freq: 3.000000E+008 Hz
!  Max freq: 1.000000E+009 Hz
!    Points: 801
!    Params: S21
!
!!!!!
# GHZ S MA R 50
0.3000000000000000 0.000115 -147.741873 
0.3008750000000000 0.000068 128.609931 
0.3017500000000000 0.000045 -161.759761 
0.3026250000000000 0.000048 24.358251 
0.3035000000000000 0.000052 43.769330 
0.3043750000000000 0.000106 20.041958 
0.3052500000000000 0.000008 -45.819294 
0.3061250000000000 0.000120 178.485486 
0.3070000000000000 0.000064 -72.879980 
0.3078750000000000 0.000027 156.853208 
0.3087500000000000 0.000109 -140.606353 
0.3096250000000000 0.000101 79.774323 
0.3105000000000000 0.000033 131.142342 
0.3113750000000000 0.000053 -84.971348 
0.3122500000000000 0.000074 75.727804 
0.3131250000000000 0.000102 159.323506 
0.3140000000000000 0.000097 37.874985 
0.3148750000000000 0.000121 29.310383 
0.3157500000000000 0.000102 167.804111 
0.3166250000000000 0.000048 -132.014552 
0.3175000000000000 0.000024 164.471600 
0.3183750000000000 0.000038 -175.043148 
0.3192500000000000 0.000087 -106.702311 
0.3201250000000000 0.000091 153.082736 
0.3210000000000000 0.000156 -122.756755 
0.3218750000000000 0.000056 -126.104495 
0.3227500000000000 0.000025 68.775912 
0.3236250000000000 0.000092 -32.986229 
0.3245000000000000 0.000032 22.892879 
0.3253750000000000 0.000061 23.125482 
0.3262500000000000 0.000077 156.261301 
0.3271250000000000 0.000106 -81.829366 
0.3280000000000000 0.000034 -86.180320 
0.3288750000000000 0.000095 -176.138511 
0.3297500000000000 0.000062 6.723410 
0.3306250000000000 0.000101 -89.739384 
0.3315000000000000 0.000059 3.174579 
0.3323750000000000 0.000020 134.868966 
0.3332500000000000 0.000048 48.663351 
0.3341250000000000 0.000045 -149.343577 
0.3350000000000000 0.000076 54.328566 
0.3358750000000000 0.000022 18.776891 
0.3367500000000000 0.000089 -5.809973 
0.3376250000000000 0.000145 -150.361611 
0.3385000000000000 0.000032 -106.729823 
0.3393750000000000 0.000019 79.983875 
0.3402500000000000 0.000057 -151.563263 
0.3411250000000000 0.000057 -43.269264 
0.3420000000000000 0.000068 -46.049759 
0.3428750000000000 0.000082 -170.369154 
0.3437500000000000 0.000006 63.930072 
0.3446250000000000 0.000105 -19.697033 
0.3455000000000000 0.000092 -157.818437 
0.3463750000000000 0.000085 8.439601 
0.3472500000000000 0.000142 -46.274641 
0.3481250000000000 0.000055 4.825939 
0.3490000000000000 0.000054 -5.671386 
0.3498750000000000 0.000126 -157.084717 
0.3507500000000000 0.000016 30.860959 
0.3516250000000000 0.000031 80.567451 
0.3525000000000000 0.000018 -10.448495 
0.3533750000000000 0.000071 16.014531 
0.3542500000000000 0.000130 55.919350 
0.3551250000000000 0.000072 6.020520 
0.3560000000000000 0.000062 -44.402493 
0.3568750000000000 0.000133 84.115375 
0.3577500000000000 0.000030 166.243882 
0.3586250000000000 0.000050 -67.533824 
0.3595000000000000 0.000056 -112.568394 
0.3603750000000000 0.000033 92.681368 
0.3612500000000000 0.000056 3.275242 
0.3621250000000000 0.000080 -46.150944 
0.3630000000000000 0.000069 -27.642832 
0.3638750000000000 0.000043 115.564980 
0.3647500000000000 0.000092 1.215863 
0.3656250000000000 0.000106 -149.990717 
0.3665000000000000 0.000085 -72.583724 
0.3673750000000000 0.000111 -111.191422 
0.3682500000000000 0.000045 -125.126193 
0.3691250000000000 0.000038 -18.348116 
0.3700000000000000 0.000163 51.810867 
0.3708750000000000 0.000032 -26.667867 
0.3717500000000000 0.000021 -169.754260 
0.3726250000000000 0.000049 78.085399 
0.3735000000000000 0.000106 -46.094579 
0.3743750000000000 0.000101 52.378730 
0.3752500000000000 0.000068 32.194743 
0.3761250000000000 0.000069 13.345318 
0.3770000000000000 0.000096 -146.562556 
0.3778750000000000 0.000059 133.495265 
0.3787500000000000 0.000044 82.049422 
0.3796250000000000 0.000116 -121.051176 
0.3805000000000000 0.000056 51.551513 
0.3813750000000000 0.000035 31.102296 
0.3822500000000000 0.000118 -120.270801 
0.3831250000000000 0.000026 102.586491 
0.3840000000000000 0.000048 -34.846006 
0.3848750000000000 0.000112 50.832144 
0.3857500000000000 0.000124 -60.160369 
0.3866250000000000 0.000198 162.987932 
0.3875000000000000 0.000070 -27.950306 
0.3883750000000000 0.000075 63.594763 
0.3892500000000000 0.000045 168.558676 
0.3901250000000000 0.000182 148.609464 
0.3910000000000000 0.000154 -4.044235 
0.3918750000000000 0.000054 77.341947 
0.3927500000000000 0.000090 115.936992 
0.3936250000000000 0.000105 171.982226 
0.3945000000000000 0.000164 86.437671 
0.3953750000000000 0.000134 102.076497 
0.3962500000000000 0.000045 2.019560 
0.3971250000000000 0.000047 -155.359278 
0.3980000000000000 0.000097 84.457406 
0.3988750000000000 0.000082 -44.550643 
0.3997500000000000 0.000087 116.375349 
0.4006250000000000 0.000047 -117.670134 
0.4015000000000000 0.000033 118.941402 
0.4023750000000000 0.000031 178.526907 
0.4032500000000000 0.000140 -8.732239 
0.4041250000000000 0.000064 134.563141 
0.4050000000000000 0.000022 -48.899364 
0.4058750000000000 0.000083 50.869399 
0.4067500000000000 0.000064 -16.032485 
0.4076250000000000 0.000020 25.046028 
0.4085000000000000 0.000179 162.656087 
0.4093750000000000 0.000082 101.507135 
0.4102500000000000 0.000146 -61.985336 
0.4111250000000000 0.000045 -111.126563 
0.4120000000000000 0.000043 -175.311150 
0.4128750000000000 0.000130 138.709946 
0.4137500000000000 0.000075 -169.724491 
0.4146250000000000 0.000097 97.586972 
0.4155000000000000 0.000018 56.410188 
0.4163750000000000 0.000036 -178.209528 
0.4172500000000000 0.000070 122.443551 
0.4181250000000000 0.000112 -34.333063 
0.4190000000000000 0.000019 124.908005 
0.4198750000000000 0.000105 -78.998501 
0.4207500000000000 0.000026 -134.026984 
0.4216250000000000 0.000079 -134.599044 
0.4225000000000000 0.000066 -3.820558 
0.4233750000000000 0.000025 -26.698098 
0.4242500000000000 0.000077 145.927924 
0.4251250000000000 0.000074 -106.622598 
0.4260000000000000 0.000156 -84.320660 
0.4268750000000000 0.000090 -141.630963 
0.4277500000000000 0.000019 0.435001 
0.4286250000000000 0.000073 -112.613767 
0.4295000000000000 0.000174 -162.613074 
0.4303750000000000 0.000101 -80.109160 
0.4312500000000000 0.000055 81.078507 
0.4321250000000000 0.000117 112.606668 
0.4330000000000000 0.000061 -123.350849 
0.4338750000000000 0.000115 -171.125974 
0.4347500000000000 0.000081 112.135120 
0.4356250000000000 0.000091 111.307781 
0.4365000000000000 0.000122 128.665805 
0.4373750000000000 0.000116 74.933422 
0.4382500000000000 0.000073 88.863202 
0.4391250000000000 0.000065 -161.863150 
0.4400000000000000 0.000062 79.191647 
0.4408750000000000 0.000010 -98.133347 
0.4417500000000000 0.000091 106.718857 
0.4426250000000000 0.000093 165.948709 
0.4435000000000000 0.000092 141.564751 
0.4443750000000000 0.000089 -59.372997 
0.4452500000000000 0.000087 -158.861579 
0.4461250000000000 0.000039 -65.711182 
0.4470000000000000 0.000014 -143.550571 
0.4478750000000000 0.000031 -98.591921 
0.4487500000000000 0.000090 152.138314 
0.4496250000000000 0.000084 -95.976528 
0.4505000000000000 0.000092 174.047058 
0.4513750000000000 0.000028 22.860942 
0.4522500000000000 0.000072 20.682067 
0.4531250000000000 0.000110 33.287334 
0.4540000000000000 0.000132 162.168515 
0.4548750000000000 0.000030 -176.007534 
0.4557500000000000 0.000028 167.369545 
0.4566250000000000 0.000094 -131.397067 
0.4575000000000000 0.000098 -15.343497 
0.4583750000000000 0.000005 -88.790346 
0.4592500000000000 0.000054 112.187579 
0.4601250000000000 0.000165 -96.235845 
0.4610000000000000 0.000020 62.991477 
0.4618750000000000 0.000027 41.597466 
0.4627500000000000 0.000128 132.930570 
0.4636250000000000 0.000069 -112.054216 
0.4645000000000000 0.000072 152.052131 
0.4653750000000000 0.000077 -84.899515 
0.4662500000000000 0.000040 178.434046 
0.4671250000000000 0.000063 151.243865 
0.4680000000000000 0.000024 109.536924 
0.4688750000000000 0.000073 27.737488 
0.4697500000000000 0.000042 -114.670192 
0.4706250000000000 0.000065 -171.506029 
0.4715000000000000 0.000059 95.332853 
0.4723750000000000 0.000105 118.991830 
0.4732500000000000 0.000156 91.130798 
0.4741250000000000 0.000050 44.663907 
0.4750000000000000 0.000052 96.227843 
0.4758750000000000 0.000030 5.794252 
0.4767500000000000 0.000101 87.869126 
0.4776250000000000 0.000040 31.008076 
0.4785000000000000 0.000201 -5.625797 
0.4793750000000000 0.000188 9.065117 
0.4802500000000000 0.000069 86.003098 
0.4811250000000000 0.000098 85.825310 
0.4820000000000000 0.000091 73.878957 
0.4828750000000000 0.000071 39.273139 
0.4837500000000000 0.000127 113.968964 
0.4846250000000000 0.000135 45.433047 
0.4855000000000000 0.000210 74.500169 
0.4863750000000000 0.000080 -56.436129 
0.4872500000000000 0.000042 114.797450 
0.4881250000000000 0.000051 170.090448 
0.4890000000000000 0.000145 102.377115 
0.4898750000000000 0.000100 71.381663 
0.4907500000000000 0.000188 -20.687420 
0.4916250000000000 0.000129 17.642779 
0.4925000000000000 0.000100 65.698160 
0.4933750000000000 0.000082 31.298818 
0.4942500000000000 0.000129 79.706698 
0.4951250000000000 0.000062 163.248546 
0.4960000000000000 0.000172 31.522992 
0.4968750000000000 0.000151 31.054693 
0.4977500000000000 0.000155 45.374321 
0.4986250000000000 0.000024 8.996300 
0.4995000000000000 0.000114 98.496714 
0.5003750000000000 0.000128 -83.047853 
0.5012500000000000 0.000098 61.738382 
0.5021250000000000 0.000181 -5.517521 
0.5030000000000000 0.000066 -2.452498 
0.5038750000000000 0.000045 22.835266 
0.5047500000000000 0.000125 17.250035 
0.5056250000000000 0.000221 -23.949319 
0.5065000000000000 0.000116 43.679551 
0.5073750000000000 0.000214 53.361864 
0.5082500000000000 0.000204 7.988599 
0.5091250000000001 0.000012 -100.720115 
0.5100000000000000 0.000167 -78.599266 
0.5108750000000000 0.000187 -14.926863 
0.5117500000000000 0.000244 13.765767 
0.5126250000000000 0.000085 -5.059933 
0.5135000000000000 0.000128 37.904339 
0.5143750000000000 0.000195 -39.122574 
0.5152500000000000 0.000114 -67.777729 
0.5161249999999999 0.000085 -42.209211 
0.5170000000000000 0.000070 -11.816135 
0.5178750000000000 0.000168 -49.514472 
0.5187500000000000 0.000157 -45.696116 
0.5196250000000000 0.000083 -17.315835 
0.5205000000000000 0.000184 -54.734153 
0.5213750000000000 0.000169 -39.531163 
0.5222500000000000 0.000053 -44.008557 
0.5231250000000000 0.000123 -15.588629 
0.5240000000000000 0.000120 -73.497664 
0.5248750000000000 0.000143 -39.631229 
0.5257500000000001 0.000237 -100.727353 
0.5266250000000000 0.000110 -60.093560 
0.5275000000000000 0.000138 -97.038019 
0.5283750000000000 0.000149 -91.673146 
0.5292500000000000 0.000181 -75.799012 
0.5301250000000000 0.000168 -58.055507 
0.5310000000000000 0.000167 -95.869149 
0.5318750000000000 0.000154 -107.690800 
0.5327500000000000 0.000218 -103.463760 
0.5336250000000000 0.000199 -68.309161 
0.5345000000000000 0.000185 -58.683521 
0.5353750000000001 0.000272 -96.346093 
0.5362500000000000 0.000115 -115.377865 
0.5371250000000000 0.000226 -105.970248 
0.5380000000000000 0.000294 -123.141882 
0.5388750000000000 0.000219 -128.498228 
0.5397500000000000 0.000117 -96.868154 
0.5406250000000000 0.000174 -145.832604 
0.5415000000000000 0.000164 -98.030216 
0.5423750000000001 0.000182 -110.996326 
0.5432500000000000 0.000248 -98.510476 
0.5441250000000000 0.000241 -106.784151 
0.5450000000000000 0.000255 -146.242076 
0.5458750000000000 0.000238 -123.656250 
0.5467500000000000 0.000265 -129.525802 
0.5476250000000000 0.000232 -123.194494 
0.5485000000000000 0.000316 -134.799127 
0.5493750000000000 0.000144 -162.866661 
0.5502500000000000 0.000262 -160.013270 
0.5511250000000000 0.000342 -138.412023 
0.5520000000000001 0.000250 -132.991729 
0.5528750000000000 0.000401 -151.758103 
0.5537500000000000 0.000232 -163.473472 
0.5546250000000000 0.000384 -171.220195 
0.5555000000000000 0.000299 -164.102110 
0.5563750000000000 0.000284 -155.865221 
0.5572500000000000 0.000309 -172.264781 
0.5581250000000000 0.000286 -170.225704 
0.5590000000000001 0.000383 172.438341 
0.5598750000000000 0.000359 171.667564 
0.5607500000000000 0.000255 -158.680869 
0.5616250000000000 0.000358 172.392891 
0.5625000000000000 0.000309 173.024710 
0.5633750000000000 0.000320 -176.539843 
0.5642500000000000 0.000293 163.336778 
0.5651250000000000 0.000576 175.358710 
0.5660000000000000 0.000400 153.674687 
0.5668750000000000 0.000417 172.571065 
0.5677500000000000 0.000306 141.789988 
0.5686250000000001 0.000428 142.620564 
0.5695000000000000 0.000382 143.896261 
0.5703750000000000 0.000398 158.334894 
0.5712500000000000 0.000487 149.554198 
0.5721250000000000 0.000531 161.155299 
0.5730000000000000 0.000455 135.319998 
0.5738750000000000 0.000458 135.985285 
0.5747500000000000 0.000550 135.547918 
0.5756250000000001 0.000407 133.556750 
0.5765000000000000 0.000466 135.215251 
0.5773750000000000 0.000637 138.355772 
0.5782500000000000 0.000647 123.822526 
0.5791250000000000 0.000662 138.367313 
0.5800000000000000 0.000572 135.571258 
0.5808750000000000 0.000582 130.640423 
0.5817500000000000 0.000601 119.167553 
0.5826250000000000 0.000639 122.682382 
0.5835000000000000 0.000617 110.732200 
0.5843750000000000 0.000583 111.917332 
0.5852500000000001 0.000719 96.162967 
0.5861250000000000 0.000662 95.915871 
0.5870000000000000 0.000551 105.951351 
0.5878750000000000 0.000668 101.230713 
0.5887500000000000 0.000815 104.325354 
0.5896250000000000 0.000618 97.588800 
0.5905000000000000 0.000761 94.856472 
0.5913750000000000 0.000698 81.987922 
0.5922500000000001 0.000954 88.184478 
0.5931250000000000 0.000911 85.277157 
0.5940000000000000 0.000852 81.918391 
0.5948750000000000 0.001022 81.317091 
0.5957500000000000 0.000993 81.098529 
0.5966250000000000 0.000888 75.624145 
0.5975000000000000 0.000873 68.487094 
0.5983750000000000 0.000935 73.791671 
0.5992500000000000 0.000994 57.982965 
0.6001250000000000 0.000984 59.307182 
0.6010000000000000 0.001060 51.961122 
0.6018750000000001 0.001193 53.173596 
0.6027500000000000 0.001138 56.120144 
0.6036250000000000 0.001121 48.587751 
0.6045000000000000 0.001252 47.458716 
0.6053750000000000 0.001217 44.765786 
0.6062500000000000 0.001211 40.980591 
0.6071250000000000 0.001332 28.894788 
0.6080000000000000 0.001232 29.114409 
0.6088750000000001 0.001428 26.154255 
0.6097500000000000 0.001476 22.266148 
0.6106250000000000 0.001506 19.309729 
0.6115000000000000 0.001511 15.423216 
0.6123750000000000 0.001631 12.577419 
0.6132500000000000 0.001555 11.670830 
0.6141250000000000 0.001677 1.373041 
0.6150000000000000 0.001713 -1.320074 
0.6158750000000000 0.001726 1.594544 
0.6167500000000000 0.001753 -6.057126 
0.6176250000000000 0.001778 -1.848229 
0.6185000000000001 0.001797 -11.829533 
0.6193750000000000 0.001746 -14.833374 
0.6202500000000000 0.001928 -18.381178 
0.6211250000000000 0.002005 -21.452148 
0.6220000000000000 0.002078 -24.308516 
0.6228750000000000 0.002159 -27.453766 
0.6237500000000000 0.002331 -33.299935 
0.6246250000000000 0.002231 -36.733369 
0.6254999999999999 0.002543 -36.215576 
0.6263750000000000 0.002404 -40.539650 
0.6272500000000000 0.002449 -46.822175 
0.6281250000000000 0.002503 -50.228679 
0.6290000000000000 0.002570 -53.602144 
0.6298750000000000 0.002618 -55.120196 
0.6307500000000000 0.002605 -62.515603 
0.6316250000000000 0.002828 -66.580991 
0.6325000000000000 0.002898 -67.722809 
0.6333750000000000 0.002945 -71.793855 
0.6342500000000000 0.003030 -76.017343 
0.6351250000000001 0.002987 -82.048742 
0.6360000000000000 0.003204 -81.822265 
0.6368750000000000 0.003251 -86.240576 
0.6377500000000000 0.003364 -92.250358 
0.6386250000000000 0.003520 -92.770154 
0.6395000000000000 0.003344 -99.288400 
0.6403750000000000 0.003591 -101.656100 
0.6412500000000000 0.003701 -104.789218 
0.6421250000000000 0.003900 -110.769662 
0.6430000000000000 0.003884 -114.564152 
0.6438750000000000 0.003951 -117.410866 
0.6447500000000001 0.004142 -121.640776 
0.6456250000000000 0.004341 -124.524404 
0.6465000000000000 0.004383 -128.055684 
0.6473750000000000 0.004512 -130.666978 
0.6482500000000000 0.004606 -135.394243 
0.6491250000000000 0.004789 -141.341978 
0.6500000000000000 0.004962 -143.800183 
0.6508750000000000 0.005159 -149.139778 
0.6517500000000001 0.005126 -151.583919 
0.6526250000000000 0.005256 -156.125383 
0.6535000000000000 0.005709 -159.279280 
0.6543750000000000 0.005752 -163.451792 
0.6552500000000000 0.005734 -167.205558 
0.6561250000000000 0.006113 -171.020403 
0.6570000000000000 0.006384 -176.788717 
0.6578750000000000 0.006462 -179.720954 
0.6587500000000000 0.006743 176.758928 
0.6596250000000000 0.006805 172.163144 
0.6605000000000000 0.007142 165.566203 
0.6613750000000001 0.007567 161.953262 
0.6622500000000000 0.007713 158.021313 
0.6631250000000000 0.008014 153.926661 
0.6640000000000000 0.008236 148.783664 
0.6648750000000000 0.008721 144.169896 
0.6657500000000000 0.009143 139.479732 
0.6666250000000000 0.009259 134.346901 
0.6675000000000000 0.009662 129.453840 
0.6683750000000001 0.010126 123.555375 
0.6692500000000000 0.010497 118.621055 
0.6701250000000000 0.010755 112.455717 
0.6710000000000000 0.011362 106.945915 
0.6718750000000000 0.011828 101.256930 
0.6727500000000000 0.012195 94.613493 
0.6736250000000000 0.012613 88.297230 
0.6745000000000000 0.012910 81.382068 
0.6753750000000000 0.013293 74.264646 
0.6762500000000000 0.013504 67.428378 
0.6771250000000000 0.013872 60.063099 
0.6780000000000001 0.013922 53.010776 
0.6788750000000000 0.014259 45.357702 
0.6797500000000000 0.014197 37.897606 
0.6806250000000000 0.014060 30.537852 
0.6815000000000000 0.013956 22.897853 
0.6823750000000000 0.013611 14.930121 
0.6832500000000000 0.013236 7.997574 
0.6841250000000000 0.013037 1.056256 
0.6850000000000001 0.012616 -5.202271 
0.6858750000000000 0.012133 -12.144138 
0.6867500000000000 0.011731 -18.371617 
0.6876250000000000 0.011309 -24.742061 
0.6885000000000000 0.010659 -29.575428 
0.6893750000000000 0.010255 -35.419370 
0.6902500000000000 0.009892 -40.615074 
0.6911250000000000 0.009477 -46.078464 
0.6920000000000000 0.009065 -51.661904 
0.6928750000000000 0.008856 -56.138805 
0.6937500000000000 0.008255 -61.550401 
0.6946250000000001 0.008058 -65.758651 
0.6955000000000000 0.007845 -70.308462 
0.6963750000000000 0.007383 -74.098321 
0.6972500000000000 0.007134 -78.753153 
0.6981250000000000 0.006773 -82.664592 
0.6990000000000000 0.006700 -85.846975 
0.6998750000000000 0.006284 -90.969622 
0.7007500000000000 0.006170 -95.185209 
0.7016250000000001 0.005883 -98.301836 
0.7025000000000000 0.005718 -100.884537 
0.7033750000000000 0.005435 -105.225141 
0.7042500000000000 0.005354 -109.583120 
0.7051250000000000 0.005163 -112.741376 
0.7060000000000000 0.004967 -116.036201 
0.7068750000000000 0.004737 -120.224891 
0.7077500000000000 0.004547 -124.135895 
0.7086250000000000 0.004613 -126.200670 
0.7095000000000000 0.004381 -130.026345 
0.7103750000000000 0.004267 -133.793261 
0.7112500000000001 0.004088 -138.518552 
0.7121250000000000 0.004090 -138.029416 
0.7130000000000000 0.003835 -143.556181 
0.7138750000000000 0.003821 -145.827108 
0.7147500000000000 0.003674 -150.595457 
0.7156250000000000 0.003691 -152.822536 
0.7165000000000000 0.003444 -154.611186 
0.7173750000000000 0.003390 -161.127963 
0.7182500000000001 0.003260 -160.375198 
0.7191250000000000 0.003206 -162.974654 
0.7200000000000000 0.003155 -168.517679 
