!
! C:\Users\rflab\Downloads\q2\140.S1P
!
! Touchstone 1.1 file saved by VNA.EXE V1.65 (www.ke5fx.com/gpib/readme.htm)
! 11/20/2024 11:11:23 AM
!
!    Source: HEWLETT PACKARD,8753D,0,6.14
!  Min freq: 3.000000E+008 Hz
!  Max freq: 1.000000E+009 Hz
!    Points: 801
!    Params: S21
!
!!!!!
# GHZ S MA R 50
0.3000000000000000 0.000084 -158.897248 
0.3008750000000000 0.000040 -28.467360 
0.3017500000000000 0.000032 -17.460617 
0.3026250000000000 0.000057 -158.163413 
0.3035000000000000 0.000093 -57.000388 
0.3043750000000000 0.000028 176.976456 
0.3052500000000000 0.000126 -80.116652 
0.3061250000000000 0.000142 -15.754357 
0.3070000000000000 0.000136 178.515942 
0.3078750000000000 0.000064 -127.467034 
0.3087500000000000 0.000040 158.847785 
0.3096250000000000 0.000056 -72.996639 
0.3105000000000000 0.000035 -19.118443 
0.3113750000000000 0.000062 140.117009 
0.3122500000000000 0.000123 -89.812604 
0.3131250000000000 0.000081 -14.203443 
0.3140000000000000 0.000067 164.600384 
0.3148750000000000 0.000058 -177.100488 
0.3157500000000000 0.000035 87.429382 
0.3166250000000000 0.000046 -88.725511 
0.3175000000000000 0.000110 104.925037 
0.3183750000000000 0.000044 -1.521916 
0.3192500000000000 0.000018 19.959012 
0.3201250000000000 0.000103 130.266932 
0.3210000000000000 0.000096 -166.630789 
0.3218750000000000 0.000033 -96.563731 
0.3227500000000000 0.000166 -31.587948 
0.3236250000000000 0.000073 -19.881571 
0.3245000000000000 0.000059 -36.752791 
0.3253750000000000 0.000099 103.884975 
0.3262500000000000 0.000010 129.441762 
0.3271250000000000 0.000166 -163.454844 
0.3280000000000000 0.000101 169.240972 
0.3288750000000000 0.000105 -153.761261 
0.3297500000000000 0.000033 -28.731773 
0.3306250000000000 0.000015 -104.136596 
0.3315000000000000 0.000072 -57.962599 
0.3323750000000000 0.000070 -54.388389 
0.3332500000000000 0.000068 -26.346765 
0.3341250000000000 0.000150 104.008596 
0.3350000000000000 0.000058 -112.074952 
0.3358750000000000 0.000059 72.764729 
0.3367500000000000 0.000041 -6.609900 
0.3376250000000000 0.000044 168.266838 
0.3385000000000000 0.000046 -177.204219 
0.3393750000000000 0.000113 -169.051662 
0.3402500000000000 0.000116 62.362432 
0.3411250000000000 0.000069 -74.191424 
0.3420000000000000 0.000043 81.126145 
0.3428750000000000 0.000052 -24.793330 
0.3437500000000000 0.000104 -31.558505 
0.3446250000000000 0.000070 91.643468 
0.3455000000000000 0.000051 -33.988510 
0.3463750000000000 0.000114 -148.457936 
0.3472500000000000 0.000068 -71.607043 
0.3481250000000000 0.000077 -160.873720 
0.3490000000000000 0.000151 21.243496 
0.3498750000000000 0.000006 34.598212 
0.3507500000000000 0.000042 89.369128 
0.3516250000000000 0.000101 54.939364 
0.3525000000000000 0.000025 -106.313046 
0.3533750000000000 0.000038 -39.845186 
0.3542500000000000 0.000043 44.708232 
0.3551250000000000 0.000066 -158.326465 
0.3560000000000000 0.000166 168.542190 
0.3568750000000000 0.000114 24.134238 
0.3577500000000000 0.000148 -169.137863 
0.3586250000000000 0.000072 -125.288097 
0.3595000000000000 0.000031 -5.964694 
0.3603750000000000 0.000156 -24.641792 
0.3612500000000000 0.000004 122.124790 
0.3621250000000000 0.000029 128.552809 
0.3630000000000000 0.000101 -86.180598 
0.3638750000000000 0.000116 -102.256769 
0.3647500000000000 0.000052 121.605355 
0.3656250000000000 0.000085 -59.980035 
0.3665000000000000 0.000084 -12.442016 
0.3673750000000000 0.000030 -54.027450 
0.3682500000000000 0.000092 130.946678 
0.3691250000000000 0.000091 78.285182 
0.3700000000000000 0.000030 162.969293 
0.3708750000000000 0.000077 105.209209 
0.3717500000000000 0.000064 124.025510 
0.3726250000000000 0.000020 -155.229461 
0.3735000000000000 0.000095 39.269798 
0.3743750000000000 0.000046 55.113833 
0.3752500000000000 0.000030 27.793685 
0.3761250000000000 0.000065 -135.896297 
0.3770000000000000 0.000044 -155.716681 
0.3778750000000000 0.000025 -7.425302 
0.3787500000000000 0.000057 59.404920 
0.3796250000000000 0.000044 108.055897 
0.3805000000000000 0.000038 -9.040750 
0.3813750000000000 0.000070 71.143630 
0.3822500000000000 0.000029 -32.166217 
0.3831250000000000 0.000050 -15.760839 
0.3840000000000000 0.000053 -19.153225 
0.3848750000000000 0.000083 -160.966809 
0.3857500000000000 0.000087 -56.628158 
0.3866250000000000 0.000073 -96.403730 
0.3875000000000000 0.000070 -133.572827 
0.3883750000000000 0.000030 100.048560 
0.3892500000000000 0.000094 -116.610868 
0.3901250000000000 0.000102 10.928832 
0.3910000000000000 0.000103 -160.086359 
0.3918750000000000 0.000051 92.416453 
0.3927500000000000 0.000114 0.525754 
0.3936250000000000 0.000060 -49.309342 
0.3945000000000000 0.000064 132.235888 
0.3953750000000000 0.000032 -136.149650 
0.3962500000000000 0.000088 -93.541719 
0.3971250000000000 0.000066 171.173650 
0.3980000000000000 0.000117 122.702736 
0.3988750000000000 0.000113 67.334378 
0.3997500000000000 0.000098 -110.885717 
0.4006250000000000 0.000098 75.435851 
0.4015000000000000 0.000081 -55.029699 
0.4023750000000000 0.000076 83.429268 
0.4032500000000000 0.000052 30.488512 
0.4041250000000000 0.000024 -80.967084 
0.4050000000000000 0.000018 -32.529576 
0.4058750000000000 0.000052 -44.064957 
0.4067500000000000 0.000022 -119.222796 
0.4076250000000000 0.000094 -50.300858 
0.4085000000000000 0.000088 0.174319 
0.4093750000000000 0.000067 -110.715987 
0.4102500000000000 0.000069 156.972665 
0.4111250000000000 0.000096 -124.871293 
0.4120000000000000 0.000061 67.595666 
0.4128750000000000 0.000067 -22.118976 
0.4137500000000000 0.000079 127.171820 
0.4146250000000000 0.000037 -90.228610 
0.4155000000000000 0.000093 145.649029 
0.4163750000000000 0.000041 -136.176860 
0.4172500000000000 0.000057 -150.283328 
0.4181250000000000 0.000063 -3.043951 
0.4190000000000000 0.000142 -144.866805 
0.4198750000000000 0.000026 108.551762 
0.4207500000000000 0.000068 99.907270 
0.4216250000000000 0.000065 -18.425640 
0.4225000000000000 0.000053 116.282594 
0.4233750000000000 0.000113 1.129505 
0.4242500000000000 0.000097 -81.968234 
0.4251250000000000 0.000050 -57.556582 
0.4260000000000000 0.000010 -87.773336 
0.4268750000000000 0.000071 165.964492 
0.4277500000000000 0.000045 -110.039506 
0.4286250000000000 0.000042 103.209839 
0.4295000000000000 0.000119 -68.672304 
0.4303750000000000 0.000038 160.159086 
0.4312500000000000 0.000081 172.211241 
0.4321250000000000 0.000019 104.044324 
0.4330000000000000 0.000072 107.681195 
0.4338750000000000 0.000061 153.949564 
0.4347500000000000 0.000060 -172.962407 
0.4356250000000000 0.000028 -142.875956 
0.4365000000000000 0.000056 -122.065465 
0.4373750000000000 0.000078 130.167447 
0.4382500000000000 0.000043 45.313047 
0.4391250000000000 0.000079 57.553956 
0.4400000000000000 0.000129 -147.906841 
0.4408750000000000 0.000032 -9.399253 
0.4417500000000000 0.000068 176.462470 
0.4426250000000000 0.000169 158.458905 
0.4435000000000000 0.000077 128.905829 
0.4443750000000000 0.000072 154.861989 
0.4452500000000000 0.000061 44.039497 
0.4461250000000000 0.000125 120.755298 
0.4470000000000000 0.000079 151.277992 
0.4478750000000000 0.000079 79.358382 
0.4487500000000000 0.000049 -80.089107 
0.4496250000000000 0.000103 154.500784 
0.4505000000000000 0.000019 147.870761 
0.4513750000000000 0.000038 -160.306893 
0.4522500000000000 0.000078 126.375612 
0.4531250000000000 0.000120 72.634282 
0.4540000000000000 0.000078 142.792440 
0.4548750000000000 0.000107 -142.427535 
0.4557500000000000 0.000057 -169.217104 
0.4566250000000000 0.000132 135.035536 
0.4575000000000000 0.000111 81.753762 
0.4583750000000000 0.000150 -171.222531 
0.4592500000000000 0.000128 147.021954 
0.4601250000000000 0.000127 25.487046 
0.4610000000000000 0.000099 102.474699 
0.4618750000000000 0.000160 71.819341 
0.4627500000000000 0.000079 70.308300 
0.4636250000000000 0.000075 172.795555 
0.4645000000000000 0.000117 96.617135 
0.4653750000000000 0.000108 65.402839 
0.4662500000000000 0.000154 131.183032 
0.4671250000000000 0.000205 55.734061 
0.4680000000000000 0.000042 -24.931426 
0.4688750000000000 0.000146 37.529912 
0.4697500000000000 0.000160 91.716703 
0.4706250000000000 0.000132 58.776490 
0.4715000000000000 0.000132 96.310205 
0.4723750000000000 0.000174 152.794128 
0.4732500000000000 0.000071 -166.364154 
0.4741250000000000 0.000090 49.885708 
0.4750000000000000 0.000082 83.075448 
0.4758750000000000 0.000192 111.659597 
0.4767500000000000 0.000083 -27.031186 
0.4776250000000000 0.000107 109.515274 
0.4785000000000000 0.000153 116.798950 
0.4793750000000000 0.000032 136.771061 
0.4802500000000000 0.000197 123.760224 
0.4811250000000000 0.000054 2.605236 
0.4820000000000000 0.000044 27.545570 
0.4828750000000000 0.000171 24.676976 
0.4837500000000000 0.000082 33.155650 
0.4846250000000000 0.000051 -12.203078 
0.4855000000000000 0.000034 -62.365214 
0.4863750000000000 0.000147 37.836589 
0.4872500000000000 0.000092 98.210359 
0.4881250000000000 0.000195 113.269188 
0.4890000000000000 0.000130 53.157783 
0.4898750000000000 0.000106 53.120401 
0.4907500000000000 0.000183 121.587145 
0.4916250000000000 0.000155 56.847840 
0.4925000000000000 0.000189 14.080713 
0.4933750000000000 0.000228 31.904335 
0.4942500000000000 0.000114 -5.105890 
0.4951250000000000 0.000166 32.805491 
0.4960000000000000 0.000139 33.475770 
0.4968750000000000 0.000151 48.228618 
0.4977500000000000 0.000161 3.955081 
0.4986250000000000 0.000092 57.869977 
0.4995000000000000 0.000184 -11.507992 
0.5003750000000000 0.000019 -9.370121 
0.5012500000000000 0.000182 39.878791 
0.5021250000000000 0.000090 -16.351188 
0.5030000000000000 0.000146 11.609080 
0.5038750000000000 0.000118 -1.640291 
0.5047500000000000 0.000115 38.219774 
0.5056250000000000 0.000184 13.649362 
0.5065000000000000 0.000206 4.490789 
0.5073750000000000 0.000174 -6.334218 
0.5082500000000000 0.000194 -3.964460 
0.5091250000000001 0.000158 12.653263 
0.5100000000000000 0.000221 5.771600 
0.5108750000000000 0.000198 -19.658612 
0.5117500000000000 0.000129 24.977488 
0.5126250000000000 0.000050 -1.958086 
0.5135000000000000 0.000209 23.072923 
0.5143750000000000 0.000113 -11.468593 
0.5152500000000000 0.000321 1.384200 
0.5161249999999999 0.000094 -62.938851 
0.5170000000000000 0.000230 -13.732579 
0.5178750000000000 0.000129 -16.999687 
0.5187500000000000 0.000257 -1.385275 
0.5196250000000000 0.000173 -19.643834 
0.5205000000000000 0.000310 -54.010640 
0.5213750000000000 0.000213 -54.587680 
0.5222500000000000 0.000286 -62.101336 
0.5231250000000000 0.000142 -4.011061 
0.5240000000000000 0.000332 -51.770952 
0.5248750000000000 0.000205 -28.754631 
0.5257500000000001 0.000297 -48.182989 
0.5266250000000000 0.000155 -55.101393 
0.5275000000000000 0.000211 -72.993239 
0.5283750000000000 0.000263 -41.553081 
0.5292500000000000 0.000272 -60.281211 
0.5301250000000000 0.000249 -52.950165 
0.5310000000000000 0.000285 -62.170302 
0.5318750000000000 0.000174 -69.005847 
0.5327500000000000 0.000178 -82.554133 
0.5336250000000000 0.000252 -74.596663 
0.5345000000000000 0.000335 -74.372761 
0.5353750000000001 0.000282 -85.576954 
0.5362500000000000 0.000262 -106.225888 
0.5371250000000000 0.000264 -78.547161 
0.5380000000000000 0.000330 -70.814187 
0.5388750000000000 0.000191 -99.721723 
0.5397500000000000 0.000300 -88.886071 
0.5406250000000000 0.000335 -90.232058 
0.5415000000000000 0.000384 -84.012752 
0.5423750000000001 0.000313 -95.548032 
0.5432500000000000 0.000252 -97.328996 
0.5441250000000000 0.000336 -113.664473 
0.5450000000000000 0.000357 -100.698153 
0.5458750000000000 0.000283 -114.461175 
0.5467500000000000 0.000453 -105.495672 
0.5476250000000000 0.000374 -115.812381 
0.5485000000000000 0.000369 -116.316890 
0.5493750000000000 0.000401 -121.409597 
0.5502500000000000 0.000409 -125.124193 
0.5511250000000000 0.000446 -129.481152 
0.5520000000000001 0.000378 -125.641617 
0.5528750000000000 0.000456 -133.454278 
0.5537500000000000 0.000366 -135.851846 
0.5546250000000000 0.000450 -141.860878 
0.5555000000000000 0.000392 -131.262650 
0.5563750000000000 0.000518 -143.318732 
0.5572500000000000 0.000455 -140.649812 
0.5581250000000000 0.000428 -147.089436 
0.5590000000000001 0.000471 -166.232962 
0.5598750000000000 0.000465 -147.254631 
0.5607500000000000 0.000488 -166.861440 
0.5616250000000000 0.000637 -160.234525 
0.5625000000000000 0.000498 -168.147159 
0.5633750000000000 0.000509 -168.878089 
0.5642500000000000 0.000483 -155.728845 
0.5651250000000000 0.000549 -169.415474 
0.5660000000000000 0.000595 -173.663610 
0.5668750000000000 0.000575 168.646982 
0.5677500000000000 0.000569 175.204958 
0.5686250000000001 0.000649 166.194276 
0.5695000000000000 0.000654 166.726117 
0.5703750000000000 0.000603 158.900121 
0.5712500000000000 0.000604 160.052646 
0.5721250000000000 0.000605 151.697718 
0.5730000000000000 0.000662 159.280575 
0.5738750000000000 0.000699 168.418130 
0.5747500000000000 0.000727 162.773310 
0.5756250000000001 0.000812 154.014551 
0.5765000000000000 0.000831 145.887228 
0.5773750000000000 0.000759 143.464111 
0.5782500000000000 0.000755 143.778003 
0.5791250000000000 0.000795 141.161812 
0.5800000000000000 0.000756 138.735214 
0.5808750000000000 0.000966 136.573546 
0.5817500000000000 0.000792 125.914416 
0.5826250000000000 0.000962 125.072117 
0.5835000000000000 0.000765 129.616323 
0.5843750000000000 0.000911 117.292697 
0.5852500000000001 0.000994 118.526826 
0.5861250000000000 0.000991 116.467231 
0.5870000000000000 0.000898 113.545199 
0.5878750000000000 0.000847 111.019561 
0.5887500000000000 0.000979 116.094660 
0.5896250000000000 0.001059 110.412205 
0.5905000000000000 0.001027 102.230425 
0.5913750000000000 0.001076 112.150447 
0.5922500000000001 0.001144 95.328515 
0.5931250000000000 0.001196 98.239524 
0.5940000000000000 0.001213 95.211769 
0.5948750000000000 0.001179 90.217182 
0.5957500000000000 0.001230 90.000000 
0.5966250000000000 0.001364 81.058742 
0.5975000000000000 0.001292 85.162160 
0.5983750000000000 0.001361 78.221986 
0.5992500000000000 0.001481 75.775293 
0.6001250000000000 0.001453 73.256420 
0.6010000000000000 0.001380 65.089141 
0.6018750000000001 0.001604 67.399137 
0.6027500000000000 0.001751 61.541489 
0.6036250000000000 0.001604 55.771488 
0.6045000000000000 0.001720 55.526666 
0.6053750000000000 0.001748 56.078045 
0.6062500000000000 0.001844 49.043641 
0.6071250000000000 0.001945 47.573454 
0.6080000000000000 0.001959 40.979911 
0.6088750000000001 0.001908 40.838107 
0.6097500000000000 0.002088 36.366054 
0.6106250000000000 0.002148 31.765399 
0.6115000000000000 0.002269 28.045926 
0.6123750000000000 0.002175 26.410580 
0.6132500000000000 0.002348 23.013298 
0.6141250000000000 0.002210 16.164406 
0.6150000000000000 0.002368 14.451747 
0.6158750000000000 0.002434 13.412241 
0.6167500000000000 0.002608 8.652772 
0.6176250000000000 0.002679 5.272214 
0.6185000000000001 0.002688 -0.963184 
0.6193750000000000 0.002849 -1.563380 
0.6202500000000000 0.002790 -4.460294 
0.6211250000000000 0.002961 -10.216139 
0.6220000000000000 0.003175 -11.731789 
0.6228750000000000 0.003138 -14.769598 
0.6237500000000000 0.003120 -21.560369 
0.6246250000000000 0.003270 -22.498871 
0.6254999999999999 0.003481 -27.929609 
0.6263750000000000 0.003534 -30.896804 
0.6272500000000000 0.003617 -33.052129 
0.6281250000000000 0.003628 -38.049040 
0.6290000000000000 0.003896 -39.553265 
0.6298750000000000 0.004002 -44.356721 
0.6307500000000000 0.004009 -47.368135 
0.6316250000000000 0.004132 -52.430202 
0.6325000000000000 0.004340 -58.062356 
0.6333750000000000 0.004285 -58.268656 
0.6342500000000000 0.004543 -63.163302 
0.6351250000000001 0.004605 -65.517995 
0.6360000000000000 0.004724 -70.274592 
0.6368750000000000 0.004787 -75.412857 
0.6377500000000000 0.005000 -78.059989 
0.6386250000000000 0.005137 -81.317109 
0.6395000000000000 0.005281 -85.603276 
0.6403750000000000 0.005440 -88.546006 
0.6412500000000000 0.005578 -92.028189 
0.6421250000000000 0.005729 -95.643450 
0.6430000000000000 0.005765 -98.847590 
0.6438750000000000 0.005956 -103.576205 
0.6447500000000001 0.006218 -108.277950 
0.6456250000000000 0.006246 -110.904677 
0.6465000000000000 0.006477 -114.935097 
0.6473750000000000 0.006645 -119.209946 
0.6482500000000000 0.006875 -123.017707 
0.6491250000000000 0.007198 -126.669494 
0.6500000000000000 0.007394 -130.440977 
0.6508750000000000 0.007551 -133.413549 
0.6517500000000001 0.007836 -138.095452 
0.6526250000000000 0.007981 -142.052357 
0.6535000000000000 0.008254 -146.059316 
0.6543750000000000 0.008463 -149.819083 
0.6552500000000000 0.008655 -153.753984 
0.6561250000000000 0.008909 -158.177521 
0.6570000000000000 0.009300 -161.777782 
0.6578750000000000 0.009566 -165.992157 
0.6587500000000000 0.009922 -171.094943 
0.6596250000000000 0.010287 -174.422066 
0.6605000000000000 0.010561 -178.755592 
0.6613750000000001 0.011066 176.590917 
0.6622500000000000 0.011450 171.973158 
0.6631250000000000 0.011858 167.888031 
0.6640000000000000 0.012435 163.421133 
0.6648750000000000 0.012854 158.764576 
0.6657500000000000 0.013370 153.241220 
0.6666250000000000 0.013828 148.593389 
0.6675000000000000 0.014402 144.240689 
0.6683750000000001 0.014873 138.619853 
0.6692500000000000 0.015510 133.277111 
0.6701250000000000 0.016189 127.114932 
0.6710000000000000 0.016747 121.265927 
0.6718750000000000 0.017311 115.211209 
0.6727500000000000 0.018047 109.924905 
0.6736250000000000 0.018675 103.056900 
0.6745000000000000 0.019138 96.135882 
0.6753750000000000 0.019663 89.496989 
0.6762500000000000 0.020044 82.250803 
0.6771250000000000 0.020413 74.891844 
0.6780000000000001 0.020700 67.435376 
0.6788750000000000 0.020744 60.148942 
0.6797500000000000 0.020796 52.872607 
0.6806250000000000 0.020769 44.981390 
0.6815000000000000 0.020395 38.026317 
0.6823750000000000 0.020026 30.722307 
0.6832500000000000 0.019625 23.625222 
0.6841250000000000 0.019066 16.515041 
0.6850000000000001 0.018453 10.117076 
0.6858750000000000 0.017730 3.540200 
0.6867500000000000 0.017240 -3.107572 
0.6876250000000000 0.016581 -8.767207 
0.6885000000000000 0.015781 -14.678709 
0.6893750000000000 0.015168 -19.832911 
0.6902500000000000 0.014601 -25.203421 
0.6911250000000000 0.014010 -30.413933 
0.6920000000000000 0.013412 -35.761692 
0.6928750000000000 0.012921 -41.112727 
0.6937500000000000 0.012410 -44.777402 
0.6946250000000001 0.011913 -49.558404 
0.6955000000000000 0.011335 -53.798251 
0.6963750000000000 0.010846 -58.616767 
0.6972500000000000 0.010414 -61.566872 
0.6981250000000000 0.010241 -66.781093 
0.6990000000000000 0.009766 -70.878550 
0.6998750000000000 0.009467 -74.562397 
0.7007500000000000 0.009057 -78.570571 
0.7016250000000001 0.008690 -82.023292 
0.7025000000000000 0.008487 -85.992362 
0.7033750000000000 0.008204 -89.417201 
0.7042500000000000 0.008019 -93.958900 
0.7051250000000000 0.007652 -97.098444 
0.7060000000000000 0.007583 -100.162417 
0.7068750000000000 0.007088 -103.852081 
0.7077500000000000 0.007050 -107.224103 
0.7086250000000000 0.006680 -111.076862 
0.7095000000000000 0.006468 -114.575402 
0.7103750000000000 0.006308 -115.381409 
0.7112500000000001 0.006078 -119.923835 
0.7121250000000000 0.005976 -123.468160 
0.7130000000000000 0.005789 -125.894832 
0.7138750000000000 0.005585 -130.890475 
0.7147500000000000 0.005449 -132.191061 
0.7156250000000000 0.005378 -135.017961 
0.7165000000000000 0.005196 -138.318429 
0.7173750000000000 0.005158 -141.414649 
0.7182500000000001 0.005050 -144.208887 
0.7191250000000000 0.004773 -146.540126 
0.7200000000000000 0.004833 -150.365560 
