!
! C:\Users\rflab\Downloads\q2\160.S1P
!
! Touchstone 1.1 file saved by VNA.EXE V1.65 (www.ke5fx.com/gpib/readme.htm)
! 11/20/2024 11:11:52 AM
!
!    Source: HEWLETT PACKARD,8753D,0,6.14
!  Min freq: 3.000000E+008 Hz
!  Max freq: 1.000000E+009 Hz
!    Points: 801
!    Params: S21
!
!!!!!
# GHZ S MA R 50
0.3000000000000000 0.000129 151.902939 
0.3008750000000000 0.000050 -159.471249 
0.3017500000000000 0.000101 -104.069955 
0.3026250000000000 0.000095 142.380423 
0.3035000000000000 0.000038 112.292562 
0.3043750000000000 0.000099 68.057516 
0.3052500000000000 0.000120 130.054792 
0.3061250000000000 0.000100 -88.476568 
0.3070000000000000 0.000082 -115.860908 
0.3078750000000000 0.000086 58.462943 
0.3087500000000000 0.000080 26.576979 
0.3096250000000000 0.000076 -36.392049 
0.3105000000000000 0.000068 -65.677486 
0.3113750000000000 0.000148 147.798042 
0.3122500000000000 0.000044 -32.866048 
0.3131250000000000 0.000105 91.071489 
0.3140000000000000 0.000096 -175.312861 
0.3148750000000000 0.000029 64.351465 
0.3157500000000000 0.000098 138.515133 
0.3166250000000000 0.000102 155.430715 
0.3175000000000000 0.000076 61.636915 
0.3183750000000000 0.000077 119.341798 
0.3192500000000000 0.000122 -43.385764 
0.3201250000000000 0.000089 -28.168576 
0.3210000000000000 0.000075 -86.995009 
0.3218750000000000 0.000012 -6.893682 
0.3227500000000000 0.000037 76.993761 
0.3236250000000000 0.000130 91.834469 
0.3245000000000000 0.000082 -88.353555 
0.3253750000000000 0.000027 144.181841 
0.3262500000000000 0.000181 -103.907324 
0.3271250000000000 0.000035 -23.097810 
0.3280000000000000 0.000042 81.090145 
0.3288750000000000 0.000040 -156.550098 
0.3297500000000000 0.000044 -5.490564 
0.3306250000000000 0.000110 -27.595421 
0.3315000000000000 0.000114 -2.889165 
0.3323750000000000 0.000068 40.882806 
0.3332500000000000 0.000144 -42.848873 
0.3341250000000000 0.000038 -154.359105 
0.3350000000000000 0.000015 -144.083662 
0.3358750000000000 0.000050 -42.103130 
0.3367500000000000 0.000053 5.078845 
0.3376250000000000 0.000097 -114.837513 
0.3385000000000000 0.000067 4.804786 
0.3393750000000000 0.000057 -116.334374 
0.3402500000000000 0.000043 -10.858706 
0.3411250000000000 0.000031 53.321931 
0.3420000000000000 0.000042 153.791333 
0.3428750000000000 0.000078 47.717094 
0.3437500000000000 0.000039 73.853708 
0.3446250000000000 0.000054 -52.900067 
0.3455000000000000 0.000104 -175.833429 
0.3463750000000000 0.000026 -128.395719 
0.3472500000000000 0.000052 161.729392 
0.3481250000000000 0.000075 116.427220 
0.3490000000000000 0.000110 165.731352 
0.3498750000000000 0.000032 -138.633402 
0.3507500000000000 0.000061 143.809413 
0.3516250000000000 0.000156 -90.701703 
0.3525000000000000 0.000112 -167.951933 
0.3533750000000000 0.000199 -84.392472 
0.3542500000000000 0.000092 -138.455308 
0.3551250000000000 0.000048 106.117989 
0.3560000000000000 0.000088 10.350818 
0.3568750000000000 0.000098 115.782608 
0.3577500000000000 0.000037 97.382037 
0.3586250000000000 0.000094 -136.252867 
0.3595000000000000 0.000109 101.322954 
0.3603750000000000 0.000165 33.616904 
0.3612500000000000 0.000073 78.879616 
0.3621250000000000 0.000048 158.202678 
0.3630000000000000 0.000031 61.172754 
0.3638750000000000 0.000069 -82.538006 
0.3647500000000000 0.000079 -111.732877 
0.3656250000000000 0.000094 -148.529875 
0.3665000000000000 0.000052 22.816222 
0.3673750000000000 0.000095 -26.409676 
0.3682500000000000 0.000050 122.740257 
0.3691250000000000 0.000060 -163.384221 
0.3700000000000000 0.000042 170.767537 
0.3708750000000000 0.000059 -177.978635 
0.3717500000000000 0.000059 54.728234 
0.3726250000000000 0.000038 -93.636612 
0.3735000000000000 0.000067 5.855201 
0.3743750000000000 0.000059 -32.917083 
0.3752500000000000 0.000071 -125.539076 
0.3761250000000000 0.000169 90.659327 
0.3770000000000000 0.000083 166.328018 
0.3778750000000000 0.000069 -18.822505 
0.3787500000000000 0.000004 -96.306364 
0.3796250000000000 0.000036 118.915542 
0.3805000000000000 0.000076 69.790632 
0.3813750000000000 0.000137 -145.557983 
0.3822500000000000 0.000095 36.847422 
0.3831250000000000 0.000147 -163.309377 
0.3840000000000000 0.000087 -80.047849 
0.3848750000000000 0.000043 -175.403714 
0.3857500000000000 0.000052 -135.856918 
0.3866250000000000 0.000077 -131.495903 
0.3875000000000000 0.000095 99.933569 
0.3883750000000000 0.000043 -178.274341 
0.3892500000000000 0.000042 108.973505 
0.3901250000000000 0.000011 -64.747047 
0.3910000000000000 0.000122 -6.129656 
0.3918750000000000 0.000081 70.468698 
0.3927500000000000 0.000017 150.665194 
0.3936250000000000 0.000055 -66.203780 
0.3945000000000000 0.000134 154.139600 
0.3953750000000000 0.000080 -81.916066 
0.3962500000000000 0.000009 48.303832 
0.3971250000000000 0.000072 42.086104 
0.3980000000000000 0.000010 -64.787254 
0.3988750000000000 0.000088 -54.378921 
0.3997500000000000 0.000129 -71.611994 
0.4006250000000000 0.000066 -113.541564 
0.4015000000000000 0.000032 -41.778883 
0.4023750000000000 0.000101 -168.630479 
0.4032500000000000 0.000046 66.965175 
0.4041250000000000 0.000090 -135.833894 
0.4050000000000000 0.000111 -0.036665 
0.4058750000000000 0.000089 93.720826 
0.4067500000000000 0.000040 -39.885617 
0.4076250000000000 0.000103 -75.138845 
0.4085000000000000 0.000177 -7.989915 
0.4093750000000000 0.000182 -176.085112 
0.4102500000000000 0.000029 126.040039 
0.4111250000000000 0.000055 -144.346861 
0.4120000000000000 0.000070 -16.068589 
0.4128750000000000 0.000046 13.559932 
0.4137500000000000 0.000172 112.133623 
0.4146250000000000 0.000056 -60.792851 
0.4155000000000000 0.000030 116.971828 
0.4163750000000000 0.000086 -35.439080 
0.4172500000000000 0.000071 -139.460045 
0.4181250000000000 0.000148 -101.426169 
0.4190000000000000 0.000112 -1.235518 
0.4198750000000000 0.000096 -97.507429 
0.4207500000000000 0.000047 -81.814606 
0.4216250000000000 0.000155 110.817051 
0.4225000000000000 0.000066 51.699687 
0.4233750000000000 0.000082 37.020836 
0.4242500000000000 0.000057 -111.955844 
0.4251250000000000 0.000081 124.411142 
0.4260000000000000 0.000118 -147.179092 
0.4268750000000000 0.000091 53.336529 
0.4277500000000000 0.000113 25.464635 
0.4286250000000000 0.000084 -160.736844 
0.4295000000000000 0.000072 162.349745 
0.4303750000000000 0.000061 -174.307805 
0.4312500000000000 0.000064 -72.549931 
0.4321250000000000 0.000103 -128.467638 
0.4330000000000000 0.000092 139.781815 
0.4338750000000000 0.000016 -88.578189 
0.4347500000000000 0.000083 125.798891 
0.4356250000000000 0.000097 -178.631104 
0.4365000000000000 0.000065 -101.591265 
0.4373750000000000 0.000042 168.286124 
0.4382500000000000 0.000123 -156.941316 
0.4391250000000000 0.000107 142.353768 
0.4400000000000000 0.000036 135.191108 
0.4408750000000000 0.000062 79.268659 
0.4417500000000000 0.000017 50.686588 
0.4426250000000000 0.000054 116.581867 
0.4435000000000000 0.000082 -171.205999 
0.4443750000000000 0.000060 -126.895352 
0.4452500000000000 0.000116 170.763468 
0.4461250000000000 0.000084 -12.877414 
0.4470000000000000 0.000110 -163.539817 
0.4478750000000000 0.000075 -156.509288 
0.4487500000000000 0.000079 165.190133 
0.4496250000000000 0.000164 147.752554 
0.4505000000000000 0.000136 100.698263 
0.4513750000000000 0.000122 -115.511575 
0.4522500000000000 0.000074 -128.365493 
0.4531250000000000 0.000090 119.815175 
0.4540000000000000 0.000099 -104.614540 
0.4548750000000000 0.000017 170.062394 
0.4557500000000000 0.000066 132.413868 
0.4566250000000000 0.000075 159.869610 
0.4575000000000000 0.000029 113.971790 
0.4583750000000000 0.000080 109.528028 
0.4592500000000000 0.000109 40.878401 
0.4601250000000000 0.000140 142.000698 
0.4610000000000000 0.000060 -178.884626 
0.4618750000000000 0.000112 108.219796 
0.4627500000000000 0.000165 82.239404 
0.4636250000000000 0.000128 81.415591 
0.4645000000000000 0.000203 140.805499 
0.4653750000000000 0.000059 164.902710 
0.4662500000000000 0.000150 83.276372 
0.4671250000000000 0.000099 110.064285 
0.4680000000000000 0.000109 134.414631 
0.4688750000000000 0.000098 101.757677 
0.4697500000000000 0.000112 99.453549 
0.4706250000000000 0.000143 76.005777 
0.4715000000000000 0.000092 121.529335 
0.4723750000000000 0.000020 59.526576 
0.4732500000000000 0.000144 66.872304 
0.4741250000000000 0.000135 93.382819 
0.4750000000000000 0.000122 82.437835 
0.4758750000000000 0.000168 51.205025 
0.4767500000000000 0.000148 131.609140 
0.4776250000000000 0.000092 14.750910 
0.4785000000000000 0.000127 102.431342 
0.4793750000000000 0.000073 96.732841 
0.4802500000000000 0.000167 164.402740 
0.4811250000000000 0.000148 86.088170 
0.4820000000000000 0.000192 119.462928 
0.4828750000000000 0.000016 -14.320739 
0.4837500000000000 0.000244 77.269500 
0.4846250000000000 0.000153 169.305594 
0.4855000000000000 0.000298 47.694292 
0.4863750000000000 0.000078 44.420290 
0.4872500000000000 0.000139 46.618023 
0.4881250000000000 0.000199 112.755637 
0.4890000000000000 0.000167 79.838053 
0.4898750000000000 0.000229 74.557540 
0.4907500000000000 0.000015 -148.711432 
0.4916250000000000 0.000146 55.788858 
0.4925000000000000 0.000180 66.766160 
0.4933750000000000 0.000174 74.422984 
0.4942500000000000 0.000174 18.550540 
0.4951250000000000 0.000164 49.227275 
0.4960000000000000 0.000208 38.504297 
0.4968750000000000 0.000247 25.725662 
0.4977500000000000 0.000160 32.479169 
0.4986250000000000 0.000214 26.012084 
0.4995000000000000 0.000122 -1.716253 
0.5003750000000000 0.000140 4.330234 
0.5012500000000000 0.000151 26.754736 
0.5021250000000000 0.000159 17.452399 
0.5030000000000000 0.000148 -1.982690 
0.5038750000000000 0.000232 -4.155308 
0.5047500000000000 0.000181 6.937522 
0.5056250000000000 0.000237 36.751245 
0.5065000000000000 0.000198 7.656214 
0.5073750000000000 0.000185 11.856729 
0.5082500000000000 0.000250 30.984836 
0.5091250000000001 0.000169 43.700293 
0.5100000000000000 0.000414 -1.317505 
0.5108750000000000 0.000194 -23.514200 
0.5117500000000000 0.000243 0.519841 
0.5126250000000000 0.000197 -18.031322 
0.5135000000000000 0.000138 7.011116 
0.5143750000000000 0.000127 -14.702924 
0.5152500000000000 0.000305 -7.047672 
0.5161249999999999 0.000301 -0.071002 
0.5170000000000000 0.000136 18.864473 
0.5178750000000000 0.000243 -27.811051 
0.5187500000000000 0.000253 -22.053496 
0.5196250000000000 0.000352 -43.143888 
0.5205000000000000 0.000245 -36.975600 
0.5213750000000000 0.000267 -40.759843 
0.5222500000000000 0.000206 -4.297015 
0.5231250000000000 0.000258 -54.532652 
0.5240000000000000 0.000221 -23.739968 
0.5248750000000000 0.000206 -51.972078 
0.5257500000000001 0.000326 -44.355214 
0.5266250000000000 0.000244 -71.914042 
0.5275000000000000 0.000212 -34.867544 
0.5283750000000000 0.000267 -67.899802 
0.5292500000000000 0.000301 -84.261776 
0.5301250000000000 0.000255 -48.321062 
0.5310000000000000 0.000322 -57.291382 
0.5318750000000000 0.000355 -52.660000 
0.5327500000000000 0.000350 -52.207557 
0.5336250000000000 0.000290 -52.367499 
0.5345000000000000 0.000364 -80.863125 
0.5353750000000001 0.000366 -71.825521 
0.5362500000000000 0.000174 -55.838044 
0.5371250000000000 0.000257 -80.573110 
0.5380000000000000 0.000270 -83.490259 
0.5388750000000000 0.000309 -97.912937 
0.5397500000000000 0.000304 -82.509779 
0.5406250000000000 0.000439 -89.694615 
0.5415000000000000 0.000399 -103.601583 
0.5423750000000001 0.000349 -108.758918 
0.5432500000000000 0.000237 -74.455132 
0.5441250000000000 0.000421 -125.013622 
0.5450000000000000 0.000302 -111.130651 
0.5458750000000000 0.000512 -114.064099 
0.5467500000000000 0.000417 -110.840249 
0.5476250000000000 0.000374 -125.068346 
0.5485000000000000 0.000372 -105.350182 
0.5493750000000000 0.000467 -122.042601 
0.5502500000000000 0.000337 -119.543775 
0.5511250000000000 0.000345 -129.404210 
0.5520000000000001 0.000400 -132.519631 
0.5528750000000000 0.000451 -119.755680 
0.5537500000000000 0.000437 -145.157517 
0.5546250000000000 0.000451 -130.551187 
0.5555000000000000 0.000527 -143.937833 
0.5563750000000000 0.000503 -146.327832 
0.5572500000000000 0.000543 -138.758198 
0.5581250000000000 0.000551 -143.044569 
0.5590000000000001 0.000583 -145.593446 
0.5598750000000000 0.000581 -160.469690 
0.5607500000000000 0.000635 -153.777671 
0.5616250000000000 0.000511 173.329768 
0.5625000000000000 0.000675 -163.740405 
0.5633750000000000 0.000675 -162.004071 
0.5642500000000000 0.000540 -176.352878 
0.5651250000000000 0.000477 -164.314973 
0.5660000000000000 0.000633 -173.472159 
0.5668750000000000 0.000567 174.719688 
0.5677500000000000 0.000629 174.299675 
0.5686250000000001 0.000711 176.857206 
0.5695000000000000 0.000715 -179.264193 
0.5703750000000000 0.000621 165.549271 
0.5712500000000000 0.000611 162.765538 
0.5721250000000000 0.000755 165.542492 
0.5730000000000000 0.000794 156.850005 
0.5738750000000000 0.000725 161.531547 
0.5747500000000000 0.000811 165.158007 
0.5756250000000001 0.000788 157.493783 
0.5765000000000000 0.000786 154.839445 
0.5773750000000000 0.000712 153.708320 
0.5782500000000000 0.000745 142.535168 
0.5791250000000000 0.000877 141.959954 
0.5800000000000000 0.000902 138.750175 
0.5808750000000000 0.000977 141.177308 
0.5817500000000000 0.001015 133.219529 
0.5826250000000000 0.001073 131.172147 
0.5835000000000000 0.000885 127.323910 
0.5843750000000000 0.001088 124.382321 
0.5852500000000001 0.000997 124.502087 
0.5861250000000000 0.001122 123.303760 
0.5870000000000000 0.001096 115.751135 
0.5878750000000000 0.001068 112.634874 
0.5887500000000000 0.001188 112.921092 
0.5896250000000000 0.001225 108.916131 
0.5905000000000000 0.001353 99.434941 
0.5913750000000000 0.001281 103.554623 
0.5922500000000001 0.001460 101.927321 
0.5931250000000000 0.001350 101.630359 
0.5940000000000000 0.001444 93.526612 
0.5948750000000000 0.001471 89.630911 
0.5957500000000000 0.001544 83.364828 
0.5966250000000000 0.001525 90.721030 
0.5975000000000000 0.001582 82.410349 
0.5983750000000000 0.001617 77.647567 
0.5992500000000000 0.001667 77.575652 
0.6001250000000000 0.001654 74.090911 
0.6010000000000000 0.001712 67.866640 
0.6018750000000001 0.001848 66.767919 
0.6027500000000000 0.001796 63.929952 
0.6036250000000000 0.002026 61.391155 
0.6045000000000000 0.001930 60.410935 
0.6053750000000000 0.002156 53.207405 
0.6062500000000000 0.002089 49.974251 
0.6071250000000000 0.002186 51.314822 
0.6080000000000000 0.002310 48.747320 
0.6088750000000001 0.002238 41.622900 
0.6097500000000000 0.002327 38.643757 
0.6106250000000000 0.002589 32.713988 
0.6115000000000000 0.002596 30.467417 
0.6123750000000000 0.002620 27.623545 
0.6132500000000000 0.002717 26.776404 
0.6141250000000000 0.002881 20.786308 
0.6150000000000000 0.002990 18.794730 
0.6158750000000000 0.003161 15.049709 
0.6167500000000000 0.003035 9.291366 
0.6176250000000000 0.003119 8.537698 
0.6185000000000001 0.003412 3.726181 
0.6193750000000000 0.003324 0.415115 
0.6202500000000000 0.003519 -3.122553 
0.6211250000000000 0.003573 -5.433988 
0.6220000000000000 0.003912 -9.105860 
0.6228750000000000 0.003807 -14.232038 
0.6237500000000000 0.003997 -17.235154 
0.6246250000000000 0.004026 -20.127167 
0.6254999999999999 0.004258 -22.407885 
0.6263750000000000 0.004334 -26.924506 
0.6272500000000000 0.004392 -30.616480 
0.6281250000000000 0.004542 -35.533839 
0.6290000000000000 0.004745 -39.628277 
0.6298750000000000 0.004758 -41.229140 
0.6307500000000000 0.004978 -44.986415 
0.6316250000000000 0.005029 -49.501240 
0.6325000000000000 0.005151 -52.306423 
0.6333750000000000 0.005401 -57.108249 
0.6342500000000000 0.005485 -62.964932 
0.6351250000000001 0.005574 -64.224130 
0.6360000000000000 0.005781 -67.628606 
0.6368750000000000 0.006021 -70.873358 
0.6377500000000000 0.006232 -75.082840 
0.6386250000000000 0.006341 -79.311133 
0.6395000000000000 0.006443 -82.567315 
0.6403750000000000 0.006733 -86.189161 
0.6412500000000000 0.006971 -89.837354 
0.6421250000000000 0.006932 -94.003485 
0.6430000000000000 0.007254 -97.566021 
0.6438750000000000 0.007344 -101.711229 
0.6447500000000001 0.007640 -105.602021 
0.6456250000000000 0.007842 -109.411049 
0.6465000000000000 0.008040 -112.289197 
0.6473750000000000 0.008310 -115.821089 
0.6482500000000000 0.008564 -120.142540 
0.6491250000000000 0.008798 -123.623750 
0.6500000000000000 0.008996 -128.059313 
0.6508750000000000 0.009468 -132.025818 
0.6517500000000001 0.009435 -135.301004 
0.6526250000000000 0.009958 -139.359424 
0.6535000000000000 0.010172 -143.317582 
0.6543750000000000 0.010647 -148.206237 
0.6552500000000000 0.010912 -151.815576 
0.6561250000000000 0.011232 -156.129381 
0.6570000000000000 0.011532 -159.549324 
0.6578750000000000 0.011873 -163.259327 
0.6587500000000000 0.012460 -167.530648 
0.6596250000000000 0.012758 -172.686128 
0.6605000000000000 0.013220 -176.006257 
0.6613750000000001 0.013660 179.767986 
0.6622500000000000 0.014163 175.173723 
0.6631250000000000 0.014810 170.836711 
0.6640000000000000 0.015153 166.348577 
0.6648750000000000 0.015941 161.785089 
0.6657500000000000 0.016425 156.356715 
0.6666250000000000 0.017056 151.723979 
0.6675000000000000 0.017817 146.817734 
0.6683750000000001 0.018475 141.456144 
0.6692500000000000 0.019283 135.958825 
0.6701250000000000 0.019922 130.871262 
0.6710000000000000 0.020683 124.400082 
0.6718750000000000 0.021547 118.948447 
0.6727500000000000 0.022346 112.606510 
0.6736250000000000 0.023022 106.172956 
0.6745000000000000 0.023774 99.093910 
0.6753750000000000 0.024423 92.784309 
0.6762500000000000 0.024830 85.351679 
0.6771250000000000 0.025361 78.288233 
0.6780000000000001 0.025654 70.958831 
0.6788750000000000 0.025997 63.414261 
0.6797500000000000 0.025867 55.855283 
0.6806250000000000 0.025697 48.523631 
0.6815000000000000 0.025501 40.951303 
0.6823750000000000 0.025016 34.094765 
0.6832500000000000 0.024410 26.512986 
0.6841250000000000 0.023840 20.054395 
0.6850000000000001 0.022997 13.457657 
0.6858750000000000 0.022438 6.930490 
0.6867500000000000 0.021528 0.533012 
0.6876250000000000 0.020624 -5.756201 
0.6885000000000000 0.019832 -11.075961 
0.6893750000000000 0.019028 -16.704741 
0.6902500000000000 0.018174 -22.162632 
0.6911250000000000 0.017587 -26.731783 
0.6920000000000000 0.016795 -32.152303 
0.6928750000000000 0.016107 -36.615118 
0.6937500000000000 0.015478 -41.199057 
0.6946250000000001 0.014953 -46.257206 
0.6955000000000000 0.014333 -50.396750 
0.6963750000000000 0.013727 -55.125207 
0.6972500000000000 0.013339 -59.189040 
0.6981250000000000 0.012831 -63.017881 
0.6990000000000000 0.012216 -67.066007 
0.6998750000000000 0.011797 -71.185701 
0.7007500000000000 0.011553 -75.295555 
0.7016250000000001 0.010972 -78.841453 
0.7025000000000000 0.010691 -82.261651 
0.7033750000000000 0.010334 -86.028343 
0.7042500000000000 0.010095 -90.476326 
0.7051250000000000 0.009651 -93.725195 
0.7060000000000000 0.009317 -97.241771 
0.7068750000000000 0.009006 -100.389502 
0.7077500000000000 0.008846 -103.151570 
0.7086250000000000 0.008434 -106.698311 
0.7095000000000000 0.008204 -109.732450 
0.7103750000000000 0.007942 -113.344940 
0.7112500000000001 0.007821 -116.244794 
0.7121250000000000 0.007465 -120.575215 
0.7130000000000000 0.007465 -122.250566 
0.7138750000000000 0.007200 -125.120398 
0.7147500000000000 0.007067 -130.470882 
0.7156250000000000 0.006870 -131.595227 
0.7165000000000000 0.006663 -135.266733 
0.7173750000000000 0.006470 -137.801866 
0.7182500000000001 0.006336 -141.523348 
0.7191250000000000 0.006266 -144.583970 
0.7200000000000000 0.006058 -146.924139 
