!
! C:\Users\rflab\Downloads\q2\180.S1P
!
! Touchstone 1.1 file saved by VNA.EXE V1.65 (www.ke5fx.com/gpib/readme.htm)
! 11/20/2024 11:12:21 AM
!
!    Source: HEWLETT PACKARD,8753D,0,6.14
!  Min freq: 3.000000E+008 Hz
!  Max freq: 1.000000E+009 Hz
!    Points: 801
!    Params: S21
!
!!!!!
# GHZ S MA R 50
0.3000000000000000 0.000093 -142.666867 
0.3008750000000000 0.000057 -128.508914 
0.3017500000000000 0.000046 -158.789916 
0.3026250000000000 0.000041 -116.350852 
0.3035000000000000 0.000032 -10.083939 
0.3043750000000000 0.000061 -144.468015 
0.3052500000000000 0.000061 80.264758 
0.3061250000000000 0.000048 -160.567349 
0.3070000000000000 0.000119 10.874654 
0.3078750000000000 0.000086 -149.335000 
0.3087500000000000 0.000053 -52.495636 
0.3096250000000000 0.000138 127.017545 
0.3105000000000000 0.000111 -40.037534 
0.3113750000000000 0.000047 149.621686 
0.3122500000000000 0.000060 44.752361 
0.3131250000000000 0.000103 -15.401889 
0.3140000000000000 0.000094 116.925299 
0.3148750000000000 0.000110 124.473961 
0.3157500000000000 0.000066 -106.537863 
0.3166250000000000 0.000052 -106.152041 
0.3175000000000000 0.000070 136.379870 
0.3183750000000000 0.000019 -158.420615 
0.3192500000000000 0.000079 -104.913296 
0.3201250000000000 0.000049 -97.602829 
0.3210000000000000 0.000100 -47.110582 
0.3218750000000000 0.000036 61.745850 
0.3227500000000000 0.000073 -175.905268 
0.3236250000000000 0.000104 -136.920712 
0.3245000000000000 0.000054 126.795914 
0.3253750000000000 0.000048 -19.679351 
0.3262500000000000 0.000114 21.662781 
0.3271250000000000 0.000127 -115.762028 
0.3280000000000000 0.000055 -54.121680 
0.3288750000000000 0.000057 151.707288 
0.3297500000000000 0.000046 -42.406669 
0.3306250000000000 0.000096 -86.215330 
0.3315000000000000 0.000025 -123.047131 
0.3323750000000000 0.000089 67.765229 
0.3332500000000000 0.000013 171.407918 
0.3341250000000000 0.000087 10.804886 
0.3350000000000000 0.000029 149.758957 
0.3358750000000000 0.000166 27.907176 
0.3367500000000000 0.000073 1.139672 
0.3376250000000000 0.000042 -66.459802 
0.3385000000000000 0.000068 -50.452333 
0.3393750000000000 0.000080 -83.965879 
0.3402500000000000 0.000156 105.216029 
0.3411250000000000 0.000117 140.302274 
0.3420000000000000 0.000132 97.032273 
0.3428750000000000 0.000075 151.392485 
0.3437500000000000 0.000045 147.499044 
0.3446250000000000 0.000023 -135.138677 
0.3455000000000000 0.000083 17.337486 
0.3463750000000000 0.000036 6.834208 
0.3472500000000000 0.000050 23.095780 
0.3481250000000000 0.000090 -107.598035 
0.3490000000000000 0.000083 124.734634 
0.3498750000000000 0.000155 -120.722678 
0.3507500000000000 0.000022 -138.968982 
0.3516250000000000 0.000087 159.484248 
0.3525000000000000 0.000035 106.265013 
0.3533750000000000 0.000051 -158.303397 
0.3542500000000000 0.000058 144.946600 
0.3551250000000000 0.000078 -22.845218 
0.3560000000000000 0.000094 -147.522728 
0.3568750000000000 0.000016 -173.337135 
0.3577500000000000 0.000044 30.273189 
0.3586250000000000 0.000153 134.414833 
0.3595000000000000 0.000107 54.286649 
0.3603750000000000 0.000044 -56.391384 
0.3612500000000000 0.000035 -133.424861 
0.3621250000000000 0.000066 -14.559872 
0.3630000000000000 0.000065 -18.687444 
0.3638750000000000 0.000075 -14.229658 
0.3647500000000000 0.000074 -33.720581 
0.3656250000000000 0.000009 117.548911 
0.3665000000000000 0.000085 82.615904 
0.3673750000000000 0.000121 8.211631 
0.3682500000000000 0.000068 149.429174 
0.3691250000000000 0.000104 -100.020891 
0.3700000000000000 0.000112 67.199891 
0.3708750000000000 0.000032 111.954567 
0.3717500000000000 0.000058 130.417332 
0.3726250000000000 0.000048 60.589625 
0.3735000000000000 0.000123 102.701675 
0.3743750000000000 0.000071 -6.608409 
0.3752500000000000 0.000111 -41.816546 
0.3761250000000000 0.000090 85.128768 
0.3770000000000000 0.000096 20.077290 
0.3778750000000000 0.000108 -90.343203 
0.3787500000000000 0.000061 94.131894 
0.3796250000000000 0.000101 155.307845 
0.3805000000000000 0.000088 -154.983840 
0.3813750000000000 0.000043 176.131135 
0.3822500000000000 0.000068 -13.353818 
0.3831250000000000 0.000125 19.181105 
0.3840000000000000 0.000093 172.341203 
0.3848750000000000 0.000075 -178.203818 
0.3857500000000000 0.000186 178.155948 
0.3866250000000000 0.000146 136.898424 
0.3875000000000000 0.000197 87.427601 
0.3883750000000000 0.000125 99.820468 
0.3892500000000000 0.000009 -52.759855 
0.3901250000000000 0.000110 -154.275466 
0.3910000000000000 0.000032 -82.885215 
0.3918750000000000 0.000054 17.801734 
0.3927500000000000 0.000061 6.874623 
0.3936250000000000 0.000139 108.812917 
0.3945000000000000 0.000078 171.418763 
0.3953750000000000 0.000032 -22.975975 
0.3962500000000000 0.000055 -88.001781 
0.3971250000000000 0.000049 165.294819 
0.3980000000000000 0.000058 -125.896276 
0.3988750000000000 0.000195 -32.639714 
0.3997500000000000 0.000061 93.946635 
0.4006250000000000 0.000059 -137.723402 
0.4015000000000000 0.000071 -5.065859 
0.4023750000000000 0.000092 -142.348199 
0.4032500000000000 0.000038 71.493958 
0.4041250000000000 0.000135 -70.865303 
0.4050000000000000 0.000103 -148.355507 
0.4058750000000000 0.000080 44.880847 
0.4067500000000000 0.000098 170.294086 
0.4076250000000000 0.000227 113.885101 
0.4085000000000000 0.000073 158.869183 
0.4093750000000000 0.000182 127.824391 
0.4102500000000000 0.000050 -150.100078 
0.4111250000000000 0.000050 37.198863 
0.4120000000000000 0.000031 -39.474954 
0.4128750000000000 0.000030 83.701456 
0.4137500000000000 0.000123 -1.159718 
0.4146250000000000 0.000141 -175.871879 
0.4155000000000000 0.000038 -88.980175 
0.4163750000000000 0.000039 170.460297 
0.4172500000000000 0.000120 47.427995 
0.4181250000000000 0.000073 137.996115 
0.4190000000000000 0.000055 -77.692155 
0.4198750000000000 0.000043 67.306323 
0.4207500000000000 0.000082 -43.611336 
0.4216250000000000 0.000091 -139.365486 
0.4225000000000000 0.000019 -19.393707 
0.4233750000000000 0.000062 147.901994 
0.4242500000000000 0.000033 -171.086211 
0.4251250000000000 0.000039 -96.179558 
0.4260000000000000 0.000061 125.839151 
0.4268750000000000 0.000046 -66.945462 
0.4277500000000000 0.000051 -165.781817 
0.4286250000000000 0.000097 -12.459542 
0.4295000000000000 0.000175 -159.037632 
0.4303750000000000 0.000181 -135.429746 
0.4312500000000000 0.000101 138.796383 
0.4321250000000000 0.000135 -73.533246 
0.4330000000000000 0.000143 33.747896 
0.4338750000000000 0.000070 140.760024 
0.4347500000000000 0.000074 66.364706 
0.4356250000000000 0.000047 172.076556 
0.4365000000000000 0.000127 -126.351603 
0.4373750000000000 0.000143 -119.126473 
0.4382500000000000 0.000088 -179.405657 
0.4391250000000000 0.000043 -153.378621 
0.4400000000000000 0.000060 23.603676 
0.4408750000000000 0.000042 85.890174 
0.4417500000000000 0.000127 92.366443 
0.4426250000000000 0.000115 -95.292590 
0.4435000000000000 0.000103 -118.190696 
0.4443750000000000 0.000022 -106.279022 
0.4452500000000000 0.000038 28.635470 
0.4461250000000000 0.000071 -150.789980 
0.4470000000000000 0.000110 -24.457161 
0.4478750000000000 0.000086 83.573896 
0.4487500000000000 0.000074 95.686792 
0.4496250000000000 0.000019 -87.275183 
0.4505000000000000 0.000030 -142.962304 
0.4513750000000000 0.000079 -102.561528 
0.4522500000000000 0.000075 -115.403376 
0.4531250000000000 0.000059 -54.120830 
0.4540000000000000 0.000035 -11.736041 
0.4548750000000000 0.000090 125.935604 
0.4557500000000000 0.000011 -15.378687 
0.4566250000000000 0.000088 91.554512 
0.4575000000000000 0.000072 57.815531 
0.4583750000000000 0.000047 -94.967595 
0.4592500000000000 0.000051 23.993146 
0.4601250000000000 0.000047 -64.540046 
0.4610000000000000 0.000032 -68.420388 
0.4618750000000000 0.000154 104.385593 
0.4627500000000000 0.000132 108.454318 
0.4636250000000000 0.000130 137.460452 
0.4645000000000000 0.000143 107.701281 
0.4653750000000000 0.000062 -24.513021 
0.4662500000000000 0.000130 138.409026 
0.4671250000000000 0.000089 84.062319 
0.4680000000000000 0.000146 84.351132 
0.4688750000000000 0.000070 -33.093957 
0.4697500000000000 0.000119 143.962452 
0.4706250000000000 0.000023 33.818008 
0.4715000000000000 0.000112 99.802959 
0.4723750000000000 0.000127 89.435924 
0.4732500000000000 0.000042 139.078624 
0.4741250000000000 0.000139 100.797764 
0.4750000000000000 0.000220 87.069348 
0.4758750000000000 0.000189 126.043439 
0.4767500000000000 0.000093 90.724583 
0.4776250000000000 0.000068 68.594773 
0.4785000000000000 0.000116 110.989814 
0.4793750000000000 0.000163 71.983176 
0.4802500000000000 0.000107 92.669787 
0.4811250000000000 0.000062 123.636420 
0.4820000000000000 0.000099 105.080541 
0.4828750000000000 0.000156 110.881787 
0.4837500000000000 0.000155 96.921671 
0.4846250000000000 0.000145 88.423677 
0.4855000000000000 0.000199 79.043565 
0.4863750000000000 0.000109 49.023420 
0.4872500000000000 0.000197 91.845446 
0.4881250000000000 0.000128 57.172450 
0.4890000000000000 0.000103 118.619257 
0.4898750000000000 0.000265 39.741937 
0.4907500000000000 0.000059 56.939213 
0.4916250000000000 0.000038 92.511736 
0.4925000000000000 0.000099 25.724342 
0.4933750000000000 0.000231 58.704229 
0.4942500000000000 0.000059 66.314046 
0.4951250000000000 0.000160 18.224692 
0.4960000000000000 0.000174 41.872640 
0.4968750000000000 0.000141 19.989032 
0.4977500000000000 0.000211 52.376908 
0.4986250000000000 0.000249 46.714695 
0.4995000000000000 0.000110 39.166865 
0.5003750000000000 0.000100 31.703674 
0.5012500000000000 0.000236 11.381503 
0.5021250000000000 0.000228 42.849945 
0.5030000000000000 0.000182 -0.737583 
0.5038750000000000 0.000141 -32.720262 
0.5047500000000000 0.000345 23.887536 
0.5056250000000000 0.000175 2.368139 
0.5065000000000000 0.000249 5.724597 
0.5073750000000000 0.000177 -12.779893 
0.5082500000000000 0.000239 6.930650 
0.5091250000000001 0.000201 1.446728 
0.5100000000000000 0.000199 -20.363587 
0.5108750000000000 0.000206 9.663285 
0.5117500000000000 0.000210 -15.550317 
0.5126250000000000 0.000216 12.481627 
0.5135000000000000 0.000304 12.582677 
0.5143750000000000 0.000138 -37.582127 
0.5152500000000000 0.000298 3.397791 
0.5161249999999999 0.000204 -44.175684 
0.5170000000000000 0.000242 -40.716563 
0.5178750000000000 0.000189 -33.945401 
0.5187500000000000 0.000201 -26.252435 
0.5196250000000000 0.000290 -41.397788 
0.5205000000000000 0.000204 -20.048833 
0.5213750000000000 0.000286 -43.738905 
0.5222500000000000 0.000098 -52.010495 
0.5231250000000000 0.000241 -38.239931 
0.5240000000000000 0.000228 -40.303916 
0.5248750000000000 0.000164 -60.879669 
0.5257500000000001 0.000182 -63.985822 
0.5266250000000000 0.000255 -31.943887 
0.5275000000000000 0.000288 -52.378180 
0.5283750000000000 0.000298 -51.134845 
0.5292500000000000 0.000330 -29.747135 
0.5301250000000000 0.000335 -51.382773 
0.5310000000000000 0.000334 -85.323791 
0.5318750000000000 0.000269 -60.701905 
0.5327500000000000 0.000310 -53.476308 
0.5336250000000000 0.000226 -79.077530 
0.5345000000000000 0.000349 -54.765601 
0.5353750000000001 0.000350 -65.208006 
0.5362500000000000 0.000292 -68.992698 
0.5371250000000000 0.000353 -78.213838 
0.5380000000000000 0.000197 -74.250315 
0.5388750000000000 0.000354 -82.111893 
0.5397500000000000 0.000282 -104.900791 
0.5406250000000000 0.000345 -87.368593 
0.5415000000000000 0.000466 -99.780167 
0.5423750000000001 0.000398 -102.796185 
0.5432500000000000 0.000514 -112.555788 
0.5441250000000000 0.000421 -105.181475 
0.5450000000000000 0.000336 -103.522036 
0.5458750000000000 0.000419 -99.132801 
0.5467500000000000 0.000479 -114.699644 
0.5476250000000000 0.000464 -116.120270 
0.5485000000000000 0.000403 -127.282945 
0.5493750000000000 0.000510 -115.704366 
0.5502500000000000 0.000537 -117.451734 
0.5511250000000000 0.000443 -116.391101 
0.5520000000000001 0.000463 -129.718716 
0.5528750000000000 0.000508 -121.719028 
0.5537500000000000 0.000466 -121.537353 
0.5546250000000000 0.000465 -137.164955 
0.5555000000000000 0.000456 -144.649672 
0.5563750000000000 0.000405 -143.438001 
0.5572500000000000 0.000530 -146.757238 
0.5581250000000000 0.000539 -160.231293 
0.5590000000000001 0.000533 -155.224859 
0.5598750000000000 0.000451 -155.303968 
0.5607500000000000 0.000539 -147.575689 
0.5616250000000000 0.000632 -164.710307 
0.5625000000000000 0.000678 -173.445585 
0.5633750000000000 0.000611 -177.885217 
0.5642500000000000 0.000597 -176.633875 
0.5651250000000000 0.000677 179.039402 
0.5660000000000000 0.000552 -177.707165 
0.5668750000000000 0.000716 173.474177 
0.5677500000000000 0.000803 -178.352130 
0.5686250000000001 0.000813 160.345892 
0.5695000000000000 0.000681 179.102558 
0.5703750000000000 0.000717 171.780031 
0.5712500000000000 0.000753 160.321929 
0.5721250000000000 0.000775 160.138338 
0.5730000000000000 0.000597 164.443267 
0.5738750000000000 0.000834 169.581853 
0.5747500000000000 0.000819 154.806088 
0.5756250000000001 0.000967 148.706899 
0.5765000000000000 0.000908 150.838879 
0.5773750000000000 0.000899 145.585729 
0.5782500000000000 0.000958 138.960148 
0.5791250000000000 0.001033 142.241561 
0.5800000000000000 0.000902 143.274713 
0.5808750000000000 0.000989 133.843271 
0.5817500000000000 0.000958 134.179619 
0.5826250000000000 0.000968 121.990989 
0.5835000000000000 0.001004 127.207370 
0.5843750000000000 0.001073 128.064099 
0.5852500000000001 0.000972 110.923728 
0.5861250000000000 0.001124 114.872579 
0.5870000000000000 0.001202 107.028341 
0.5878750000000000 0.001142 105.531155 
0.5887500000000000 0.001283 117.300711 
0.5896250000000000 0.001255 106.010042 
0.5905000000000000 0.001324 108.904137 
0.5913750000000000 0.001299 104.796961 
0.5922500000000001 0.001404 99.426345 
0.5931250000000000 0.001436 96.815291 
0.5940000000000000 0.001550 96.205925 
0.5948750000000000 0.001633 88.631742 
0.5957500000000000 0.001745 91.023694 
0.5966250000000000 0.001501 83.296940 
0.5975000000000000 0.001757 81.824255 
0.5983750000000000 0.001759 81.232735 
0.5992500000000000 0.001835 80.658861 
0.6001250000000000 0.001838 73.356651 
0.6010000000000000 0.001874 71.250397 
0.6018750000000001 0.001985 64.958782 
0.6027500000000000 0.002041 63.647433 
0.6036250000000000 0.002048 61.378897 
0.6045000000000000 0.002240 57.819455 
0.6053750000000000 0.002252 54.362180 
0.6062500000000000 0.002284 52.218415 
0.6071250000000000 0.002368 49.093325 
0.6080000000000000 0.002475 42.606737 
0.6088750000000001 0.002579 42.474986 
0.6097500000000000 0.002587 35.220890 
0.6106250000000000 0.002582 34.495711 
0.6115000000000000 0.002733 28.521112 
0.6123750000000000 0.002805 25.728801 
0.6132500000000000 0.002979 25.467879 
0.6141250000000000 0.002988 20.004979 
0.6150000000000000 0.003116 17.873450 
0.6158750000000000 0.003178 13.149930 
0.6167500000000000 0.003388 10.567396 
0.6176250000000000 0.003479 8.131213 
0.6185000000000001 0.003681 2.951738 
0.6193750000000000 0.003774 0.224405 
0.6202500000000000 0.003892 -4.342443 
0.6211250000000000 0.003857 -7.447900 
0.6220000000000000 0.004032 -8.826267 
0.6228750000000000 0.004239 -15.762150 
0.6237500000000000 0.004260 -18.353824 
0.6246250000000000 0.004462 -22.226622 
0.6254999999999999 0.004501 -24.936029 
0.6263750000000000 0.004597 -30.216657 
0.6272500000000000 0.004814 -31.173032 
0.6281250000000000 0.004929 -36.510714 
0.6290000000000000 0.004942 -38.436207 
0.6298750000000000 0.005252 -43.924071 
0.6307500000000000 0.005379 -46.740276 
0.6316250000000000 0.005619 -51.211099 
0.6325000000000000 0.005501 -53.420664 
0.6333750000000000 0.005825 -57.726650 
0.6342500000000000 0.005955 -61.419743 
0.6351250000000001 0.006312 -64.992523 
0.6360000000000000 0.006226 -68.350154 
0.6368750000000000 0.006430 -71.336625 
0.6377500000000000 0.006747 -76.092898 
0.6386250000000000 0.006679 -79.297798 
0.6395000000000000 0.006984 -83.590250 
0.6403750000000000 0.007123 -86.522609 
0.6412500000000000 0.007468 -89.626865 
0.6421250000000000 0.007649 -95.024974 
0.6430000000000000 0.007732 -98.115109 
0.6438750000000000 0.008068 -102.177301 
0.6447500000000001 0.008246 -105.371941 
0.6456250000000000 0.008412 -109.123123 
0.6465000000000000 0.008638 -112.598451 
0.6473750000000000 0.008933 -117.450012 
0.6482500000000000 0.009071 -120.645582 
0.6491250000000000 0.009516 -123.487015 
0.6500000000000000 0.009768 -128.522642 
0.6508750000000000 0.010025 -133.176744 
0.6517500000000001 0.010448 -136.076180 
0.6526250000000000 0.010644 -139.727769 
0.6535000000000000 0.011005 -144.159888 
0.6543750000000000 0.011363 -148.368240 
0.6552500000000000 0.011640 -152.217202 
0.6561250000000000 0.012052 -155.377809 
0.6570000000000000 0.012438 -159.918558 
0.6578750000000000 0.012896 -163.891651 
0.6587500000000000 0.013153 -167.687925 
0.6596250000000000 0.013650 -171.955380 
0.6605000000000000 0.014080 -176.878293 
0.6613750000000001 0.014657 178.874065 
0.6622500000000000 0.015102 174.539258 
0.6631250000000000 0.015872 169.989825 
0.6640000000000000 0.016319 165.474073 
0.6648750000000000 0.016899 161.321707 
0.6657500000000000 0.017682 155.967555 
0.6666250000000000 0.018359 151.444653 
0.6675000000000000 0.019221 145.822672 
0.6683750000000001 0.019954 140.764540 
0.6692500000000000 0.020690 135.662956 
0.6701250000000000 0.021480 129.884727 
0.6710000000000000 0.022277 124.230227 
0.6718750000000000 0.023021 118.396408 
0.6727500000000000 0.023843 112.253361 
0.6736250000000000 0.024636 105.565780 
0.6745000000000000 0.025312 98.663445 
0.6753750000000000 0.026005 91.943942 
0.6762500000000000 0.026650 84.994909 
0.6771250000000000 0.027193 77.918433 
0.6780000000000001 0.027477 70.844342 
0.6788750000000000 0.027775 62.597339 
0.6797500000000000 0.027597 55.779445 
0.6806250000000000 0.027396 47.968609 
0.6815000000000000 0.027157 40.659344 
0.6823750000000000 0.026789 33.411724 
0.6832500000000000 0.026065 26.413168 
0.6841250000000000 0.025380 19.413991 
0.6850000000000001 0.024688 12.860574 
0.6858750000000000 0.023748 6.451481 
0.6867500000000000 0.022964 -0.057108 
0.6876250000000000 0.022119 -5.730749 
0.6885000000000000 0.021039 -11.261034 
0.6893750000000000 0.020277 -16.438811 
0.6902500000000000 0.019507 -22.628485 
0.6911250000000000 0.018545 -27.317481 
0.6920000000000000 0.017987 -32.548321 
0.6928750000000000 0.017225 -37.486591 
0.6937500000000000 0.016501 -41.972184 
0.6946250000000001 0.015877 -46.689120 
0.6955000000000000 0.015237 -50.755761 
0.6963750000000000 0.014794 -55.594867 
0.6972500000000000 0.014065 -59.946723 
0.6981250000000000 0.013635 -63.044258 
0.6990000000000000 0.013168 -67.660711 
0.6998750000000000 0.012712 -71.640484 
0.7007500000000000 0.012135 -75.702200 
0.7016250000000001 0.011879 -79.106827 
0.7025000000000000 0.011346 -83.719377 
0.7033750000000000 0.011101 -86.453600 
0.7042500000000000 0.010582 -90.085204 
0.7051250000000000 0.010311 -93.587410 
0.7060000000000000 0.010064 -96.865413 
0.7068750000000000 0.009586 -100.959481 
0.7077500000000000 0.009264 -104.160699 
0.7086250000000000 0.009104 -107.726033 
0.7095000000000000 0.008877 -110.127731 
0.7103750000000000 0.008485 -113.751616 
0.7112500000000001 0.008371 -116.881767 
0.7121250000000000 0.007961 -119.969635 
0.7130000000000000 0.007915 -123.265958 
0.7138750000000000 0.007780 -125.810767 
0.7147500000000000 0.007541 -130.417397 
0.7156250000000000 0.007412 -132.285841 
0.7165000000000000 0.007044 -135.644487 
0.7173750000000000 0.006991 -138.090926 
0.7182500000000001 0.006796 -142.153220 
0.7191250000000000 0.006573 -143.903251 
0.7200000000000000 0.006516 -147.657756 
