!
! C:\Users\rflab\Downloads\q2\20.S1P
!
! Touchstone 1.1 file saved by VNA.EXE V1.65 (www.ke5fx.com/gpib/readme.htm)
! 11/20/2024 11:06:45 AM
!
!    Source: HEWLETT PACKARD,8753D,0,6.14
!  Min freq: 3.000000E+008 Hz
!  Max freq: 1.000000E+009 Hz
!    Points: 801
!    Params: S21
!
!!!!!
# GHZ S MA R 50
0.3000000000000000 0.000123 151.701114 
0.3008750000000000 0.000170 -67.841754 
0.3017500000000000 0.000125 -73.501172 
0.3026250000000000 0.000098 172.124498 
0.3035000000000000 0.000070 -50.745801 
0.3043750000000000 0.000112 142.910618 
0.3052500000000000 0.000071 73.130277 
0.3061250000000000 0.000095 33.729849 
0.3070000000000000 0.000129 6.787085 
0.3078750000000000 0.000091 -55.559636 
0.3087500000000000 0.000130 -98.500723 
0.3096250000000000 0.000056 56.667594 
0.3105000000000000 0.000026 -49.450966 
0.3113750000000000 0.000090 118.722722 
0.3122500000000000 0.000134 133.476787 
0.3131250000000000 0.000034 -100.122236 
0.3140000000000000 0.000084 99.971340 
0.3148750000000000 0.000026 -68.583974 
0.3157500000000000 0.000049 -104.189956 
0.3166250000000000 0.000058 -112.294175 
0.3175000000000000 0.000067 -74.306519 
0.3183750000000000 0.000071 -113.552619 
0.3192500000000000 0.000113 58.803035 
0.3201250000000000 0.000064 4.611946 
0.3210000000000000 0.000082 -164.938055 
0.3218750000000000 0.000090 -128.869597 
0.3227500000000000 0.000097 -92.202258 
0.3236250000000000 0.000052 101.391772 
0.3245000000000000 0.000089 -3.882360 
0.3253750000000000 0.000049 28.162533 
0.3262500000000000 0.000113 -144.140247 
0.3271250000000000 0.000022 -124.441652 
0.3280000000000000 0.000071 -147.438227 
0.3288750000000000 0.000064 176.787048 
0.3297500000000000 0.000065 30.929887 
0.3306250000000000 0.000089 151.094567 
0.3315000000000000 0.000008 -72.961416 
0.3323750000000000 0.000089 -173.960329 
0.3332500000000000 0.000183 -85.688803 
0.3341250000000000 0.000061 107.435527 
0.3350000000000000 0.000091 -103.293122 
0.3358750000000000 0.000079 48.971071 
0.3367500000000000 0.000098 -66.379082 
0.3376250000000000 0.000027 -94.747248 
0.3385000000000000 0.000127 -4.138263 
0.3393750000000000 0.000078 -27.594772 
0.3402500000000000 0.000078 -149.394981 
0.3411250000000000 0.000116 -64.448715 
0.3420000000000000 0.000116 107.903831 
0.3428750000000000 0.000085 12.092483 
0.3437500000000000 0.000033 69.829596 
0.3446250000000000 0.000087 -138.763986 
0.3455000000000000 0.000029 81.534149 
0.3463750000000000 0.000051 77.019472 
0.3472500000000000 0.000061 175.078781 
0.3481250000000000 0.000127 -67.099967 
0.3490000000000000 0.000091 161.267062 
0.3498750000000000 0.000108 150.334935 
0.3507500000000000 0.000053 41.859300 
0.3516250000000000 0.000053 167.868347 
0.3525000000000000 0.000114 157.318147 
0.3533750000000000 0.000028 55.998538 
0.3542500000000000 0.000019 160.413724 
0.3551250000000000 0.000008 26.584824 
0.3560000000000000 0.000083 83.328704 
0.3568750000000000 0.000096 -70.646956 
0.3577500000000000 0.000133 -163.832829 
0.3586250000000000 0.000043 173.260190 
0.3595000000000000 0.000030 -177.808976 
0.3603750000000000 0.000131 137.668458 
0.3612500000000000 0.000153 -14.423097 
0.3621250000000000 0.000069 62.260126 
0.3630000000000000 0.000178 -23.054111 
0.3638750000000000 0.000071 -172.988895 
0.3647500000000000 0.000046 -25.042403 
0.3656250000000000 0.000160 -103.046936 
0.3665000000000000 0.000124 101.447838 
0.3673750000000000 0.000025 -168.778973 
0.3682500000000000 0.000057 71.452762 
0.3691250000000000 0.000067 45.467442 
0.3700000000000000 0.000038 106.014491 
0.3708750000000000 0.000075 -155.430388 
0.3717500000000000 0.000058 87.505620 
0.3726250000000000 0.000123 -64.173445 
0.3735000000000000 0.000036 85.635612 
0.3743750000000000 0.000131 -117.418700 
0.3752500000000000 0.000063 -4.763080 
0.3761250000000000 0.000085 -108.580792 
0.3770000000000000 0.000068 -159.513148 
0.3778750000000000 0.000032 176.111232 
0.3787500000000000 0.000052 -89.249743 
0.3796250000000000 0.000009 174.270307 
0.3805000000000000 0.000105 -157.866420 
0.3813750000000000 0.000044 -13.184097 
0.3822500000000000 0.000057 171.501970 
0.3831250000000000 0.000081 137.905685 
0.3840000000000000 0.000087 65.417126 
0.3848750000000000 0.000087 -121.157458 
0.3857500000000000 0.000032 90.172807 
0.3866250000000000 0.000091 50.475881 
0.3875000000000000 0.000060 -61.124513 
0.3883750000000000 0.000083 149.671457 
0.3892500000000000 0.000156 -159.222638 
0.3901250000000000 0.000061 -38.019899 
0.3910000000000000 0.000055 -24.480316 
0.3918750000000000 0.000083 34.987585 
0.3927500000000000 0.000012 -116.012987 
0.3936250000000000 0.000035 144.599873 
0.3945000000000000 0.000129 133.293422 
0.3953750000000000 0.000119 19.514796 
0.3962500000000000 0.000132 -68.468745 
0.3971250000000000 0.000107 149.593603 
0.3980000000000000 0.000144 -50.823995 
0.3988750000000000 0.000057 -70.984330 
0.3997500000000000 0.000161 -126.922404 
0.4006250000000000 0.000084 65.429672 
0.4015000000000000 0.000110 -5.394869 
0.4023750000000000 0.000041 -158.551471 
0.4032500000000000 0.000087 110.027501 
0.4041250000000000 0.000127 113.454494 
0.4050000000000000 0.000027 -53.429759 
0.4058750000000000 0.000038 12.756492 
0.4067500000000000 0.000036 139.209867 
0.4076250000000000 0.000049 75.974363 
0.4085000000000000 0.000108 114.146968 
0.4093750000000000 0.000063 142.179002 
0.4102500000000000 0.000063 98.623550 
0.4111250000000000 0.000143 -11.451786 
0.4120000000000000 0.000043 126.457700 
0.4128750000000000 0.000066 -167.034697 
0.4137500000000000 0.000131 -115.758968 
0.4146250000000000 0.000048 101.345425 
0.4155000000000000 0.000107 122.668258 
0.4163750000000000 0.000182 109.306118 
0.4172500000000000 0.000076 102.372915 
0.4181250000000000 0.000022 53.705650 
0.4190000000000000 0.000164 -167.657964 
0.4198750000000000 0.000077 -68.122690 
0.4207500000000000 0.000126 -19.362136 
0.4216250000000000 0.000101 -9.303182 
0.4225000000000000 0.000035 -13.731619 
0.4233750000000000 0.000061 175.296964 
0.4242500000000000 0.000044 -98.759564 
0.4251250000000000 0.000082 56.925330 
0.4260000000000000 0.000114 88.418612 
0.4268750000000000 0.000029 104.456319 
0.4277500000000000 0.000067 101.068771 
0.4286250000000000 0.000057 154.854796 
0.4295000000000000 0.000051 47.555624 
0.4303750000000000 0.000105 38.090678 
0.4312500000000000 0.000117 78.341481 
0.4321250000000000 0.000095 169.989415 
0.4330000000000000 0.000157 82.460854 
0.4338750000000000 0.000083 13.030732 
0.4347500000000000 0.000070 150.025481 
0.4356250000000000 0.000083 82.638280 
0.4365000000000000 0.000106 -28.365497 
0.4373750000000000 0.000137 14.814341 
0.4382500000000000 0.000119 73.920096 
0.4391250000000000 0.000123 68.798491 
0.4400000000000000 0.000148 7.711704 
0.4408750000000000 0.000024 -147.666875 
0.4417500000000000 0.000168 58.594764 
0.4426250000000000 0.000112 -27.438520 
0.4435000000000000 0.000062 34.501473 
0.4443750000000000 0.000063 -88.487776 
0.4452500000000000 0.000053 -50.029794 
0.4461250000000000 0.000076 18.913344 
0.4470000000000000 0.000107 -21.441244 
0.4478750000000000 0.000081 1.694807 
0.4487500000000000 0.000065 28.816862 
0.4496250000000000 0.000103 -78.303670 
0.4505000000000000 0.000041 -116.402372 
0.4513750000000000 0.000103 115.817751 
0.4522500000000000 0.000096 36.023123 
0.4531250000000000 0.000095 49.621748 
0.4540000000000000 0.000169 48.700176 
0.4548750000000000 0.000087 76.010119 
0.4557500000000000 0.000123 7.555287 
0.4566250000000000 0.000074 -11.793520 
0.4575000000000000 0.000067 171.229096 
0.4583750000000000 0.000102 166.367880 
0.4592500000000000 0.000057 -48.892588 
0.4601250000000000 0.000135 13.812274 
0.4610000000000000 0.000090 -39.086497 
0.4618750000000000 0.000032 59.806576 
0.4627500000000000 0.000057 41.048608 
0.4636250000000000 0.000041 -99.445483 
0.4645000000000000 0.000243 7.549382 
0.4653750000000000 0.000071 62.487225 
0.4662500000000000 0.000051 -28.047467 
0.4671250000000000 0.000056 26.197770 
0.4680000000000000 0.000112 -72.713235 
0.4688750000000000 0.000076 -93.324811 
0.4697500000000000 0.000107 -21.300505 
0.4706250000000000 0.000154 2.345127 
0.4715000000000000 0.000116 -83.177947 
0.4723750000000000 0.000131 14.527345 
0.4732500000000000 0.000141 -86.977179 
0.4741250000000000 0.000074 -109.128710 
0.4750000000000000 0.000043 64.757818 
0.4758750000000000 0.000024 -170.595868 
0.4767500000000000 0.000128 -65.553712 
0.4776250000000000 0.000179 -23.020892 
0.4785000000000000 0.000070 30.527139 
0.4793750000000000 0.000166 -52.950659 
0.4802500000000000 0.000152 -64.136703 
0.4811250000000000 0.000139 -51.643396 
0.4820000000000000 0.000144 -110.846553 
0.4828750000000000 0.000057 148.849977 
0.4837500000000000 0.000127 -98.895191 
0.4846250000000000 0.000064 -79.017193 
0.4855000000000000 0.000139 -92.791055 
0.4863750000000000 0.000054 -73.071902 
0.4872500000000000 0.000051 -35.125729 
0.4881250000000000 0.000121 -60.718177 
0.4890000000000000 0.000198 -62.032362 
0.4898750000000000 0.000096 -61.723843 
0.4907500000000000 0.000145 -122.498523 
0.4916250000000000 0.000189 -101.773556 
0.4925000000000000 0.000234 -97.096717 
0.4933750000000000 0.000197 -88.183756 
0.4942500000000000 0.000058 175.046009 
0.4951250000000000 0.000126 -145.129479 
0.4960000000000000 0.000167 -117.527067 
0.4968750000000000 0.000188 -92.397494 
0.4977500000000000 0.000111 -77.309968 
0.4986250000000000 0.000147 -107.801694 
0.4995000000000000 0.000114 -134.912282 
0.5003750000000000 0.000154 -156.403377 
0.5012500000000000 0.000210 -132.486930 
0.5021250000000000 0.000191 -146.707497 
0.5030000000000000 0.000140 -135.735132 
0.5038750000000000 0.000134 -118.618583 
0.5047500000000000 0.000120 -139.117389 
0.5056250000000000 0.000124 -156.874764 
0.5065000000000000 0.000298 -145.769431 
0.5073750000000000 0.000125 -133.946157 
0.5082500000000000 0.000230 -164.752365 
0.5091250000000001 0.000305 -139.928744 
0.5100000000000000 0.000252 169.393442 
0.5108750000000000 0.000172 -169.438494 
0.5117500000000000 0.000218 -123.651025 
0.5126250000000000 0.000149 -144.487902 
0.5135000000000000 0.000257 -157.543882 
0.5143750000000000 0.000241 176.813688 
0.5152500000000000 0.000087 -167.796153 
0.5161249999999999 0.000185 -167.618143 
0.5170000000000000 0.000218 -144.617894 
0.5178750000000000 0.000173 -169.229541 
0.5187500000000000 0.000244 -155.120319 
0.5196250000000000 0.000312 -171.276303 
0.5205000000000000 0.000264 -161.861549 
0.5213750000000000 0.000326 166.513961 
0.5222500000000000 0.000260 176.937668 
0.5231250000000000 0.000186 -172.585869 
0.5240000000000000 0.000268 172.590941 
0.5248750000000000 0.000275 -163.049023 
0.5257500000000001 0.000328 170.784521 
0.5266250000000000 0.000316 -172.008139 
0.5275000000000000 0.000241 175.502841 
0.5283750000000000 0.000399 159.135072 
0.5292500000000000 0.000310 -174.146021 
0.5301250000000000 0.000349 150.435719 
0.5310000000000000 0.000428 166.216217 
0.5318750000000000 0.000328 160.001328 
0.5327500000000000 0.000378 159.292946 
0.5336250000000000 0.000474 150.127663 
0.5345000000000000 0.000450 152.716307 
0.5353750000000001 0.000512 156.147861 
0.5362500000000000 0.000495 137.628261 
0.5371250000000000 0.000451 147.271259 
0.5380000000000000 0.000513 129.272666 
0.5388750000000000 0.000407 123.754128 
0.5397500000000000 0.000430 121.372711 
0.5406250000000000 0.000505 129.087381 
0.5415000000000000 0.000458 129.753108 
0.5423750000000001 0.000540 135.185582 
0.5432500000000000 0.000546 127.727416 
0.5441250000000000 0.000679 141.325657 
0.5450000000000000 0.000655 117.759517 
0.5458750000000000 0.000659 127.738481 
0.5467500000000000 0.000625 115.486709 
0.5476250000000000 0.000715 114.714274 
0.5485000000000000 0.000764 100.916495 
0.5493750000000000 0.000642 108.794954 
0.5502500000000000 0.000679 113.276853 
0.5511250000000000 0.000752 108.078206 
0.5520000000000001 0.000653 105.499909 
0.5528750000000000 0.000744 104.982883 
0.5537500000000000 0.000577 91.906589 
0.5546250000000000 0.000832 88.667351 
0.5555000000000000 0.000750 85.655785 
0.5563750000000000 0.000760 82.517092 
0.5572500000000000 0.000675 87.726467 
0.5581250000000000 0.000890 74.365435 
0.5590000000000001 0.000723 85.626293 
0.5598750000000000 0.000920 76.022251 
0.5607500000000000 0.000780 77.761928 
0.5616250000000000 0.000899 67.756411 
0.5625000000000000 0.000892 73.526377 
0.5633750000000000 0.000842 64.616009 
0.5642500000000000 0.000945 67.498617 
0.5651250000000000 0.000913 59.451371 
0.5660000000000000 0.001058 62.545954 
0.5668750000000000 0.001044 52.605956 
0.5677500000000000 0.000969 61.620720 
0.5686250000000001 0.000992 48.147841 
0.5695000000000000 0.001027 48.292209 
0.5703750000000000 0.001007 48.694166 
0.5712500000000000 0.000969 48.384023 
0.5721250000000000 0.001052 42.478740 
0.5730000000000000 0.001002 44.807198 
0.5738750000000000 0.001136 39.417998 
0.5747500000000000 0.001132 36.221235 
0.5756250000000001 0.001068 33.061952 
0.5765000000000000 0.001220 27.385034 
0.5773750000000000 0.001200 27.317101 
0.5782500000000000 0.001235 23.780780 
0.5791250000000000 0.001206 18.937515 
0.5800000000000000 0.001284 18.975666 
0.5808750000000000 0.001287 16.087529 
0.5817500000000000 0.001320 18.865405 
0.5826250000000000 0.001338 16.448724 
0.5835000000000000 0.001445 7.267771 
0.5843750000000000 0.001477 13.014026 
0.5852500000000001 0.001372 4.953998 
0.5861250000000000 0.001494 5.107126 
0.5870000000000000 0.001473 3.015345 
0.5878750000000000 0.001500 0.157092 
0.5887500000000000 0.001562 -1.668613 
0.5896250000000000 0.001706 -5.130286 
0.5905000000000000 0.001867 -9.112821 
0.5913750000000000 0.001696 -6.329967 
0.5922500000000001 0.001783 -6.655441 
0.5931250000000000 0.001725 -12.208936 
0.5940000000000000 0.001768 -11.776638 
0.5948750000000000 0.002043 -13.549700 
0.5957500000000000 0.001951 -18.907710 
0.5966250000000000 0.002004 -21.505182 
0.5975000000000000 0.001981 -26.515710 
0.5983750000000000 0.002147 -26.240665 
0.5992500000000000 0.002306 -32.975308 
0.6001250000000000 0.002381 -34.846097 
0.6010000000000000 0.002274 -37.133057 
0.6018750000000001 0.002403 -39.225813 
0.6027500000000000 0.002528 -38.736598 
0.6036250000000000 0.002677 -42.265795 
0.6045000000000000 0.002752 -43.968199 
0.6053750000000000 0.002667 -50.384611 
0.6062500000000000 0.002734 -52.257140 
0.6071250000000000 0.002854 -55.624339 
0.6080000000000000 0.002927 -56.899619 
0.6088750000000001 0.003119 -57.984415 
0.6097500000000000 0.003056 -63.659824 
0.6106250000000000 0.003256 -66.517156 
0.6115000000000000 0.003191 -69.147829 
0.6123750000000000 0.003359 -71.725175 
0.6132500000000000 0.003558 -74.910404 
0.6141250000000000 0.003593 -79.315645 
0.6150000000000000 0.003633 -80.873334 
0.6158750000000000 0.003819 -82.112718 
0.6167500000000000 0.003831 -85.935717 
0.6176250000000000 0.003996 -89.145306 
0.6185000000000001 0.004191 -93.140237 
0.6193750000000000 0.004228 -95.595807 
0.6202500000000000 0.004451 -99.748927 
0.6211250000000000 0.004688 -101.173344 
0.6220000000000000 0.004713 -105.425440 
0.6228750000000000 0.004735 -107.573776 
0.6237500000000000 0.004956 -111.951902 
0.6246250000000000 0.004950 -114.290025 
0.6254999999999999 0.005236 -117.609326 
0.6263750000000000 0.005330 -120.184856 
0.6272500000000000 0.005446 -123.616322 
0.6281250000000000 0.005670 -127.716940 
0.6290000000000000 0.005788 -129.651448 
0.6298750000000000 0.005940 -133.282422 
0.6307500000000000 0.006129 -137.150027 
0.6316250000000000 0.006307 -138.887016 
0.6325000000000000 0.006409 -142.926320 
0.6333750000000000 0.006678 -146.382553 
0.6342500000000000 0.006867 -150.284235 
0.6351250000000001 0.006877 -152.027765 
0.6360000000000000 0.007311 -155.450888 
0.6368750000000000 0.007400 -158.601722 
0.6377500000000000 0.007537 -162.592133 
0.6386250000000000 0.007956 -165.360781 
0.6395000000000000 0.008212 -169.318420 
0.6403750000000000 0.008362 -171.552917 
0.6412500000000000 0.008762 -175.348997 
0.6421250000000000 0.008844 -178.093524 
0.6430000000000000 0.009104 177.562457 
0.6438750000000000 0.009289 174.872676 
0.6447500000000001 0.009792 171.548699 
0.6456250000000000 0.009986 168.146006 
0.6465000000000000 0.010421 164.604160 
0.6473750000000000 0.010559 161.658328 
0.6482500000000000 0.010885 158.223290 
0.6491250000000000 0.011339 154.750792 
0.6500000000000000 0.011748 151.589617 
0.6508750000000000 0.012106 147.858029 
0.6517500000000001 0.012491 144.107386 
0.6526250000000000 0.012985 141.290904 
0.6535000000000000 0.013435 137.014975 
0.6543750000000000 0.013974 133.635371 
0.6552500000000000 0.014368 129.866436 
0.6561250000000000 0.014953 125.475657 
0.6570000000000000 0.015562 122.969407 
0.6578750000000000 0.016010 118.692455 
0.6587500000000000 0.016783 115.149660 
0.6596250000000000 0.017186 111.282442 
0.6605000000000000 0.018151 107.360127 
0.6613750000000001 0.018698 103.373544 
0.6622500000000000 0.019664 98.818631 
0.6631250000000000 0.020338 95.275911 
0.6640000000000000 0.021189 90.897430 
0.6648750000000000 0.022091 86.314430 
0.6657500000000000 0.023160 81.465506 
0.6666250000000000 0.024203 77.110977 
0.6675000000000000 0.025333 72.118917 
0.6683750000000001 0.026343 67.335779 
0.6692500000000000 0.027643 61.829378 
0.6701250000000000 0.028870 56.664777 
0.6710000000000000 0.030008 50.943766 
0.6718750000000000 0.031255 45.341197 
0.6727500000000000 0.032536 39.476583 
0.6736250000000000 0.033802 33.324221 
0.6745000000000000 0.035024 26.746458 
0.6753750000000000 0.036116 20.186310 
0.6762500000000000 0.036986 13.327485 
0.6771250000000000 0.037761 6.563590 
0.6780000000000001 0.038485 -0.815008 
0.6788750000000000 0.038816 -7.834270 
0.6797500000000000 0.038968 -15.058599 
0.6806250000000000 0.038926 -22.366545 
0.6815000000000000 0.038589 -29.527441 
0.6823750000000000 0.038103 -36.483281 
0.6832500000000000 0.037548 -43.520125 
0.6841250000000000 0.036538 -49.889210 
0.6850000000000001 0.035638 -56.546374 
0.6858750000000000 0.034395 -62.602242 
0.6867500000000000 0.033388 -68.519520 
0.6876250000000000 0.032357 -74.431773 
0.6885000000000000 0.031068 -79.658652 
0.6893750000000000 0.029936 -85.149962 
0.6902500000000000 0.028943 -90.445549 
0.6911250000000000 0.027977 -94.919999 
0.6920000000000000 0.026855 -99.595451 
0.6928750000000000 0.025834 -104.206557 
0.6937500000000000 0.025149 -108.836210 
0.6946250000000001 0.024240 -112.937529 
0.6955000000000000 0.023419 -117.360166 
0.6963750000000000 0.022705 -121.286505 
0.6972500000000000 0.021777 -125.758767 
0.6981250000000000 0.021066 -129.478104 
0.6990000000000000 0.020608 -133.387411 
0.6998750000000000 0.019852 -136.822010 
0.7007500000000000 0.019226 -140.607816 
0.7016250000000001 0.018800 -144.230542 
0.7025000000000000 0.017948 -147.311423 
0.7033750000000000 0.017491 -150.487227 
0.7042500000000000 0.017063 -154.587871 
0.7051250000000000 0.016550 -157.907372 
0.7060000000000000 0.016215 -161.656695 
0.7068750000000000 0.015675 -164.414683 
0.7077500000000000 0.015210 -167.760717 
0.7086250000000000 0.015018 -170.799070 
0.7095000000000000 0.014594 -174.250662 
0.7103750000000000 0.014359 -177.289617 
0.7112500000000001 0.013980 179.777214 
0.7121250000000000 0.013602 176.937382 
0.7130000000000000 0.013299 174.002824 
0.7138750000000000 0.013025 170.951148 
0.7147500000000000 0.012850 167.649687 
0.7156250000000000 0.012539 164.805270 
0.7165000000000000 0.012281 161.769770 
0.7173750000000000 0.012057 158.886189 
0.7182500000000001 0.011707 156.168309 
0.7191250000000000 0.011473 152.445526 
