!
! C:\Users\rflab\Downloads\q2\200.S1P
!
! Touchstone 1.1 file saved by VNA.EXE V1.65 (www.ke5fx.com/gpib/readme.htm)
! 11/20/2024 11:13:15 AM
!
!    Source: HEWLETT PACKARD,8753D,0,6.14
!  Min freq: 3.000000E+008 Hz
!  Max freq: 1.000000E+009 Hz
!    Points: 801
!    Params: S21
!
!!!!!
# GHZ S MA R 50
0.3000000000000000 0.000132 80.574806 
0.3008750000000000 0.000033 119.661087 
0.3017500000000000 0.000062 55.882487 
0.3026250000000000 0.000023 25.303638 
0.3035000000000000 0.000084 -21.418580 
0.3043750000000000 0.000091 -66.574820 
0.3052500000000000 0.000110 81.698541 
0.3061250000000000 0.000060 -128.862478 
0.3070000000000000 0.000059 164.900522 
0.3078750000000000 0.000034 32.293913 
0.3087500000000000 0.000079 86.891193 
0.3096250000000000 0.000105 -139.377606 
0.3105000000000000 0.000118 34.012813 
0.3113750000000000 0.000106 79.493387 
0.3122500000000000 0.000013 160.704481 
0.3131250000000000 0.000077 81.066344 
0.3140000000000000 0.000006 -159.341119 
0.3148750000000000 0.000166 -124.653336 
0.3157500000000000 0.000059 105.101732 
0.3166250000000000 0.000056 -123.352892 
0.3175000000000000 0.000032 -28.473497 
0.3183750000000000 0.000119 124.492712 
0.3192500000000000 0.000085 77.825465 
0.3201250000000000 0.000037 109.406066 
0.3210000000000000 0.000080 26.259996 
0.3218750000000000 0.000062 21.866808 
0.3227500000000000 0.000026 -58.447121 
0.3236250000000000 0.000068 -70.779736 
0.3245000000000000 0.000040 -90.717185 
0.3253750000000000 0.000123 80.198313 
0.3262500000000000 0.000083 -96.377015 
0.3271250000000000 0.000055 174.858218 
0.3280000000000000 0.000029 -45.331325 
0.3288750000000000 0.000027 152.861473 
0.3297500000000000 0.000148 62.059987 
0.3306250000000000 0.000025 -92.373204 
0.3315000000000000 0.000068 -155.579739 
0.3323750000000000 0.000071 -52.676095 
0.3332500000000000 0.000089 123.277397 
0.3341250000000000 0.000033 153.902954 
0.3350000000000000 0.000069 -99.918748 
0.3358750000000000 0.000074 158.086371 
0.3367500000000000 0.000151 150.509463 
0.3376250000000000 0.000091 -141.640029 
0.3385000000000000 0.000055 -2.370888 
0.3393750000000000 0.000083 171.507092 
0.3402500000000000 0.000126 97.692882 
0.3411250000000000 0.000041 -70.026634 
0.3420000000000000 0.000085 93.486415 
0.3428750000000000 0.000093 23.679662 
0.3437500000000000 0.000109 19.141988 
0.3446250000000000 0.000066 126.708118 
0.3455000000000000 0.000049 -105.902460 
0.3463750000000000 0.000045 53.609390 
0.3472500000000000 0.000014 -175.943816 
0.3481250000000000 0.000081 -146.735970 
0.3490000000000000 0.000072 5.727048 
0.3498750000000000 0.000154 -95.329209 
0.3507500000000000 0.000019 -57.883511 
0.3516250000000000 0.000115 139.453469 
0.3525000000000000 0.000060 -105.573565 
0.3533750000000000 0.000078 140.112631 
0.3542500000000000 0.000040 90.413281 
0.3551250000000000 0.000060 155.504635 
0.3560000000000000 0.000127 3.334390 
0.3568750000000000 0.000078 -165.454008 
0.3577500000000000 0.000019 100.929989 
0.3586250000000000 0.000026 -16.390916 
0.3595000000000000 0.000055 -123.339518 
0.3603750000000000 0.000070 -3.848888 
0.3612500000000000 0.000059 -176.985131 
0.3621250000000000 0.000080 -37.481285 
0.3630000000000000 0.000074 173.126562 
0.3638750000000000 0.000154 140.044419 
0.3647500000000000 0.000057 -167.475228 
0.3656250000000000 0.000072 144.762315 
0.3665000000000000 0.000083 -124.225318 
0.3673750000000000 0.000057 158.336579 
0.3682500000000000 0.000162 -42.590235 
0.3691250000000000 0.000113 120.709284 
0.3700000000000000 0.000066 125.397276 
0.3708750000000000 0.000091 -81.873884 
0.3717500000000000 0.000105 -156.653133 
0.3726250000000000 0.000111 -132.125511 
0.3735000000000000 0.000141 -104.727875 
0.3743750000000000 0.000077 -141.543611 
0.3752500000000000 0.000023 -168.325027 
0.3761250000000000 0.000091 -13.014850 
0.3770000000000000 0.000120 -68.736498 
0.3778750000000000 0.000070 61.074559 
0.3787500000000000 0.000040 -85.148566 
0.3796250000000000 0.000072 -116.486603 
0.3805000000000000 0.000061 170.380590 
0.3813750000000000 0.000079 55.381161 
0.3822500000000000 0.000091 178.377591 
0.3831250000000000 0.000120 -26.338541 
0.3840000000000000 0.000069 37.968568 
0.3848750000000000 0.000058 155.294573 
0.3857500000000000 0.000094 -42.592335 
0.3866250000000000 0.000041 -32.064399 
0.3875000000000000 0.000035 -53.137142 
0.3883750000000000 0.000040 101.950686 
0.3892500000000000 0.000072 -129.710188 
0.3901250000000000 0.000031 -98.973703 
0.3910000000000000 0.000083 -7.863618 
0.3918750000000000 0.000148 -131.799403 
0.3927500000000000 0.000052 -14.197699 
0.3936250000000000 0.000146 41.215405 
0.3945000000000000 0.000069 84.019516 
0.3953750000000000 0.000065 46.062542 
0.3962500000000000 0.000188 -174.349372 
0.3971250000000000 0.000110 -77.340478 
0.3980000000000000 0.000077 63.900457 
0.3988750000000000 0.000085 -175.623125 
0.3997500000000000 0.000030 56.451870 
0.4006250000000000 0.000029 18.804709 
0.4015000000000000 0.000066 -57.039538 
0.4023750000000000 0.000111 -128.891263 
0.4032500000000000 0.000053 -33.406727 
0.4041250000000000 0.000132 -111.540274 
0.4050000000000000 0.000049 64.394414 
0.4058750000000000 0.000045 -54.187924 
0.4067500000000000 0.000104 118.975713 
0.4076250000000000 0.000011 -98.849812 
0.4085000000000000 0.000062 42.476278 
0.4093750000000000 0.000147 63.689697 
0.4102500000000000 0.000095 -109.343991 
0.4111250000000000 0.000093 -67.572327 
0.4120000000000000 0.000088 -103.560343 
0.4128750000000000 0.000041 -40.400802 
0.4137500000000000 0.000034 -101.164674 
0.4146250000000000 0.000090 111.518597 
0.4155000000000000 0.000054 105.893614 
0.4163750000000000 0.000084 167.035922 
0.4172500000000000 0.000110 168.734557 
0.4181250000000000 0.000064 148.565589 
0.4190000000000000 0.000073 -177.032985 
0.4198750000000000 0.000029 -62.010889 
0.4207500000000000 0.000027 120.486646 
0.4216250000000000 0.000002 -128.723682 
0.4225000000000000 0.000070 87.035781 
0.4233750000000000 0.000049 -76.430813 
0.4242500000000000 0.000100 18.245252 
0.4251250000000000 0.000082 -87.450293 
0.4260000000000000 0.000010 -141.808771 
0.4268750000000000 0.000075 129.223301 
0.4277500000000000 0.000045 -79.766963 
0.4286250000000000 0.000150 -68.990876 
0.4295000000000000 0.000000 -77.674715 
0.4303750000000000 0.000065 -177.864169 
0.4312500000000000 0.000052 -140.198594 
0.4321250000000000 0.000037 40.088584 
0.4330000000000000 0.000042 -161.892417 
0.4338750000000000 0.000131 165.415295 
0.4347500000000000 0.000072 -178.936053 
0.4356250000000000 0.000116 -67.121474 
0.4365000000000000 0.000058 60.285744 
0.4373750000000000 0.000039 126.640585 
0.4382500000000000 0.000044 -44.879383 
0.4391250000000000 0.000053 -73.912134 
0.4400000000000000 0.000036 57.064038 
0.4408750000000000 0.000045 1.968038 
0.4417500000000000 0.000010 116.831481 
0.4426250000000000 0.000025 53.243789 
0.4435000000000000 0.000132 -161.660342 
0.4443750000000000 0.000119 125.574698 
0.4452500000000000 0.000061 50.360475 
0.4461250000000000 0.000103 -134.585652 
0.4470000000000000 0.000125 134.103525 
0.4478750000000000 0.000043 -17.231297 
0.4487500000000000 0.000055 128.029729 
0.4496250000000000 0.000023 -129.141771 
0.4505000000000000 0.000169 172.372854 
0.4513750000000000 0.000103 -173.262037 
0.4522500000000000 0.000099 -136.468645 
0.4531250000000000 0.000079 174.917882 
0.4540000000000000 0.000116 119.069065 
0.4548750000000000 0.000104 -142.910760 
0.4557500000000000 0.000099 -72.415241 
0.4566250000000000 0.000075 161.444481 
0.4575000000000000 0.000127 149.678111 
0.4583750000000000 0.000129 -170.001785 
0.4592500000000000 0.000089 98.834371 
0.4601250000000000 0.000107 118.305620 
0.4610000000000000 0.000092 67.275660 
0.4618750000000000 0.000025 136.215226 
0.4627500000000000 0.000138 158.912403 
0.4636250000000000 0.000024 29.373863 
0.4645000000000000 0.000116 -144.400067 
0.4653750000000000 0.000090 63.262870 
0.4662500000000000 0.000094 -0.430344 
0.4671250000000000 0.000157 78.301622 
0.4680000000000000 0.000083 1.982116 
0.4688750000000000 0.000045 81.649008 
0.4697500000000000 0.000049 62.317327 
0.4706250000000000 0.000155 87.272256 
0.4715000000000000 0.000051 -179.221039 
0.4723750000000000 0.000172 5.535256 
0.4732500000000000 0.000083 98.748118 
0.4741250000000000 0.000120 -103.161965 
0.4750000000000000 0.000031 79.754803 
0.4758750000000000 0.000053 -6.754493 
0.4767500000000000 0.000164 53.356477 
0.4776250000000000 0.000159 -1.010540 
0.4785000000000000 0.000170 44.379224 
0.4793750000000000 0.000134 89.325935 
0.4802500000000000 0.000040 -51.263107 
0.4811250000000000 0.000021 -63.514548 
0.4820000000000000 0.000093 65.806518 
0.4828750000000000 0.000122 51.261756 
0.4837500000000000 0.000040 168.020311 
0.4846250000000000 0.000168 52.049779 
0.4855000000000000 0.000012 70.229469 
0.4863750000000000 0.000133 96.188502 
0.4872500000000000 0.000165 48.332592 
0.4881250000000000 0.000161 72.181379 
0.4890000000000000 0.000022 -153.788022 
0.4898750000000000 0.000186 65.386007 
0.4907500000000000 0.000137 16.072602 
0.4916250000000000 0.000107 -5.584759 
0.4925000000000000 0.000150 34.171989 
0.4933750000000000 0.000087 44.904546 
0.4942500000000000 0.000019 0.931431 
0.4951250000000000 0.000165 74.644090 
0.4960000000000000 0.000141 5.279790 
0.4968750000000000 0.000144 -13.728642 
0.4977500000000000 0.000124 3.435262 
0.4986250000000000 0.000141 1.347903 
0.4995000000000000 0.000141 52.464117 
0.5003750000000000 0.000052 67.861649 
0.5012500000000000 0.000093 27.484727 
0.5021250000000000 0.000059 -12.615799 
0.5030000000000000 0.000208 17.507665 
0.5038750000000000 0.000139 32.220981 
0.5047500000000000 0.000068 15.533321 
0.5056250000000000 0.000164 30.188835 
0.5065000000000000 0.000155 15.348298 
0.5073750000000000 0.000192 46.088161 
0.5082500000000000 0.000159 19.972521 
0.5091250000000001 0.000112 -19.363505 
0.5100000000000000 0.000184 -31.952555 
0.5108750000000000 0.000173 54.406253 
0.5117500000000000 0.000066 0.985795 
0.5126250000000000 0.000122 -25.686299 
0.5135000000000000 0.000170 -51.716771 
0.5143750000000000 0.000266 -29.354342 
0.5152500000000000 0.000260 -30.937604 
0.5161249999999999 0.000136 -33.087704 
0.5170000000000000 0.000261 -4.747898 
0.5178750000000000 0.000300 -38.443876 
0.5187500000000000 0.000106 -25.131942 
0.5196250000000000 0.000213 -37.886234 
0.5205000000000000 0.000237 -23.746392 
0.5213750000000000 0.000201 -26.056602 
0.5222500000000000 0.000256 -8.333945 
0.5231250000000000 0.000218 -54.215009 
0.5240000000000000 0.000192 -53.588823 
0.5248750000000000 0.000143 -25.236143 
0.5257500000000001 0.000295 -52.599513 
0.5266250000000000 0.000295 -42.186057 
0.5275000000000000 0.000260 -49.604519 
0.5283750000000000 0.000169 -50.493286 
0.5292500000000000 0.000270 -78.145279 
0.5301250000000000 0.000325 -52.036075 
0.5310000000000000 0.000220 -65.535660 
0.5318750000000000 0.000244 -65.251294 
0.5327500000000000 0.000292 -78.463808 
0.5336250000000000 0.000265 -50.721243 
0.5345000000000000 0.000321 -52.871830 
0.5353750000000001 0.000242 -83.214655 
0.5362500000000000 0.000210 -87.773526 
0.5371250000000000 0.000276 -79.837974 
0.5380000000000000 0.000322 -82.213252 
0.5388750000000000 0.000242 -84.896889 
0.5397500000000000 0.000325 -96.058666 
0.5406250000000000 0.000227 -97.797206 
0.5415000000000000 0.000392 -111.925023 
0.5423750000000001 0.000351 -91.395341 
0.5432500000000000 0.000505 -90.311111 
0.5441250000000000 0.000280 -95.088260 
0.5450000000000000 0.000284 -107.857737 
0.5458750000000000 0.000411 -111.281878 
0.5467500000000000 0.000328 -108.064130 
0.5476250000000000 0.000372 -135.727123 
0.5485000000000000 0.000430 -134.963507 
0.5493750000000000 0.000355 -129.328285 
0.5502500000000000 0.000571 -118.405810 
0.5511250000000000 0.000401 -148.052016 
0.5520000000000001 0.000385 -135.304509 
0.5528750000000000 0.000558 -140.031799 
0.5537500000000000 0.000480 -129.259613 
0.5546250000000000 0.000449 -154.722185 
0.5555000000000000 0.000558 -137.932905 
0.5563750000000000 0.000474 -153.746128 
0.5572500000000000 0.000489 -142.088302 
0.5581250000000000 0.000571 -156.049956 
0.5590000000000001 0.000559 -162.637961 
0.5598750000000000 0.000594 -166.869058 
0.5607500000000000 0.000632 -169.934419 
0.5616250000000000 0.000659 -172.738165 
0.5625000000000000 0.000598 -179.155125 
0.5633750000000000 0.000599 -175.426988 
0.5642500000000000 0.000595 -176.803131 
0.5651250000000000 0.000692 177.936539 
0.5660000000000000 0.000799 172.503363 
0.5668750000000000 0.000715 171.873949 
0.5677500000000000 0.000681 177.709192 
0.5686250000000001 0.000564 -174.627304 
0.5695000000000000 0.000653 167.287658 
0.5703750000000000 0.000755 158.725492 
0.5712500000000000 0.000785 155.349647 
0.5721250000000000 0.000860 159.033923 
0.5730000000000000 0.000726 162.670099 
0.5738750000000000 0.000891 148.640487 
0.5747500000000000 0.000874 149.590821 
0.5756250000000001 0.000806 142.815994 
0.5765000000000000 0.000866 145.011856 
0.5773750000000000 0.000892 141.720360 
0.5782500000000000 0.001016 143.163027 
0.5791250000000000 0.000880 138.339728 
0.5800000000000000 0.000818 127.493786 
0.5808750000000000 0.001047 126.717615 
0.5817500000000000 0.001001 130.306654 
0.5826250000000000 0.001035 132.496965 
0.5835000000000000 0.001126 120.215289 
0.5843750000000000 0.001014 116.456622 
0.5852500000000001 0.001090 116.258063 
0.5861250000000000 0.001167 117.278359 
0.5870000000000000 0.001100 120.203897 
0.5878750000000000 0.001257 110.654952 
0.5887500000000000 0.001314 108.723455 
0.5896250000000000 0.001296 101.885130 
0.5905000000000000 0.001339 105.078145 
0.5913750000000000 0.001338 100.697602 
0.5922500000000001 0.001409 98.196275 
0.5931250000000000 0.001435 89.181477 
0.5940000000000000 0.001498 90.581188 
0.5948750000000000 0.001604 83.994448 
0.5957500000000000 0.001396 85.949770 
0.5966250000000000 0.001592 79.467191 
0.5975000000000000 0.001720 80.466526 
0.5983750000000000 0.001784 72.426007 
0.5992500000000000 0.001726 74.459576 
0.6001250000000000 0.001763 69.578639 
0.6010000000000000 0.001894 65.619018 
0.6018750000000001 0.001967 59.362076 
0.6027500000000000 0.002029 60.957493 
0.6036250000000000 0.002102 61.083299 
0.6045000000000000 0.002109 53.296538 
0.6053750000000000 0.002103 51.631859 
0.6062500000000000 0.002233 48.347164 
0.6071250000000000 0.002358 43.527200 
0.6080000000000000 0.002326 39.984112 
0.6088750000000001 0.002441 38.237700 
0.6097500000000000 0.002489 34.980331 
0.6106250000000000 0.002517 31.468143 
0.6115000000000000 0.002602 30.190305 
0.6123750000000000 0.002719 22.861434 
0.6132500000000000 0.002839 19.030001 
0.6141250000000000 0.002810 14.684682 
0.6150000000000000 0.002948 13.154030 
0.6158750000000000 0.003097 11.216523 
0.6167500000000000 0.003090 7.581795 
0.6176250000000000 0.003189 4.950070 
0.6185000000000001 0.003322 0.785332 
0.6193750000000000 0.003305 -5.241385 
0.6202500000000000 0.003506 -6.418059 
0.6211250000000000 0.003458 -11.266158 
0.6220000000000000 0.003563 -15.506154 
0.6228750000000000 0.003682 -19.093093 
0.6237500000000000 0.003837 -22.258916 
0.6246250000000000 0.003813 -24.723846 
0.6254999999999999 0.003972 -27.852395 
0.6263750000000000 0.004150 -32.523201 
0.6272500000000000 0.004223 -35.689214 
0.6281250000000000 0.004343 -38.214287 
0.6290000000000000 0.004399 -44.161220 
0.6298750000000000 0.004460 -46.362439 
0.6307500000000000 0.004546 -49.639586 
0.6316250000000000 0.004717 -53.913217 
0.6325000000000000 0.004842 -57.833446 
0.6333750000000000 0.005010 -61.045248 
0.6342500000000000 0.005260 -64.088888 
0.6351250000000001 0.005008 -69.537495 
0.6360000000000000 0.005389 -71.757424 
0.6368750000000000 0.005579 -75.571776 
0.6377500000000000 0.005747 -79.641151 
0.6386250000000000 0.005822 -84.428320 
0.6395000000000000 0.005883 -88.386101 
0.6403750000000000 0.006150 -90.726377 
0.6412500000000000 0.006263 -93.944211 
0.6421250000000000 0.006513 -98.538856 
0.6430000000000000 0.006662 -101.556020 
0.6438750000000000 0.006765 -105.497740 
0.6447500000000001 0.006822 -109.348066 
0.6456250000000000 0.006963 -113.287205 
0.6465000000000000 0.007376 -117.035507 
0.6473750000000000 0.007593 -120.566976 
0.6482500000000000 0.007759 -124.473338 
0.6491250000000000 0.007874 -128.005225 
0.6500000000000000 0.008168 -132.165234 
0.6508750000000000 0.008509 -136.092056 
0.6517500000000001 0.008707 -139.817997 
0.6526250000000000 0.008998 -143.429487 
0.6535000000000000 0.009136 -147.304485 
0.6543750000000000 0.009497 -151.126186 
0.6552500000000000 0.009844 -155.504368 
0.6561250000000000 0.010174 -158.940128 
0.6570000000000000 0.010473 -163.608845 
0.6578750000000000 0.010740 -168.244573 
0.6587500000000000 0.011145 -172.036994 
0.6596250000000000 0.011659 -176.045946 
0.6605000000000000 0.012090 179.909609 
0.6613750000000001 0.012649 175.951009 
0.6622500000000000 0.012902 170.765356 
0.6631250000000000 0.013350 166.014887 
0.6640000000000000 0.013915 162.810661 
0.6648750000000000 0.014465 157.454673 
0.6657500000000000 0.015104 152.308011 
0.6666250000000000 0.015561 147.881468 
0.6675000000000000 0.016420 143.000655 
0.6683750000000001 0.016971 136.983406 
0.6692500000000000 0.017429 132.245650 
0.6701250000000000 0.018193 126.303724 
0.6710000000000000 0.018974 120.791881 
0.6718750000000000 0.019715 114.942381 
0.6727500000000000 0.020514 108.906649 
0.6736250000000000 0.021080 102.281953 
0.6745000000000000 0.021723 95.595462 
0.6753750000000000 0.022394 88.762810 
0.6762500000000000 0.022856 82.133951 
0.6771250000000000 0.023277 75.022001 
0.6780000000000001 0.023576 67.831915 
0.6788750000000000 0.023780 60.348590 
0.6797500000000000 0.023736 52.966187 
0.6806250000000000 0.023513 45.640860 
0.6815000000000000 0.023313 38.155381 
0.6823750000000000 0.023016 30.984117 
0.6832500000000000 0.022472 23.956576 
0.6841250000000000 0.021932 17.104920 
0.6850000000000001 0.021365 10.610237 
0.6858750000000000 0.020650 4.107679 
0.6867500000000000 0.019800 -2.003941 
0.6876250000000000 0.019008 -7.898778 
0.6885000000000000 0.018167 -13.555517 
0.6893750000000000 0.017553 -18.647580 
0.6902500000000000 0.016674 -24.797341 
0.6911250000000000 0.016019 -28.853826 
0.6920000000000000 0.015297 -34.874523 
0.6928750000000000 0.014833 -38.777753 
0.6937500000000000 0.014119 -42.940288 
0.6946250000000001 0.013600 -47.762517 
0.6955000000000000 0.013123 -52.406027 
0.6963750000000000 0.012732 -56.578334 
0.6972500000000000 0.012206 -60.235957 
0.6981250000000000 0.011648 -64.257321 
0.6990000000000000 0.011266 -68.852448 
0.6998750000000000 0.010896 -72.505515 
0.7007500000000000 0.010567 -76.550722 
0.7016250000000001 0.010209 -80.578149 
0.7025000000000000 0.009887 -84.389768 
0.7033750000000000 0.009571 -87.698664 
0.7042500000000000 0.009146 -91.535648 
0.7051250000000000 0.008888 -94.862429 
0.7060000000000000 0.008681 -98.751426 
0.7068750000000000 0.008371 -101.862939 
0.7077500000000000 0.008066 -105.031129 
0.7086250000000000 0.007875 -108.604999 
0.7095000000000000 0.007617 -112.069161 
0.7103750000000000 0.007424 -114.747901 
0.7112500000000001 0.007108 -119.140841 
0.7121250000000000 0.006933 -122.677929 
0.7130000000000000 0.006896 -123.901053 
0.7138750000000000 0.006779 -127.466376 
0.7147500000000000 0.006547 -130.406671 
0.7156250000000000 0.006160 -133.481833 
0.7165000000000000 0.005915 -135.894974 
0.7173750000000000 0.005942 -139.667516 
0.7182500000000001 0.005764 -143.660027 
0.7191250000000000 0.005740 -144.985759 
0.7200000000000000 0.005533 -151.347770 
