!
! C:\Users\rflab\Downloads\q2\220.S1P
!
! Touchstone 1.1 file saved by VNA.EXE V1.65 (www.ke5fx.com/gpib/readme.htm)
! 11/20/2024 11:13:43 AM
!
!    Source: HEWLETT PACKARD,8753D,0,6.14
!  Min freq: 3.000000E+008 Hz
!  Max freq: 1.000000E+009 Hz
!    Points: 801
!    Params: S21
!
!!!!!
# GHZ S MA R 50
0.3000000000000000 0.000153 3.746800 
0.3008750000000000 0.000056 11.264781 
0.3017500000000000 0.000048 46.120245 
0.3026250000000000 0.000116 -60.929670 
0.3035000000000000 0.000047 158.584373 
0.3043750000000000 0.000055 -131.032895 
0.3052500000000000 0.000160 175.124807 
0.3061250000000000 0.000008 -0.313586 
0.3070000000000000 0.000040 -70.246199 
0.3078750000000000 0.000030 -12.535875 
0.3087500000000000 0.000059 -16.810262 
0.3096250000000000 0.000150 -114.974295 
0.3105000000000000 0.000057 -78.866120 
0.3113750000000000 0.000080 89.078072 
0.3122500000000000 0.000059 -127.080050 
0.3131250000000000 0.000084 73.643837 
0.3140000000000000 0.000075 89.246228 
0.3148750000000000 0.000091 -94.231386 
0.3157500000000000 0.000090 -116.959564 
0.3166250000000000 0.000008 62.518981 
0.3175000000000000 0.000072 77.857033 
0.3183750000000000 0.000025 -93.760541 
0.3192500000000000 0.000088 -133.486858 
0.3201250000000000 0.000037 -19.905640 
0.3210000000000000 0.000043 -122.892344 
0.3218750000000000 0.000065 127.804177 
0.3227500000000000 0.000043 -73.903757 
0.3236250000000000 0.000038 -129.203428 
0.3245000000000000 0.000128 111.183585 
0.3253750000000000 0.000072 -45.784828 
0.3262500000000000 0.000033 -21.025139 
0.3271250000000000 0.000134 110.547128 
0.3280000000000000 0.000150 -136.257472 
0.3288750000000000 0.000067 -38.952970 
0.3297500000000000 0.000113 129.355948 
0.3306250000000000 0.000042 64.125901 
0.3315000000000000 0.000016 -56.534157 
0.3323750000000000 0.000046 -132.300582 
0.3332500000000000 0.000046 70.108362 
0.3341250000000000 0.000061 18.530811 
0.3350000000000000 0.000006 -37.567886 
0.3358750000000000 0.000100 92.988101 
0.3367500000000000 0.000054 -176.132952 
0.3376250000000000 0.000072 17.202157 
0.3385000000000000 0.000035 115.836201 
0.3393750000000000 0.000075 -97.413530 
0.3402500000000000 0.000117 -18.455082 
0.3411250000000000 0.000158 -138.721460 
0.3420000000000000 0.000121 17.514636 
0.3428750000000000 0.000016 73.511686 
0.3437500000000000 0.000081 -5.787047 
0.3446250000000000 0.000099 125.282505 
0.3455000000000000 0.000047 -142.636964 
0.3463750000000000 0.000058 -69.083484 
0.3472500000000000 0.000075 -70.571082 
0.3481250000000000 0.000093 -38.063654 
0.3490000000000000 0.000063 46.167000 
0.3498750000000000 0.000038 -163.765127 
0.3507500000000000 0.000078 -44.227057 
0.3516250000000000 0.000089 122.912598 
0.3525000000000000 0.000114 56.512579 
0.3533750000000000 0.000071 97.024661 
0.3542500000000000 0.000060 154.231272 
0.3551250000000000 0.000072 -122.921905 
0.3560000000000000 0.000063 164.346454 
0.3568750000000000 0.000139 -12.843777 
0.3577500000000000 0.000036 -160.280169 
0.3586250000000000 0.000040 -148.212876 
0.3595000000000000 0.000092 94.316115 
0.3603750000000000 0.000086 -149.216033 
0.3612500000000000 0.000050 -113.941836 
0.3621250000000000 0.000053 34.698699 
0.3630000000000000 0.000051 -115.957268 
0.3638750000000000 0.000106 -75.164571 
0.3647500000000000 0.000026 -144.036156 
0.3656250000000000 0.000111 14.750983 
0.3665000000000000 0.000028 84.374622 
0.3673750000000000 0.000033 -106.682620 
0.3682500000000000 0.000084 147.760502 
0.3691250000000000 0.000002 51.694359 
0.3700000000000000 0.000140 -124.919921 
0.3708750000000000 0.000088 58.175814 
0.3717500000000000 0.000032 50.244954 
0.3726250000000000 0.000027 89.378821 
0.3735000000000000 0.000062 56.739039 
0.3743750000000000 0.000054 -26.365142 
0.3752500000000000 0.000128 -72.469574 
0.3761250000000000 0.000144 -144.617135 
0.3770000000000000 0.000034 150.743636 
0.3778750000000000 0.000015 78.807014 
0.3787500000000000 0.000055 -131.088778 
0.3796250000000000 0.000088 4.794217 
0.3805000000000000 0.000093 -143.243580 
0.3813750000000000 0.000085 30.699184 
0.3822500000000000 0.000177 101.434693 
0.3831250000000000 0.000075 0.485614 
0.3840000000000000 0.000050 110.198450 
0.3848750000000000 0.000093 -100.697565 
0.3857500000000000 0.000166 -60.767301 
0.3866250000000000 0.000046 -115.284536 
0.3875000000000000 0.000083 -64.177157 
0.3883750000000000 0.000097 -4.211318 
0.3892500000000000 0.000122 68.139617 
0.3901250000000000 0.000070 126.167782 
0.3910000000000000 0.000074 -100.231777 
0.3918750000000000 0.000051 138.313671 
0.3927500000000000 0.000070 56.007428 
0.3936250000000000 0.000053 -12.369817 
0.3945000000000000 0.000019 -130.349675 
0.3953750000000000 0.000055 -86.078135 
0.3962500000000000 0.000070 89.751489 
0.3971250000000000 0.000099 17.010638 
0.3980000000000000 0.000023 -140.798658 
0.3988750000000000 0.000037 164.986118 
0.3997500000000000 0.000078 101.238321 
0.4006250000000000 0.000096 135.881021 
0.4015000000000000 0.000117 -71.220693 
0.4023750000000000 0.000080 -64.650543 
0.4032500000000000 0.000038 122.612061 
0.4041250000000000 0.000108 -28.274091 
0.4050000000000000 0.000094 -74.272381 
0.4058750000000000 0.000048 -139.339759 
0.4067500000000000 0.000054 -40.426586 
0.4076250000000000 0.000157 88.330638 
0.4085000000000000 0.000177 -142.591022 
0.4093750000000000 0.000087 -45.438047 
0.4102500000000000 0.000046 -154.347375 
0.4111250000000000 0.000032 84.915793 
0.4120000000000000 0.000002 165.106252 
0.4128750000000000 0.000043 125.509563 
0.4137500000000000 0.000074 -169.121072 
0.4146250000000000 0.000029 121.706656 
0.4155000000000000 0.000058 -113.834487 
0.4163750000000000 0.000078 41.592386 
0.4172500000000000 0.000111 -91.887155 
0.4181250000000000 0.000080 -51.216233 
0.4190000000000000 0.000066 12.271814 
0.4198750000000000 0.000050 122.881955 
0.4207500000000000 0.000024 -38.125488 
0.4216250000000000 0.000106 -89.527109 
0.4225000000000000 0.000071 -11.161271 
0.4233750000000000 0.000060 -124.721900 
0.4242500000000000 0.000075 114.852556 
0.4251250000000000 0.000067 6.565956 
0.4260000000000000 0.000073 -127.912397 
0.4268750000000000 0.000037 -71.876483 
0.4277500000000000 0.000056 -107.872662 
0.4286250000000000 0.000055 71.867693 
0.4295000000000000 0.000068 90.641544 
0.4303750000000000 0.000067 100.510204 
0.4312500000000000 0.000063 173.113005 
0.4321250000000000 0.000063 -168.263496 
0.4330000000000000 0.000022 -83.655008 
0.4338750000000000 0.000083 -115.817325 
0.4347500000000000 0.000038 161.260604 
0.4356250000000000 0.000016 -178.047647 
0.4365000000000000 0.000032 56.474653 
0.4373750000000000 0.000089 144.763268 
0.4382500000000000 0.000039 37.825176 
0.4391250000000000 0.000057 -67.188017 
0.4400000000000000 0.000078 -150.712649 
0.4408750000000000 0.000076 -149.443136 
0.4417500000000000 0.000066 -179.185623 
0.4426250000000000 0.000049 -157.202204 
0.4435000000000000 0.000028 -166.553020 
0.4443750000000000 0.000016 1.184281 
0.4452500000000000 0.000059 92.171788 
0.4461250000000000 0.000032 -136.960978 
0.4470000000000000 0.000103 -156.051771 
0.4478750000000000 0.000088 142.284072 
0.4487500000000000 0.000053 128.099617 
0.4496250000000000 0.000145 87.173059 
0.4505000000000000 0.000113 115.727013 
0.4513750000000000 0.000080 -118.781127 
0.4522500000000000 0.000046 -11.616176 
0.4531250000000000 0.000117 77.815125 
0.4540000000000000 0.000101 140.886003 
0.4548750000000000 0.000017 20.834288 
0.4557500000000000 0.000103 168.144031 
0.4566250000000000 0.000110 102.491364 
0.4575000000000000 0.000027 127.532557 
0.4583750000000000 0.000096 82.837960 
0.4592500000000000 0.000094 -118.362549 
0.4601250000000000 0.000026 52.637360 
0.4610000000000000 0.000060 63.210982 
0.4618750000000000 0.000092 153.138357 
0.4627500000000000 0.000068 176.473430 
0.4636250000000000 0.000015 -48.390001 
0.4645000000000000 0.000135 138.631846 
0.4653750000000000 0.000103 2.918075 
0.4662500000000000 0.000085 -140.208922 
0.4671250000000000 0.000156 87.635653 
0.4680000000000000 0.000086 87.814427 
0.4688750000000000 0.000053 40.628907 
0.4697500000000000 0.000185 107.820774 
0.4706250000000000 0.000080 58.220506 
0.4715000000000000 0.000165 116.985476 
0.4723750000000000 0.000183 24.569463 
0.4732500000000000 0.000074 145.889402 
0.4741250000000000 0.000104 117.051642 
0.4750000000000000 0.000085 61.761532 
0.4758750000000000 0.000151 60.568115 
0.4767500000000000 0.000064 176.360318 
0.4776250000000000 0.000103 117.123233 
0.4785000000000000 0.000122 -65.974837 
0.4793750000000000 0.000048 78.315430 
0.4802500000000000 0.000083 -27.908569 
0.4811250000000000 0.000031 179.518064 
0.4820000000000000 0.000073 53.869520 
0.4828750000000000 0.000059 -159.090541 
0.4837500000000000 0.000062 61.767571 
0.4846250000000000 0.000073 90.583136 
0.4855000000000000 0.000041 -62.415282 
0.4863750000000000 0.000061 46.141042 
0.4872500000000000 0.000089 51.879082 
0.4881250000000000 0.000164 43.057598 
0.4890000000000000 0.000188 12.414084 
0.4898750000000000 0.000104 -82.153937 
0.4907500000000000 0.000082 -8.000119 
0.4916250000000000 0.000103 -2.167038 
0.4925000000000000 0.000076 26.009108 
0.4933750000000000 0.000129 62.346366 
0.4942500000000000 0.000062 18.744228 
0.4951250000000000 0.000078 92.073412 
0.4960000000000000 0.000117 17.769933 
0.4968750000000000 0.000080 14.243441 
0.4977500000000000 0.000052 -111.310562 
0.4986250000000000 0.000136 59.729573 
0.4995000000000000 0.000111 50.229487 
0.5003750000000000 0.000020 126.599567 
0.5012500000000000 0.000144 7.843909 
0.5021250000000000 0.000109 62.168321 
0.5030000000000000 0.000075 -51.826312 
0.5038750000000000 0.000139 4.482026 
0.5047500000000000 0.000203 6.928035 
0.5056250000000000 0.000250 -4.366270 
0.5065000000000000 0.000042 -159.789668 
0.5073750000000000 0.000126 -15.871758 
0.5082500000000000 0.000158 1.932731 
0.5091250000000001 0.000197 -14.576151 
0.5100000000000000 0.000178 -3.933150 
0.5108750000000000 0.000125 -17.206783 
0.5117500000000000 0.000092 -50.231427 
0.5126250000000000 0.000128 10.558170 
0.5135000000000000 0.000222 25.301448 
0.5143750000000000 0.000224 -18.271227 
0.5152500000000000 0.000118 -8.350850 
0.5161249999999999 0.000126 -31.390297 
0.5170000000000000 0.000133 -2.047814 
0.5178750000000000 0.000238 -15.733969 
0.5187500000000000 0.000213 -56.034142 
0.5196250000000000 0.000089 -34.876638 
0.5205000000000000 0.000282 -57.100599 
0.5213750000000000 0.000068 -31.093709 
0.5222500000000000 0.000211 -49.922176 
0.5231250000000000 0.000246 -63.050387 
0.5240000000000000 0.000224 -29.111891 
0.5248750000000000 0.000163 -51.625342 
0.5257500000000001 0.000187 -74.537086 
0.5266250000000000 0.000251 -61.244450 
0.5275000000000000 0.000201 -38.146962 
0.5283750000000000 0.000169 -78.571932 
0.5292500000000000 0.000186 -66.835507 
0.5301250000000000 0.000282 -76.297776 
0.5310000000000000 0.000191 -68.994725 
0.5318750000000000 0.000283 -68.579268 
0.5327500000000000 0.000328 -71.450616 
0.5336250000000000 0.000225 -60.860727 
0.5345000000000000 0.000316 -87.759597 
0.5353750000000001 0.000261 -53.755566 
0.5362500000000000 0.000221 -81.537112 
0.5371250000000000 0.000145 -41.976462 
0.5380000000000000 0.000330 -93.485542 
0.5388750000000000 0.000318 -93.512599 
0.5397500000000000 0.000226 -117.755365 
0.5406250000000000 0.000374 -102.725219 
0.5415000000000000 0.000221 -106.735116 
0.5423750000000001 0.000377 -104.785614 
0.5432500000000000 0.000332 -109.498004 
0.5441250000000000 0.000203 -119.793366 
0.5450000000000000 0.000312 -130.870813 
0.5458750000000000 0.000321 -106.422832 
0.5467500000000000 0.000305 -137.143183 
0.5476250000000000 0.000209 -120.150849 
0.5485000000000000 0.000294 -125.348377 
0.5493750000000000 0.000320 -126.346650 
0.5502500000000000 0.000287 -159.694217 
0.5511250000000000 0.000503 -135.204053 
0.5520000000000001 0.000395 -132.212887 
0.5528750000000000 0.000400 -136.321845 
0.5537500000000000 0.000310 -135.666790 
0.5546250000000000 0.000419 -159.907664 
0.5555000000000000 0.000487 -153.021190 
0.5563750000000000 0.000482 -160.567240 
0.5572500000000000 0.000371 -134.629092 
0.5581250000000000 0.000373 -166.069774 
0.5590000000000001 0.000400 -155.426510 
0.5598750000000000 0.000327 -166.836153 
0.5607500000000000 0.000382 -158.012701 
0.5616250000000000 0.000468 -168.652838 
0.5625000000000000 0.000558 -174.655695 
0.5633750000000000 0.000477 -173.681926 
0.5642500000000000 0.000590 -170.538154 
0.5651250000000000 0.000508 -173.997330 
0.5660000000000000 0.000463 154.038523 
0.5668750000000000 0.000412 173.691404 
0.5677500000000000 0.000645 173.555477 
0.5686250000000001 0.000454 175.931013 
0.5695000000000000 0.000606 169.263680 
0.5703750000000000 0.000600 175.998579 
0.5712500000000000 0.000587 154.010443 
0.5721250000000000 0.000617 157.533077 
0.5730000000000000 0.000464 151.392628 
0.5738750000000000 0.000646 150.965401 
0.5747500000000000 0.000717 149.244876 
0.5756250000000001 0.000548 135.428884 
0.5765000000000000 0.000612 147.169264 
0.5773750000000000 0.000730 146.375482 
0.5782500000000000 0.000708 138.710385 
0.5791250000000000 0.000680 132.433737 
0.5800000000000000 0.000718 124.276966 
0.5808750000000000 0.000719 121.833915 
0.5817500000000000 0.000788 130.436149 
0.5826250000000000 0.000818 116.908571 
0.5835000000000000 0.000713 124.750254 
0.5843750000000000 0.000763 115.127882 
0.5852500000000001 0.000920 117.303669 
0.5861250000000000 0.000864 108.116154 
0.5870000000000000 0.000959 111.217578 
0.5878750000000000 0.000970 115.358565 
0.5887500000000000 0.001027 106.160474 
0.5896250000000000 0.000968 100.728109 
0.5905000000000000 0.000966 102.052649 
0.5913750000000000 0.000972 99.193221 
0.5922500000000001 0.001099 88.847531 
0.5931250000000000 0.001195 88.719093 
0.5940000000000000 0.001179 89.383255 
0.5948750000000000 0.001218 84.649152 
0.5957500000000000 0.001315 83.001581 
0.5966250000000000 0.001310 77.208216 
0.5975000000000000 0.001306 75.169651 
0.5983750000000000 0.001494 74.107371 
0.5992500000000000 0.001266 67.941020 
0.6001250000000000 0.001480 67.812044 
0.6010000000000000 0.001486 63.772058 
0.6018750000000001 0.001572 60.781198 
0.6027500000000000 0.001611 59.206389 
0.6036250000000000 0.001572 50.614914 
0.6045000000000000 0.001695 45.701070 
0.6053750000000000 0.001680 46.394389 
0.6062500000000000 0.001701 42.165381 
0.6071250000000000 0.001923 40.401339 
0.6080000000000000 0.001873 35.846351 
0.6088750000000001 0.001824 31.727199 
0.6097500000000000 0.001998 29.814003 
0.6106250000000000 0.001997 25.058218 
0.6115000000000000 0.002082 22.036588 
0.6123750000000000 0.002062 17.908078 
0.6132500000000000 0.002149 17.178652 
0.6141250000000000 0.002133 11.679852 
0.6150000000000000 0.002211 8.065449 
0.6158750000000000 0.002398 2.558208 
0.6167500000000000 0.002474 4.170412 
0.6176250000000000 0.002450 -2.406134 
0.6185000000000001 0.002580 -5.238289 
0.6193750000000000 0.002649 -9.327086 
0.6202500000000000 0.002731 -12.628355 
0.6211250000000000 0.002770 -18.785831 
0.6220000000000000 0.002873 -19.699560 
0.6228750000000000 0.002951 -23.862619 
0.6237500000000000 0.002887 -27.289803 
0.6246250000000000 0.003096 -33.429374 
0.6254999999999999 0.003221 -34.887611 
0.6263750000000000 0.003244 -38.785095 
0.6272500000000000 0.003185 -39.925018 
0.6281250000000000 0.003388 -44.653585 
0.6290000000000000 0.003474 -49.399339 
0.6298750000000000 0.003615 -55.379286 
0.6307500000000000 0.003611 -56.970347 
0.6316250000000000 0.003658 -60.510321 
0.6325000000000000 0.003724 -64.508663 
0.6333750000000000 0.003929 -68.045574 
0.6342500000000000 0.003974 -70.952983 
0.6351250000000001 0.004072 -76.027224 
0.6360000000000000 0.004186 -80.739961 
0.6368750000000000 0.004291 -81.932030 
0.6377500000000000 0.004504 -85.105393 
0.6386250000000000 0.004421 -91.421516 
0.6395000000000000 0.004482 -94.861348 
0.6403750000000000 0.004749 -96.969113 
0.6412500000000000 0.004883 -101.318710 
0.6421250000000000 0.004929 -104.732562 
0.6430000000000000 0.004980 -109.330177 
0.6438750000000000 0.005149 -112.788224 
0.6447500000000001 0.005393 -117.759012 
0.6456250000000000 0.005594 -119.276610 
0.6465000000000000 0.005672 -125.397690 
0.6473750000000000 0.005910 -128.210720 
0.6482500000000000 0.006007 -131.543640 
0.6491250000000000 0.006286 -134.809465 
0.6500000000000000 0.006233 -139.666858 
0.6508750000000000 0.006572 -143.360408 
0.6517500000000001 0.006565 -147.498808 
0.6526250000000000 0.006874 -150.691390 
0.6535000000000000 0.007236 -156.583777 
0.6543750000000000 0.007445 -158.092963 
0.6552500000000000 0.007629 -163.211910 
0.6561250000000000 0.007927 -167.185954 
0.6570000000000000 0.008093 -170.901189 
0.6578750000000000 0.008405 -174.139012 
0.6587500000000000 0.008901 -178.581712 
0.6596250000000000 0.009066 176.876340 
0.6605000000000000 0.009261 173.169176 
0.6613750000000001 0.009719 168.343289 
0.6622500000000000 0.010074 163.610921 
0.6631250000000000 0.010428 158.373734 
0.6640000000000000 0.010876 154.607824 
0.6648750000000000 0.011252 150.671345 
0.6657500000000000 0.011606 144.376399 
0.6666250000000000 0.012140 140.597852 
0.6675000000000000 0.012838 134.592181 
0.6683750000000001 0.013292 129.125276 
0.6692500000000000 0.013657 124.556224 
0.6701250000000000 0.014342 119.454250 
0.6710000000000000 0.014840 113.584890 
0.6718750000000000 0.015234 107.872915 
0.6727500000000000 0.015893 101.287683 
0.6736250000000000 0.016510 95.229784 
0.6745000000000000 0.016891 88.278813 
0.6753750000000000 0.017368 81.715961 
0.6762500000000000 0.017808 74.513174 
0.6771250000000000 0.018146 67.452631 
0.6780000000000001 0.018334 60.153083 
0.6788750000000000 0.018457 52.680688 
0.6797500000000000 0.018386 45.424494 
0.6806250000000000 0.018454 37.953681 
0.6815000000000000 0.018207 30.341996 
0.6823750000000000 0.017695 23.500673 
0.6832500000000000 0.017364 16.384567 
0.6841250000000000 0.016884 9.828367 
0.6850000000000001 0.016358 2.833729 
0.6858750000000000 0.015859 -3.316286 
0.6867500000000000 0.015187 -9.265355 
0.6876250000000000 0.014748 -15.632397 
0.6885000000000000 0.014092 -21.353202 
0.6893750000000000 0.013569 -26.435383 
0.6902500000000000 0.012906 -31.332627 
0.6911250000000000 0.012458 -37.105422 
0.6920000000000000 0.011783 -42.114915 
0.6928750000000000 0.011434 -46.355159 
0.6937500000000000 0.011046 -50.494972 
0.6946250000000001 0.010421 -56.018351 
0.6955000000000000 0.010124 -59.190352 
0.6963750000000000 0.009877 -64.123988 
0.6972500000000000 0.009462 -68.209312 
0.6981250000000000 0.009092 -72.120933 
0.6990000000000000 0.008650 -77.037819 
0.6998750000000000 0.008458 -80.232852 
0.7007500000000000 0.008210 -84.327152 
0.7016250000000001 0.007852 -87.671705 
0.7025000000000000 0.007639 -92.006732 
0.7033750000000000 0.007237 -95.808637 
0.7042500000000000 0.007082 -99.279673 
0.7051250000000000 0.006965 -102.340767 
0.7060000000000000 0.006587 -106.221718 
0.7068750000000000 0.006374 -108.746700 
0.7077500000000000 0.006220 -113.235504 
0.7086250000000000 0.006011 -115.231603 
0.7095000000000000 0.005810 -119.910523 
0.7103750000000000 0.005592 -123.013833 
0.7112500000000001 0.005503 -126.298943 
0.7121250000000000 0.005236 -128.863531 
0.7130000000000000 0.005158 -132.706989 
0.7138750000000000 0.004950 -135.210758 
0.7147500000000000 0.004807 -138.450236 
0.7156250000000000 0.004783 -141.937415 
0.7165000000000000 0.004709 -144.867302 
0.7173750000000000 0.004528 -148.286569 
0.7182500000000001 0.004501 -151.209810 
0.7191250000000000 0.004222 -153.080475 
