!
! C:\Users\rflab\Downloads\q2\240.S1P
!
! Touchstone 1.1 file saved by VNA.EXE V1.65 (www.ke5fx.com/gpib/readme.htm)
! 11/20/2024 11:14:15 AM
!
!    Source: HEWLETT PACKARD,8753D,0,6.14
!  Min freq: 3.000000E+008 Hz
!  Max freq: 1.000000E+009 Hz
!    Points: 801
!    Params: S21
!
!!!!!
# GHZ S MA R 50
0.3000000000000000 0.000011 -172.090236 
0.3008750000000000 0.000098 119.267914 
0.3017500000000000 0.000064 -71.796227 
0.3026250000000000 0.000063 67.483178 
0.3035000000000000 0.000068 83.276640 
0.3043750000000000 0.000024 52.328796 
0.3052500000000000 0.000089 58.619525 
0.3061250000000000 0.000128 -61.979653 
0.3070000000000000 0.000072 135.585512 
0.3078750000000000 0.000109 -65.057586 
0.3087500000000000 0.000073 17.082005 
0.3096250000000000 0.000060 -45.672089 
0.3105000000000000 0.000037 -102.114829 
0.3113750000000000 0.000011 -166.348950 
0.3122500000000000 0.000034 130.583945 
0.3131250000000000 0.000094 -10.025110 
0.3140000000000000 0.000073 -106.656035 
0.3148750000000000 0.000051 -35.338552 
0.3157500000000000 0.000065 -0.650910 
0.3166250000000000 0.000016 -8.042895 
0.3175000000000000 0.000102 -146.837577 
0.3183750000000000 0.000056 -151.937421 
0.3192500000000000 0.000097 -63.545918 
0.3201250000000000 0.000070 -6.449666 
0.3210000000000000 0.000107 86.382801 
0.3218750000000000 0.000061 82.224710 
0.3227500000000000 0.000020 107.567236 
0.3236250000000000 0.000138 11.486794 
0.3245000000000000 0.000072 -62.899120 
0.3253750000000000 0.000154 -170.883389 
0.3262500000000000 0.000101 -51.764464 
0.3271250000000000 0.000085 43.893795 
0.3280000000000000 0.000092 157.929139 
0.3288750000000000 0.000132 -23.746896 
0.3297500000000000 0.000160 95.766181 
0.3306250000000000 0.000168 104.362070 
0.3315000000000000 0.000027 107.174017 
0.3323750000000000 0.000075 -22.075709 
0.3332500000000000 0.000062 154.667915 
0.3341250000000000 0.000047 -11.114476 
0.3350000000000000 0.000084 -23.353927 
0.3358750000000000 0.000044 137.955846 
0.3367500000000000 0.000095 -98.678739 
0.3376250000000000 0.000097 -131.913159 
0.3385000000000000 0.000067 -131.805578 
0.3393750000000000 0.000131 -119.839157 
0.3402500000000000 0.000071 144.956196 
0.3411250000000000 0.000083 69.952087 
0.3420000000000000 0.000144 -64.880293 
0.3428750000000000 0.000046 70.093528 
0.3437500000000000 0.000052 85.018236 
0.3446250000000000 0.000015 -78.617393 
0.3455000000000000 0.000141 -143.516394 
0.3463750000000000 0.000024 35.600443 
0.3472500000000000 0.000085 -49.893201 
0.3481250000000000 0.000032 -129.980615 
0.3490000000000000 0.000078 -84.794115 
0.3498750000000000 0.000054 -66.226833 
0.3507500000000000 0.000103 -28.276720 
0.3516250000000000 0.000077 -20.827369 
0.3525000000000000 0.000106 58.073446 
0.3533750000000000 0.000031 25.522005 
0.3542500000000000 0.000141 30.683195 
0.3551250000000000 0.000134 89.872608 
0.3560000000000000 0.000150 150.767159 
0.3568750000000000 0.000057 41.357211 
0.3577500000000000 0.000044 -0.621582 
0.3586250000000000 0.000054 -179.645659 
0.3595000000000000 0.000138 68.676593 
0.3603750000000000 0.000040 154.408061 
0.3612500000000000 0.000055 11.405260 
0.3621250000000000 0.000093 120.531121 
0.3630000000000000 0.000075 -171.898930 
0.3638750000000000 0.000038 72.781275 
0.3647500000000000 0.000078 135.366868 
0.3656250000000000 0.000108 76.943023 
0.3665000000000000 0.000085 -166.191014 
0.3673750000000000 0.000069 -92.283316 
0.3682500000000000 0.000029 52.056851 
0.3691250000000000 0.000067 105.959880 
0.3700000000000000 0.000145 78.891750 
0.3708750000000000 0.000040 64.623930 
0.3717500000000000 0.000074 -149.447485 
0.3726250000000000 0.000040 33.862620 
0.3735000000000000 0.000026 -148.096800 
0.3743750000000000 0.000061 -84.575358 
0.3752500000000000 0.000060 41.284710 
0.3761250000000000 0.000063 -72.059263 
0.3770000000000000 0.000064 -80.195563 
0.3778750000000000 0.000023 -81.717359 
0.3787500000000000 0.000184 -91.349389 
0.3796250000000000 0.000070 -53.686111 
0.3805000000000000 0.000094 139.269284 
0.3813750000000000 0.000114 -11.831712 
0.3822500000000000 0.000081 75.072166 
0.3831250000000000 0.000041 28.505861 
0.3840000000000000 0.000036 11.309354 
0.3848750000000000 0.000013 126.251456 
0.3857500000000000 0.000148 -30.160205 
0.3866250000000000 0.000087 -167.416652 
0.3875000000000000 0.000051 -99.801456 
0.3883750000000000 0.000043 150.338366 
0.3892500000000000 0.000047 37.414172 
0.3901250000000000 0.000141 -169.709197 
0.3910000000000000 0.000058 -169.968650 
0.3918750000000000 0.000091 -160.026484 
0.3927500000000000 0.000091 78.733028 
0.3936250000000000 0.000114 34.118559 
0.3945000000000000 0.000111 -2.470209 
0.3953750000000000 0.000068 -141.366542 
0.3962500000000000 0.000056 34.410155 
0.3971250000000000 0.000068 -27.641823 
0.3980000000000000 0.000076 -2.920093 
0.3988750000000000 0.000094 91.474240 
0.3997500000000000 0.000043 -64.901342 
0.4006250000000000 0.000039 108.450689 
0.4015000000000000 0.000098 86.097476 
0.4023750000000000 0.000061 172.090801 
0.4032500000000000 0.000064 -107.752913 
0.4041250000000000 0.000137 129.553925 
0.4050000000000000 0.000021 -40.801201 
0.4058750000000000 0.000072 8.625097 
0.4067500000000000 0.000100 -43.206280 
0.4076250000000000 0.000098 -145.983183 
0.4085000000000000 0.000036 -175.228748 
0.4093750000000000 0.000104 143.204170 
0.4102500000000000 0.000115 23.989572 
0.4111250000000000 0.000118 -54.588987 
0.4120000000000000 0.000025 162.702892 
0.4128750000000000 0.000159 -2.470852 
0.4137500000000000 0.000090 100.276335 
0.4146250000000000 0.000049 -114.794447 
0.4155000000000000 0.000028 -52.759959 
0.4163750000000000 0.000121 23.712678 
0.4172500000000000 0.000057 86.638845 
0.4181250000000000 0.000067 -103.953418 
0.4190000000000000 0.000110 103.663494 
0.4198750000000000 0.000118 -148.184363 
0.4207500000000000 0.000119 73.583451 
0.4216250000000000 0.000044 -117.142988 
0.4225000000000000 0.000088 -154.315469 
0.4233750000000000 0.000075 113.576874 
0.4242500000000000 0.000033 129.026947 
0.4251250000000000 0.000075 162.731553 
0.4260000000000000 0.000075 140.367663 
0.4268750000000000 0.000051 164.759481 
0.4277500000000000 0.000065 -40.693502 
0.4286250000000000 0.000037 136.956600 
0.4295000000000000 0.000056 28.357863 
0.4303750000000000 0.000074 180.000000 
0.4312500000000000 0.000051 -126.576076 
0.4321250000000000 0.000050 -71.158639 
0.4330000000000000 0.000011 12.884873 
0.4338750000000000 0.000156 -97.237695 
0.4347500000000000 0.000105 -129.044487 
0.4356250000000000 0.000045 117.141782 
0.4365000000000000 0.000107 125.052819 
0.4373750000000000 0.000119 71.322535 
0.4382500000000000 0.000054 10.072888 
0.4391250000000000 0.000034 22.843720 
0.4400000000000000 0.000080 138.303673 
0.4408750000000000 0.000101 147.915294 
0.4417500000000000 0.000023 11.400786 
0.4426250000000000 0.000051 91.792449 
0.4435000000000000 0.000094 -62.265103 
0.4443750000000000 0.000182 138.194909 
0.4452500000000000 0.000039 12.161147 
0.4461250000000000 0.000070 103.564160 
0.4470000000000000 0.000077 137.492025 
0.4478750000000000 0.000070 -171.184359 
0.4487500000000000 0.000077 -166.090373 
0.4496250000000000 0.000070 125.751416 
0.4505000000000000 0.000105 146.429552 
0.4513750000000000 0.000040 -25.507356 
0.4522500000000000 0.000020 58.769930 
0.4531250000000000 0.000088 -129.923761 
0.4540000000000000 0.000079 17.630246 
0.4548750000000000 0.000135 -6.670325 
0.4557500000000000 0.000126 20.635947 
0.4566250000000000 0.000070 74.172285 
0.4575000000000000 0.000044 164.645779 
0.4583750000000000 0.000097 87.784169 
0.4592500000000000 0.000069 176.675977 
0.4601250000000000 0.000100 114.123101 
0.4610000000000000 0.000073 -120.487687 
0.4618750000000000 0.000061 12.477803 
0.4627500000000000 0.000114 -86.205669 
0.4636250000000000 0.000089 97.959059 
0.4645000000000000 0.000081 81.146671 
0.4653750000000000 0.000050 137.947245 
0.4662500000000000 0.000110 121.172515 
0.4671250000000000 0.000090 -31.916165 
0.4680000000000000 0.000148 20.279383 
0.4688750000000000 0.000069 35.836673 
0.4697500000000000 0.000049 27.941760 
0.4706250000000000 0.000091 87.038779 
0.4715000000000000 0.000208 67.584649 
0.4723750000000000 0.000097 147.225883 
0.4732500000000000 0.000084 96.664520 
0.4741250000000000 0.000070 39.361511 
0.4750000000000000 0.000074 -85.753319 
0.4758750000000000 0.000050 80.061069 
0.4767500000000000 0.000290 109.239728 
0.4776250000000000 0.000143 13.554924 
0.4785000000000000 0.000054 37.174595 
0.4793750000000000 0.000131 105.257127 
0.4802500000000000 0.000089 109.123793 
0.4811250000000000 0.000062 -131.287479 
0.4820000000000000 0.000076 55.032703 
0.4828750000000000 0.000064 -80.990336 
0.4837500000000000 0.000112 -20.367912 
0.4846250000000000 0.000104 -42.622613 
0.4855000000000000 0.000133 105.594616 
0.4863750000000000 0.000186 -10.979977 
0.4872500000000000 0.000037 37.671507 
0.4881250000000000 0.000145 -113.018873 
0.4890000000000000 0.000074 10.432244 
0.4898750000000000 0.000117 159.972888 
0.4907500000000000 0.000033 -76.705468 
0.4916250000000000 0.000162 14.551599 
0.4925000000000000 0.000043 135.501301 
0.4933750000000000 0.000094 -4.088052 
0.4942500000000000 0.000086 150.805808 
0.4951250000000000 0.000123 -59.473779 
0.4960000000000000 0.000077 -49.006952 
0.4968750000000000 0.000074 74.616687 
0.4977500000000000 0.000093 7.313318 
0.4986250000000000 0.000176 -22.822620 
0.4995000000000000 0.000055 -23.152076 
0.5003750000000000 0.000074 64.670904 
0.5012500000000000 0.000020 -147.087628 
0.5021250000000000 0.000061 -130.862536 
0.5030000000000000 0.000020 102.356109 
0.5038750000000000 0.000096 -43.470910 
0.5047500000000000 0.000088 27.365723 
0.5056250000000000 0.000090 42.813488 
0.5065000000000000 0.000107 3.923328 
0.5073750000000000 0.000076 16.954109 
0.5082500000000000 0.000072 55.962813 
0.5091250000000001 0.000050 41.315266 
0.5100000000000000 0.000068 20.983375 
0.5108750000000000 0.000064 24.495239 
0.5117500000000000 0.000039 -122.993577 
0.5126250000000000 0.000172 9.053314 
0.5135000000000000 0.000037 121.316831 
0.5143750000000000 0.000043 -48.572954 
0.5152500000000000 0.000148 -34.310345 
0.5161249999999999 0.000045 -24.675468 
0.5170000000000000 0.000093 -53.701258 
0.5178750000000000 0.000000 37.053607 
0.5187500000000000 0.000157 -33.511388 
0.5196250000000000 0.000142 -38.295250 
0.5205000000000000 0.000181 -10.142397 
0.5213750000000000 0.000209 -46.266752 
0.5222500000000000 0.000101 -53.952816 
0.5231250000000000 0.000128 -3.949312 
0.5240000000000000 0.000107 -63.741315 
0.5248750000000000 0.000105 -49.965774 
0.5257500000000001 0.000296 -67.842563 
0.5266250000000000 0.000030 157.980988 
0.5275000000000000 0.000171 -57.755719 
0.5283750000000000 0.000168 -95.991762 
0.5292500000000000 0.000193 -85.176518 
0.5301250000000000 0.000103 -137.732451 
0.5310000000000000 0.000094 -27.098813 
0.5318750000000000 0.000206 -50.922948 
0.5327500000000000 0.000075 -146.057095 
0.5336250000000000 0.000128 -72.082621 
0.5345000000000000 0.000223 -73.245091 
0.5353750000000001 0.000152 -106.019067 
0.5362500000000000 0.000154 -109.022539 
0.5371250000000000 0.000176 -112.060148 
0.5380000000000000 0.000190 -147.013526 
0.5388750000000000 0.000056 100.279064 
0.5397500000000000 0.000137 -116.519177 
0.5406250000000000 0.000185 -142.044531 
0.5415000000000000 0.000204 -118.603439 
0.5423750000000001 0.000075 -107.608071 
0.5432500000000000 0.000251 -128.101653 
0.5441250000000000 0.000067 -136.810105 
0.5450000000000000 0.000151 -147.799040 
0.5458750000000000 0.000249 -132.637159 
0.5467500000000000 0.000112 -157.553128 
0.5476250000000000 0.000151 -138.794357 
0.5485000000000000 0.000233 -148.824189 
0.5493750000000000 0.000204 -178.285183 
0.5502500000000000 0.000083 -85.958324 
0.5511250000000000 0.000158 -146.983832 
0.5520000000000001 0.000334 -163.463098 
0.5528750000000000 0.000172 -176.917342 
0.5537500000000000 0.000174 -170.159137 
0.5546250000000000 0.000301 -179.559643 
0.5555000000000000 0.000413 -157.159532 
0.5563750000000000 0.000158 -162.707358 
0.5572500000000000 0.000231 151.295578 
0.5581250000000000 0.000287 -166.555915 
0.5590000000000001 0.000193 -172.701101 
0.5598750000000000 0.000320 -174.154870 
0.5607500000000000 0.000287 -169.324122 
0.5616250000000000 0.000173 141.487123 
0.5625000000000000 0.000335 -179.152197 
0.5633750000000000 0.000269 177.156297 
0.5642500000000000 0.000376 168.057610 
0.5651250000000000 0.000376 169.756882 
0.5660000000000000 0.000243 -177.320670 
0.5668750000000000 0.000321 170.877943 
0.5677500000000000 0.000257 143.929803 
0.5686250000000001 0.000298 152.482335 
0.5695000000000000 0.000357 155.057309 
0.5703750000000000 0.000339 146.814755 
0.5712500000000000 0.000433 149.632530 
0.5721250000000000 0.000397 131.032400 
0.5730000000000000 0.000345 141.993591 
0.5738750000000000 0.000432 137.610744 
0.5747500000000000 0.000412 152.762980 
0.5756250000000001 0.000383 131.298224 
0.5765000000000000 0.000424 132.334944 
0.5773750000000000 0.000370 140.004449 
0.5782500000000000 0.000442 110.754014 
0.5791250000000000 0.000390 103.609195 
0.5800000000000000 0.000475 131.642037 
0.5808750000000000 0.000377 114.440402 
0.5817500000000000 0.000558 107.858762 
0.5826250000000000 0.000513 105.072570 
0.5835000000000000 0.000520 109.368040 
0.5843750000000000 0.000567 105.818320 
0.5852500000000001 0.000519 101.548113 
0.5861250000000000 0.000522 101.245085 
0.5870000000000000 0.000644 101.988859 
0.5878750000000000 0.000706 94.149378 
0.5887500000000000 0.000629 95.599922 
0.5896250000000000 0.000638 90.973879 
0.5905000000000000 0.000590 94.279345 
0.5913750000000000 0.000576 93.742656 
0.5922500000000001 0.000702 85.690606 
0.5931250000000000 0.000773 74.619169 
0.5940000000000000 0.000793 67.966624 
0.5948750000000000 0.000730 70.528023 
0.5957500000000000 0.000692 70.124361 
0.5966250000000000 0.000926 69.329608 
0.5975000000000000 0.000806 61.162288 
0.5983750000000000 0.000927 62.976711 
0.5992500000000000 0.000940 52.222232 
0.6001250000000000 0.000901 46.169029 
0.6010000000000000 0.000931 49.666065 
0.6018750000000001 0.001046 39.805572 
0.6027500000000000 0.001013 47.896224 
0.6036250000000000 0.001190 35.388950 
0.6045000000000000 0.001206 34.995267 
0.6053750000000000 0.001137 28.088912 
0.6062500000000000 0.001227 29.824316 
0.6071250000000000 0.001240 22.983417 
0.6080000000000000 0.001188 23.949935 
0.6088750000000001 0.001434 21.865990 
0.6097500000000000 0.001328 12.989605 
0.6106250000000000 0.001335 10.802134 
0.6115000000000000 0.001309 16.915357 
0.6123750000000000 0.001561 7.535362 
0.6132500000000000 0.001423 3.683660 
0.6141250000000000 0.001567 -2.428402 
0.6150000000000000 0.001627 -5.378035 
0.6158750000000000 0.001628 -10.825615 
0.6167500000000000 0.001665 -15.655445 
0.6176250000000000 0.001636 -19.447560 
0.6185000000000001 0.001802 -21.135482 
0.6193750000000000 0.001667 -25.099075 
0.6202500000000000 0.001782 -28.143839 
0.6211250000000000 0.002036 -31.331305 
0.6220000000000000 0.001922 -37.451684 
0.6228750000000000 0.001892 -40.943284 
0.6237500000000000 0.002033 -43.344223 
0.6246250000000000 0.002185 -47.791262 
0.6254999999999999 0.002128 -52.669180 
0.6263750000000000 0.002329 -55.833371 
0.6272500000000000 0.002158 -65.081194 
0.6281250000000000 0.002192 -62.392417 
0.6290000000000000 0.002321 -68.982784 
0.6298750000000000 0.002341 -69.298849 
0.6307500000000000 0.002468 -72.738757 
0.6316250000000000 0.002507 -78.314413 
0.6325000000000000 0.002596 -84.476086 
0.6333750000000000 0.002818 -85.968089 
0.6342500000000000 0.002713 -89.974827 
0.6351250000000001 0.002755 -95.576652 
0.6360000000000000 0.002935 -100.343769 
0.6368750000000000 0.002892 -102.612063 
0.6377500000000000 0.003006 -102.743734 
0.6386250000000000 0.003124 -108.830444 
0.6395000000000000 0.003324 -112.488344 
0.6403750000000000 0.003265 -118.082581 
0.6412500000000000 0.003478 -122.962277 
0.6421250000000000 0.003540 -125.902834 
0.6430000000000000 0.003556 -128.914785 
0.6438750000000000 0.003764 -133.382928 
0.6447500000000001 0.003959 -136.769252 
0.6456250000000000 0.003861 -139.362638 
0.6465000000000000 0.003961 -144.768655 
0.6473750000000000 0.004177 -147.715916 
0.6482500000000000 0.004300 -152.752972 
0.6491250000000000 0.004397 -155.408205 
0.6500000000000000 0.004656 -160.713274 
0.6508750000000000 0.004640 -163.790908 
0.6517500000000001 0.004916 -167.283424 
0.6526250000000000 0.005054 -170.710959 
0.6535000000000000 0.005287 -176.949732 
0.6543750000000000 0.005275 -178.819078 
0.6552500000000000 0.005563 175.757623 
0.6561250000000000 0.005797 172.320485 
0.6570000000000000 0.005882 167.010432 
0.6578750000000000 0.006103 164.092112 
0.6587500000000000 0.006396 160.824847 
0.6596250000000000 0.006642 156.396059 
0.6605000000000000 0.006729 150.425072 
0.6613750000000001 0.007140 146.613992 
0.6622500000000000 0.007454 142.508499 
0.6631250000000000 0.007531 136.820399 
0.6640000000000000 0.007969 133.405866 
0.6648750000000000 0.008166 128.819431 
0.6657500000000000 0.008601 123.487006 
0.6666250000000000 0.008931 119.624973 
0.6675000000000000 0.009292 113.096662 
0.6683750000000001 0.009633 107.971254 
0.6692500000000000 0.010129 102.846230 
0.6701250000000000 0.010526 97.832036 
0.6710000000000000 0.010874 90.540202 
0.6718750000000000 0.011326 85.779645 
0.6727500000000000 0.011645 79.984958 
0.6736250000000000 0.011912 73.823362 
0.6745000000000000 0.012536 66.834597 
0.6753750000000000 0.012934 59.462269 
0.6762500000000000 0.013166 52.309187 
0.6771250000000000 0.013536 45.422458 
0.6780000000000001 0.013603 38.252651 
0.6788750000000000 0.013524 30.403888 
0.6797500000000000 0.013537 23.310421 
0.6806250000000000 0.013465 15.428095 
0.6815000000000000 0.013343 8.669880 
0.6823750000000000 0.013214 1.306838 
0.6832500000000000 0.012725 -6.132965 
0.6841250000000000 0.012542 -12.480602 
0.6850000000000001 0.012184 -19.030573 
0.6858750000000000 0.011654 -25.978987 
0.6867500000000000 0.011250 -32.221609 
0.6876250000000000 0.010826 -38.634191 
0.6885000000000000 0.010210 -44.212844 
0.6893750000000000 0.009915 -49.988393 
0.6902500000000000 0.009549 -53.768158 
0.6911250000000000 0.009244 -59.792491 
0.6920000000000000 0.008814 -64.232022 
0.6928750000000000 0.008290 -69.663815 
0.6937500000000000 0.008041 -73.088884 
0.6946250000000001 0.007756 -78.426846 
0.6955000000000000 0.007478 -82.179388 
0.6963750000000000 0.007290 -87.450705 
0.6972500000000000 0.006768 -91.057735 
0.6981250000000000 0.006522 -95.306495 
0.6990000000000000 0.006474 -100.524517 
0.6998750000000000 0.006225 -104.202293 
0.7007500000000000 0.005906 -105.972085 
0.7016250000000001 0.005720 -110.291621 
0.7025000000000000 0.005452 -115.708949 
0.7033750000000000 0.005314 -118.349501 
0.7042500000000000 0.005107 -122.920036 
0.7051250000000000 0.004988 -125.621085 
0.7060000000000000 0.004792 -129.358803 
0.7068750000000000 0.004775 -130.926196 
0.7077500000000000 0.004592 -135.748922 
0.7086250000000000 0.004434 -139.667392 
0.7095000000000000 0.004229 -143.437598 
0.7103750000000000 0.004134 -145.768234 
0.7112500000000001 0.003984 -150.946734 
0.7121250000000000 0.003893 -153.100732 
0.7130000000000000 0.003880 -155.233473 
0.7138750000000000 0.003668 -158.215187 
0.7147500000000000 0.003539 -161.843329 
0.7156250000000000 0.003354 -165.494597 
0.7165000000000000 0.003434 -168.084708 
0.7173750000000000 0.003245 -173.337142 
0.7182500000000001 0.003267 -174.426280 
0.7191250000000000 0.003198 -176.426331 
