!
! C:\Users\rflab\Downloads\q2\260.S1P
!
! Touchstone 1.1 file saved by VNA.EXE V1.65 (www.ke5fx.com/gpib/readme.htm)
! 11/20/2024 11:14:42 AM
!
!    Source: HEWLETT PACKARD,8753D,0,6.14
!  Min freq: 3.000000E+008 Hz
!  Max freq: 1.000000E+009 Hz
!    Points: 801
!    Params: S21
!
!!!!!
# GHZ S MA R 50
0.3000000000000000 0.000056 -173.675372 
0.3008750000000000 0.000037 59.225082 
0.3017500000000000 0.000104 23.662781 
0.3026250000000000 0.000025 5.711877 
0.3035000000000000 0.000061 -136.582578 
0.3043750000000000 0.000124 -54.982082 
0.3052500000000000 0.000047 -158.351760 
0.3061250000000000 0.000048 138.027959 
0.3070000000000000 0.000065 -130.206698 
0.3078750000000000 0.000073 -97.357069 
0.3087500000000000 0.000041 63.151702 
0.3096250000000000 0.000022 -101.074420 
0.3105000000000000 0.000107 78.132583 
0.3113750000000000 0.000160 -100.969921 
0.3122500000000000 0.000104 143.867564 
0.3131250000000000 0.000098 99.839340 
0.3140000000000000 0.000112 129.724418 
0.3148750000000000 0.000066 -91.733336 
0.3157500000000000 0.000073 -97.811105 
0.3166250000000000 0.000035 -155.351482 
0.3175000000000000 0.000128 -62.237890 
0.3183750000000000 0.000025 125.185346 
0.3192500000000000 0.000047 162.733551 
0.3201250000000000 0.000014 -49.835950 
0.3210000000000000 0.000040 154.674382 
0.3218750000000000 0.000038 163.716335 
0.3227500000000000 0.000086 -56.170964 
0.3236250000000000 0.000102 -150.600869 
0.3245000000000000 0.000077 -74.737543 
0.3253750000000000 0.000069 -9.408820 
0.3262500000000000 0.000102 -131.769868 
0.3271250000000000 0.000099 96.905103 
0.3280000000000000 0.000050 21.469804 
0.3288750000000000 0.000046 108.151687 
0.3297500000000000 0.000085 -137.829207 
0.3306250000000000 0.000047 -170.623310 
0.3315000000000000 0.000107 -35.090500 
0.3323750000000000 0.000016 -1.391303 
0.3332500000000000 0.000105 13.367105 
0.3341250000000000 0.000078 119.633322 
0.3350000000000000 0.000135 38.853725 
0.3358750000000000 0.000024 -109.252775 
0.3367500000000000 0.000064 171.435027 
0.3376250000000000 0.000059 118.924434 
0.3385000000000000 0.000054 -35.482242 
0.3393750000000000 0.000052 -94.268930 
0.3402500000000000 0.000104 102.161768 
0.3411250000000000 0.000060 26.369877 
0.3420000000000000 0.000134 154.575125 
0.3428750000000000 0.000050 159.282172 
0.3437500000000000 0.000052 54.518288 
0.3446250000000000 0.000094 -138.416778 
0.3455000000000000 0.000040 -67.443354 
0.3463750000000000 0.000110 46.074099 
0.3472500000000000 0.000055 171.564163 
0.3481250000000000 0.000071 -152.132933 
0.3490000000000000 0.000066 -125.513632 
0.3498750000000000 0.000069 -155.215822 
0.3507500000000000 0.000067 -176.422482 
0.3516250000000000 0.000042 -132.221839 
0.3525000000000000 0.000015 115.038763 
0.3533750000000000 0.000102 -1.712397 
0.3542500000000000 0.000076 -138.407058 
0.3551250000000000 0.000040 26.521048 
0.3560000000000000 0.000035 -133.493064 
0.3568750000000000 0.000040 -137.048181 
0.3577500000000000 0.000078 33.693863 
0.3586250000000000 0.000110 -4.077463 
0.3595000000000000 0.000025 64.639908 
0.3603750000000000 0.000034 -178.808078 
0.3612500000000000 0.000024 73.200416 
0.3621250000000000 0.000039 72.767148 
0.3630000000000000 0.000065 48.647881 
0.3638750000000000 0.000041 38.961703 
0.3647500000000000 0.000096 89.472551 
0.3656250000000000 0.000165 49.178349 
0.3665000000000000 0.000070 56.425058 
0.3673750000000000 0.000095 60.986047 
0.3682500000000000 0.000128 124.855231 
0.3691250000000000 0.000052 133.681395 
0.3700000000000000 0.000082 63.572225 
0.3708750000000000 0.000131 179.140802 
0.3717500000000000 0.000119 -62.637935 
0.3726250000000000 0.000063 -116.647811 
0.3735000000000000 0.000100 -28.168671 
0.3743750000000000 0.000068 -177.202807 
0.3752500000000000 0.000089 107.366388 
0.3761250000000000 0.000041 -3.830703 
0.3770000000000000 0.000093 39.059691 
0.3778750000000000 0.000102 166.116173 
0.3787500000000000 0.000054 157.573850 
0.3796250000000000 0.000140 81.021372 
0.3805000000000000 0.000074 -163.232097 
0.3813750000000000 0.000136 143.455402 
0.3822500000000000 0.000103 -127.053876 
0.3831250000000000 0.000158 -4.520433 
0.3840000000000000 0.000145 -12.722964 
0.3848750000000000 0.000073 18.030072 
0.3857500000000000 0.000157 100.704401 
0.3866250000000000 0.000127 -60.528426 
0.3875000000000000 0.000050 134.326179 
0.3883750000000000 0.000072 12.272740 
0.3892500000000000 0.000092 -72.325842 
0.3901250000000000 0.000167 106.268098 
0.3910000000000000 0.000055 3.086248 
0.3918750000000000 0.000065 -54.398562 
0.3927500000000000 0.000060 102.836535 
0.3936250000000000 0.000091 -8.282802 
0.3945000000000000 0.000157 -34.392950 
0.3953750000000000 0.000066 -150.187216 
0.3962500000000000 0.000054 -133.276366 
0.3971250000000000 0.000052 -88.185275 
0.3980000000000000 0.000045 132.208845 
0.3988750000000000 0.000145 -119.955170 
0.3997500000000000 0.000094 -49.223159 
0.4006250000000000 0.000051 -41.949000 
0.4015000000000000 0.000038 176.415208 
0.4023750000000000 0.000002 64.223366 
0.4032500000000000 0.000086 117.571601 
0.4041250000000000 0.000059 -111.943431 
0.4050000000000000 0.000063 -151.507678 
0.4058750000000000 0.000035 -17.296650 
0.4067500000000000 0.000105 25.365754 
0.4076250000000000 0.000070 17.568821 
0.4085000000000000 0.000029 31.327184 
0.4093750000000000 0.000048 100.990514 
0.4102500000000000 0.000094 -1.586998 
0.4111250000000000 0.000164 87.088739 
0.4120000000000000 0.000067 57.634923 
0.4128750000000000 0.000082 92.268774 
0.4137500000000000 0.000041 167.490279 
0.4146250000000000 0.000019 98.675001 
0.4155000000000000 0.000067 -59.037062 
0.4163750000000000 0.000110 -144.487079 
0.4172500000000000 0.000074 156.836846 
0.4181250000000000 0.000091 -12.349767 
0.4190000000000000 0.000073 127.334461 
0.4198750000000000 0.000110 -140.773713 
0.4207500000000000 0.000142 -71.041748 
0.4216250000000000 0.000024 -41.440456 
0.4225000000000000 0.000078 69.126025 
0.4233750000000000 0.000051 11.564163 
0.4242500000000000 0.000029 -155.871882 
0.4251250000000000 0.000127 4.412595 
0.4260000000000000 0.000115 155.397178 
0.4268750000000000 0.000154 121.582805 
0.4277500000000000 0.000104 -75.360339 
0.4286250000000000 0.000057 37.338635 
0.4295000000000000 0.000101 -3.262627 
0.4303750000000000 0.000066 79.309520 
0.4312500000000000 0.000060 -178.645595 
0.4321250000000000 0.000158 123.741678 
0.4330000000000000 0.000122 -164.788128 
0.4338750000000000 0.000045 -176.599113 
0.4347500000000000 0.000122 171.706598 
0.4356250000000000 0.000073 54.911648 
0.4365000000000000 0.000104 8.053842 
0.4373750000000000 0.000099 -111.654396 
0.4382500000000000 0.000113 175.534721 
0.4391250000000000 0.000103 123.885179 
0.4400000000000000 0.000110 23.127042 
0.4408750000000000 0.000084 -8.393132 
0.4417500000000000 0.000101 63.347625 
0.4426250000000000 0.000053 -112.444141 
0.4435000000000000 0.000044 -60.486341 
0.4443750000000000 0.000078 -162.550567 
0.4452500000000000 0.000068 44.860526 
0.4461250000000000 0.000024 74.455565 
0.4470000000000000 0.000120 63.758422 
0.4478750000000000 0.000027 -28.169217 
0.4487500000000000 0.000130 66.114493 
0.4496250000000000 0.000076 128.005954 
0.4505000000000000 0.000070 61.900572 
0.4513750000000000 0.000026 127.447810 
0.4522500000000000 0.000091 -28.912166 
0.4531250000000000 0.000090 3.671362 
0.4540000000000000 0.000127 93.302576 
0.4548750000000000 0.000064 107.252851 
0.4557500000000000 0.000164 86.790907 
0.4566250000000000 0.000070 10.721029 
0.4575000000000000 0.000033 118.012475 
0.4583750000000000 0.000128 45.689424 
0.4592500000000000 0.000142 39.990078 
0.4601250000000000 0.000121 10.547774 
0.4610000000000000 0.000042 21.561280 
0.4618750000000000 0.000078 48.728422 
0.4627500000000000 0.000075 29.271832 
0.4636250000000000 0.000023 17.131709 
0.4645000000000000 0.000037 84.597188 
0.4653750000000000 0.000041 90.740106 
0.4662500000000000 0.000002 140.640947 
0.4671250000000000 0.000034 101.466788 
0.4680000000000000 0.000139 -18.549821 
0.4688750000000000 0.000119 -175.947389 
0.4697500000000000 0.000069 142.664244 
0.4706250000000000 0.000088 92.432409 
0.4715000000000000 0.000005 -93.003871 
0.4723750000000000 0.000043 38.431426 
0.4732500000000000 0.000089 62.094887 
0.4741250000000000 0.000134 13.088726 
0.4750000000000000 0.000057 147.099977 
0.4758750000000000 0.000051 64.939451 
0.4767500000000000 0.000045 -151.924327 
0.4776250000000000 0.000201 29.634394 
0.4785000000000000 0.000139 149.132678 
0.4793750000000000 0.000051 32.388727 
0.4802500000000000 0.000060 -28.661474 
0.4811250000000000 0.000080 -101.712662 
0.4820000000000000 0.000120 -55.848742 
0.4828750000000000 0.000085 60.803356 
0.4837500000000000 0.000148 -37.068214 
0.4846250000000000 0.000090 -154.770494 
0.4855000000000000 0.000034 -110.472279 
0.4863750000000000 0.000156 0.846582 
0.4872500000000000 0.000056 155.231219 
0.4881250000000000 0.000024 138.677296 
0.4890000000000000 0.000088 -71.290712 
0.4898750000000000 0.000123 -19.426039 
0.4907500000000000 0.000062 -12.381911 
0.4916250000000000 0.000096 34.943038 
0.4925000000000000 0.000049 27.040400 
0.4933750000000000 0.000073 -143.904119 
0.4942500000000000 0.000042 -112.946443 
0.4951250000000000 0.000096 -131.864071 
0.4960000000000000 0.000129 -75.178692 
0.4968750000000000 0.000109 -57.780900 
0.4977500000000000 0.000108 -79.576439 
0.4986250000000000 0.000087 -82.357440 
0.4995000000000000 0.000028 -134.885728 
0.5003750000000000 0.000098 15.980452 
0.5012500000000000 0.000057 86.384896 
0.5021250000000000 0.000094 19.652905 
0.5030000000000000 0.000125 16.626958 
0.5038750000000000 0.000125 -116.981159 
0.5047500000000000 0.000040 -103.323575 
0.5056250000000000 0.000081 -2.594211 
0.5065000000000000 0.000100 -162.782784 
0.5073750000000000 0.000119 -41.999521 
0.5082500000000000 0.000100 -90.822401 
0.5091250000000001 0.000000 -60.251163 
0.5100000000000000 0.000159 -91.433574 
0.5108750000000000 0.000055 -18.786715 
0.5117500000000000 0.000028 91.652546 
0.5126250000000000 0.000113 -165.726531 
0.5135000000000000 0.000151 -29.366364 
0.5143750000000000 0.000055 -14.109537 
0.5152500000000000 0.000126 -46.836684 
0.5161249999999999 0.000071 -96.510373 
0.5170000000000000 0.000198 -56.555204 
0.5178750000000000 0.000090 -19.185272 
0.5187500000000000 0.000082 -101.589483 
0.5196250000000000 0.000069 -116.484344 
0.5205000000000000 0.000116 -102.851621 
0.5213750000000000 0.000054 71.532275 
0.5222500000000000 0.000060 -172.780014 
0.5231250000000000 0.000129 176.632365 
0.5240000000000000 0.000060 164.642969 
0.5248750000000000 0.000068 -56.123774 
0.5257500000000001 0.000088 -91.922476 
0.5266250000000000 0.000133 -129.034038 
0.5275000000000000 0.000175 168.389788 
0.5283750000000000 0.000055 -127.436184 
0.5292500000000000 0.000187 -98.913642 
0.5301250000000000 0.000098 118.872834 
0.5310000000000000 0.000101 -78.975178 
0.5318750000000000 0.000042 138.490748 
0.5327500000000000 0.000199 -161.346466 
0.5336250000000000 0.000052 -131.457170 
0.5345000000000000 0.000161 -116.403481 
0.5353750000000001 0.000127 -170.898150 
0.5362500000000000 0.000242 -140.805510 
0.5371250000000000 0.000180 -120.999069 
0.5380000000000000 0.000183 148.933233 
0.5388750000000000 0.000188 -175.992672 
0.5397500000000000 0.000107 160.088164 
0.5406250000000000 0.000175 154.404599 
0.5415000000000000 0.000101 117.286294 
0.5423750000000001 0.000096 112.426966 
0.5432500000000000 0.000047 45.493890 
0.5441250000000000 0.000204 163.305558 
0.5450000000000000 0.000212 179.871427 
0.5458750000000000 0.000179 171.503207 
0.5467500000000000 0.000164 167.688937 
0.5476250000000000 0.000121 164.027001 
0.5485000000000000 0.000168 -178.755464 
0.5493750000000000 0.000152 166.620916 
0.5502500000000000 0.000225 -167.989707 
0.5511250000000000 0.000241 172.253668 
0.5520000000000001 0.000133 164.900524 
0.5528750000000000 0.000186 159.493964 
0.5537500000000000 0.000191 -177.153752 
0.5546250000000000 0.000239 172.212925 
0.5555000000000000 0.000239 123.071375 
0.5563750000000000 0.000245 113.813502 
0.5572500000000000 0.000333 118.561502 
0.5581250000000000 0.000186 129.992343 
0.5590000000000001 0.000294 145.577467 
0.5598750000000000 0.000283 129.031611 
0.5607500000000000 0.000262 145.152915 
0.5616250000000000 0.000194 115.553832 
0.5625000000000000 0.000217 150.253638 
0.5633750000000000 0.000236 130.081690 
0.5642500000000000 0.000311 118.190356 
0.5651250000000000 0.000284 127.472249 
0.5660000000000000 0.000263 106.605451 
0.5668750000000000 0.000040 107.245086 
0.5677500000000000 0.000283 124.849619 
0.5686250000000001 0.000280 130.188710 
0.5695000000000000 0.000187 84.932481 
0.5703750000000000 0.000319 102.357580 
0.5712500000000000 0.000228 85.334598 
0.5721250000000000 0.000349 99.646673 
0.5730000000000000 0.000336 98.437673 
0.5738750000000000 0.000271 112.456753 
0.5747500000000000 0.000282 98.144659 
0.5756250000000001 0.000361 107.731712 
0.5765000000000000 0.000213 74.849211 
0.5773750000000000 0.000292 69.178484 
0.5782500000000000 0.000425 87.371146 
0.5791250000000000 0.000269 64.718483 
0.5800000000000000 0.000264 83.408152 
0.5808750000000000 0.000368 54.750710 
0.5817500000000000 0.000356 83.502138 
0.5826250000000000 0.000348 53.470275 
0.5835000000000000 0.000395 50.932553 
0.5843750000000000 0.000337 81.001146 
0.5852500000000001 0.000406 60.904290 
0.5861250000000000 0.000429 47.058168 
0.5870000000000000 0.000447 57.641144 
0.5878750000000000 0.000441 69.097952 
0.5887500000000000 0.000367 58.643283 
0.5896250000000000 0.000414 36.845960 
0.5905000000000000 0.000496 30.038919 
0.5913750000000000 0.000438 52.731307 
0.5922500000000001 0.000569 40.576893 
0.5931250000000000 0.000583 42.620788 
0.5940000000000000 0.000569 36.938364 
0.5948750000000000 0.000702 41.366614 
0.5957500000000000 0.000634 32.979486 
0.5966250000000000 0.000666 26.714046 
0.5975000000000000 0.000711 28.379534 
0.5983750000000000 0.000846 19.370210 
0.5992500000000000 0.000535 17.960693 
0.6001250000000000 0.000765 19.684457 
0.6010000000000000 0.000690 22.321460 
0.6018750000000001 0.000832 14.275167 
0.6027500000000000 0.000856 6.041803 
0.6036250000000000 0.000876 11.949896 
0.6045000000000000 0.000878 2.438383 
0.6053750000000000 0.000975 -2.022395 
0.6062500000000000 0.000936 -0.843007 
0.6071250000000000 0.001003 -13.251440 
0.6080000000000000 0.000866 -17.363901 
0.6088750000000001 0.000967 -13.635319 
0.6097500000000000 0.001098 -25.004495 
0.6106250000000000 0.001051 -18.947837 
0.6115000000000000 0.001062 -23.615381 
0.6123750000000000 0.001074 -29.666785 
0.6132500000000000 0.001186 -30.424683 
0.6141250000000000 0.001264 -36.738614 
0.6150000000000000 0.001069 -40.962342 
0.6158750000000000 0.001298 -46.406342 
0.6167500000000000 0.001356 -43.821343 
0.6176250000000000 0.001412 -53.126711 
0.6185000000000001 0.001560 -54.350595 
0.6193750000000000 0.001583 -62.905158 
0.6202500000000000 0.001493 -61.907050 
0.6211250000000000 0.001569 -72.393609 
0.6220000000000000 0.001563 -72.230515 
0.6228750000000000 0.001757 -70.616679 
0.6237500000000000 0.001757 -75.343803 
0.6246250000000000 0.001855 -82.087061 
0.6254999999999999 0.001933 -80.993026 
0.6263750000000000 0.001977 -91.851842 
0.6272500000000000 0.001956 -95.841940 
0.6281250000000000 0.001911 -98.471368 
0.6290000000000000 0.002017 -99.172269 
0.6298750000000000 0.002284 -103.257301 
0.6307500000000000 0.002277 -108.912159 
0.6316250000000000 0.002176 -113.609966 
0.6325000000000000 0.002304 -115.269756 
0.6333750000000000 0.002451 -117.122023 
0.6342500000000000 0.002441 -122.545234 
0.6351250000000001 0.002412 -128.297651 
0.6360000000000000 0.002714 -130.004685 
0.6368750000000000 0.002639 -133.532135 
0.6377500000000000 0.002800 -139.164775 
0.6386250000000000 0.003019 -140.482340 
0.6395000000000000 0.003013 -143.691320 
0.6403750000000000 0.003056 -151.379554 
0.6412500000000000 0.003176 -151.661378 
0.6421250000000000 0.003410 -154.685451 
0.6430000000000000 0.003242 -162.407185 
0.6438750000000000 0.003487 -164.694377 
0.6447500000000001 0.003564 -169.022268 
0.6456250000000000 0.003667 -172.100625 
0.6465000000000000 0.003919 -174.213789 
0.6473750000000000 0.004126 -179.139221 
0.6482500000000000 0.004167 178.271936 
0.6491250000000000 0.004365 173.784575 
0.6500000000000000 0.004364 169.393039 
0.6508750000000000 0.004512 166.219288 
0.6517500000000001 0.004737 161.060703 
0.6526250000000000 0.004895 158.165426 
0.6535000000000000 0.004905 153.713930 
0.6543750000000000 0.005276 150.372982 
0.6552500000000000 0.005373 146.656886 
0.6561250000000000 0.005651 142.593402 
0.6570000000000000 0.005844 138.173685 
0.6578750000000000 0.006085 133.926861 
0.6587500000000000 0.006352 130.416562 
0.6596250000000000 0.006465 125.638385 
0.6605000000000000 0.006735 121.761781 
0.6613750000000001 0.007024 117.705368 
0.6622500000000000 0.007368 114.402831 
0.6631250000000000 0.007589 108.034208 
0.6640000000000000 0.008047 104.801284 
0.6648750000000000 0.008341 99.426242 
0.6657500000000000 0.008626 94.765746 
0.6666250000000000 0.009082 90.923609 
0.6675000000000000 0.009487 85.534589 
0.6683750000000001 0.009665 80.658966 
0.6692500000000000 0.010158 75.282036 
0.6701250000000000 0.010600 69.186943 
0.6710000000000000 0.011105 64.342664 
0.6718750000000000 0.011604 57.487998 
0.6727500000000000 0.011813 51.273008 
0.6736250000000000 0.012302 45.166457 
0.6745000000000000 0.012923 38.609616 
0.6753750000000000 0.013201 31.926396 
0.6762500000000000 0.013593 24.416341 
0.6771250000000000 0.013897 17.545894 
0.6780000000000001 0.013961 10.043347 
0.6788750000000000 0.014086 3.361221 
0.6797500000000000 0.014031 -4.365850 
0.6806250000000000 0.013950 -12.030880 
0.6815000000000000 0.013803 -18.667170 
0.6823750000000000 0.013641 -26.168262 
0.6832500000000000 0.013317 -33.292891 
0.6841250000000000 0.012875 -40.415549 
0.6850000000000001 0.012691 -46.446247 
0.6858750000000000 0.012193 -53.440667 
0.6867500000000000 0.011689 -59.595013 
0.6876250000000000 0.011295 -65.420320 
0.6885000000000000 0.010755 -71.024411 
0.6893750000000000 0.010551 -77.067292 
0.6902500000000000 0.010114 -82.057088 
0.6911250000000000 0.009542 -86.455813 
0.6920000000000000 0.009158 -91.342624 
0.6928750000000000 0.008841 -96.136463 
0.6937500000000000 0.008450 -101.206575 
0.6946250000000001 0.008155 -106.596564 
0.6955000000000000 0.007791 -109.604990 
0.6963750000000000 0.007587 -113.984426 
0.6972500000000000 0.007255 -118.220671 
0.6981250000000000 0.006987 -123.200920 
0.6990000000000000 0.006784 -127.259712 
0.6998750000000000 0.006610 -130.661368 
0.7007500000000000 0.006382 -134.215921 
0.7016250000000001 0.006151 -137.969534 
0.7025000000000000 0.005851 -141.468537 
0.7033750000000000 0.005746 -145.806162 
0.7042500000000000 0.005529 -148.939630 
0.7051250000000000 0.005394 -152.816578 
0.7060000000000000 0.005256 -155.646392 
0.7068750000000000 0.005065 -160.637911 
0.7077500000000000 0.004946 -163.119812 
0.7086250000000000 0.004754 -165.648080 
0.7095000000000000 0.004613 -169.078011 
0.7103750000000000 0.004464 -173.729424 
0.7112500000000001 0.004517 -176.577238 
0.7121250000000000 0.004344 -178.830219 
0.7130000000000000 0.004120 177.641660 
0.7138750000000000 0.004098 175.348201 
0.7147500000000000 0.004001 168.635167 
0.7156250000000000 0.003859 167.298807 
0.7165000000000000 0.003763 165.649446 
0.7173750000000000 0.003691 162.513071 
0.7182500000000001 0.003664 157.220237 
0.7191250000000000 0.003609 154.922964 
0.7200000000000000 0.003470 152.210288 
