!
! C:\Users\rflab\Downloads\q2\270.S1P
!
! Touchstone 1.1 file saved by VNA.EXE V1.65 (www.ke5fx.com/gpib/readme.htm)
! 11/20/2024 11:15:24 AM
!
!    Source: HEWLETT PACKARD,8753D,0,6.14
!  Min freq: 3.000000E+008 Hz
!  Max freq: 1.000000E+009 Hz
!    Points: 801
!    Params: S21
!
!!!!!
# GHZ S MA R 50
0.3000000000000000 0.000041 170.835818 
0.3008750000000000 0.000102 -112.630132 
0.3017500000000000 0.000061 128.477961 
0.3026250000000000 0.000023 121.046224 
0.3035000000000000 0.000039 -37.468203 
0.3043750000000000 0.000070 -55.701834 
0.3052500000000000 0.000071 42.961050 
0.3061250000000000 0.000073 12.722414 
0.3070000000000000 0.000033 121.299752 
0.3078750000000000 0.000030 156.183059 
0.3087500000000000 0.000015 142.967545 
0.3096250000000000 0.000038 -43.837393 
0.3105000000000000 0.000039 97.321033 
0.3113750000000000 0.000089 -52.653353 
0.3122500000000000 0.000067 166.465396 
0.3131250000000000 0.000097 -46.532667 
0.3140000000000000 0.000089 59.016514 
0.3148750000000000 0.000102 -24.467070 
0.3157500000000000 0.000068 -128.423766 
0.3166250000000000 0.000074 58.751434 
0.3175000000000000 0.000064 -130.507416 
0.3183750000000000 0.000055 14.671383 
0.3192500000000000 0.000119 148.890530 
0.3201250000000000 0.000118 -139.136791 
0.3210000000000000 0.000059 -99.488295 
0.3218750000000000 0.000081 -85.240095 
0.3227500000000000 0.000145 -3.335785 
0.3236250000000000 0.000105 61.203029 
0.3245000000000000 0.000126 -120.941122 
0.3253750000000000 0.000049 161.479575 
0.3262500000000000 0.000131 -116.891850 
0.3271250000000000 0.000074 90.607047 
0.3280000000000000 0.000073 -9.064741 
0.3288750000000000 0.000082 -40.099123 
0.3297500000000000 0.000041 14.849338 
0.3306250000000000 0.000036 -88.149923 
0.3315000000000000 0.000060 -57.862398 
0.3323750000000000 0.000044 108.986715 
0.3332500000000000 0.000065 77.039007 
0.3341250000000000 0.000057 -115.967962 
0.3350000000000000 0.000171 104.565178 
0.3358750000000000 0.000123 121.535003 
0.3367500000000000 0.000137 69.653976 
0.3376250000000000 0.000113 -101.351648 
0.3385000000000000 0.000090 164.074537 
0.3393750000000000 0.000090 -159.484278 
0.3402500000000000 0.000120 -38.264126 
0.3411250000000000 0.000105 126.983284 
0.3420000000000000 0.000008 -122.864693 
0.3428750000000000 0.000107 -141.368879 
0.3437500000000000 0.000144 38.424220 
0.3446250000000000 0.000039 168.364489 
0.3455000000000000 0.000082 84.112379 
0.3463750000000000 0.000098 171.923683 
0.3472500000000000 0.000063 29.765075 
0.3481250000000000 0.000065 160.644012 
0.3490000000000000 0.000125 -125.620399 
0.3498750000000000 0.000137 -116.852312 
0.3507500000000000 0.000074 -22.056850 
0.3516250000000000 0.000104 -2.705970 
0.3525000000000000 0.000044 28.711777 
0.3533750000000000 0.000075 41.734506 
0.3542500000000000 0.000139 -65.813308 
0.3551250000000000 0.000076 -79.968641 
0.3560000000000000 0.000077 172.560310 
0.3568750000000000 0.000034 -19.061966 
0.3577500000000000 0.000070 31.966272 
0.3586250000000000 0.000033 68.358916 
0.3595000000000000 0.000053 -35.661955 
0.3603750000000000 0.000030 47.669337 
0.3612500000000000 0.000054 69.773186 
0.3621250000000000 0.000094 -78.968586 
0.3630000000000000 0.000068 84.135694 
0.3638750000000000 0.000083 4.567033 
0.3647500000000000 0.000052 127.949423 
0.3656250000000000 0.000094 162.251623 
0.3665000000000000 0.000114 144.248421 
0.3673750000000000 0.000073 -0.698730 
0.3682500000000000 0.000115 -56.252280 
0.3691250000000000 0.000154 106.950693 
0.3700000000000000 0.000064 -173.638800 
0.3708750000000000 0.000076 -106.752376 
0.3717500000000000 0.000089 27.603784 
0.3726250000000000 0.000188 -155.487915 
0.3735000000000000 0.000109 -84.371130 
0.3743750000000000 0.000051 50.659115 
0.3752500000000000 0.000097 -155.979668 
0.3761250000000000 0.000081 -76.145973 
0.3770000000000000 0.000045 -176.456300 
0.3778750000000000 0.000062 58.002339 
0.3787500000000000 0.000032 35.833638 
0.3796250000000000 0.000143 -170.558837 
0.3805000000000000 0.000108 63.424368 
0.3813750000000000 0.000018 98.007820 
0.3822500000000000 0.000107 -24.839804 
0.3831250000000000 0.000034 104.155826 
0.3840000000000000 0.000088 169.852079 
0.3848750000000000 0.000054 40.657043 
0.3857500000000000 0.000052 -142.024841 
0.3866250000000000 0.000059 -115.279989 
0.3875000000000000 0.000067 15.288506 
0.3883750000000000 0.000159 -82.210015 
0.3892500000000000 0.000056 151.138743 
0.3901250000000000 0.000054 46.742365 
0.3910000000000000 0.000057 -169.803716 
0.3918750000000000 0.000129 -31.243838 
0.3927500000000000 0.000161 -80.652501 
0.3936250000000000 0.000138 111.895762 
0.3945000000000000 0.000055 20.023423 
0.3953750000000000 0.000071 -71.707085 
0.3962500000000000 0.000079 -23.228831 
0.3971250000000000 0.000084 50.164601 
0.3980000000000000 0.000013 85.794225 
0.3988750000000000 0.000123 -46.971294 
0.3997500000000000 0.000170 154.669191 
0.4006250000000000 0.000057 93.387850 
0.4015000000000000 0.000098 2.182205 
0.4023750000000000 0.000089 -17.853077 
0.4032500000000000 0.000071 -130.260573 
0.4041250000000000 0.000085 150.037359 
0.4050000000000000 0.000049 179.098040 
0.4058750000000000 0.000139 -101.597639 
0.4067500000000000 0.000086 -93.067995 
0.4076250000000000 0.000113 -48.082516 
0.4085000000000000 0.000068 -154.428910 
0.4093750000000000 0.000092 117.617259 
0.4102500000000000 0.000082 9.162675 
0.4111250000000000 0.000133 -43.449876 
0.4120000000000000 0.000037 -169.390429 
0.4128750000000000 0.000082 87.103594 
0.4137500000000000 0.000057 -29.704946 
0.4146250000000000 0.000065 63.222170 
0.4155000000000000 0.000102 -138.826315 
0.4163750000000000 0.000038 -53.825813 
0.4172500000000000 0.000046 124.322358 
0.4181250000000000 0.000028 163.783401 
0.4190000000000000 0.000037 -19.776405 
0.4198750000000000 0.000088 59.290356 
0.4207500000000000 0.000019 -123.181077 
0.4216250000000000 0.000037 46.438488 
0.4225000000000000 0.000106 -133.079537 
0.4233750000000000 0.000029 117.000279 
0.4242500000000000 0.000060 -85.343497 
0.4251250000000000 0.000067 73.942377 
0.4260000000000000 0.000054 -109.476515 
0.4268750000000000 0.000066 -104.738460 
0.4277500000000000 0.000129 115.748205 
0.4286250000000000 0.000102 132.483353 
0.4295000000000000 0.000082 91.098388 
0.4303750000000000 0.000031 -150.131289 
0.4312500000000000 0.000092 -176.700817 
0.4321250000000000 0.000111 111.249810 
0.4330000000000000 0.000088 -56.701934 
0.4338750000000000 0.000100 13.794997 
0.4347500000000000 0.000110 101.492537 
0.4356250000000000 0.000043 156.215031 
0.4365000000000000 0.000055 64.564591 
0.4373750000000000 0.000097 143.460062 
0.4382500000000000 0.000050 179.984927 
0.4391250000000000 0.000106 -144.154704 
0.4400000000000000 0.000087 144.909080 
0.4408750000000000 0.000124 92.300809 
0.4417500000000000 0.000036 -122.322816 
0.4426250000000000 0.000095 -151.029165 
0.4435000000000000 0.000076 -63.835833 
0.4443750000000000 0.000093 150.455278 
0.4452500000000000 0.000168 53.856180 
0.4461250000000000 0.000054 31.520426 
0.4470000000000000 0.000110 134.827722 
0.4478750000000000 0.000027 138.537942 
0.4487500000000000 0.000086 0.485989 
0.4496250000000000 0.000119 121.005980 
0.4505000000000000 0.000062 -30.290628 
0.4513750000000000 0.000072 148.583602 
0.4522500000000000 0.000094 96.296213 
0.4531250000000000 0.000078 124.101534 
0.4540000000000000 0.000092 126.758999 
0.4548750000000000 0.000075 -28.622321 
0.4557500000000000 0.000080 -99.796320 
0.4566250000000000 0.000086 -150.425298 
0.4575000000000000 0.000052 -65.433040 
0.4583750000000000 0.000096 -25.166269 
0.4592500000000000 0.000034 23.784480 
0.4601250000000000 0.000026 146.368941 
0.4610000000000000 0.000250 -126.755022 
0.4618750000000000 0.000146 43.977211 
0.4627500000000000 0.000109 0.749355 
0.4636250000000000 0.000081 -50.988279 
0.4645000000000000 0.000034 104.349611 
0.4653750000000000 0.000071 -156.702372 
0.4662500000000000 0.000161 -22.941105 
0.4671250000000000 0.000020 -129.212109 
0.4680000000000000 0.000037 168.780622 
0.4688750000000000 0.000044 -53.471358 
0.4697500000000000 0.000068 -60.844898 
0.4706250000000000 0.000029 52.591423 
0.4715000000000000 0.000124 -110.905928 
0.4723750000000000 0.000081 1.001415 
0.4732500000000000 0.000072 -148.718055 
0.4741250000000000 0.000153 17.230703 
0.4750000000000000 0.000032 -109.650184 
0.4758750000000000 0.000019 -3.862354 
0.4767500000000000 0.000017 -23.847728 
0.4776250000000000 0.000142 26.116362 
0.4785000000000000 0.000045 -55.932641 
0.4793750000000000 0.000221 -154.757127 
0.4802500000000000 0.000058 62.478716 
0.4811250000000000 0.000127 -55.630779 
0.4820000000000000 0.000091 -134.277031 
0.4828750000000000 0.000022 2.968244 
0.4837500000000000 0.000144 53.663131 
0.4846250000000000 0.000055 151.415473 
0.4855000000000000 0.000070 -46.809923 
0.4863750000000000 0.000042 -75.020158 
0.4872500000000000 0.000086 27.550713 
0.4881250000000000 0.000092 -72.435001 
0.4890000000000000 0.000206 -146.633471 
0.4898750000000000 0.000142 -25.399929 
0.4907500000000000 0.000029 78.134215 
0.4916250000000000 0.000052 25.902725 
0.4925000000000000 0.000055 -93.747325 
0.4933750000000000 0.000154 -47.639681 
0.4942500000000000 0.000165 5.782607 
0.4951250000000000 0.000114 -117.015406 
0.4960000000000000 0.000122 -61.989502 
0.4968750000000000 0.000083 60.313786 
0.4977500000000000 0.000081 -163.229922 
0.4986250000000000 0.000049 -95.963443 
0.4995000000000000 0.000104 -57.669661 
0.5003750000000000 0.000102 -142.175816 
0.5012500000000000 0.000103 -4.330817 
0.5021250000000000 0.000092 -49.633873 
0.5030000000000000 0.000042 -19.220450 
0.5038750000000000 0.000067 -63.947425 
0.5047500000000000 0.000107 174.641502 
0.5056250000000000 0.000053 -54.880403 
0.5065000000000000 0.000137 -35.180208 
0.5073750000000000 0.000115 -130.747372 
0.5082500000000000 0.000048 -55.043570 
0.5091250000000001 0.000102 -84.129023 
0.5100000000000000 0.000117 -49.372725 
0.5108750000000000 0.000187 -95.298940 
0.5117500000000000 0.000064 -38.859027 
0.5126250000000000 0.000044 -62.747561 
0.5135000000000000 0.000156 -165.480177 
0.5143750000000000 0.000130 -157.785069 
0.5152500000000000 0.000144 168.034798 
0.5161249999999999 0.000110 -59.054508 
0.5170000000000000 0.000012 -166.053912 
0.5178750000000000 0.000056 -135.118285 
0.5187500000000000 0.000135 -155.883447 
0.5196250000000000 0.000043 -166.494939 
0.5205000000000000 0.000134 -54.211784 
0.5213750000000000 0.000040 158.422396 
0.5222500000000000 0.000062 -166.895145 
0.5231250000000000 0.000091 -96.891993 
0.5240000000000000 0.000045 117.690734 
0.5248750000000000 0.000209 -171.358008 
0.5257500000000001 0.000177 -150.072097 
0.5266250000000000 0.000141 -156.373745 
0.5275000000000000 0.000115 179.185527 
0.5283750000000000 0.000211 169.429604 
0.5292500000000000 0.000170 -152.388335 
0.5301250000000000 0.000136 -103.267205 
0.5310000000000000 0.000164 -149.020122 
0.5318750000000000 0.000087 176.783143 
0.5327500000000000 0.000119 -176.052214 
0.5336250000000000 0.000115 -172.511846 
0.5345000000000000 0.000165 -137.058467 
0.5353750000000001 0.000063 -166.472286 
0.5362500000000000 0.000116 -133.239447 
0.5371250000000000 0.000208 141.911670 
0.5380000000000000 0.000195 -129.083239 
0.5388750000000000 0.000285 176.712849 
0.5397500000000000 0.000144 -111.010512 
0.5406250000000000 0.000266 164.661464 
0.5415000000000000 0.000109 -166.574141 
0.5423750000000001 0.000085 -161.373937 
0.5432500000000000 0.000064 179.922793 
0.5441250000000000 0.000184 126.067206 
0.5450000000000000 0.000091 95.617350 
0.5458750000000000 0.000232 159.870618 
0.5467500000000000 0.000109 140.176899 
0.5476250000000000 0.000205 139.261136 
0.5485000000000000 0.000222 173.386522 
0.5493750000000000 0.000266 130.193536 
0.5502500000000000 0.000212 125.588511 
0.5511250000000000 0.000313 129.387045 
0.5520000000000001 0.000124 110.268894 
0.5528750000000000 0.000154 92.199197 
0.5537500000000000 0.000231 115.514819 
0.5546250000000000 0.000164 124.609105 
0.5555000000000000 0.000203 96.696556 
0.5563750000000000 0.000291 99.847568 
0.5572500000000000 0.000267 101.770374 
0.5581250000000000 0.000359 128.252619 
0.5590000000000001 0.000183 116.320492 
0.5598750000000000 0.000226 117.214436 
0.5607500000000000 0.000303 119.157075 
0.5616250000000000 0.000306 112.772469 
0.5625000000000000 0.000147 99.360790 
0.5633750000000000 0.000194 78.253908 
0.5642500000000000 0.000208 113.048251 
0.5651250000000000 0.000218 113.787306 
0.5660000000000000 0.000283 76.115264 
0.5668750000000000 0.000310 82.825735 
0.5677500000000000 0.000260 84.377817 
0.5686250000000001 0.000324 65.725083 
0.5695000000000000 0.000313 78.777911 
0.5703750000000000 0.000359 84.218658 
0.5712500000000000 0.000308 95.019611 
0.5721250000000000 0.000364 74.031103 
0.5730000000000000 0.000262 68.295260 
0.5738750000000000 0.000324 67.093888 
0.5747500000000000 0.000361 94.440624 
0.5756250000000001 0.000334 62.540920 
0.5765000000000000 0.000367 47.554447 
0.5773750000000000 0.000342 56.584764 
0.5782500000000000 0.000334 62.491733 
0.5791250000000000 0.000409 32.318355 
0.5800000000000000 0.000303 62.165653 
0.5808750000000000 0.000368 53.685045 
0.5817500000000000 0.000337 46.447220 
0.5826250000000000 0.000476 36.393915 
0.5835000000000000 0.000516 48.338458 
0.5843750000000000 0.000319 50.363593 
0.5852500000000001 0.000475 43.249745 
0.5861250000000000 0.000503 39.356791 
0.5870000000000000 0.000570 36.251104 
0.5878750000000000 0.000472 30.814349 
0.5887500000000000 0.000653 31.054323 
0.5896250000000000 0.000488 36.281300 
0.5905000000000000 0.000443 22.210616 
0.5913750000000000 0.000661 19.503668 
0.5922500000000001 0.000639 14.976149 
0.5931250000000000 0.000650 25.719074 
0.5940000000000000 0.000676 16.220280 
0.5948750000000000 0.000640 26.804937 
0.5957500000000000 0.000669 20.870691 
0.5966250000000000 0.000694 14.484673 
0.5975000000000000 0.000685 0.947942 
0.5983750000000000 0.000731 8.491013 
0.5992500000000000 0.000796 -2.545566 
0.6001250000000000 0.000718 11.886207 
0.6010000000000000 0.000830 -2.338817 
0.6018750000000001 0.000946 -6.694027 
0.6027500000000000 0.000959 -7.618636 
0.6036250000000000 0.000845 -14.781912 
0.6045000000000000 0.001022 -15.766841 
0.6053750000000000 0.000935 -23.857544 
0.6062500000000000 0.001155 -23.930954 
0.6071250000000000 0.001004 -31.519238 
0.6080000000000000 0.001029 -34.629421 
0.6088750000000001 0.001142 -29.027596 
0.6097500000000000 0.001211 -40.885977 
0.6106250000000000 0.001218 -38.004049 
0.6115000000000000 0.001201 -36.214539 
0.6123750000000000 0.001305 -49.658391 
0.6132500000000000 0.001388 -54.114051 
0.6141250000000000 0.001323 -59.918604 
0.6150000000000000 0.001548 -60.076652 
0.6158750000000000 0.001405 -65.851477 
0.6167500000000000 0.001528 -66.305737 
0.6176250000000000 0.001503 -70.965653 
0.6185000000000001 0.001580 -71.016752 
0.6193750000000000 0.001734 -77.818161 
0.6202500000000000 0.001728 -77.592930 
0.6211250000000000 0.001720 -86.156201 
0.6220000000000000 0.001895 -85.671770 
0.6228750000000000 0.001930 -88.382327 
0.6237500000000000 0.002037 -95.835737 
0.6246250000000000 0.002060 -96.764836 
0.6254999999999999 0.002063 -100.863269 
0.6263750000000000 0.002209 -101.853940 
0.6272500000000000 0.002142 -109.150984 
0.6281250000000000 0.002291 -113.644399 
0.6290000000000000 0.002332 -115.407068 
0.6298750000000000 0.002612 -119.157737 
0.6307500000000000 0.002403 -120.186667 
0.6316250000000000 0.002543 -125.863051 
0.6325000000000000 0.002764 -131.054816 
0.6333750000000000 0.002748 -133.804743 
0.6342500000000000 0.002821 -138.199583 
0.6351250000000001 0.002939 -138.954004 
0.6360000000000000 0.003087 -145.267901 
0.6368750000000000 0.003181 -149.090739 
0.6377500000000000 0.003226 -151.193838 
0.6386250000000000 0.003388 -152.937329 
0.6395000000000000 0.003338 -158.537568 
0.6403750000000000 0.003438 -163.161077 
0.6412500000000000 0.003607 -164.172181 
0.6421250000000000 0.003855 -170.668737 
0.6430000000000000 0.003991 -173.079609 
0.6438750000000000 0.004007 -177.373907 
0.6447500000000001 0.004070 -179.708002 
0.6456250000000000 0.004328 177.126877 
0.6465000000000000 0.004341 172.310519 
0.6473750000000000 0.004654 169.895446 
0.6482500000000000 0.004678 165.815015 
0.6491250000000000 0.004863 162.163733 
0.6500000000000000 0.005060 157.314315 
0.6508750000000000 0.005290 155.634485 
0.6517500000000001 0.005435 150.648267 
0.6526250000000000 0.005586 146.524940 
0.6535000000000000 0.005798 142.991091 
0.6543750000000000 0.006099 139.896751 
0.6552500000000000 0.006224 136.522749 
0.6561250000000000 0.006523 132.053371 
0.6570000000000000 0.006619 127.988113 
0.6578750000000000 0.006977 123.841574 
0.6587500000000000 0.007269 120.301081 
0.6596250000000000 0.007504 116.240223 
0.6605000000000000 0.007864 112.057849 
0.6613750000000001 0.008165 106.859172 
0.6622500000000000 0.008324 103.665270 
0.6631250000000000 0.008838 98.457093 
0.6640000000000000 0.009277 94.227040 
0.6648750000000000 0.009550 90.025748 
0.6657500000000000 0.009963 85.066015 
0.6666250000000000 0.010369 80.641640 
0.6675000000000000 0.010748 75.297321 
0.6683750000000001 0.011272 70.405357 
0.6692500000000000 0.011654 64.912296 
0.6701250000000000 0.012470 59.496899 
0.6710000000000000 0.012740 54.106320 
0.6718750000000000 0.013336 48.136436 
0.6727500000000000 0.013683 41.997004 
0.6736250000000000 0.014272 36.106460 
0.6745000000000000 0.014653 29.072355 
0.6753750000000000 0.015314 21.964404 
0.6762500000000000 0.015584 15.710854 
0.6771250000000000 0.015973 8.186696 
0.6780000000000001 0.016225 1.417967 
0.6788750000000000 0.016388 -6.240778 
0.6797500000000000 0.016317 -13.616344 
0.6806250000000000 0.016272 -21.199043 
0.6815000000000000 0.016152 -28.317258 
0.6823750000000000 0.015827 -36.098942 
0.6832500000000000 0.015624 -42.334511 
0.6841250000000000 0.015192 -49.109618 
0.6850000000000001 0.014673 -56.018160 
0.6858750000000000 0.014176 -61.884210 
0.6867500000000000 0.013707 -68.404376 
0.6876250000000000 0.013278 -73.906217 
0.6885000000000000 0.012750 -79.743641 
0.6893750000000000 0.012352 -85.341242 
0.6902500000000000 0.011714 -90.461789 
0.6911250000000000 0.011211 -95.761035 
0.6920000000000000 0.010891 -100.575887 
0.6928750000000000 0.010343 -105.204850 
0.6937500000000000 0.010035 -109.878903 
0.6946250000000001 0.009591 -114.416605 
0.6955000000000000 0.009309 -118.531530 
0.6963750000000000 0.008906 -122.282738 
0.6972500000000000 0.008699 -127.415775 
0.6981250000000000 0.008510 -131.065122 
0.6990000000000000 0.008032 -135.163551 
0.6998750000000000 0.007837 -138.569106 
0.7007500000000000 0.007467 -142.177325 
0.7016250000000001 0.007239 -146.198983 
0.7025000000000000 0.007110 -151.485833 
0.7033750000000000 0.006719 -152.923975 
0.7042500000000000 0.006598 -158.160911 
0.7051250000000000 0.006466 -160.767376 
0.7060000000000000 0.006167 -163.307970 
0.7068750000000000 0.005964 -166.921598 
0.7077500000000000 0.005871 -170.623361 
0.7086250000000000 0.005742 -174.567562 
0.7095000000000000 0.005487 -177.026333 
0.7103750000000000 0.005220 178.654884 
0.7112500000000001 0.005328 175.467788 
0.7121250000000000 0.005092 171.876729 
0.7130000000000000 0.004848 169.838576 
0.7138750000000000 0.004855 167.044190 
0.7147500000000000 0.004871 163.473728 
0.7156250000000000 0.004728 161.173113 
0.7165000000000000 0.004400 156.963650 
0.7173750000000000 0.004426 153.890494 
0.7182500000000001 0.004347 151.412363 
0.7191250000000000 0.004245 148.274654 
