!
! C:\Users\rflab\Downloads\q2\280.S1P
!
! Touchstone 1.1 file saved by VNA.EXE V1.65 (www.ke5fx.com/gpib/readme.htm)
! 11/20/2024 11:15:52 AM
!
!    Source: HEWLETT PACKARD,8753D,0,6.14
!  Min freq: 3.000000E+008 Hz
!  Max freq: 1.000000E+009 Hz
!    Points: 801
!    Params: S21
!
!!!!!
# GHZ S MA R 50
0.3000000000000000 0.000123 18.577177 
0.3008750000000000 0.000072 -69.038184 
0.3017500000000000 0.000083 -13.033008 
0.3026250000000000 0.000156 134.863380 
0.3035000000000000 0.000073 -154.383978 
0.3043750000000000 0.000070 -87.992959 
0.3052500000000000 0.000099 -79.741580 
0.3061250000000000 0.000096 -118.129640 
0.3070000000000000 0.000056 85.297464 
0.3078750000000000 0.000099 46.218489 
0.3087500000000000 0.000031 11.143692 
0.3096250000000000 0.000156 -126.315158 
0.3105000000000000 0.000026 163.325161 
0.3113750000000000 0.000074 -57.347479 
0.3122500000000000 0.000141 122.561804 
0.3131250000000000 0.000174 22.739217 
0.3140000000000000 0.000100 71.328251 
0.3148750000000000 0.000020 26.826886 
0.3157500000000000 0.000073 113.380959 
0.3166250000000000 0.000085 66.435561 
0.3175000000000000 0.000131 103.416473 
0.3183750000000000 0.000127 -24.612008 
0.3192500000000000 0.000045 -72.164886 
0.3201250000000000 0.000029 113.334013 
0.3210000000000000 0.000134 34.740104 
0.3218750000000000 0.000063 -123.631880 
0.3227500000000000 0.000017 -168.223076 
0.3236250000000000 0.000059 92.184120 
0.3245000000000000 0.000054 159.620531 
0.3253750000000000 0.000132 78.243803 
0.3262500000000000 0.000115 98.865095 
0.3271250000000000 0.000063 -101.468474 
0.3280000000000000 0.000034 60.755710 
0.3288750000000000 0.000067 -8.689850 
0.3297500000000000 0.000023 -145.717982 
0.3306250000000000 0.000036 154.814048 
0.3315000000000000 0.000081 30.490695 
0.3323750000000000 0.000059 118.218212 
0.3332500000000000 0.000136 -66.814998 
0.3341250000000000 0.000052 -77.491291 
0.3350000000000000 0.000077 129.798455 
0.3358750000000000 0.000047 -76.502510 
0.3367500000000000 0.000072 48.945119 
0.3376250000000000 0.000012 5.339215 
0.3385000000000000 0.000019 178.243696 
0.3393750000000000 0.000032 76.377547 
0.3402500000000000 0.000025 -116.685526 
0.3411250000000000 0.000057 -13.046398 
0.3420000000000000 0.000036 143.778304 
0.3428750000000000 0.000073 149.156325 
0.3437500000000000 0.000050 83.752504 
0.3446250000000000 0.000068 109.640504 
0.3455000000000000 0.000088 29.074611 
0.3463750000000000 0.000048 -129.080965 
0.3472500000000000 0.000035 -179.625844 
0.3481250000000000 0.000037 -138.320528 
0.3490000000000000 0.000092 -44.604502 
0.3498750000000000 0.000031 -57.540277 
0.3507500000000000 0.000064 164.438410 
0.3516250000000000 0.000051 -73.086905 
0.3525000000000000 0.000108 -107.999111 
0.3533750000000000 0.000100 -15.701872 
0.3542500000000000 0.000112 83.197937 
0.3551250000000000 0.000042 146.472317 
0.3560000000000000 0.000070 8.178165 
0.3568750000000000 0.000087 88.918752 
0.3577500000000000 0.000105 -63.580905 
0.3586250000000000 0.000092 -105.207299 
0.3595000000000000 0.000081 -125.778202 
0.3603750000000000 0.000122 -31.341313 
0.3612500000000000 0.000116 41.472212 
0.3621250000000000 0.000052 166.963965 
0.3630000000000000 0.000128 109.018845 
0.3638750000000000 0.000032 127.291648 
0.3647500000000000 0.000035 16.419510 
0.3656250000000000 0.000150 -68.320859 
0.3665000000000000 0.000083 93.992579 
0.3673750000000000 0.000049 175.221972 
0.3682500000000000 0.000133 173.257452 
0.3691250000000000 0.000031 -5.374498 
0.3700000000000000 0.000102 100.198762 
0.3708750000000000 0.000030 90.245184 
0.3717500000000000 0.000095 120.643341 
0.3726250000000000 0.000072 161.404481 
0.3735000000000000 0.000083 113.997301 
0.3743750000000000 0.000091 -177.869223 
0.3752500000000000 0.000010 -121.249702 
0.3761250000000000 0.000053 17.030943 
0.3770000000000000 0.000061 -35.242827 
0.3778750000000000 0.000087 161.794776 
0.3787500000000000 0.000039 -98.097050 
0.3796250000000000 0.000032 159.316235 
0.3805000000000000 0.000099 129.015982 
0.3813750000000000 0.000098 122.265253 
0.3822500000000000 0.000098 147.855411 
0.3831250000000000 0.000047 -49.186889 
0.3840000000000000 0.000021 -156.260919 
0.3848750000000000 0.000086 -95.931495 
0.3857500000000000 0.000052 -161.815301 
0.3866250000000000 0.000071 33.100005 
0.3875000000000000 0.000049 -142.138891 
0.3883750000000000 0.000155 159.077149 
0.3892500000000000 0.000098 44.313374 
0.3901250000000000 0.000031 -29.390936 
0.3910000000000000 0.000046 -57.489556 
0.3918750000000000 0.000080 -150.022613 
0.3927500000000000 0.000084 116.450802 
0.3936250000000000 0.000057 -43.281466 
0.3945000000000000 0.000122 -175.243929 
0.3953750000000000 0.000027 -163.759220 
0.3962500000000000 0.000097 136.469442 
0.3971250000000000 0.000081 150.343157 
0.3980000000000000 0.000084 82.088009 
0.3988750000000000 0.000163 -6.836034 
0.3997500000000000 0.000030 18.220654 
0.4006250000000000 0.000086 -110.882641 
0.4015000000000000 0.000093 166.706873 
0.4023750000000000 0.000048 23.666965 
0.4032500000000000 0.000046 36.824942 
0.4041250000000000 0.000161 91.400998 
0.4050000000000000 0.000082 126.554055 
0.4058750000000000 0.000030 117.091932 
0.4067500000000000 0.000075 49.774437 
0.4076250000000000 0.000070 3.206562 
0.4085000000000000 0.000090 -152.812239 
0.4093750000000000 0.000018 114.750615 
0.4102500000000000 0.000113 30.956644 
0.4111250000000000 0.000072 133.635501 
0.4120000000000000 0.000068 -41.093529 
0.4128750000000000 0.000154 -127.252525 
0.4137500000000000 0.000112 101.811352 
0.4146250000000000 0.000095 -75.266955 
0.4155000000000000 0.000074 86.450511 
0.4163750000000000 0.000089 22.184118 
0.4172500000000000 0.000057 -91.020960 
0.4181250000000000 0.000038 37.789114 
0.4190000000000000 0.000091 -146.752519 
0.4198750000000000 0.000077 171.943340 
0.4207500000000000 0.000090 -176.054895 
0.4216250000000000 0.000123 120.222787 
0.4225000000000000 0.000073 -85.809053 
0.4233750000000000 0.000098 -103.548197 
0.4242500000000000 0.000027 -124.666479 
0.4251250000000000 0.000105 -156.298263 
0.4260000000000000 0.000142 -85.858566 
0.4268750000000000 0.000068 152.696930 
0.4277500000000000 0.000045 -149.066970 
0.4286250000000000 0.000086 55.214049 
0.4295000000000000 0.000113 126.603665 
0.4303750000000000 0.000128 43.888762 
0.4312500000000000 0.000108 147.116014 
0.4321250000000000 0.000073 141.609925 
0.4330000000000000 0.000064 20.106857 
0.4338750000000000 0.000052 80.031135 
0.4347500000000000 0.000070 -100.525534 
0.4356250000000000 0.000136 62.351644 
0.4365000000000000 0.000044 97.292433 
0.4373750000000000 0.000023 -106.098204 
0.4382500000000000 0.000017 128.908662 
0.4391250000000000 0.000063 35.273827 
0.4400000000000000 0.000060 -9.744881 
0.4408750000000000 0.000058 50.372672 
0.4417500000000000 0.000151 -57.815150 
0.4426250000000000 0.000076 -116.486981 
0.4435000000000000 0.000026 -85.380628 
0.4443750000000000 0.000046 147.693187 
0.4452500000000000 0.000020 64.378893 
0.4461250000000000 0.000107 53.656544 
0.4470000000000000 0.000053 110.082060 
0.4478750000000000 0.000085 40.075181 
0.4487500000000000 0.000046 23.885405 
0.4496250000000000 0.000020 76.107863 
0.4505000000000000 0.000065 37.793467 
0.4513750000000000 0.000066 106.126596 
0.4522500000000000 0.000070 -128.386882 
0.4531250000000000 0.000034 57.000070 
0.4540000000000000 0.000083 16.363412 
0.4548750000000000 0.000169 -115.622877 
0.4557500000000000 0.000131 -4.111931 
0.4566250000000000 0.000037 -21.982797 
0.4575000000000000 0.000105 28.790336 
0.4583750000000000 0.000107 42.736521 
0.4592500000000000 0.000116 131.144411 
0.4601250000000000 0.000005 34.229671 
0.4610000000000000 0.000046 176.344012 
0.4618750000000000 0.000194 39.627921 
0.4627500000000000 0.000045 68.116020 
0.4636250000000000 0.000105 62.377396 
0.4645000000000000 0.000048 -71.863053 
0.4653750000000000 0.000120 -76.019931 
0.4662500000000000 0.000140 86.465875 
0.4671250000000000 0.000092 119.504933 
0.4680000000000000 0.000074 161.732144 
0.4688750000000000 0.000073 -70.859390 
0.4697500000000000 0.000010 153.247597 
0.4706250000000000 0.000138 1.489016 
0.4715000000000000 0.000038 134.667725 
0.4723750000000000 0.000219 -75.940131 
0.4732500000000000 0.000065 91.788178 
0.4741250000000000 0.000046 155.029003 
0.4750000000000000 0.000056 10.845670 
0.4758750000000000 0.000011 118.168598 
0.4767500000000000 0.000034 79.346873 
0.4776250000000000 0.000053 -9.240016 
0.4785000000000000 0.000112 -44.846538 
0.4793750000000000 0.000124 -84.346496 
0.4802500000000000 0.000158 19.201417 
0.4811250000000000 0.000115 -8.478783 
0.4820000000000000 0.000067 19.557094 
0.4828750000000000 0.000109 -25.270465 
0.4837500000000000 0.000049 67.383979 
0.4846250000000000 0.000123 -11.639529 
0.4855000000000000 0.000112 -89.727553 
0.4863750000000000 0.000188 -89.264878 
0.4872500000000000 0.000057 5.757515 
0.4881250000000000 0.000070 -77.585574 
0.4890000000000000 0.000061 -151.834947 
0.4898750000000000 0.000117 -0.897233 
0.4907500000000000 0.000097 -97.447176 
0.4916250000000000 0.000129 -147.253072 
0.4925000000000000 0.000091 -121.124319 
0.4933750000000000 0.000075 -151.449230 
0.4942500000000000 0.000054 80.754790 
0.4951250000000000 0.000111 -97.105956 
0.4960000000000000 0.000029 -114.998868 
0.4968750000000000 0.000094 -128.698880 
0.4977500000000000 0.000155 -108.819726 
0.4986250000000000 0.000127 -58.250614 
0.4995000000000000 0.000046 32.678690 
0.5003750000000000 0.000131 -53.532190 
0.5012500000000000 0.000081 -73.942557 
0.5021250000000000 0.000045 144.956615 
0.5030000000000000 0.000122 -84.562152 
0.5038750000000000 0.000159 -123.541998 
0.5047500000000000 0.000105 -86.575800 
0.5056250000000000 0.000092 -87.782202 
0.5065000000000000 0.000059 -95.366217 
0.5073750000000000 0.000110 -42.047135 
0.5082500000000000 0.000090 -118.469756 
0.5091250000000001 0.000064 172.942792 
0.5100000000000000 0.000119 -22.519507 
0.5108750000000000 0.000105 -58.810528 
0.5117500000000000 0.000078 -128.715540 
0.5126250000000000 0.000069 -153.597036 
0.5135000000000000 0.000083 -163.207377 
0.5143750000000000 0.000068 -94.222774 
0.5152500000000000 0.000110 -170.737439 
0.5161249999999999 0.000169 -154.090563 
0.5170000000000000 0.000087 -100.529197 
0.5178750000000000 0.000217 -107.966867 
0.5187500000000000 0.000102 161.645986 
0.5196250000000000 0.000126 -145.843234 
0.5205000000000000 0.000173 -120.317783 
0.5213750000000000 0.000090 -108.678311 
0.5222500000000000 0.000091 -133.337020 
0.5231250000000000 0.000140 -116.656651 
0.5240000000000000 0.000100 -169.696684 
0.5248750000000000 0.000057 -104.376958 
0.5257500000000001 0.000156 155.769507 
0.5266250000000000 0.000056 151.475396 
0.5275000000000000 0.000162 -140.676403 
0.5283750000000000 0.000181 -138.897077 
0.5292500000000000 0.000085 110.180667 
0.5301250000000000 0.000254 175.618084 
0.5310000000000000 0.000065 -144.093211 
0.5318750000000000 0.000252 -170.035835 
0.5327500000000000 0.000224 -174.980018 
0.5336250000000000 0.000195 161.330126 
0.5345000000000000 0.000204 162.825219 
0.5353750000000001 0.000146 -166.249687 
0.5362500000000000 0.000195 179.156680 
0.5371250000000000 0.000174 176.293107 
0.5380000000000000 0.000148 170.772001 
0.5388750000000000 0.000245 156.466216 
0.5397500000000000 0.000180 150.816222 
0.5406250000000000 0.000274 169.687078 
0.5415000000000000 0.000281 146.052527 
0.5423750000000001 0.000234 149.523371 
0.5432500000000000 0.000274 167.805545 
0.5441250000000000 0.000166 113.330337 
0.5450000000000000 0.000157 135.312038 
0.5458750000000000 0.000286 135.191842 
0.5467500000000000 0.000121 161.628656 
0.5476250000000000 0.000194 140.405927 
0.5485000000000000 0.000278 122.075687 
0.5493750000000000 0.000225 119.427280 
0.5502500000000000 0.000196 117.881762 
0.5511250000000000 0.000284 123.412598 
0.5520000000000001 0.000192 110.057620 
0.5528750000000000 0.000124 128.951749 
0.5537500000000000 0.000181 141.079859 
0.5546250000000000 0.000268 115.159978 
0.5555000000000000 0.000293 96.308066 
0.5563750000000000 0.000316 104.244387 
0.5572500000000000 0.000377 81.189300 
0.5581250000000000 0.000356 79.126071 
0.5590000000000001 0.000379 98.238376 
0.5598750000000000 0.000323 103.303849 
0.5607500000000000 0.000349 90.227402 
0.5616250000000000 0.000442 100.336112 
0.5625000000000000 0.000370 94.620598 
0.5633750000000000 0.000402 82.091145 
0.5642500000000000 0.000434 73.565899 
0.5651250000000000 0.000333 99.023587 
0.5660000000000000 0.000466 109.869244 
0.5668750000000000 0.000375 100.451329 
0.5677500000000000 0.000480 50.578129 
0.5686250000000001 0.000533 79.174905 
0.5695000000000000 0.000404 57.495378 
0.5703750000000000 0.000459 66.813140 
0.5712500000000000 0.000470 79.666239 
0.5721250000000000 0.000409 44.309087 
0.5730000000000000 0.000268 38.842686 
0.5738750000000000 0.000537 55.523876 
0.5747500000000000 0.000323 39.649001 
0.5756250000000001 0.000453 34.476484 
0.5765000000000000 0.000448 60.131184 
0.5773750000000000 0.000494 56.211714 
0.5782500000000000 0.000483 55.982917 
0.5791250000000000 0.000547 33.741547 
0.5800000000000000 0.000441 40.503891 
0.5808750000000000 0.000664 35.264692 
0.5817500000000000 0.000530 51.003043 
0.5826250000000000 0.000480 29.612602 
0.5835000000000000 0.000723 36.939788 
0.5843750000000000 0.000608 33.921365 
0.5852500000000001 0.000582 18.961125 
0.5861250000000000 0.000680 21.298503 
0.5870000000000000 0.000565 27.671724 
0.5878750000000000 0.000558 18.628647 
0.5887500000000000 0.000675 7.492892 
0.5896250000000000 0.000709 23.502985 
0.5905000000000000 0.000615 5.232408 
0.5913750000000000 0.000713 8.354187 
0.5922500000000001 0.000909 11.479460 
0.5931250000000000 0.000775 7.061633 
0.5940000000000000 0.000839 -0.191406 
0.5948750000000000 0.000739 -2.717631 
0.5957500000000000 0.000853 -8.179354 
0.5966250000000000 0.000760 -1.279964 
0.5975000000000000 0.000838 -5.557254 
0.5983750000000000 0.001093 -6.710019 
0.5992500000000000 0.000876 -16.562377 
0.6001250000000000 0.000968 -10.809872 
0.6010000000000000 0.001137 -18.258332 
0.6018750000000001 0.001132 -17.651688 
0.6027500000000000 0.001137 -25.786965 
0.6036250000000000 0.001137 -25.855863 
0.6045000000000000 0.001152 -28.203219 
0.6053750000000000 0.001171 -39.961231 
0.6062500000000000 0.001209 -34.231302 
0.6071250000000000 0.001246 -37.579789 
0.6080000000000000 0.001435 -47.718641 
0.6088750000000001 0.001396 -50.222935 
0.6097500000000000 0.001463 -54.872939 
0.6106250000000000 0.001505 -50.949293 
0.6115000000000000 0.001489 -51.275730 
0.6123750000000000 0.001530 -57.255126 
0.6132500000000000 0.001662 -62.474740 
0.6141250000000000 0.001708 -66.807708 
0.6150000000000000 0.001694 -68.812116 
0.6158750000000000 0.001695 -72.004554 
0.6167500000000000 0.001798 -75.707658 
0.6176250000000000 0.002028 -79.624948 
0.6185000000000001 0.002005 -85.795944 
0.6193750000000000 0.001967 -85.638564 
0.6202500000000000 0.002262 -89.386972 
0.6211250000000000 0.002204 -91.633479 
0.6220000000000000 0.002201 -93.932376 
0.6228750000000000 0.002258 -103.187529 
0.6237500000000000 0.002500 -104.336403 
0.6246250000000000 0.002560 -106.789700 
0.6254999999999999 0.002491 -109.780918 
0.6263750000000000 0.002675 -116.393785 
0.6272500000000000 0.002630 -118.106256 
0.6281250000000000 0.002873 -123.059745 
0.6290000000000000 0.002944 -124.673436 
0.6298750000000000 0.002948 -127.736411 
0.6307500000000000 0.003144 -131.150364 
0.6316250000000000 0.003236 -133.811976 
0.6325000000000000 0.003238 -137.351421 
0.6333750000000000 0.003223 -139.836311 
0.6342500000000000 0.003396 -146.028819 
0.6351250000000001 0.003513 -149.366309 
0.6360000000000000 0.003567 -154.142311 
0.6368750000000000 0.003707 -155.371558 
0.6377500000000000 0.003929 -158.828707 
0.6386250000000000 0.004037 -162.340932 
0.6395000000000000 0.004091 -167.534931 
0.6403750000000000 0.004387 -171.795481 
0.6412500000000000 0.004472 -172.796939 
0.6421250000000000 0.004642 -175.481457 
0.6430000000000000 0.004642 -179.835188 
0.6438750000000000 0.004799 175.718086 
0.6447500000000001 0.005022 172.616206 
0.6456250000000000 0.005203 169.349701 
0.6465000000000000 0.005348 164.877054 
0.6473750000000000 0.005479 162.927517 
0.6482500000000000 0.005629 157.571285 
0.6491250000000000 0.005842 155.048802 
0.6500000000000000 0.006017 149.181079 
0.6508750000000000 0.006271 147.533487 
0.6517500000000001 0.006335 144.870182 
0.6526250000000000 0.006763 140.220551 
0.6535000000000000 0.007016 136.890579 
0.6543750000000000 0.007339 133.243885 
0.6552500000000000 0.007391 128.507688 
0.6561250000000000 0.007891 125.055130 
0.6570000000000000 0.007842 121.668213 
0.6578750000000000 0.008309 117.335577 
0.6587500000000000 0.008737 113.611652 
0.6596250000000000 0.008931 109.587157 
0.6605000000000000 0.009270 105.322325 
0.6613750000000001 0.009635 101.764818 
0.6622500000000000 0.010068 97.404034 
0.6631250000000000 0.010484 92.779117 
0.6640000000000000 0.010881 88.480743 
0.6648750000000000 0.011457 83.991870 
0.6657500000000000 0.011943 79.223515 
0.6666250000000000 0.012405 74.966434 
0.6675000000000000 0.012873 69.637210 
0.6683750000000001 0.013530 64.767932 
0.6692500000000000 0.014228 59.843083 
0.6701250000000000 0.014635 53.844717 
0.6710000000000000 0.015350 48.367341 
0.6718750000000000 0.015950 42.732043 
0.6727500000000000 0.016522 37.037248 
0.6736250000000000 0.017184 30.662721 
0.6745000000000000 0.017728 23.706496 
0.6753750000000000 0.018386 17.520512 
0.6762500000000000 0.018650 10.658348 
0.6771250000000000 0.019162 3.546816 
0.6780000000000001 0.019375 -4.064519 
0.6788750000000000 0.019581 -11.538691 
0.6797500000000000 0.019621 -18.763427 
0.6806250000000000 0.019517 -25.262818 
0.6815000000000000 0.019366 -33.550008 
0.6823750000000000 0.019005 -40.051488 
0.6832500000000000 0.018529 -47.340276 
0.6841250000000000 0.018180 -54.099469 
0.6850000000000001 0.017699 -60.846739 
0.6858750000000000 0.016936 -66.771329 
0.6867500000000000 0.016458 -73.199937 
0.6876250000000000 0.016044 -79.149576 
0.6885000000000000 0.015306 -84.626515 
0.6893750000000000 0.014595 -90.108571 
0.6902500000000000 0.014015 -95.631063 
0.6911250000000000 0.013578 -100.329681 
0.6920000000000000 0.013127 -105.148877 
0.6928750000000000 0.012560 -109.508093 
0.6937500000000000 0.011971 -114.533482 
0.6946250000000001 0.011648 -118.890129 
0.6955000000000000 0.011371 -122.978336 
0.6963750000000000 0.010676 -126.547440 
0.6972500000000000 0.010422 -130.940799 
0.6981250000000000 0.010065 -135.149716 
0.6990000000000000 0.009869 -138.757302 
0.6998750000000000 0.009462 -143.779225 
0.7007500000000000 0.009104 -145.937862 
0.7016250000000001 0.008825 -149.745567 
0.7025000000000000 0.008542 -153.181772 
0.7033750000000000 0.008323 -157.763960 
0.7042500000000000 0.008028 -160.990369 
0.7051250000000000 0.007826 -165.732623 
0.7060000000000000 0.007578 -167.306956 
0.7068750000000000 0.007324 -171.693162 
0.7077500000000000 0.007218 -174.495793 
0.7086250000000000 0.007058 -177.618729 
0.7095000000000000 0.006665 178.362256 
0.7103750000000000 0.006751 175.722651 
0.7112500000000001 0.006403 172.767279 
0.7121250000000000 0.006227 169.274292 
0.7130000000000000 0.006196 165.463809 
0.7138750000000000 0.005953 163.709779 
0.7147500000000000 0.005864 159.400054 
0.7156250000000000 0.005525 157.278000 
0.7165000000000000 0.005671 153.537288 
0.7173750000000000 0.005375 151.093004 
0.7182500000000001 0.005371 148.117563 
0.7191250000000000 0.005228 144.292506 
0.7200000000000000 0.005181 140.575547 
