!
! C:\Users\rflab\Downloads\q2\300.S1P
!
! Touchstone 1.1 file saved by VNA.EXE V1.65 (www.ke5fx.com/gpib/readme.htm)
! 11/20/2024 11:16:20 AM
!
!    Source: HEWLETT PACKARD,8753D,0,6.14
!  Min freq: 3.000000E+008 Hz
!  Max freq: 1.000000E+009 Hz
!    Points: 801
!    Params: S21
!
!!!!!
# GHZ S MA R 50
0.3000000000000000 0.000141 52.805661 
0.3008750000000000 0.000064 -80.414395 
0.3017500000000000 0.000081 73.596660 
0.3026250000000000 0.000083 -141.794435 
0.3035000000000000 0.000044 -29.127870 
0.3043750000000000 0.000057 150.972657 
0.3052500000000000 0.000082 156.823894 
0.3061250000000000 0.000020 23.281856 
0.3070000000000000 0.000137 -154.212726 
0.3078750000000000 0.000081 47.905965 
0.3087500000000000 0.000088 -132.110468 
0.3096250000000000 0.000042 135.976469 
0.3105000000000000 0.000056 135.074891 
0.3113750000000000 0.000098 -103.369966 
0.3122500000000000 0.000013 111.375728 
0.3131250000000000 0.000130 -99.675194 
0.3140000000000000 0.000069 0.194828 
0.3148750000000000 0.000077 -129.044617 
0.3157500000000000 0.000024 -82.543712 
0.3166250000000000 0.000084 92.675711 
0.3175000000000000 0.000082 -130.887841 
0.3183750000000000 0.000026 75.166463 
0.3192500000000000 0.000062 -123.130377 
0.3201250000000000 0.000034 73.071961 
0.3210000000000000 0.000052 100.694362 
0.3218750000000000 0.000061 12.738629 
0.3227500000000000 0.000013 -140.707503 
0.3236250000000000 0.000105 -13.104859 
0.3245000000000000 0.000129 -163.184759 
0.3253750000000000 0.000088 -47.044434 
0.3262500000000000 0.000096 -48.620531 
0.3271250000000000 0.000068 -67.025621 
0.3280000000000000 0.000107 -5.255126 
0.3288750000000000 0.000066 32.264684 
0.3297500000000000 0.000012 122.845320 
0.3306250000000000 0.000076 82.401831 
0.3315000000000000 0.000102 -138.663049 
0.3323750000000000 0.000057 -68.104331 
0.3332500000000000 0.000054 175.133547 
0.3341250000000000 0.000104 -76.144309 
0.3350000000000000 0.000046 -150.004736 
0.3358750000000000 0.000120 -14.398690 
0.3367500000000000 0.000035 -12.462721 
0.3376250000000000 0.000027 -73.201813 
0.3385000000000000 0.000019 -49.741306 
0.3393750000000000 0.000049 53.566466 
0.3402500000000000 0.000052 33.717297 
0.3411250000000000 0.000093 145.420983 
0.3420000000000000 0.000086 92.012628 
0.3428750000000000 0.000010 -13.412315 
0.3437500000000000 0.000122 -31.812782 
0.3446250000000000 0.000015 59.241786 
0.3455000000000000 0.000011 -142.202044 
0.3463750000000000 0.000048 139.237044 
0.3472500000000000 0.000053 -167.891795 
0.3481250000000000 0.000018 -59.459986 
0.3490000000000000 0.000088 -127.833168 
0.3498750000000000 0.000030 126.157531 
0.3507500000000000 0.000122 146.257062 
0.3516250000000000 0.000183 172.081860 
0.3525000000000000 0.000040 170.366983 
0.3533750000000000 0.000127 10.251219 
0.3542500000000000 0.000045 137.859916 
0.3551250000000000 0.000063 -4.966678 
0.3560000000000000 0.000131 23.663574 
0.3568750000000000 0.000106 -34.000783 
0.3577500000000000 0.000097 -149.817063 
0.3586250000000000 0.000017 -159.224832 
0.3595000000000000 0.000115 71.212023 
0.3603750000000000 0.000048 -165.399088 
0.3612500000000000 0.000082 -91.759510 
0.3621250000000000 0.000083 -133.361339 
0.3630000000000000 0.000130 106.291235 
0.3638750000000000 0.000084 21.013477 
0.3647500000000000 0.000087 142.753821 
0.3656250000000000 0.000090 -171.389103 
0.3665000000000000 0.000082 28.244992 
0.3673750000000000 0.000066 -110.046727 
0.3682500000000000 0.000232 -41.066431 
0.3691250000000000 0.000095 157.146626 
0.3700000000000000 0.000051 -116.907347 
0.3708750000000000 0.000059 89.290211 
0.3717500000000000 0.000039 80.473935 
0.3726250000000000 0.000092 -121.600246 
0.3735000000000000 0.000041 -18.109301 
0.3743750000000000 0.000047 95.744543 
0.3752500000000000 0.000060 -109.889957 
0.3761250000000000 0.000078 55.320624 
0.3770000000000000 0.000041 -96.823418 
0.3778750000000000 0.000108 26.251790 
0.3787500000000000 0.000079 96.620728 
0.3796250000000000 0.000157 -100.971861 
0.3805000000000000 0.000116 -179.996322 
0.3813750000000000 0.000063 107.264980 
0.3822500000000000 0.000056 55.836228 
0.3831250000000000 0.000095 -69.399408 
0.3840000000000000 0.000107 50.385802 
0.3848750000000000 0.000021 32.314929 
0.3857500000000000 0.000116 97.810649 
0.3866250000000000 0.000143 -68.154674 
0.3875000000000000 0.000057 -159.127973 
0.3883750000000000 0.000137 158.246572 
0.3892500000000000 0.000104 43.497211 
0.3901250000000000 0.000163 62.408736 
0.3910000000000000 0.000042 -90.060306 
0.3918750000000000 0.000036 -9.209204 
0.3927500000000000 0.000171 -40.932208 
0.3936250000000000 0.000092 -145.669504 
0.3945000000000000 0.000042 122.220963 
0.3953750000000000 0.000077 157.620317 
0.3962500000000000 0.000049 172.148830 
0.3971250000000000 0.000011 -87.445341 
0.3980000000000000 0.000065 -177.785101 
0.3988750000000000 0.000009 5.611577 
0.3997500000000000 0.000068 -154.486901 
0.4006250000000000 0.000052 -144.913750 
0.4015000000000000 0.000105 142.672478 
0.4023750000000000 0.000038 -80.145772 
0.4032500000000000 0.000034 -19.791473 
0.4041250000000000 0.000040 84.276092 
0.4050000000000000 0.000089 111.352499 
0.4058750000000000 0.000055 129.241283 
0.4067500000000000 0.000115 -141.845893 
0.4076250000000000 0.000101 -153.302147 
0.4085000000000000 0.000143 139.318975 
0.4093750000000000 0.000133 146.004947 
0.4102500000000000 0.000077 49.639881 
0.4111250000000000 0.000014 115.125957 
0.4120000000000000 0.000060 135.539955 
0.4128750000000000 0.000165 41.454755 
0.4137500000000000 0.000020 65.297384 
0.4146250000000000 0.000110 146.972473 
0.4155000000000000 0.000013 81.568239 
0.4163750000000000 0.000031 93.063017 
0.4172500000000000 0.000063 18.057276 
0.4181250000000000 0.000098 93.943542 
0.4190000000000000 0.000109 35.129932 
0.4198750000000000 0.000116 107.117887 
0.4207500000000000 0.000082 99.131141 
0.4216250000000000 0.000054 -88.047515 
0.4225000000000000 0.000101 121.834247 
0.4233750000000000 0.000082 172.841168 
0.4242500000000000 0.000047 -39.903629 
0.4251250000000000 0.000151 55.967842 
0.4260000000000000 0.000136 133.289676 
0.4268750000000000 0.000057 116.983698 
0.4277500000000000 0.000010 83.231471 
0.4286250000000000 0.000189 113.090511 
0.4295000000000000 0.000114 -31.386027 
0.4303750000000000 0.000106 65.131407 
0.4312500000000000 0.000134 110.320370 
0.4321250000000000 0.000198 -160.355885 
0.4330000000000000 0.000065 90.802685 
0.4338750000000000 0.000020 112.099369 
0.4347500000000000 0.000090 37.434114 
0.4356250000000000 0.000072 -108.653475 
0.4365000000000000 0.000090 -150.732394 
0.4373750000000000 0.000096 107.834646 
0.4382500000000000 0.000040 -5.736764 
0.4391250000000000 0.000076 14.021860 
0.4400000000000000 0.000086 25.195709 
0.4408750000000000 0.000135 117.105332 
0.4417500000000000 0.000069 -30.462817 
0.4426250000000000 0.000056 168.845290 
0.4435000000000000 0.000062 -8.175259 
0.4443750000000000 0.000096 -21.269422 
0.4452500000000000 0.000101 98.960739 
0.4461250000000000 0.000089 -16.269271 
0.4470000000000000 0.000053 -68.765042 
0.4478750000000000 0.000084 55.369487 
0.4487500000000000 0.000077 -0.551593 
0.4496250000000000 0.000131 50.431172 
0.4505000000000000 0.000131 70.667344 
0.4513750000000000 0.000101 -31.853360 
0.4522500000000000 0.000117 47.084903 
0.4531250000000000 0.000053 -107.542406 
0.4540000000000000 0.000146 27.652262 
0.4548750000000000 0.000075 142.034249 
0.4557500000000000 0.000060 -37.338676 
0.4566250000000000 0.000134 99.718189 
0.4575000000000000 0.000073 -118.028289 
0.4583750000000000 0.000113 -9.349978 
0.4592500000000000 0.000042 65.784697 
0.4601250000000000 0.000109 -51.683965 
0.4610000000000000 0.000096 -24.246159 
0.4618750000000000 0.000064 -6.518666 
0.4627500000000000 0.000045 -123.110656 
0.4636250000000000 0.000059 43.099332 
0.4645000000000000 0.000069 3.685223 
0.4653750000000000 0.000052 -15.081507 
0.4662500000000000 0.000131 -113.250124 
0.4671250000000000 0.000033 119.397225 
0.4680000000000000 0.000098 12.093077 
0.4688750000000000 0.000100 -56.491129 
0.4697500000000000 0.000131 29.436864 
0.4706250000000000 0.000109 -11.611256 
0.4715000000000000 0.000056 -39.173216 
0.4723750000000000 0.000176 -53.790048 
0.4732500000000000 0.000181 -6.614345 
0.4741250000000000 0.000114 -156.596789 
0.4750000000000000 0.000180 -33.991009 
0.4758750000000000 0.000074 -56.943104 
0.4767500000000000 0.000145 -83.075762 
0.4776250000000000 0.000086 -9.751245 
0.4785000000000000 0.000146 -29.865616 
0.4793750000000000 0.000084 -109.257119 
0.4802500000000000 0.000052 -134.657883 
0.4811250000000000 0.000062 -10.814967 
0.4820000000000000 0.000077 -1.797459 
0.4828750000000000 0.000189 -94.900766 
0.4837500000000000 0.000053 -16.563643 
0.4846250000000000 0.000110 -132.071218 
0.4855000000000000 0.000065 -40.605004 
0.4863750000000000 0.000167 -22.468539 
0.4872500000000000 0.000130 0.947675 
0.4881250000000000 0.000098 -61.278680 
0.4890000000000000 0.000040 56.248496 
0.4898750000000000 0.000124 -62.770873 
0.4907500000000000 0.000128 -179.482512 
0.4916250000000000 0.000187 -17.131487 
0.4925000000000000 0.000075 -120.083777 
0.4933750000000000 0.000055 -99.131231 
0.4942500000000000 0.000096 -142.830877 
0.4951250000000000 0.000198 -92.806455 
0.4960000000000000 0.000069 -114.095254 
0.4968750000000000 0.000101 -88.673631 
0.4977500000000000 0.000214 -49.210804 
0.4986250000000000 0.000155 -63.021878 
0.4995000000000000 0.000026 -84.491840 
0.5003750000000000 0.000042 -99.457770 
0.5012500000000000 0.000123 -101.113282 
0.5021250000000000 0.000107 26.335105 
0.5030000000000000 0.000154 -144.256722 
0.5038750000000000 0.000143 -119.068478 
0.5047500000000000 0.000079 -113.116219 
0.5056250000000000 0.000103 -54.694266 
0.5065000000000000 0.000146 -95.023816 
0.5073750000000000 0.000122 -86.922789 
0.5082500000000000 0.000230 -140.178286 
0.5091250000000001 0.000210 -144.172216 
0.5100000000000000 0.000089 -141.834414 
0.5108750000000000 0.000052 -173.455953 
0.5117500000000000 0.000154 -171.099345 
0.5126250000000000 0.000102 -139.189374 
0.5135000000000000 0.000230 -127.115254 
0.5143750000000000 0.000147 -151.787898 
0.5152500000000000 0.000075 -119.626259 
0.5161249999999999 0.000157 -146.370874 
0.5170000000000000 0.000099 -121.028847 
0.5178750000000000 0.000014 78.079241 
0.5187500000000000 0.000140 -109.112602 
0.5196250000000000 0.000157 -141.931901 
0.5205000000000000 0.000130 -156.252547 
0.5213750000000000 0.000182 -146.546969 
0.5222500000000000 0.000171 -167.103916 
0.5231250000000000 0.000140 -156.366788 
0.5240000000000000 0.000150 -159.487882 
0.5248750000000000 0.000291 -159.561403 
0.5257500000000001 0.000228 178.277713 
0.5266250000000000 0.000362 -173.720285 
0.5275000000000000 0.000172 170.031384 
0.5283750000000000 0.000210 -177.446352 
0.5292500000000000 0.000262 -153.239297 
0.5301250000000000 0.000279 166.623509 
0.5310000000000000 0.000240 -175.366739 
0.5318750000000000 0.000302 166.595982 
0.5327500000000000 0.000278 146.015345 
0.5336250000000000 0.000261 155.158627 
0.5345000000000000 0.000097 -166.948841 
0.5353750000000001 0.000431 155.233715 
0.5362500000000000 0.000254 148.419996 
0.5371250000000000 0.000226 146.055926 
0.5380000000000000 0.000283 152.049782 
0.5388750000000000 0.000291 155.300554 
0.5397500000000000 0.000224 157.468936 
0.5406250000000000 0.000380 127.860784 
0.5415000000000000 0.000352 124.689935 
0.5423750000000001 0.000302 128.197360 
0.5432500000000000 0.000259 133.143962 
0.5441250000000000 0.000411 146.014158 
0.5450000000000000 0.000431 138.834939 
0.5458750000000000 0.000486 117.000176 
0.5467500000000000 0.000363 113.291747 
0.5476250000000000 0.000441 129.657801 
0.5485000000000000 0.000432 120.671377 
0.5493750000000000 0.000423 106.136946 
0.5502500000000000 0.000438 108.755100 
0.5511250000000000 0.000435 107.172561 
0.5520000000000001 0.000431 99.174458 
0.5528750000000000 0.000435 103.318601 
0.5537500000000000 0.000394 118.437691 
0.5546250000000000 0.000612 93.691476 
0.5555000000000000 0.000358 109.508635 
0.5563750000000000 0.000548 92.865051 
0.5572500000000000 0.000521 96.608742 
0.5581250000000000 0.000463 80.591589 
0.5590000000000001 0.000490 74.109608 
0.5598750000000000 0.000435 64.387856 
0.5607500000000000 0.000603 64.331228 
0.5616250000000000 0.000537 75.356366 
0.5625000000000000 0.000485 64.327515 
0.5633750000000000 0.000429 74.178067 
0.5642500000000000 0.000556 69.937450 
0.5651250000000000 0.000540 61.182685 
0.5660000000000000 0.000664 61.688455 
0.5668750000000000 0.000346 46.751329 
0.5677500000000000 0.000587 59.285805 
0.5686250000000001 0.000654 53.090969 
0.5695000000000000 0.000689 55.875147 
0.5703750000000000 0.000688 54.824251 
0.5712500000000000 0.000724 60.295485 
0.5721250000000000 0.000655 51.818894 
0.5730000000000000 0.000545 46.267612 
0.5738750000000000 0.000840 45.902626 
0.5747500000000000 0.000695 52.185775 
0.5756250000000001 0.000644 42.708187 
0.5765000000000000 0.000767 39.959487 
0.5773750000000000 0.000600 37.920887 
0.5782500000000000 0.000766 37.714119 
0.5791250000000000 0.000840 32.917089 
0.5800000000000000 0.000849 25.590556 
0.5808750000000000 0.000741 33.405208 
0.5817500000000000 0.000827 21.828251 
0.5826250000000000 0.000925 18.029876 
0.5835000000000000 0.000937 15.947902 
0.5843750000000000 0.000759 7.175230 
0.5852500000000001 0.000862 18.270113 
0.5861250000000000 0.000955 14.328393 
0.5870000000000000 0.000982 17.360455 
0.5878750000000000 0.001008 12.279603 
0.5887500000000000 0.000971 5.490168 
0.5896250000000000 0.000992 0.179100 
0.5905000000000000 0.001044 -3.080020 
0.5913750000000000 0.001139 -7.811334 
0.5922500000000001 0.001112 -1.827022 
0.5931250000000000 0.001195 -8.347924 
0.5940000000000000 0.001185 -11.675743 
0.5948750000000000 0.001120 -15.381619 
0.5957500000000000 0.001019 -20.321159 
0.5966250000000000 0.001383 -17.619001 
0.5975000000000000 0.001421 -17.824686 
0.5983750000000000 0.001401 -22.242152 
0.5992500000000000 0.001384 -23.917663 
0.6001250000000000 0.001431 -29.124594 
0.6010000000000000 0.001483 -29.224806 
0.6018750000000001 0.001445 -32.033696 
0.6027500000000000 0.001643 -39.329354 
0.6036250000000000 0.001657 -40.485958 
0.6045000000000000 0.001687 -39.689735 
0.6053750000000000 0.001776 -43.049623 
0.6062500000000000 0.001761 -45.796802 
0.6071250000000000 0.001899 -48.549213 
0.6080000000000000 0.001953 -50.661380 
0.6088750000000001 0.002065 -57.992332 
0.6097500000000000 0.002057 -61.558469 
0.6106250000000000 0.002255 -63.139657 
0.6115000000000000 0.002270 -66.857522 
0.6123750000000000 0.002378 -70.396795 
0.6132500000000000 0.002281 -71.971286 
0.6141250000000000 0.002626 -79.496482 
0.6150000000000000 0.002482 -81.105060 
0.6158750000000000 0.002517 -80.789270 
0.6167500000000000 0.002524 -85.749518 
0.6176250000000000 0.002772 -85.399261 
0.6185000000000001 0.002725 -91.531635 
0.6193750000000000 0.002859 -96.851217 
0.6202500000000000 0.003050 -98.053137 
0.6211250000000000 0.003157 -103.096792 
0.6220000000000000 0.003105 -105.307210 
0.6228750000000000 0.003188 -107.277863 
0.6237500000000000 0.003427 -111.917637 
0.6246250000000000 0.003524 -114.338739 
0.6254999999999999 0.003721 -118.552147 
0.6263750000000000 0.003679 -121.284700 
0.6272500000000000 0.003810 -121.582368 
0.6281250000000000 0.003939 -129.093683 
0.6290000000000000 0.004133 -130.327389 
0.6298750000000000 0.004175 -134.088489 
0.6307500000000000 0.004313 -137.482356 
0.6316250000000000 0.004430 -141.564611 
0.6325000000000000 0.004576 -144.727463 
0.6333750000000000 0.004569 -146.940921 
0.6342500000000000 0.004799 -150.461303 
0.6351250000000001 0.004940 -156.029084 
0.6360000000000000 0.005147 -158.702771 
0.6368750000000000 0.005160 -161.379187 
0.6377500000000000 0.005433 -164.550180 
0.6386250000000000 0.005640 -168.821172 
0.6395000000000000 0.005741 -172.236013 
0.6403750000000000 0.005948 -174.456902 
0.6412500000000000 0.006204 -178.251356 
0.6421250000000000 0.006104 178.193590 
0.6430000000000000 0.006468 174.704039 
0.6438750000000000 0.006761 171.071179 
0.6447500000000001 0.006901 166.939358 
0.6456250000000000 0.007171 164.986124 
0.6465000000000000 0.007306 160.918199 
0.6473750000000000 0.007621 157.430327 
0.6482500000000000 0.007888 153.487615 
0.6491250000000000 0.008194 151.163354 
0.6500000000000000 0.008490 146.544675 
0.6508750000000000 0.008677 143.188038 
0.6517500000000001 0.008983 139.698095 
0.6526250000000000 0.009322 136.225883 
0.6535000000000000 0.009448 132.778935 
0.6543750000000000 0.009863 129.782517 
0.6552500000000000 0.010199 125.798324 
0.6561250000000000 0.010617 122.236140 
0.6570000000000000 0.010953 117.748663 
0.6578750000000000 0.011399 114.283484 
0.6587500000000000 0.011911 110.691352 
0.6596250000000000 0.012292 106.589605 
0.6605000000000000 0.012870 102.376160 
0.6613750000000001 0.013245 98.334009 
0.6622500000000000 0.013891 94.668579 
0.6631250000000000 0.014521 89.571023 
0.6640000000000000 0.014957 85.729061 
0.6648750000000000 0.015648 81.514819 
0.6657500000000000 0.016399 76.740408 
0.6666250000000000 0.016972 71.987566 
0.6675000000000000 0.017750 67.222177 
0.6683750000000001 0.018496 62.387165 
0.6692500000000000 0.019194 57.130338 
0.6701250000000000 0.020154 51.543865 
0.6710000000000000 0.020963 45.993511 
0.6718750000000000 0.021773 40.423805 
0.6727500000000000 0.022683 35.057145 
0.6736250000000000 0.023611 28.148729 
0.6745000000000000 0.024307 21.719599 
0.6753750000000000 0.025166 15.346523 
0.6762500000000000 0.025724 8.467738 
0.6771250000000000 0.026267 1.260744 
0.6780000000000001 0.026772 -5.529440 
0.6788750000000000 0.027011 -13.306658 
0.6797500000000000 0.027022 -20.155354 
0.6806250000000000 0.026945 -27.611683 
0.6815000000000000 0.026636 -34.765484 
0.6823750000000000 0.026426 -41.712881 
0.6832500000000000 0.025915 -48.653808 
0.6841250000000000 0.025271 -55.320983 
0.6850000000000001 0.024428 -62.018296 
0.6858750000000000 0.023684 -68.256864 
0.6867500000000000 0.022978 -74.057207 
0.6876250000000000 0.022169 -80.186763 
0.6885000000000000 0.021345 -85.258675 
0.6893750000000000 0.020562 -90.983271 
0.6902500000000000 0.019717 -95.726586 
0.6911250000000000 0.018957 -100.736163 
0.6920000000000000 0.018079 -105.659359 
0.6928750000000000 0.017522 -110.365161 
0.6937500000000000 0.016959 -114.845802 
0.6946250000000001 0.016289 -118.701746 
0.6955000000000000 0.015828 -123.802100 
0.6963750000000000 0.015263 -127.329575 
0.6972500000000000 0.014615 -130.986161 
0.6981250000000000 0.014117 -135.864911 
0.6990000000000000 0.013807 -139.456641 
0.6998750000000000 0.013337 -142.635994 
0.7007500000000000 0.012872 -146.740866 
0.7016250000000001 0.012354 -150.373622 
0.7025000000000000 0.012153 -153.887365 
0.7033750000000000 0.011705 -157.544964 
0.7042500000000000 0.011454 -160.779070 
0.7051250000000000 0.010985 -165.171110 
0.7060000000000000 0.010905 -167.743215 
0.7068750000000000 0.010301 -171.492572 
0.7077500000000000 0.010059 -173.847265 
0.7086250000000000 0.009894 -178.232428 
0.7095000000000000 0.009654 179.632088 
0.7103750000000000 0.009261 176.097030 
0.7112500000000001 0.009212 173.756749 
0.7121250000000000 0.008872 170.390360 
0.7130000000000000 0.008747 167.078891 
0.7138750000000000 0.008534 163.990403 
0.7147500000000000 0.008407 161.532164 
0.7156250000000000 0.008124 157.943810 
0.7165000000000000 0.008031 155.343189 
0.7173750000000000 0.007820 150.901283 
0.7182500000000001 0.007508 148.466159 
0.7191250000000000 0.007621 146.167255 
