!
! C:\Users\rflab\Downloads\q2\320.S1P
!
! Touchstone 1.1 file saved by VNA.EXE V1.65 (www.ke5fx.com/gpib/readme.htm)
! 11/20/2024 11:16:48 AM
!
!    Source: HEWLETT PACKARD,8753D,0,6.14
!  Min freq: 3.000000E+008 Hz
!  Max freq: 1.000000E+009 Hz
!    Points: 801
!    Params: S21
!
!!!!!
# GHZ S MA R 50
0.3000000000000000 0.000013 -107.623652 
0.3008750000000000 0.000076 48.774419 
0.3017500000000000 0.000093 -122.378740 
0.3026250000000000 0.000030 4.540686 
0.3035000000000000 0.000023 61.127547 
0.3043750000000000 0.000090 69.327345 
0.3052500000000000 0.000075 -92.987305 
0.3061250000000000 0.000062 -11.623829 
0.3070000000000000 0.000027 175.214036 
0.3078750000000000 0.000011 -145.467529 
0.3087500000000000 0.000099 11.186792 
0.3096250000000000 0.000109 -16.433847 
0.3105000000000000 0.000063 -55.426016 
0.3113750000000000 0.000071 123.409108 
0.3122500000000000 0.000055 179.828774 
0.3131250000000000 0.000063 -107.209187 
0.3140000000000000 0.000052 -111.687207 
0.3148750000000000 0.000022 -71.167063 
0.3157500000000000 0.000034 153.241762 
0.3166250000000000 0.000042 -154.578114 
0.3175000000000000 0.000076 -44.666642 
0.3183750000000000 0.000124 19.644341 
0.3192500000000000 0.000073 -47.762897 
0.3201250000000000 0.000125 -24.160418 
0.3210000000000000 0.000060 -99.078811 
0.3218750000000000 0.000033 -101.757849 
0.3227500000000000 0.000057 86.136420 
0.3236250000000000 0.000117 19.804784 
0.3245000000000000 0.000034 -71.590893 
0.3253750000000000 0.000073 -119.825357 
0.3262500000000000 0.000037 -98.649792 
0.3271250000000000 0.000044 99.175948 
0.3280000000000000 0.000101 36.048822 
0.3288750000000000 0.000049 -47.943583 
0.3297500000000000 0.000042 96.825142 
0.3306250000000000 0.000101 -140.627157 
0.3315000000000000 0.000039 -157.768583 
0.3323750000000000 0.000073 97.667082 
0.3332500000000000 0.000103 46.587166 
0.3341250000000000 0.000056 -52.867611 
0.3350000000000000 0.000055 -144.982285 
0.3358750000000000 0.000072 -78.644691 
0.3367500000000000 0.000040 -10.330916 
0.3376250000000000 0.000045 -70.517581 
0.3385000000000000 0.000047 -52.863461 
0.3393750000000000 0.000017 131.835378 
0.3402500000000000 0.000124 -152.341103 
0.3411250000000000 0.000098 75.791746 
0.3420000000000000 0.000067 -5.928304 
0.3428750000000000 0.000042 -131.232721 
0.3437500000000000 0.000073 136.451590 
0.3446250000000000 0.000051 -77.176230 
0.3455000000000000 0.000031 -125.719548 
0.3463750000000000 0.000038 42.340443 
0.3472500000000000 0.000094 -0.523089 
0.3481250000000000 0.000041 -65.056096 
0.3490000000000000 0.000168 -81.087345 
0.3498750000000000 0.000120 100.111999 
0.3507500000000000 0.000011 154.205188 
0.3516250000000000 0.000059 -56.920096 
0.3525000000000000 0.000068 97.441139 
0.3533750000000000 0.000059 17.154702 
0.3542500000000000 0.000029 -46.959139 
0.3551250000000000 0.000049 106.715412 
0.3560000000000000 0.000017 -73.282147 
0.3568750000000000 0.000039 15.581499 
0.3577500000000000 0.000055 -147.156537 
0.3586250000000000 0.000039 98.462549 
0.3595000000000000 0.000054 176.975151 
0.3603750000000000 0.000026 47.510333 
0.3612500000000000 0.000070 149.226796 
0.3621250000000000 0.000024 24.352956 
0.3630000000000000 0.000065 -140.240966 
0.3638750000000000 0.000087 -171.885511 
0.3647500000000000 0.000200 161.791658 
0.3656250000000000 0.000069 -166.470180 
0.3665000000000000 0.000135 87.934057 
0.3673750000000000 0.000091 34.520338 
0.3682500000000000 0.000113 -118.125154 
0.3691250000000000 0.000064 -152.904035 
0.3700000000000000 0.000142 -161.239043 
0.3708750000000000 0.000156 -166.738458 
0.3717500000000000 0.000028 63.652314 
0.3726250000000000 0.000092 91.219369 
0.3735000000000000 0.000131 57.436812 
0.3743750000000000 0.000117 18.227148 
0.3752500000000000 0.000023 -127.372432 
0.3761250000000000 0.000111 47.268519 
0.3770000000000000 0.000039 156.708390 
0.3778750000000000 0.000011 170.864553 
0.3787500000000000 0.000086 -93.998786 
0.3796250000000000 0.000049 43.740465 
0.3805000000000000 0.000054 -93.692729 
0.3813750000000000 0.000080 158.657261 
0.3822500000000000 0.000046 94.484878 
0.3831250000000000 0.000146 53.869771 
0.3840000000000000 0.000095 18.789216 
0.3848750000000000 0.000047 47.542717 
0.3857500000000000 0.000060 -31.929135 
0.3866250000000000 0.000014 -39.507834 
0.3875000000000000 0.000111 -123.157967 
0.3883750000000000 0.000027 -78.868887 
0.3892500000000000 0.000078 109.972627 
0.3901250000000000 0.000056 -5.866722 
0.3910000000000000 0.000085 -20.219525 
0.3918750000000000 0.000082 118.465656 
0.3927500000000000 0.000054 127.376619 
0.3936250000000000 0.000032 130.550899 
0.3945000000000000 0.000097 -1.497674 
0.3953750000000000 0.000114 -173.550542 
0.3962500000000000 0.000094 -149.586538 
0.3971250000000000 0.000064 8.470931 
0.3980000000000000 0.000098 -103.613818 
0.3988750000000000 0.000108 -105.943494 
0.3997500000000000 0.000171 174.531211 
0.4006250000000000 0.000055 -109.461944 
0.4015000000000000 0.000099 2.739675 
0.4023750000000000 0.000032 -25.802766 
0.4032500000000000 0.000047 -108.456536 
0.4041250000000000 0.000217 111.865205 
0.4050000000000000 0.000107 -148.132468 
0.4058750000000000 0.000214 99.439377 
0.4067500000000000 0.000041 -40.338991 
0.4076250000000000 0.000030 83.148069 
0.4085000000000000 0.000009 -58.709512 
0.4093750000000000 0.000104 142.240101 
0.4102500000000000 0.000100 163.068232 
0.4111250000000000 0.000041 -39.191138 
0.4120000000000000 0.000048 127.998409 
0.4128750000000000 0.000065 19.397898 
0.4137500000000000 0.000091 -133.728005 
0.4146250000000000 0.000191 55.583870 
0.4155000000000000 0.000068 50.348211 
0.4163750000000000 0.000110 -177.602140 
0.4172500000000000 0.000071 106.373164 
0.4181250000000000 0.000140 110.110450 
0.4190000000000000 0.000027 -172.483084 
0.4198750000000000 0.000061 160.596360 
0.4207500000000000 0.000084 -124.251705 
0.4216250000000000 0.000060 5.033406 
0.4225000000000000 0.000033 75.246230 
0.4233750000000000 0.000033 127.768826 
0.4242500000000000 0.000052 -166.250443 
0.4251250000000000 0.000074 72.184957 
0.4260000000000000 0.000131 -110.176151 
0.4268750000000000 0.000086 -3.908883 
0.4277500000000000 0.000121 48.055914 
0.4286250000000000 0.000144 -14.112351 
0.4295000000000000 0.000053 33.098919 
0.4303750000000000 0.000048 26.424677 
0.4312500000000000 0.000087 -93.293027 
0.4321250000000000 0.000085 -1.835742 
0.4330000000000000 0.000034 106.053383 
0.4338750000000000 0.000014 -140.741939 
0.4347500000000000 0.000090 83.589133 
0.4356250000000000 0.000168 8.873895 
0.4365000000000000 0.000144 32.335762 
0.4373750000000000 0.000092 82.326093 
0.4382500000000000 0.000089 -53.878820 
0.4391250000000000 0.000081 106.732026 
0.4400000000000000 0.000095 113.322822 
0.4408750000000000 0.000076 69.444288 
0.4417500000000000 0.000093 105.514995 
0.4426250000000000 0.000055 -131.531856 
0.4435000000000000 0.000021 -74.521757 
0.4443750000000000 0.000101 -106.243596 
0.4452500000000000 0.000087 -48.087251 
0.4461250000000000 0.000098 30.781760 
0.4470000000000000 0.000064 91.361453 
0.4478750000000000 0.000075 78.938394 
0.4487500000000000 0.000156 17.391174 
0.4496250000000000 0.000154 27.062231 
0.4505000000000000 0.000086 18.574687 
0.4513750000000000 0.000130 1.105977 
0.4522500000000000 0.000090 107.974350 
0.4531250000000000 0.000050 -141.919490 
0.4540000000000000 0.000080 -9.880202 
0.4548750000000000 0.000052 100.942629 
0.4557500000000000 0.000044 68.890599 
0.4566250000000000 0.000116 11.518487 
0.4575000000000000 0.000127 -29.145317 
0.4583750000000000 0.000055 30.605289 
0.4592500000000000 0.000076 -61.712354 
0.4601250000000000 0.000138 52.813771 
0.4610000000000000 0.000112 85.559888 
0.4618750000000000 0.000117 -58.456165 
0.4627500000000000 0.000063 -56.649337 
0.4636250000000000 0.000170 -12.889447 
0.4645000000000000 0.000074 18.432209 
0.4653750000000000 0.000101 -6.383429 
0.4662500000000000 0.000110 -43.238139 
0.4671250000000000 0.000150 -56.403301 
0.4680000000000000 0.000069 6.221962 
0.4688750000000000 0.000076 98.292208 
0.4697500000000000 0.000157 39.131898 
0.4706250000000000 0.000077 -31.515909 
0.4715000000000000 0.000074 -35.632272 
0.4723750000000000 0.000111 -74.749962 
0.4732500000000000 0.000113 -46.320343 
0.4741250000000000 0.000078 -121.190789 
0.4750000000000000 0.000153 -51.938065 
0.4758750000000000 0.000055 -57.680313 
0.4767500000000000 0.000199 11.824840 
0.4776250000000000 0.000077 -147.892326 
0.4785000000000000 0.000227 -41.154207 
0.4793750000000000 0.000092 -55.294674 
0.4802500000000000 0.000160 -86.001551 
0.4811250000000000 0.000198 -41.107101 
0.4820000000000000 0.000195 -111.957624 
0.4828750000000000 0.000068 -100.175749 
0.4837500000000000 0.000093 -85.497651 
0.4846250000000000 0.000134 -36.627884 
0.4855000000000000 0.000063 -55.998813 
0.4863750000000000 0.000030 -101.918329 
0.4872500000000000 0.000230 -50.610521 
0.4881250000000000 0.000100 -54.032392 
0.4890000000000000 0.000091 -75.401517 
0.4898750000000000 0.000113 -109.022779 
0.4907500000000000 0.000076 -115.800886 
0.4916250000000000 0.000046 49.411121 
0.4925000000000000 0.000109 -51.626612 
0.4933750000000000 0.000124 -74.935788 
0.4942500000000000 0.000114 -58.996115 
0.4951250000000000 0.000166 -68.748980 
0.4960000000000000 0.000047 156.744827 
0.4968750000000000 0.000194 -41.944515 
0.4977500000000000 0.000152 -162.164871 
0.4986250000000000 0.000141 -89.445905 
0.4995000000000000 0.000058 -121.892875 
0.5003750000000000 0.000089 -145.279066 
0.5012500000000000 0.000140 -128.628950 
0.5021250000000000 0.000112 -152.020002 
0.5030000000000000 0.000092 -137.656701 
0.5038750000000000 0.000116 -60.097083 
0.5047500000000000 0.000241 -125.228992 
0.5056250000000000 0.000262 -137.338108 
0.5065000000000000 0.000131 -113.668299 
0.5073750000000000 0.000237 -132.002210 
0.5082500000000000 0.000306 -125.531855 
0.5091250000000001 0.000108 -78.664414 
0.5100000000000000 0.000194 -137.513894 
0.5108750000000000 0.000150 -118.066132 
0.5117500000000000 0.000306 -125.962910 
0.5126250000000000 0.000333 -146.812819 
0.5135000000000000 0.000163 -156.555548 
0.5143750000000000 0.000188 -140.594950 
0.5152500000000000 0.000247 -152.475682 
0.5161249999999999 0.000119 -156.452941 
0.5170000000000000 0.000179 -145.165448 
0.5178750000000000 0.000220 -139.678251 
0.5187500000000000 0.000198 -149.317311 
0.5196250000000000 0.000298 -171.988013 
0.5205000000000000 0.000291 -155.310001 
0.5213750000000000 0.000235 -168.898529 
0.5222500000000000 0.000412 -170.622902 
0.5231250000000000 0.000348 -172.787460 
0.5240000000000000 0.000253 -153.895899 
0.5248750000000000 0.000346 155.781249 
0.5257500000000001 0.000288 175.584475 
0.5266250000000000 0.000249 175.711971 
0.5275000000000000 0.000315 166.363017 
0.5283750000000000 0.000193 -155.716720 
0.5292500000000000 0.000315 -172.718928 
0.5301250000000000 0.000343 165.551394 
0.5310000000000000 0.000358 -176.361086 
0.5318750000000000 0.000353 174.752372 
0.5327500000000000 0.000404 163.847320 
0.5336250000000000 0.000285 159.701398 
0.5345000000000000 0.000416 169.672739 
0.5353750000000001 0.000345 156.877213 
0.5362500000000000 0.000261 168.849007 
0.5371250000000000 0.000297 164.061705 
0.5380000000000000 0.000386 136.012271 
0.5388750000000000 0.000397 163.682123 
0.5397500000000000 0.000445 155.950851 
0.5406250000000000 0.000238 131.755240 
0.5415000000000000 0.000451 138.127374 
0.5423750000000001 0.000384 136.271907 
0.5432500000000000 0.000491 118.306642 
0.5441250000000000 0.000519 127.896768 
0.5450000000000000 0.000416 116.237561 
0.5458750000000000 0.000637 131.684739 
0.5467500000000000 0.000438 137.492426 
0.5476250000000000 0.000440 120.406429 
0.5485000000000000 0.000512 123.968604 
0.5493750000000000 0.000500 114.958703 
0.5502500000000000 0.000520 122.942573 
0.5511250000000000 0.000609 105.725246 
0.5520000000000001 0.000526 112.909812 
0.5528750000000000 0.000601 99.166965 
0.5537500000000000 0.000605 92.094255 
0.5546250000000000 0.000623 94.857425 
0.5555000000000000 0.000588 92.703392 
0.5563750000000000 0.000597 97.964682 
0.5572500000000000 0.000507 83.264599 
0.5581250000000000 0.000611 85.607733 
0.5590000000000001 0.000612 85.126314 
0.5598750000000000 0.000712 76.489056 
0.5607500000000000 0.000647 75.676572 
0.5616250000000000 0.000857 81.622108 
0.5625000000000000 0.000737 84.104345 
0.5633750000000000 0.000758 67.080111 
0.5642500000000000 0.000645 70.170642 
0.5651250000000000 0.000634 73.813462 
0.5660000000000000 0.000795 68.475543 
0.5668750000000000 0.000707 58.713273 
0.5677500000000000 0.000675 56.396953 
0.5686250000000001 0.000733 62.886691 
0.5695000000000000 0.000768 56.157050 
0.5703750000000000 0.000850 47.979039 
0.5712500000000000 0.000835 53.868867 
0.5721250000000000 0.000822 46.237250 
0.5730000000000000 0.000955 45.252827 
0.5738750000000000 0.000918 48.684275 
0.5747500000000000 0.000853 42.517084 
0.5756250000000001 0.000946 33.931323 
0.5765000000000000 0.000879 34.295631 
0.5773750000000000 0.000979 35.666269 
0.5782500000000000 0.001086 34.965489 
0.5791250000000000 0.000952 37.903925 
0.5800000000000000 0.001154 23.399019 
0.5808750000000000 0.001014 24.477121 
0.5817500000000000 0.001094 19.632406 
0.5826250000000000 0.001129 15.309243 
0.5835000000000000 0.001044 14.868426 
0.5843750000000000 0.001370 8.869889 
0.5852500000000001 0.001176 3.906417 
0.5861250000000000 0.001335 6.049032 
0.5870000000000000 0.001287 4.621235 
0.5878750000000000 0.001250 3.319124 
0.5887500000000000 0.001285 -0.425370 
0.5896250000000000 0.001315 2.192118 
0.5905000000000000 0.001452 -2.345411 
0.5913750000000000 0.001418 -5.735760 
0.5922500000000001 0.001433 -6.672809 
0.5931250000000000 0.001485 -7.293592 
0.5940000000000000 0.001416 -15.526686 
0.5948750000000000 0.001486 -14.322718 
0.5957500000000000 0.001650 -19.932703 
0.5966250000000000 0.001617 -19.475655 
0.5975000000000000 0.001810 -22.271565 
0.5983750000000000 0.001826 -21.338438 
0.5992500000000000 0.001758 -28.002417 
0.6001250000000000 0.001927 -30.020964 
0.6010000000000000 0.001977 -35.635670 
0.6018750000000001 0.002065 -33.184486 
0.6027500000000000 0.002112 -36.963701 
0.6036250000000000 0.002229 -43.255228 
0.6045000000000000 0.002182 -45.203629 
0.6053750000000000 0.002307 -48.068453 
0.6062500000000000 0.002337 -51.245945 
0.6071250000000000 0.002461 -52.593339 
0.6080000000000000 0.002603 -58.326669 
0.6088750000000001 0.002571 -60.771479 
0.6097500000000000 0.002685 -62.437083 
0.6106250000000000 0.002778 -64.246551 
0.6115000000000000 0.002730 -68.935003 
0.6123750000000000 0.002925 -71.705356 
0.6132500000000000 0.002879 -74.145532 
0.6141250000000000 0.003192 -77.003942 
0.6150000000000000 0.003232 -81.611047 
0.6158750000000000 0.003410 -85.018284 
0.6167500000000000 0.003555 -85.680286 
0.6176250000000000 0.003588 -91.001413 
0.6185000000000001 0.003616 -91.911669 
0.6193750000000000 0.003697 -97.108061 
0.6202500000000000 0.003788 -99.205640 
0.6211250000000000 0.004044 -103.021962 
0.6220000000000000 0.004089 -104.884716 
0.6228750000000000 0.004239 -110.255416 
0.6237500000000000 0.004464 -112.969176 
0.6246250000000000 0.004473 -114.629465 
0.6254999999999999 0.004427 -118.997360 
0.6263750000000000 0.004585 -122.214124 
0.6272500000000000 0.004805 -126.092582 
0.6281250000000000 0.004914 -128.556479 
0.6290000000000000 0.005167 -133.710032 
0.6298750000000000 0.005177 -134.410345 
0.6307500000000000 0.005447 -136.912112 
0.6316250000000000 0.005610 -142.070349 
0.6325000000000000 0.005717 -145.844680 
0.6333750000000000 0.005725 -148.903663 
0.6342500000000000 0.006094 -151.718373 
0.6351250000000001 0.006345 -154.840816 
0.6360000000000000 0.006622 -158.561730 
0.6368750000000000 0.006704 -161.603717 
0.6377500000000000 0.006911 -165.888013 
0.6386250000000000 0.007114 -168.477665 
0.6395000000000000 0.007354 -170.143742 
0.6403750000000000 0.007462 -174.197595 
0.6412500000000000 0.007857 -178.156650 
0.6421250000000000 0.007914 179.430376 
0.6430000000000000 0.008246 174.887758 
0.6438750000000000 0.008370 171.594318 
0.6447500000000001 0.008698 169.199541 
0.6456250000000000 0.008923 164.382634 
0.6465000000000000 0.009317 161.512196 
0.6473750000000000 0.009533 158.648290 
0.6482500000000000 0.009935 154.962508 
0.6491250000000000 0.010399 151.880381 
0.6500000000000000 0.010418 147.681875 
0.6508750000000000 0.010860 144.478702 
0.6517500000000001 0.011161 140.910887 
0.6526250000000000 0.011709 137.353388 
0.6535000000000000 0.012076 134.374481 
0.6543750000000000 0.012522 130.593960 
0.6552500000000000 0.012911 126.222793 
0.6561250000000000 0.013439 123.013468 
0.6570000000000000 0.013896 119.574415 
0.6578750000000000 0.014448 115.331969 
0.6587500000000000 0.014975 111.954199 
0.6596250000000000 0.015576 107.936848 
0.6605000000000000 0.016125 104.120897 
0.6613750000000001 0.017006 100.289038 
0.6622500000000000 0.017488 95.768109 
0.6631250000000000 0.018182 91.710218 
0.6640000000000000 0.018926 87.392056 
0.6648750000000000 0.019626 83.081146 
0.6657500000000000 0.020721 78.049819 
0.6666250000000000 0.021632 73.627144 
0.6675000000000000 0.022598 68.958324 
0.6683750000000001 0.023464 63.766124 
0.6692500000000000 0.024510 59.245759 
0.6701250000000000 0.025582 53.669228 
0.6710000000000000 0.026679 47.886128 
0.6718750000000000 0.027812 42.462412 
0.6727500000000000 0.028967 36.380203 
0.6736250000000000 0.029940 30.060431 
0.6745000000000000 0.030934 24.132870 
0.6753750000000000 0.031830 17.161286 
0.6762500000000000 0.032801 10.242860 
0.6771250000000000 0.033570 3.377738 
0.6780000000000001 0.034120 -3.518995 
0.6788750000000000 0.034357 -10.996775 
0.6797500000000000 0.034670 -17.973436 
0.6806250000000000 0.034428 -25.440691 
0.6815000000000000 0.034276 -32.381201 
0.6823750000000000 0.033756 -39.520387 
0.6832500000000000 0.033146 -46.471255 
0.6841250000000000 0.032312 -53.165957 
0.6850000000000001 0.031396 -59.705732 
0.6858750000000000 0.030594 -65.824625 
0.6867500000000000 0.029569 -71.846724 
0.6876250000000000 0.028234 -77.822376 
0.6885000000000000 0.027415 -82.932330 
0.6893750000000000 0.026304 -88.335842 
0.6902500000000000 0.025427 -93.433974 
0.6911250000000000 0.024509 -98.471566 
0.6920000000000000 0.023539 -103.211411 
0.6928750000000000 0.022569 -107.699936 
0.6937500000000000 0.021778 -112.182522 
0.6946250000000001 0.021144 -116.065771 
0.6955000000000000 0.020488 -120.984806 
0.6963750000000000 0.019664 -124.565615 
0.6972500000000000 0.018911 -128.838496 
0.6981250000000000 0.018428 -132.781118 
0.6990000000000000 0.017672 -136.412549 
0.6998750000000000 0.016976 -140.269421 
0.7007500000000000 0.016654 -143.970691 
0.7016250000000001 0.016128 -147.506201 
0.7025000000000000 0.015777 -151.018048 
0.7033750000000000 0.015219 -154.587900 
0.7042500000000000 0.014750 -158.030733 
0.7051250000000000 0.014376 -161.184038 
0.7060000000000000 0.013873 -164.979780 
0.7068750000000000 0.013657 -168.394254 
0.7077500000000000 0.013149 -171.176434 
0.7086250000000000 0.012798 -174.531135 
0.7095000000000000 0.012579 -177.123060 
0.7103750000000000 0.012077 179.524921 
0.7112500000000001 0.012005 176.454472 
0.7121250000000000 0.011676 173.685907 
0.7130000000000000 0.011211 170.481590 
0.7138750000000000 0.011005 167.836584 
0.7147500000000000 0.010956 164.705074 
0.7156250000000000 0.010593 161.121370 
0.7165000000000000 0.010359 158.809306 
0.7173750000000000 0.010253 154.733925 
0.7182500000000001 0.010042 152.186464 
0.7191250000000000 0.009748 148.788715 
