!
! C:\Users\rflab\Downloads\q2\340.S1P
!
! Touchstone 1.1 file saved by VNA.EXE V1.65 (www.ke5fx.com/gpib/readme.htm)
! 11/20/2024 11:17:15 AM
!
!    Source: HEWLETT PACKARD,8753D,0,6.14
!  Min freq: 3.000000E+008 Hz
!  Max freq: 1.000000E+009 Hz
!    Points: 801
!    Params: S21
!
!!!!!
# GHZ S MA R 50
0.3000000000000000 0.000053 36.010811 
0.3008750000000000 0.000046 24.369357 
0.3017500000000000 0.000178 -100.932615 
0.3026250000000000 0.000078 -15.377570 
0.3035000000000000 0.000045 39.407332 
0.3043750000000000 0.000043 -16.407669 
0.3052500000000000 0.000066 126.348487 
0.3061250000000000 0.000095 -2.535740 
0.3070000000000000 0.000016 -97.466389 
0.3078750000000000 0.000061 21.630554 
0.3087500000000000 0.000176 -34.426730 
0.3096250000000000 0.000092 152.415474 
0.3105000000000000 0.000120 115.743765 
0.3113750000000000 0.000024 -101.409416 
0.3122500000000000 0.000063 -111.177545 
0.3131250000000000 0.000053 -115.819829 
0.3140000000000000 0.000057 -40.159148 
0.3148750000000000 0.000042 -43.457695 
0.3157500000000000 0.000146 -61.930788 
0.3166250000000000 0.000048 60.240092 
0.3175000000000000 0.000035 63.113221 
0.3183750000000000 0.000037 -150.275028 
0.3192500000000000 0.000104 47.513303 
0.3201250000000000 0.000080 147.217213 
0.3210000000000000 0.000153 -10.075771 
0.3218750000000000 0.000034 -150.460672 
0.3227500000000000 0.000069 -133.337008 
0.3236250000000000 0.000137 -26.093709 
0.3245000000000000 0.000020 -75.946299 
0.3253750000000000 0.000045 170.934912 
0.3262500000000000 0.000044 92.056627 
0.3271250000000000 0.000060 56.986552 
0.3280000000000000 0.000052 -80.290721 
0.3288750000000000 0.000053 33.660946 
0.3297500000000000 0.000060 -116.190623 
0.3306250000000000 0.000022 124.329497 
0.3315000000000000 0.000118 150.115756 
0.3323750000000000 0.000031 -121.751056 
0.3332500000000000 0.000036 167.305148 
0.3341250000000000 0.000006 33.344045 
0.3350000000000000 0.000038 -161.935949 
0.3358750000000000 0.000034 -170.347813 
0.3367500000000000 0.000098 115.542557 
0.3376250000000000 0.000055 -15.737416 
0.3385000000000000 0.000125 103.607598 
0.3393750000000000 0.000092 -45.630654 
0.3402500000000000 0.000026 -81.797141 
0.3411250000000000 0.000139 27.405043 
0.3420000000000000 0.000095 119.283686 
0.3428750000000000 0.000105 -128.661710 
0.3437500000000000 0.000043 -60.573532 
0.3446250000000000 0.000019 147.278345 
0.3455000000000000 0.000041 0.172837 
0.3463750000000000 0.000050 -80.297276 
0.3472500000000000 0.000055 27.705011 
0.3481250000000000 0.000100 148.130885 
0.3490000000000000 0.000115 8.081369 
0.3498750000000000 0.000024 95.006952 
0.3507500000000000 0.000046 40.551569 
0.3516250000000000 0.000060 -120.860667 
0.3525000000000000 0.000014 -106.262162 
0.3533750000000000 0.000034 -47.741680 
0.3542500000000000 0.000160 75.351907 
0.3551250000000000 0.000051 -99.787630 
0.3560000000000000 0.000006 -169.890980 
0.3568750000000000 0.000032 -99.286048 
0.3577500000000000 0.000171 -24.295768 
0.3586250000000000 0.000109 -47.735964 
0.3595000000000000 0.000042 29.903655 
0.3603750000000000 0.000033 4.567266 
0.3612500000000000 0.000052 -100.758368 
0.3621250000000000 0.000086 107.978855 
0.3630000000000000 0.000012 -174.839126 
0.3638750000000000 0.000030 150.247207 
0.3647500000000000 0.000087 77.671870 
0.3656250000000000 0.000063 149.034795 
0.3665000000000000 0.000127 127.431439 
0.3673750000000000 0.000082 86.114905 
0.3682500000000000 0.000053 135.459622 
0.3691250000000000 0.000095 28.892747 
0.3700000000000000 0.000099 -0.019429 
0.3708750000000000 0.000035 129.558960 
0.3717500000000000 0.000038 -53.459947 
0.3726250000000000 0.000011 -136.478932 
0.3735000000000000 0.000072 142.689675 
0.3743750000000000 0.000060 176.644560 
0.3752500000000000 0.000104 -9.264106 
0.3761250000000000 0.000033 113.010465 
0.3770000000000000 0.000099 -50.310973 
0.3778750000000000 0.000055 103.957461 
0.3787500000000000 0.000080 -167.230848 
0.3796250000000000 0.000109 96.313973 
0.3805000000000000 0.000030 71.787608 
0.3813750000000000 0.000044 63.034139 
0.3822500000000000 0.000119 -93.871270 
0.3831250000000000 0.000142 138.013127 
0.3840000000000000 0.000066 12.576777 
0.3848750000000000 0.000064 -34.059499 
0.3857500000000000 0.000184 -159.043763 
0.3866250000000000 0.000098 -165.897793 
0.3875000000000000 0.000092 163.601865 
0.3883750000000000 0.000084 178.596954 
0.3892500000000000 0.000089 -52.324379 
0.3901250000000000 0.000104 -148.122666 
0.3910000000000000 0.000059 -146.794689 
0.3918750000000000 0.000096 -157.942524 
0.3927500000000000 0.000051 -17.434314 
0.3936250000000000 0.000045 74.907080 
0.3945000000000000 0.000178 87.170550 
0.3953750000000000 0.000115 -171.431257 
0.3962500000000000 0.000106 87.365194 
0.3971250000000000 0.000096 -42.425319 
0.3980000000000000 0.000057 -17.239284 
0.3988750000000000 0.000043 -11.724565 
0.3997500000000000 0.000085 -131.900023 
0.4006250000000000 0.000093 179.067048 
0.4015000000000000 0.000079 118.052246 
0.4023750000000000 0.000056 -161.594046 
0.4032500000000000 0.000200 -41.462505 
0.4041250000000000 0.000053 -120.931689 
0.4050000000000000 0.000062 0.232742 
0.4058750000000000 0.000018 -158.596340 
0.4067500000000000 0.000069 -163.947759 
0.4076250000000000 0.000052 -57.099931 
0.4085000000000000 0.000037 160.899996 
0.4093750000000000 0.000120 -168.472630 
0.4102500000000000 0.000060 -152.048387 
0.4111250000000000 0.000119 84.705895 
0.4120000000000000 0.000122 157.785074 
0.4128750000000000 0.000154 173.780206 
0.4137500000000000 0.000056 -20.503949 
0.4146250000000000 0.000126 -167.758545 
0.4155000000000000 0.000096 116.535346 
0.4163750000000000 0.000195 130.290411 
0.4172500000000000 0.000065 77.789411 
0.4181250000000000 0.000096 113.307416 
0.4190000000000000 0.000073 61.215903 
0.4198750000000000 0.000059 131.900008 
0.4207500000000000 0.000130 91.128591 
0.4216250000000000 0.000080 -36.026388 
0.4225000000000000 0.000135 102.526400 
0.4233750000000000 0.000143 110.180922 
0.4242500000000000 0.000097 -124.967389 
0.4251250000000000 0.000027 116.913461 
0.4260000000000000 0.000215 75.131515 
0.4268750000000000 0.000124 140.013498 
0.4277500000000000 0.000063 -5.435551 
0.4286250000000000 0.000068 -139.151377 
0.4295000000000000 0.000051 -17.694874 
0.4303750000000000 0.000212 163.046480 
0.4312500000000000 0.000080 34.210286 
0.4321250000000000 0.000119 39.236765 
0.4330000000000000 0.000181 116.407645 
0.4338750000000000 0.000040 54.185671 
0.4347500000000000 0.000014 112.374368 
0.4356250000000000 0.000036 -2.643002 
0.4365000000000000 0.000018 -147.637751 
0.4373750000000000 0.000100 74.766305 
0.4382500000000000 0.000123 122.641441 
0.4391250000000000 0.000171 51.958255 
0.4400000000000000 0.000068 111.027796 
0.4408750000000000 0.000004 -138.997591 
0.4417500000000000 0.000065 62.650525 
0.4426250000000000 0.000036 112.388891 
0.4435000000000000 0.000077 6.521288 
0.4443750000000000 0.000106 49.123887 
0.4452500000000000 0.000138 -42.316233 
0.4461250000000000 0.000077 33.108816 
0.4470000000000000 0.000070 139.775864 
0.4478750000000000 0.000120 67.534589 
0.4487500000000000 0.000114 16.099848 
0.4496250000000000 0.000037 -8.980221 
0.4505000000000000 0.000064 55.804322 
0.4513750000000000 0.000042 136.273741 
0.4522500000000000 0.000056 -57.290192 
0.4531250000000000 0.000172 -44.887977 
0.4540000000000000 0.000088 38.295404 
0.4548750000000000 0.000030 75.949947 
0.4557500000000000 0.000083 44.231539 
0.4566250000000000 0.000213 65.558357 
0.4575000000000000 0.000031 141.353903 
0.4583750000000000 0.000109 13.443527 
0.4592500000000000 0.000123 -46.823153 
0.4601250000000000 0.000095 -4.451982 
0.4610000000000000 0.000127 -42.352570 
0.4618750000000000 0.000121 29.417431 
0.4627500000000000 0.000129 53.682512 
0.4636250000000000 0.000113 -36.827293 
0.4645000000000000 0.000094 -39.858873 
0.4653750000000000 0.000082 -117.675130 
0.4662500000000000 0.000062 30.503865 
0.4671250000000000 0.000024 -31.209926 
0.4680000000000000 0.000161 -12.794953 
0.4688750000000000 0.000099 66.921362 
0.4697500000000000 0.000042 -102.417972 
0.4706250000000000 0.000108 -59.224053 
0.4715000000000000 0.000096 32.673203 
0.4723750000000000 0.000085 0.525084 
0.4732500000000000 0.000084 -73.835993 
0.4741250000000000 0.000138 -71.848694 
0.4750000000000000 0.000319 -8.861182 
0.4758750000000000 0.000032 72.549466 
0.4767500000000000 0.000131 -32.248409 
0.4776250000000000 0.000075 -110.262781 
0.4785000000000000 0.000098 -70.940002 
0.4793750000000000 0.000055 -19.230588 
0.4802500000000000 0.000044 43.617773 
0.4811250000000000 0.000238 -40.709740 
0.4820000000000000 0.000206 -119.295513 
0.4828750000000000 0.000105 -96.442902 
0.4837500000000000 0.000146 -98.809966 
0.4846250000000000 0.000041 9.261225 
0.4855000000000000 0.000163 -59.866721 
0.4863750000000000 0.000099 -54.552950 
0.4872500000000000 0.000190 -60.259856 
0.4881250000000000 0.000085 -57.856310 
0.4890000000000000 0.000095 -56.488959 
0.4898750000000000 0.000228 -42.845496 
0.4907500000000000 0.000163 -90.725954 
0.4916250000000000 0.000140 -93.932214 
0.4925000000000000 0.000127 -80.343760 
0.4933750000000000 0.000154 -66.239848 
0.4942500000000000 0.000153 -66.231958 
0.4951250000000000 0.000063 -97.362007 
0.4960000000000000 0.000127 -102.832004 
0.4968750000000000 0.000119 -102.478984 
0.4977500000000000 0.000135 -121.465828 
0.4986250000000000 0.000186 -115.104817 
0.4995000000000000 0.000131 -143.213159 
0.5003750000000000 0.000178 -141.294578 
0.5012500000000000 0.000159 -91.232498 
0.5021250000000000 0.000215 -126.758557 
0.5030000000000000 0.000210 -121.852238 
0.5038750000000000 0.000202 -157.688894 
0.5047500000000000 0.000186 -127.857425 
0.5056250000000000 0.000009 -45.738930 
0.5065000000000000 0.000174 -124.802590 
0.5073750000000000 0.000149 -176.179257 
0.5082500000000000 0.000230 -140.373325 
0.5091250000000001 0.000173 -161.062383 
0.5100000000000000 0.000239 -149.943484 
0.5108750000000000 0.000254 -153.784631 
0.5117500000000000 0.000147 -107.546176 
0.5126250000000000 0.000323 -152.245156 
0.5135000000000000 0.000138 -135.843040 
0.5143750000000000 0.000317 177.854775 
0.5152500000000000 0.000253 -168.745026 
0.5161249999999999 0.000159 161.261168 
0.5170000000000000 0.000379 -149.170723 
0.5178750000000000 0.000270 -147.086968 
0.5187500000000000 0.000231 -166.552011 
0.5196250000000000 0.000281 -166.878127 
0.5205000000000000 0.000291 -171.554224 
0.5213750000000000 0.000325 -153.323323 
0.5222500000000000 0.000337 -165.850711 
0.5231250000000000 0.000176 -166.085993 
0.5240000000000000 0.000290 -150.775351 
0.5248750000000000 0.000261 173.954237 
0.5257500000000001 0.000263 179.504235 
0.5266250000000000 0.000294 159.614707 
0.5275000000000000 0.000172 -167.985838 
0.5283750000000000 0.000296 142.434744 
0.5292500000000000 0.000429 -178.013130 
0.5301250000000000 0.000332 177.299229 
0.5310000000000000 0.000421 174.586407 
0.5318750000000000 0.000310 177.400562 
0.5327500000000000 0.000329 154.461697 
0.5336250000000000 0.000469 170.615502 
0.5345000000000000 0.000473 151.067333 
0.5353750000000001 0.000366 172.500980 
0.5362500000000000 0.000438 152.829903 
0.5371250000000000 0.000477 145.547986 
0.5380000000000000 0.000368 131.978758 
0.5388750000000000 0.000534 142.921625 
0.5397500000000000 0.000406 145.791189 
0.5406250000000000 0.000503 136.029716 
0.5415000000000000 0.000651 124.120287 
0.5423750000000001 0.000503 118.355221 
0.5432500000000000 0.000577 129.772202 
0.5441250000000000 0.000515 119.128235 
0.5450000000000000 0.000563 115.524878 
0.5458750000000000 0.000468 119.663156 
0.5467500000000000 0.000630 127.786558 
0.5476250000000000 0.000503 108.475210 
0.5485000000000000 0.000627 121.791458 
0.5493750000000000 0.000608 115.220839 
0.5502500000000000 0.000654 104.625709 
0.5511250000000000 0.000730 112.841483 
0.5520000000000001 0.000774 105.720784 
0.5528750000000000 0.000667 88.153543 
0.5537500000000000 0.000675 98.386118 
0.5546250000000000 0.000757 103.825516 
0.5555000000000000 0.000690 100.800165 
0.5563750000000000 0.000726 84.036314 
0.5572500000000000 0.000797 90.469346 
0.5581250000000000 0.000726 71.138043 
0.5590000000000001 0.000719 92.386734 
0.5598750000000000 0.000812 77.024613 
0.5607500000000000 0.000898 75.878906 
0.5616250000000000 0.000847 88.332447 
0.5625000000000000 0.000853 66.648949 
0.5633750000000000 0.000798 71.220713 
0.5642500000000000 0.000821 68.105532 
0.5651250000000000 0.000786 64.425553 
0.5660000000000000 0.000886 59.068640 
0.5668750000000000 0.000846 64.635013 
0.5677500000000000 0.001081 62.828913 
0.5686250000000001 0.000878 47.371289 
0.5695000000000000 0.001010 53.821965 
0.5703750000000000 0.000986 58.347799 
0.5712500000000000 0.000944 47.407346 
0.5721250000000000 0.001142 48.077453 
0.5730000000000000 0.001112 47.653359 
0.5738750000000000 0.001075 41.193392 
0.5747500000000000 0.001141 44.183297 
0.5756250000000001 0.001114 37.801603 
0.5765000000000000 0.001171 36.616172 
0.5773750000000000 0.001142 29.791602 
0.5782500000000000 0.001180 24.578065 
0.5791250000000000 0.001312 33.141203 
0.5800000000000000 0.001219 22.330606 
0.5808750000000000 0.001367 29.367818 
0.5817500000000000 0.001352 18.791090 
0.5826250000000000 0.001329 14.224425 
0.5835000000000000 0.001464 16.290811 
0.5843750000000000 0.001359 14.873635 
0.5852500000000001 0.001474 12.411946 
0.5861250000000000 0.001494 15.845578 
0.5870000000000000 0.001584 11.410557 
0.5878750000000000 0.001483 2.612498 
0.5887500000000000 0.001569 0.561705 
0.5896250000000000 0.001614 -1.104798 
0.5905000000000000 0.001649 -5.222180 
0.5913750000000000 0.001702 -8.803383 
0.5922500000000001 0.001677 -6.561873 
0.5931250000000000 0.001677 -9.265462 
0.5940000000000000 0.001883 -14.918799 
0.5948750000000000 0.001758 -19.729105 
0.5957500000000000 0.001789 -14.105238 
0.5966250000000000 0.001991 -21.138970 
0.5975000000000000 0.002105 -26.238481 
0.5983750000000000 0.002181 -27.957348 
0.5992500000000000 0.002139 -30.756713 
0.6001250000000000 0.002179 -29.808254 
0.6010000000000000 0.002330 -30.110249 
0.6018750000000001 0.002362 -34.498685 
0.6027500000000000 0.002418 -39.960365 
0.6036250000000000 0.002559 -43.152266 
0.6045000000000000 0.002727 -44.817600 
0.6053750000000000 0.002681 -48.498685 
0.6062500000000000 0.002637 -53.693791 
0.6071250000000000 0.002913 -53.930722 
0.6080000000000000 0.002913 -55.552841 
0.6088750000000001 0.002965 -59.636773 
0.6097500000000000 0.003040 -62.173033 
0.6106250000000000 0.003251 -63.897259 
0.6115000000000000 0.003320 -66.979717 
0.6123750000000000 0.003398 -69.713294 
0.6132500000000000 0.003491 -73.832865 
0.6141250000000000 0.003616 -77.239691 
0.6150000000000000 0.003701 -79.445878 
0.6158750000000000 0.003820 -82.572907 
0.6167500000000000 0.003843 -86.218790 
0.6176250000000000 0.004076 -89.416872 
0.6185000000000001 0.004262 -92.196315 
0.6193750000000000 0.004296 -95.342965 
0.6202500000000000 0.004546 -98.007704 
0.6211250000000000 0.004600 -101.082239 
0.6220000000000000 0.004695 -105.660061 
0.6228750000000000 0.004800 -108.726562 
0.6237500000000000 0.005079 -112.136550 
0.6246250000000000 0.005236 -113.767263 
0.6254999999999999 0.005231 -117.657105 
0.6263750000000000 0.005536 -122.180109 
0.6272500000000000 0.005511 -124.066811 
0.6281250000000000 0.005873 -128.048793 
0.6290000000000000 0.005767 -131.218455 
0.6298750000000000 0.006080 -134.408948 
0.6307500000000000 0.006283 -136.832741 
0.6316250000000000 0.006343 -140.325691 
0.6325000000000000 0.006681 -144.100101 
0.6333750000000000 0.006732 -146.533933 
0.6342500000000000 0.007096 -148.576637 
0.6351250000000001 0.007436 -153.047153 
0.6360000000000000 0.007446 -156.781170 
0.6368750000000000 0.007880 -158.863665 
0.6377500000000000 0.007950 -163.336636 
0.6386250000000000 0.008199 -165.943551 
0.6395000000000000 0.008364 -169.644607 
0.6403750000000000 0.008744 -173.231933 
0.6412500000000000 0.008841 -176.830798 
0.6421250000000000 0.009287 -179.655806 
0.6430000000000000 0.009507 177.404093 
0.6438750000000000 0.009695 174.255757 
0.6447500000000001 0.010185 170.452129 
0.6456250000000000 0.010406 167.326538 
0.6465000000000000 0.010773 163.919448 
0.6473750000000000 0.010964 160.543799 
0.6482500000000000 0.011462 156.923772 
0.6491250000000000 0.011809 154.178874 
0.6500000000000000 0.012220 150.379916 
0.6508750000000000 0.012625 147.060774 
0.6517500000000001 0.012887 142.899446 
0.6526250000000000 0.013440 139.949260 
0.6535000000000000 0.013892 136.230827 
0.6543750000000000 0.014448 132.773203 
0.6552500000000000 0.014962 129.284647 
0.6561250000000000 0.015540 125.242345 
0.6570000000000000 0.016015 122.389283 
0.6578750000000000 0.016615 117.898383 
0.6587500000000000 0.017324 114.080336 
0.6596250000000000 0.018002 110.539350 
0.6605000000000000 0.018726 106.232777 
0.6613750000000001 0.019400 101.967281 
0.6622500000000000 0.020212 98.112900 
0.6631250000000000 0.021199 93.804645 
0.6640000000000000 0.021969 89.378187 
0.6648750000000000 0.022917 85.111007 
0.6657500000000000 0.024008 81.032340 
0.6666250000000000 0.025096 75.910415 
0.6675000000000000 0.026191 71.099260 
0.6683750000000001 0.027277 66.380024 
0.6692500000000000 0.028309 61.530345 
0.6701250000000000 0.029789 56.077953 
0.6710000000000000 0.030877 50.504401 
0.6718750000000000 0.032229 44.755434 
0.6727500000000000 0.033703 38.737279 
0.6736250000000000 0.034768 32.772057 
0.6745000000000000 0.036051 26.548782 
0.6753750000000000 0.037052 19.943291 
0.6762500000000000 0.038158 13.216574 
0.6771250000000000 0.039001 6.105947 
0.6780000000000001 0.039663 -1.217937 
0.6788750000000000 0.040111 -8.174026 
0.6797500000000000 0.040244 -15.571640 
0.6806250000000000 0.040340 -22.773857 
0.6815000000000000 0.039882 -29.880492 
0.6823750000000000 0.039417 -36.913703 
0.6832500000000000 0.038465 -43.543349 
0.6841250000000000 0.037789 -50.173502 
0.6850000000000001 0.036722 -56.914132 
0.6858750000000000 0.035583 -63.018772 
0.6867500000000000 0.034440 -68.982308 
0.6876250000000000 0.033277 -74.780877 
0.6885000000000000 0.032046 -80.022447 
0.6893750000000000 0.030826 -85.681511 
0.6902500000000000 0.029780 -90.462378 
0.6911250000000000 0.028562 -95.364515 
0.6920000000000000 0.027424 -100.223585 
0.6928750000000000 0.026420 -104.477658 
0.6937500000000000 0.025555 -108.900143 
0.6946250000000001 0.024660 -113.386536 
0.6955000000000000 0.023827 -117.416322 
0.6963750000000000 0.022944 -121.632778 
0.6972500000000000 0.022269 -125.929612 
0.6981250000000000 0.021461 -129.156835 
0.6990000000000000 0.020840 -132.930506 
0.6998750000000000 0.020216 -137.018668 
0.7007500000000000 0.019624 -140.640068 
0.7016250000000001 0.019106 -144.292440 
0.7025000000000000 0.018424 -147.798125 
0.7033750000000000 0.017854 -151.458178 
0.7042500000000000 0.017279 -154.826645 
0.7051250000000000 0.016886 -157.932988 
0.7060000000000000 0.016371 -162.002030 
0.7068750000000000 0.016004 -164.399314 
0.7077500000000000 0.015483 -167.741822 
0.7086250000000000 0.015239 -170.366734 
0.7095000000000000 0.014677 -174.197167 
0.7103750000000000 0.014470 -177.756330 
0.7112500000000001 0.014029 -179.602714 
0.7121250000000000 0.013692 176.613853 
0.7130000000000000 0.013528 174.425450 
0.7138750000000000 0.013144 170.469332 
0.7147500000000000 0.013019 168.646032 
0.7156250000000000 0.012654 165.489848 
0.7165000000000000 0.012376 162.617137 
0.7173750000000000 0.012081 159.658870 
0.7182500000000001 0.011777 156.270467 
0.7191250000000000 0.011758 153.231288 
