!
! C:\Users\rflab\Downloads\q2\40.S1P
!
! Touchstone 1.1 file saved by VNA.EXE V1.65 (www.ke5fx.com/gpib/readme.htm)
! 11/20/2024 11:07:30 AM
!
!    Source: HEWLETT PACKARD,8753D,0,6.14
!  Min freq: 3.000000E+008 Hz
!  Max freq: 1.000000E+009 Hz
!    Points: 801
!    Params: S21
!
!!!!!
# GHZ S MA R 50
0.3000000000000000 0.000044 -99.224289 
0.3008750000000000 0.000043 79.820992 
0.3017500000000000 0.000067 -4.238398 
0.3026250000000000 0.000016 69.849987 
0.3035000000000000 0.000044 39.139619 
0.3043750000000000 0.000082 -160.515150 
0.3052500000000000 0.000041 -35.525107 
0.3061250000000000 0.000079 -58.415244 
0.3070000000000000 0.000056 162.875161 
0.3078750000000000 0.000011 52.815099 
0.3087500000000000 0.000115 114.217025 
0.3096250000000000 0.000089 7.228082 
0.3105000000000000 0.000102 139.168782 
0.3113750000000000 0.000086 99.626191 
0.3122500000000000 0.000154 -93.545304 
0.3131250000000000 0.000098 68.893164 
0.3140000000000000 0.000089 -73.135879 
0.3148750000000000 0.000097 8.400808 
0.3157500000000000 0.000069 43.101358 
0.3166250000000000 0.000099 -137.386960 
0.3175000000000000 0.000052 -38.561871 
0.3183750000000000 0.000098 -163.770419 
0.3192500000000000 0.000077 116.036836 
0.3201250000000000 0.000118 57.384051 
0.3210000000000000 0.000098 60.396027 
0.3218750000000000 0.000132 -166.990061 
0.3227500000000000 0.000056 23.886302 
0.3236250000000000 0.000028 -8.529552 
0.3245000000000000 0.000131 177.647759 
0.3253750000000000 0.000134 -158.300580 
0.3262500000000000 0.000059 -103.971583 
0.3271250000000000 0.000010 58.792446 
0.3280000000000000 0.000058 -17.866525 
0.3288750000000000 0.000127 144.372172 
0.3297500000000000 0.000063 -35.775310 
0.3306250000000000 0.000074 -66.915393 
0.3315000000000000 0.000181 -179.516473 
0.3323750000000000 0.000087 -158.628983 
0.3332500000000000 0.000029 -24.006578 
0.3341250000000000 0.000026 -1.873740 
0.3350000000000000 0.000103 -128.992839 
0.3358750000000000 0.000030 -107.640869 
0.3367500000000000 0.000151 -74.962148 
0.3376250000000000 0.000008 170.993836 
0.3385000000000000 0.000091 -24.347953 
0.3393750000000000 0.000079 -59.619915 
0.3402500000000000 0.000069 -174.914396 
0.3411250000000000 0.000067 158.657126 
0.3420000000000000 0.000110 -94.346540 
0.3428750000000000 0.000002 -159.787405 
0.3437500000000000 0.000015 137.984570 
0.3446250000000000 0.000061 -172.683724 
0.3455000000000000 0.000066 -153.475415 
0.3463750000000000 0.000087 104.754915 
0.3472500000000000 0.000101 -146.692987 
0.3481250000000000 0.000073 -118.731571 
0.3490000000000000 0.000030 86.114215 
0.3498750000000000 0.000063 104.452492 
0.3507500000000000 0.000093 -162.774378 
0.3516250000000000 0.000065 57.475556 
0.3525000000000000 0.000070 77.079197 
0.3533750000000000 0.000084 -120.708296 
0.3542500000000000 0.000220 37.674115 
0.3551250000000000 0.000034 55.543109 
0.3560000000000000 0.000063 -93.714360 
0.3568750000000000 0.000004 175.250575 
0.3577500000000000 0.000081 93.645911 
0.3586250000000000 0.000093 -50.709460 
0.3595000000000000 0.000037 -64.174658 
0.3603750000000000 0.000054 -176.986176 
0.3612500000000000 0.000066 -38.948465 
0.3621250000000000 0.000033 172.960252 
0.3630000000000000 0.000075 -23.979250 
0.3638750000000000 0.000012 -143.819423 
0.3647500000000000 0.000109 153.264961 
0.3656250000000000 0.000093 -164.818568 
0.3665000000000000 0.000032 111.373607 
0.3673750000000000 0.000017 -142.944044 
0.3682500000000000 0.000060 -81.026178 
0.3691250000000000 0.000136 -4.999586 
0.3700000000000000 0.000021 -168.611566 
0.3708750000000000 0.000089 -141.055935 
0.3717500000000000 0.000052 -45.037978 
0.3726250000000000 0.000167 159.247235 
0.3735000000000000 0.000056 156.670565 
0.3743750000000000 0.000090 -58.696889 
0.3752500000000000 0.000113 150.081180 
0.3761250000000000 0.000041 104.511034 
0.3770000000000000 0.000112 -69.886804 
0.3778750000000000 0.000085 -55.565830 
0.3787500000000000 0.000089 151.898403 
0.3796250000000000 0.000123 178.632667 
0.3805000000000000 0.000090 103.627064 
0.3813750000000000 0.000037 -170.043880 
0.3822500000000000 0.000085 -41.308499 
0.3831250000000000 0.000070 -115.904240 
0.3840000000000000 0.000048 122.088041 
0.3848750000000000 0.000066 60.957652 
0.3857500000000000 0.000067 -177.615911 
0.3866250000000000 0.000066 84.750642 
0.3875000000000000 0.000095 120.630992 
0.3883750000000000 0.000097 -7.086885 
0.3892500000000000 0.000088 -94.454025 
0.3901250000000000 0.000127 -106.125125 
0.3910000000000000 0.000054 135.187501 
0.3918750000000000 0.000085 68.702446 
0.3927500000000000 0.000063 151.287463 
0.3936250000000000 0.000105 48.235790 
0.3945000000000000 0.000096 -42.635284 
0.3953750000000000 0.000135 -157.348845 
0.3962500000000000 0.000063 -57.956985 
0.3971250000000000 0.000046 105.612538 
0.3980000000000000 0.000106 -168.731560 
0.3988750000000000 0.000078 -13.318206 
0.3997500000000000 0.000150 42.419784 
0.4006250000000000 0.000061 104.621617 
0.4015000000000000 0.000052 131.354229 
0.4023750000000000 0.000073 123.693704 
0.4032500000000000 0.000073 -72.544198 
0.4041250000000000 0.000111 -12.986574 
0.4050000000000000 0.000095 -141.402887 
0.4058750000000000 0.000076 6.632191 
0.4067500000000000 0.000079 149.151190 
0.4076250000000000 0.000013 -61.445519 
0.4085000000000000 0.000088 85.284623 
0.4093750000000000 0.000136 69.584579 
0.4102500000000000 0.000181 -172.857999 
0.4111250000000000 0.000130 51.633800 
0.4120000000000000 0.000030 -137.760160 
0.4128750000000000 0.000186 90.241588 
0.4137500000000000 0.000101 116.267601 
0.4146250000000000 0.000022 161.028804 
0.4155000000000000 0.000093 59.861432 
0.4163750000000000 0.000092 27.285743 
0.4172500000000000 0.000117 160.020646 
0.4181250000000000 0.000134 2.182921 
0.4190000000000000 0.000076 62.414558 
0.4198750000000000 0.000048 95.777829 
0.4207500000000000 0.000142 -89.603299 
0.4216250000000000 0.000043 63.552744 
0.4225000000000000 0.000096 -129.002233 
0.4233750000000000 0.000016 130.267153 
0.4242500000000000 0.000009 46.843454 
0.4251250000000000 0.000055 84.051632 
0.4260000000000000 0.000057 120.658917 
0.4268750000000000 0.000036 126.409204 
0.4277500000000000 0.000083 130.883579 
0.4286250000000000 0.000091 159.818915 
0.4295000000000000 0.000177 -79.403059 
0.4303750000000000 0.000058 115.485562 
0.4312500000000000 0.000055 81.210825 
0.4321250000000000 0.000026 -43.094664 
0.4330000000000000 0.000056 -2.446870 
0.4338750000000000 0.000034 18.914548 
0.4347500000000000 0.000059 75.795980 
0.4356250000000000 0.000046 -14.085364 
0.4365000000000000 0.000018 79.995163 
0.4373750000000000 0.000071 78.885371 
0.4382500000000000 0.000130 38.226331 
0.4391250000000000 0.000080 -11.314106 
0.4400000000000000 0.000126 16.524515 
0.4408750000000000 0.000054 75.122068 
0.4417500000000000 0.000095 89.645965 
0.4426250000000000 0.000185 73.217656 
0.4435000000000000 0.000059 70.650447 
0.4443750000000000 0.000090 103.078306 
0.4452500000000000 0.000120 42.425596 
0.4461250000000000 0.000127 76.859662 
0.4470000000000000 0.000159 -162.630945 
0.4478750000000000 0.000080 61.303170 
0.4487500000000000 0.000088 -41.569369 
0.4496250000000000 0.000173 13.343730 
0.4505000000000000 0.000074 25.595372 
0.4513750000000000 0.000050 12.323791 
0.4522500000000000 0.000079 44.681595 
0.4531250000000000 0.000106 34.736888 
0.4540000000000000 0.000061 -132.948480 
0.4548750000000000 0.000062 -123.066008 
0.4557500000000000 0.000138 -23.204281 
0.4566250000000000 0.000112 2.550483 
0.4575000000000000 0.000079 81.006460 
0.4583750000000000 0.000133 -38.717550 
0.4592500000000000 0.000150 -3.477629 
0.4601250000000000 0.000068 -12.167715 
0.4610000000000000 0.000072 -175.404112 
0.4618750000000000 0.000173 -26.966726 
0.4627500000000000 0.000065 -151.071525 
0.4636250000000000 0.000048 -113.131275 
0.4645000000000000 0.000051 124.613867 
0.4653750000000000 0.000070 -71.451263 
0.4662500000000000 0.000158 -76.329462 
0.4671250000000000 0.000276 30.269371 
0.4680000000000000 0.000054 -69.565457 
0.4688750000000000 0.000066 -96.482633 
0.4697500000000000 0.000062 -18.048575 
0.4706250000000000 0.000193 -17.570279 
0.4715000000000000 0.000094 -152.517905 
0.4723750000000000 0.000125 -26.197894 
0.4732500000000000 0.000078 15.788089 
0.4741250000000000 0.000047 -102.855452 
0.4750000000000000 0.000084 -82.824568 
0.4758750000000000 0.000075 -144.074044 
0.4767500000000000 0.000154 -77.315270 
0.4776250000000000 0.000064 -115.997179 
0.4785000000000000 0.000144 -110.870442 
0.4793750000000000 0.000126 -76.234436 
0.4802500000000000 0.000084 -121.817430 
0.4811250000000000 0.000065 38.335138 
0.4820000000000000 0.000092 -144.286756 
0.4828750000000000 0.000171 -152.115578 
0.4837500000000000 0.000133 -65.353946 
0.4846250000000000 0.000127 -91.468457 
0.4855000000000000 0.000050 17.591075 
0.4863750000000000 0.000021 -67.840481 
0.4872500000000000 0.000077 -0.193268 
0.4881250000000000 0.000060 -56.461772 
0.4890000000000000 0.000091 -75.767148 
0.4898750000000000 0.000103 62.060167 
0.4907500000000000 0.000105 -122.765205 
0.4916250000000000 0.000083 -33.687206 
0.4925000000000000 0.000034 -153.553075 
0.4933750000000000 0.000127 -49.676157 
0.4942500000000000 0.000031 -132.673510 
0.4951250000000000 0.000081 -79.321890 
0.4960000000000000 0.000101 -140.485212 
0.4968750000000000 0.000171 -131.874609 
0.4977500000000000 0.000058 2.265372 
0.4986250000000000 0.000161 164.626961 
0.4995000000000000 0.000187 -115.960533 
0.5003750000000000 0.000175 -120.721581 
0.5012500000000000 0.000045 134.127950 
0.5021250000000000 0.000039 94.738538 
0.5030000000000000 0.000112 -153.812999 
0.5038750000000000 0.000075 -72.071439 
0.5047500000000000 0.000113 -132.726025 
0.5056250000000000 0.000196 -120.103362 
0.5065000000000000 0.000088 -53.676890 
0.5073750000000000 0.000137 -140.963302 
0.5082500000000000 0.000194 -157.760984 
0.5091250000000001 0.000282 -109.541167 
0.5100000000000000 0.000126 -123.677900 
0.5108750000000000 0.000107 -114.158172 
0.5117500000000000 0.000156 -163.831652 
0.5126250000000000 0.000236 -127.204613 
0.5135000000000000 0.000237 -156.929527 
0.5143750000000000 0.000114 -163.459891 
0.5152500000000000 0.000115 177.491949 
0.5161249999999999 0.000169 -88.892053 
0.5170000000000000 0.000201 -160.185653 
0.5178750000000000 0.000190 -174.049218 
0.5187500000000000 0.000162 -152.843458 
0.5196250000000000 0.000121 -161.420733 
0.5205000000000000 0.000155 179.521837 
0.5213750000000000 0.000129 -166.777636 
0.5222500000000000 0.000210 179.247210 
0.5231250000000000 0.000166 151.984795 
0.5240000000000000 0.000218 162.636026 
0.5248750000000000 0.000206 -177.782779 
0.5257500000000001 0.000307 178.075284 
0.5266250000000000 0.000244 157.467471 
0.5275000000000000 0.000308 -173.315942 
0.5283750000000000 0.000222 166.627938 
0.5292500000000000 0.000287 163.929574 
0.5301250000000000 0.000246 164.429993 
0.5310000000000000 0.000289 173.076785 
0.5318750000000000 0.000331 160.005017 
0.5327500000000000 0.000208 161.274985 
0.5336250000000000 0.000359 142.675259 
0.5345000000000000 0.000268 156.832397 
0.5353750000000001 0.000291 141.024996 
0.5362500000000000 0.000448 145.884303 
0.5371250000000000 0.000366 161.512624 
0.5380000000000000 0.000321 141.192845 
0.5388750000000000 0.000493 144.570077 
0.5397500000000000 0.000444 136.243180 
0.5406250000000000 0.000457 151.365842 
0.5415000000000000 0.000415 130.757857 
0.5423750000000001 0.000520 128.472550 
0.5432500000000000 0.000500 133.263196 
0.5441250000000000 0.000554 128.680009 
0.5450000000000000 0.000546 108.895504 
0.5458750000000000 0.000518 118.829632 
0.5467500000000000 0.000467 130.162776 
0.5476250000000000 0.000561 129.706345 
0.5485000000000000 0.000533 125.050466 
0.5493750000000000 0.000383 103.516691 
0.5502500000000000 0.000521 101.220648 
0.5511250000000000 0.000538 94.348290 
0.5520000000000001 0.000681 100.359526 
0.5528750000000000 0.000532 100.648626 
0.5537500000000000 0.000535 93.756275 
0.5546250000000000 0.000610 97.259653 
0.5555000000000000 0.000749 83.769143 
0.5563750000000000 0.000600 97.060455 
0.5572500000000000 0.000647 87.018156 
0.5581250000000000 0.000539 83.473456 
0.5590000000000001 0.000690 80.583222 
0.5598750000000000 0.000674 82.928679 
0.5607500000000000 0.000615 71.742329 
0.5616250000000000 0.000625 80.426745 
0.5625000000000000 0.000723 75.398900 
0.5633750000000000 0.000664 67.801909 
0.5642500000000000 0.000808 60.717676 
0.5651250000000000 0.000549 56.548544 
0.5660000000000000 0.000798 58.539183 
0.5668750000000000 0.000701 58.246245 
0.5677500000000000 0.000748 64.914032 
0.5686250000000001 0.000849 53.488733 
0.5695000000000000 0.000756 53.037910 
0.5703750000000000 0.000728 48.462312 
0.5712500000000000 0.000791 50.312139 
0.5721250000000000 0.000972 49.682325 
0.5730000000000000 0.000902 49.755865 
0.5738750000000000 0.000916 37.647453 
0.5747500000000000 0.000919 33.380754 
0.5756250000000001 0.000986 35.917367 
0.5765000000000000 0.000893 30.239241 
0.5773750000000000 0.001013 26.678171 
0.5782500000000000 0.000867 26.819730 
0.5791250000000000 0.000855 31.910567 
0.5800000000000000 0.000950 24.545159 
0.5808750000000000 0.001026 21.820574 
0.5817500000000000 0.001003 10.750841 
0.5826250000000000 0.001056 22.226574 
0.5835000000000000 0.001125 9.376017 
0.5843750000000000 0.001137 15.336229 
0.5852500000000001 0.001032 14.970869 
0.5861250000000000 0.001110 2.308072 
0.5870000000000000 0.001190 2.272837 
0.5878750000000000 0.001076 -0.866513 
0.5887500000000000 0.001264 7.926420 
0.5896250000000000 0.001326 -3.185401 
0.5905000000000000 0.001371 1.143471 
0.5913750000000000 0.001403 -7.422384 
0.5922500000000001 0.001409 -12.242017 
0.5931250000000000 0.001485 -10.766548 
0.5940000000000000 0.001474 -14.459438 
0.5948750000000000 0.001485 -15.592914 
0.5957500000000000 0.001637 -18.496954 
0.5966250000000000 0.001725 -22.105726 
0.5975000000000000 0.001707 -20.081210 
0.5983750000000000 0.001728 -24.644526 
0.5992500000000000 0.001757 -30.688697 
0.6001250000000000 0.001862 -30.731304 
0.6010000000000000 0.001748 -34.470197 
0.6018750000000001 0.001795 -34.853937 
0.6027500000000000 0.002018 -41.678796 
0.6036250000000000 0.002013 -42.665300 
0.6045000000000000 0.002051 -45.611131 
0.6053750000000000 0.002217 -48.278944 
0.6062500000000000 0.002165 -53.991411 
0.6071250000000000 0.002170 -53.564836 
0.6080000000000000 0.002302 -58.478414 
0.6088750000000001 0.002333 -61.353793 
0.6097500000000000 0.002530 -61.183519 
0.6106250000000000 0.002616 -67.736473 
0.6115000000000000 0.002631 -69.212756 
0.6123750000000000 0.002758 -71.800005 
0.6132500000000000 0.002726 -75.588868 
0.6141250000000000 0.002769 -78.929071 
0.6150000000000000 0.002875 -79.450828 
0.6158750000000000 0.002931 -84.697317 
0.6167500000000000 0.002975 -89.694649 
0.6176250000000000 0.003084 -90.892613 
0.6185000000000001 0.003291 -93.541246 
0.6193750000000000 0.003321 -95.668442 
0.6202500000000000 0.003426 -98.403595 
0.6211250000000000 0.003514 -101.470801 
0.6220000000000000 0.003568 -105.446851 
0.6228750000000000 0.003725 -110.502833 
0.6237500000000000 0.003776 -111.388934 
0.6246250000000000 0.003947 -116.874625 
0.6254999999999999 0.004122 -119.472378 
0.6263750000000000 0.004081 -122.509964 
0.6272500000000000 0.004205 -122.537473 
0.6281250000000000 0.004394 -129.309966 
0.6290000000000000 0.004467 -132.276569 
0.6298750000000000 0.004735 -135.713963 
0.6307500000000000 0.004820 -140.366422 
0.6316250000000000 0.004849 -141.503858 
0.6325000000000000 0.005004 -144.334737 
0.6333750000000000 0.005297 -147.734915 
0.6342500000000000 0.005246 -151.454795 
0.6351250000000001 0.005377 -154.898391 
0.6360000000000000 0.005620 -157.294873 
0.6368750000000000 0.005776 -160.974239 
0.6377500000000000 0.005918 -166.098115 
0.6386250000000000 0.005981 -168.082642 
0.6395000000000000 0.006260 -170.963848 
0.6403750000000000 0.006526 -173.636230 
0.6412500000000000 0.006687 -176.930090 
0.6421250000000000 0.006806 178.422235 
0.6430000000000000 0.007058 175.050548 
0.6438750000000000 0.007183 171.940363 
0.6447500000000001 0.007337 168.430088 
0.6456250000000000 0.007746 165.268288 
0.6465000000000000 0.007918 161.750546 
0.6473750000000000 0.008133 158.138078 
0.6482500000000000 0.008443 155.008128 
0.6491250000000000 0.008779 151.695030 
0.6500000000000000 0.008955 147.596198 
0.6508750000000000 0.009237 144.484324 
0.6517500000000001 0.009495 141.002725 
0.6526250000000000 0.009998 137.831816 
0.6535000000000000 0.010230 134.159612 
0.6543750000000000 0.010646 130.196573 
0.6552500000000000 0.011081 126.620874 
0.6561250000000000 0.011399 123.164932 
0.6570000000000000 0.011820 119.852972 
0.6578750000000000 0.012190 115.093533 
0.6587500000000000 0.012743 111.687544 
0.6596250000000000 0.013285 108.155299 
0.6605000000000000 0.013708 104.372186 
0.6613750000000001 0.014272 99.863267 
0.6622500000000000 0.014921 95.832661 
0.6631250000000000 0.015572 91.179092 
0.6640000000000000 0.016151 87.123077 
0.6648750000000000 0.016835 82.221961 
0.6657500000000000 0.017630 77.811730 
0.6666250000000000 0.018360 73.176480 
0.6675000000000000 0.019110 68.681238 
0.6683750000000001 0.020207 63.488170 
0.6692500000000000 0.020807 58.404366 
0.6701250000000000 0.021801 52.582688 
0.6710000000000000 0.022824 47.496031 
0.6718750000000000 0.023569 41.611207 
0.6727500000000000 0.024515 35.391537 
0.6736250000000000 0.025458 29.403594 
0.6745000000000000 0.026314 22.799415 
0.6753750000000000 0.027241 16.544399 
0.6762500000000000 0.027956 9.547142 
0.6771250000000000 0.028536 2.409535 
0.6780000000000001 0.028917 -4.399574 
0.6788750000000000 0.029181 -11.655859 
0.6797500000000000 0.029243 -19.199573 
0.6806250000000000 0.029173 -26.332188 
0.6815000000000000 0.029120 -33.684332 
0.6823750000000000 0.028733 -40.435247 
0.6832500000000000 0.028079 -47.149821 
0.6841250000000000 0.027567 -54.052628 
0.6850000000000001 0.026753 -60.429406 
0.6858750000000000 0.025907 -66.817483 
0.6867500000000000 0.025064 -73.323308 
0.6876250000000000 0.024275 -78.623407 
0.6885000000000000 0.023282 -84.093938 
0.6893750000000000 0.022498 -89.404962 
0.6902500000000000 0.021660 -94.477259 
0.6911250000000000 0.020966 -99.467033 
0.6920000000000000 0.020148 -104.377625 
0.6928750000000000 0.019490 -108.723086 
0.6937500000000000 0.018725 -113.836569 
0.6946250000000001 0.018044 -117.693232 
0.6955000000000000 0.017450 -122.120558 
0.6963750000000000 0.016778 -126.035523 
0.6972500000000000 0.016294 -130.252107 
0.6981250000000000 0.015697 -134.005547 
0.6990000000000000 0.015296 -138.037757 
0.6998750000000000 0.014557 -141.792176 
0.7007500000000000 0.014216 -145.506118 
0.7016250000000001 0.013822 -149.017945 
0.7025000000000000 0.013431 -152.315922 
0.7033750000000000 0.012974 -156.585735 
0.7042500000000000 0.012590 -160.009843 
0.7051250000000000 0.012299 -162.867542 
0.7060000000000000 0.011938 -165.264357 
0.7068750000000000 0.011450 -170.318792 
0.7077500000000000 0.011265 -173.007639 
0.7086250000000000 0.011044 -176.083239 
0.7095000000000000 0.010550 -179.259371 
0.7103750000000000 0.010404 177.457297 
0.7112500000000001 0.010086 174.250324 
0.7121250000000000 0.009877 171.963389 
0.7130000000000000 0.009559 168.930530 
0.7138750000000000 0.009398 165.658463 
0.7147500000000000 0.009231 162.618963 
0.7156250000000000 0.008966 159.548808 
0.7165000000000000 0.008880 155.529564 
0.7173750000000000 0.008579 153.719786 
0.7182500000000001 0.008553 150.526528 
0.7191250000000000 0.008324 147.849532 
