!
! C:\Users\rflab\Downloads\q2\60.S1P
!
! Touchstone 1.1 file saved by VNA.EXE V1.65 (www.ke5fx.com/gpib/readme.htm)
! 11/20/2024 11:08:14 AM
!
!    Source: HEWLETT PACKARD,8753D,0,6.14
!  Min freq: 3.000000E+008 Hz
!  Max freq: 1.000000E+009 Hz
!    Points: 801
!    Params: S21
!
!!!!!
# GHZ S MA R 50
0.3000000000000000 0.000118 -38.377084 
0.3008750000000000 0.000112 -26.409306 
0.3017500000000000 0.000141 136.532982 
0.3026250000000000 0.000054 73.387527 
0.3035000000000000 0.000078 175.334538 
0.3043750000000000 0.000096 -177.102125 
0.3052500000000000 0.000058 30.704451 
0.3061250000000000 0.000024 -147.252471 
0.3070000000000000 0.000011 7.881053 
0.3078750000000000 0.000119 139.696932 
0.3087500000000000 0.000126 -98.003789 
0.3096250000000000 0.000114 142.703017 
0.3105000000000000 0.000076 129.428626 
0.3113750000000000 0.000082 18.092267 
0.3122500000000000 0.000137 -110.204733 
0.3131250000000000 0.000068 -123.673617 
0.3140000000000000 0.000142 14.191080 
0.3148750000000000 0.000055 -83.719912 
0.3157500000000000 0.000033 78.380789 
0.3166250000000000 0.000128 178.379940 
0.3175000000000000 0.000047 148.259542 
0.3183750000000000 0.000114 -161.421278 
0.3192500000000000 0.000092 -85.287516 
0.3201250000000000 0.000074 16.244207 
0.3210000000000000 0.000038 169.931048 
0.3218750000000000 0.000112 79.592401 
0.3227500000000000 0.000073 -140.383143 
0.3236250000000000 0.000110 88.273823 
0.3245000000000000 0.000044 157.446879 
0.3253750000000000 0.000085 -177.502180 
0.3262500000000000 0.000054 121.364912 
0.3271250000000000 0.000018 -45.004077 
0.3280000000000000 0.000031 41.455692 
0.3288750000000000 0.000060 -90.902783 
0.3297500000000000 0.000031 1.648975 
0.3306250000000000 0.000049 -167.747332 
0.3315000000000000 0.000110 -62.810753 
0.3323750000000000 0.000091 -174.562796 
0.3332500000000000 0.000030 -44.540167 
0.3341250000000000 0.000042 31.747960 
0.3350000000000000 0.000070 146.237806 
0.3358750000000000 0.000041 -146.696894 
0.3367500000000000 0.000024 36.941414 
0.3376250000000000 0.000060 21.550480 
0.3385000000000000 0.000017 -103.646944 
0.3393750000000000 0.000192 91.865508 
0.3402500000000000 0.000084 -172.347210 
0.3411250000000000 0.000098 -149.806322 
0.3420000000000000 0.000071 -108.986192 
0.3428750000000000 0.000017 -120.547875 
0.3437500000000000 0.000031 61.751790 
0.3446250000000000 0.000092 58.545044 
0.3455000000000000 0.000071 -112.560013 
0.3463750000000000 0.000044 -57.860712 
0.3472500000000000 0.000103 119.418913 
0.3481250000000000 0.000015 -63.982577 
0.3490000000000000 0.000058 85.096059 
0.3498750000000000 0.000063 -156.358250 
0.3507500000000000 0.000050 -152.513143 
0.3516250000000000 0.000091 107.488824 
0.3525000000000000 0.000034 113.215332 
0.3533750000000000 0.000052 12.622854 
0.3542500000000000 0.000079 -166.240712 
0.3551250000000000 0.000143 -41.898924 
0.3560000000000000 0.000115 -98.628392 
0.3568750000000000 0.000041 148.260329 
0.3577500000000000 0.000048 167.472410 
0.3586250000000000 0.000063 -113.553294 
0.3595000000000000 0.000068 -66.647433 
0.3603750000000000 0.000031 -17.202880 
0.3612500000000000 0.000011 36.383516 
0.3621250000000000 0.000036 133.159295 
0.3630000000000000 0.000112 -169.848482 
0.3638750000000000 0.000045 -11.103680 
0.3647500000000000 0.000053 -110.976226 
0.3656250000000000 0.000014 59.114728 
0.3665000000000000 0.000009 13.413520 
0.3673750000000000 0.000023 -19.360642 
0.3682500000000000 0.000065 172.855769 
0.3691250000000000 0.000060 -76.862594 
0.3700000000000000 0.000101 48.334896 
0.3708750000000000 0.000039 -74.060588 
0.3717500000000000 0.000036 103.308993 
0.3726250000000000 0.000054 -105.948651 
0.3735000000000000 0.000146 -161.157192 
0.3743750000000000 0.000080 -83.787636 
0.3752500000000000 0.000069 -36.032287 
0.3761250000000000 0.000087 29.432711 
0.3770000000000000 0.000099 -179.743823 
0.3778750000000000 0.000070 97.953726 
0.3787500000000000 0.000125 179.774646 
0.3796250000000000 0.000079 -121.885360 
0.3805000000000000 0.000014 123.906546 
0.3813750000000000 0.000027 125.507774 
0.3822500000000000 0.000095 -105.326467 
0.3831250000000000 0.000067 -9.838522 
0.3840000000000000 0.000084 101.718084 
0.3848750000000000 0.000000 -130.138979 
0.3857500000000000 0.000141 9.495631 
0.3866250000000000 0.000038 -121.314790 
0.3875000000000000 0.000019 -10.886504 
0.3883750000000000 0.000109 99.909078 
0.3892500000000000 0.000060 132.985150 
0.3901250000000000 0.000056 177.680035 
0.3910000000000000 0.000094 53.287001 
0.3918750000000000 0.000024 -143.548796 
0.3927500000000000 0.000036 -166.818984 
0.3936250000000000 0.000013 -145.174168 
0.3945000000000000 0.000095 1.019512 
0.3953750000000000 0.000071 77.177565 
0.3962500000000000 0.000069 149.575610 
0.3971250000000000 0.000060 50.917234 
0.3980000000000000 0.000113 119.122239 
0.3988750000000000 0.000105 16.905229 
0.3997500000000000 0.000148 -64.510538 
0.4006250000000000 0.000032 77.785900 
0.4015000000000000 0.000017 71.786607 
0.4023750000000000 0.000052 -166.595516 
0.4032500000000000 0.000139 -166.213246 
0.4041250000000000 0.000058 150.853262 
0.4050000000000000 0.000161 -155.554293 
0.4058750000000000 0.000043 86.471334 
0.4067500000000000 0.000031 -76.584488 
0.4076250000000000 0.000099 100.907108 
0.4085000000000000 0.000024 3.682979 
0.4093750000000000 0.000072 134.610768 
0.4102500000000000 0.000064 -77.921374 
0.4111250000000000 0.000092 105.253686 
0.4120000000000000 0.000096 2.776195 
0.4128750000000000 0.000023 -103.896375 
0.4137500000000000 0.000067 -56.283749 
0.4146250000000000 0.000053 107.659041 
0.4155000000000000 0.000157 26.337674 
0.4163750000000000 0.000118 140.253334 
0.4172500000000000 0.000116 -21.160756 
0.4181250000000000 0.000042 31.227979 
0.4190000000000000 0.000154 63.762442 
0.4198750000000000 0.000107 -178.254525 
0.4207500000000000 0.000066 90.227608 
0.4216250000000000 0.000118 -172.918501 
0.4225000000000000 0.000067 -76.728332 
0.4233750000000000 0.000082 112.498316 
0.4242500000000000 0.000092 -172.950459 
0.4251250000000000 0.000058 -161.141506 
0.4260000000000000 0.000039 8.638444 
0.4268750000000000 0.000013 143.716389 
0.4277500000000000 0.000032 119.282404 
0.4286250000000000 0.000024 118.174377 
0.4295000000000000 0.000025 115.646074 
0.4303750000000000 0.000075 -19.803284 
0.4312500000000000 0.000150 79.391213 
0.4321250000000000 0.000027 137.560696 
0.4330000000000000 0.000061 71.848054 
0.4338750000000000 0.000169 45.139316 
0.4347500000000000 0.000148 52.654153 
0.4356250000000000 0.000134 30.304888 
0.4365000000000000 0.000105 -53.696936 
0.4373750000000000 0.000042 -137.973082 
0.4382500000000000 0.000034 -42.693443 
0.4391250000000000 0.000031 175.641686 
0.4400000000000000 0.000091 49.873334 
0.4408750000000000 0.000020 13.539489 
0.4417500000000000 0.000037 -73.509610 
0.4426250000000000 0.000068 30.256438 
0.4435000000000000 0.000098 28.901325 
0.4443750000000000 0.000017 -119.191178 
0.4452500000000000 0.000051 120.179376 
0.4461250000000000 0.000099 -26.086647 
0.4470000000000000 0.000163 -77.413032 
0.4478750000000000 0.000082 87.354076 
0.4487500000000000 0.000026 126.033134 
0.4496250000000000 0.000072 -71.652750 
0.4505000000000000 0.000039 -169.363685 
0.4513750000000000 0.000121 -20.927418 
0.4522500000000000 0.000081 78.749349 
0.4531250000000000 0.000037 -65.976158 
0.4540000000000000 0.000117 25.007003 
0.4548750000000000 0.000102 -75.217976 
0.4557500000000000 0.000184 -62.339002 
0.4566250000000000 0.000116 -9.458998 
0.4575000000000000 0.000009 22.296980 
0.4583750000000000 0.000055 -36.475091 
0.4592500000000000 0.000095 103.082926 
0.4601250000000000 0.000088 56.402807 
0.4610000000000000 0.000086 -97.853141 
0.4618750000000000 0.000024 -86.421260 
0.4627500000000000 0.000044 -57.524919 
0.4636250000000000 0.000173 -20.294158 
0.4645000000000000 0.000061 -170.475467 
0.4653750000000000 0.000192 22.427602 
0.4662500000000000 0.000096 -83.834490 
0.4671250000000000 0.000089 70.159792 
0.4680000000000000 0.000108 136.837407 
0.4688750000000000 0.000117 -18.249475 
0.4697500000000000 0.000145 -31.649905 
0.4706250000000000 0.000016 21.375016 
0.4715000000000000 0.000062 -45.651514 
0.4723750000000000 0.000045 102.055865 
0.4732500000000000 0.000163 -13.646952 
0.4741250000000000 0.000106 -54.122140 
0.4750000000000000 0.000198 -56.584202 
0.4758750000000000 0.000038 -120.041713 
0.4767500000000000 0.000091 -157.703751 
0.4776250000000000 0.000031 -117.740112 
0.4785000000000000 0.000095 28.385085 
0.4793750000000000 0.000086 -21.989230 
0.4802500000000000 0.000155 -101.350367 
0.4811250000000000 0.000067 -84.933675 
0.4820000000000000 0.000125 -7.607740 
0.4828750000000000 0.000027 5.751974 
0.4837500000000000 0.000170 -87.679246 
0.4846250000000000 0.000052 61.015180 
0.4855000000000000 0.000103 -58.702158 
0.4863750000000000 0.000033 -175.971104 
0.4872500000000000 0.000084 157.612971 
0.4881250000000000 0.000091 -147.091292 
0.4890000000000000 0.000100 -67.597736 
0.4898750000000000 0.000051 -136.454253 
0.4907500000000000 0.000041 -37.199219 
0.4916250000000000 0.000141 85.699969 
0.4925000000000000 0.000199 -121.510110 
0.4933750000000000 0.000191 -120.740374 
0.4942500000000000 0.000107 -115.777474 
0.4951250000000000 0.000168 -71.238811 
0.4960000000000000 0.000064 -100.833858 
0.4968750000000000 0.000097 -125.562146 
0.4977500000000000 0.000133 -92.774756 
0.4986250000000000 0.000061 -74.998239 
0.4995000000000000 0.000075 -95.574689 
0.5003750000000000 0.000082 -153.678241 
0.5012500000000000 0.000072 -95.407523 
0.5021250000000000 0.000089 -79.892675 
0.5030000000000000 0.000087 19.865886 
0.5038750000000000 0.000159 -120.614883 
0.5047500000000000 0.000086 -120.114459 
0.5056250000000000 0.000048 -107.973985 
0.5065000000000000 0.000137 -140.326380 
0.5073750000000000 0.000186 -144.157159 
0.5082500000000000 0.000095 -120.272550 
0.5091250000000001 0.000155 -136.809860 
0.5100000000000000 0.000087 -153.589025 
0.5108750000000000 0.000100 153.398728 
0.5117500000000000 0.000208 -112.513714 
0.5126250000000000 0.000145 -146.972790 
0.5135000000000000 0.000089 -106.059289 
0.5143750000000000 0.000122 -106.231542 
0.5152500000000000 0.000225 -154.341205 
0.5161249999999999 0.000196 -123.402633 
0.5170000000000000 0.000155 170.882662 
0.5178750000000000 0.000097 159.166246 
0.5187500000000000 0.000164 -152.325444 
0.5196250000000000 0.000187 -171.580987 
0.5205000000000000 0.000158 133.568867 
0.5213750000000000 0.000236 -172.910875 
0.5222500000000000 0.000065 -109.722977 
0.5231250000000000 0.000205 -149.872475 
0.5240000000000000 0.000074 171.428903 
0.5248750000000000 0.000222 165.627462 
0.5257500000000001 0.000216 163.966028 
0.5266250000000000 0.000168 174.322375 
0.5275000000000000 0.000199 142.670027 
0.5283750000000000 0.000216 179.314092 
0.5292500000000000 0.000303 135.436505 
0.5301250000000000 0.000215 -176.807591 
0.5310000000000000 0.000182 -174.251916 
0.5318750000000000 0.000155 151.845847 
0.5327500000000000 0.000287 156.512805 
0.5336250000000000 0.000357 152.762664 
0.5345000000000000 0.000338 166.075295 
0.5353750000000001 0.000249 155.873426 
0.5362500000000000 0.000300 160.204663 
0.5371250000000000 0.000189 159.842560 
0.5380000000000000 0.000265 145.053383 
0.5388750000000000 0.000172 144.768597 
0.5397500000000000 0.000387 140.120723 
0.5406250000000000 0.000143 105.719762 
0.5415000000000000 0.000266 144.160331 
0.5423750000000001 0.000394 144.292263 
0.5432500000000000 0.000418 137.036915 
0.5441250000000000 0.000427 130.314418 
0.5450000000000000 0.000425 128.945297 
0.5458750000000000 0.000258 106.403530 
0.5467500000000000 0.000393 125.900490 
0.5476250000000000 0.000452 135.923658 
0.5485000000000000 0.000437 122.895990 
0.5493750000000000 0.000356 118.340111 
0.5502500000000000 0.000349 116.819899 
0.5511250000000000 0.000510 107.279827 
0.5520000000000001 0.000411 98.192700 
0.5528750000000000 0.000358 113.857367 
0.5537500000000000 0.000432 91.170390 
0.5546250000000000 0.000365 98.709496 
0.5555000000000000 0.000457 113.088157 
0.5563750000000000 0.000422 98.357356 
0.5572500000000000 0.000562 93.847432 
0.5581250000000000 0.000439 86.773209 
0.5590000000000001 0.000459 90.463343 
0.5598750000000000 0.000545 90.602068 
0.5607500000000000 0.000650 77.446976 
0.5616250000000000 0.000593 67.465477 
0.5625000000000000 0.000521 81.644037 
0.5633750000000000 0.000667 74.134397 
0.5642500000000000 0.000711 65.081619 
0.5651250000000000 0.000625 58.818716 
0.5660000000000000 0.000641 69.330516 
0.5668750000000000 0.000552 62.016340 
0.5677500000000000 0.000602 51.862511 
0.5686250000000001 0.000626 57.092058 
0.5695000000000000 0.000616 58.381595 
0.5703750000000000 0.000681 57.842910 
0.5712500000000000 0.000697 47.187147 
0.5721250000000000 0.000745 48.662689 
0.5730000000000000 0.000740 51.369030 
0.5738750000000000 0.000811 44.624783 
0.5747500000000000 0.000622 48.337050 
0.5756250000000001 0.000627 32.546977 
0.5765000000000000 0.000729 36.648329 
0.5773750000000000 0.000805 39.534207 
0.5782500000000000 0.000708 30.444398 
0.5791250000000000 0.000717 24.515272 
0.5800000000000000 0.000801 21.716301 
0.5808750000000000 0.000770 26.696041 
0.5817500000000000 0.000968 16.288007 
0.5826250000000000 0.000867 14.556615 
0.5835000000000000 0.000965 19.215049 
0.5843750000000000 0.000936 12.782510 
0.5852500000000001 0.001046 12.036360 
0.5861250000000000 0.001074 3.874387 
0.5870000000000000 0.000790 12.187112 
0.5878750000000000 0.001044 4.753314 
0.5887500000000000 0.000966 8.461925 
0.5896250000000000 0.001172 1.491726 
0.5905000000000000 0.001138 -5.478190 
0.5913750000000000 0.001122 -1.074893 
0.5922500000000001 0.000975 -17.588348 
0.5931250000000000 0.001213 -11.484405 
0.5940000000000000 0.001189 -7.267489 
0.5948750000000000 0.001215 -14.329258 
0.5957500000000000 0.001383 -12.508192 
0.5966250000000000 0.001368 -16.103500 
0.5975000000000000 0.001322 -25.210481 
0.5983750000000000 0.001359 -23.720046 
0.5992500000000000 0.001419 -28.459860 
0.6001250000000000 0.001481 -23.061771 
0.6010000000000000 0.001492 -31.822689 
0.6018750000000001 0.001540 -38.241158 
0.6027500000000000 0.001591 -38.461728 
0.6036250000000000 0.001588 -38.537543 
0.6045000000000000 0.001637 -50.481868 
0.6053750000000000 0.001733 -46.014540 
0.6062500000000000 0.001717 -50.492933 
0.6071250000000000 0.001754 -52.942780 
0.6080000000000000 0.001871 -57.477142 
0.6088750000000001 0.001982 -56.784488 
0.6097500000000000 0.001979 -62.719470 
0.6106250000000000 0.002001 -63.763977 
0.6115000000000000 0.002032 -67.826621 
0.6123750000000000 0.002098 -70.829962 
0.6132500000000000 0.002186 -76.704902 
0.6141250000000000 0.002216 -76.243374 
0.6150000000000000 0.002422 -79.855799 
0.6158750000000000 0.002432 -81.526730 
0.6167500000000000 0.002417 -85.652650 
0.6176250000000000 0.002612 -86.580402 
0.6185000000000001 0.002814 -92.621957 
0.6193750000000000 0.002699 -94.610242 
0.6202500000000000 0.002835 -98.155310 
0.6211250000000000 0.002922 -100.869809 
0.6220000000000000 0.002947 -105.156538 
0.6228750000000000 0.003186 -106.041386 
0.6237500000000000 0.003190 -111.227230 
0.6246250000000000 0.003285 -113.625094 
0.6254999999999999 0.003199 -116.509672 
0.6263750000000000 0.003294 -120.234045 
0.6272500000000000 0.003546 -124.587697 
0.6281250000000000 0.003434 -127.087106 
0.6290000000000000 0.003706 -130.319464 
0.6298750000000000 0.003752 -132.461021 
0.6307500000000000 0.003906 -136.938971 
0.6316250000000000 0.003986 -139.292769 
0.6325000000000000 0.003945 -144.705031 
0.6333750000000000 0.004199 -148.354985 
0.6342500000000000 0.004353 -149.965150 
0.6351250000000001 0.004478 -154.980893 
0.6360000000000000 0.004540 -159.240071 
0.6368750000000000 0.004688 -161.508842 
0.6377500000000000 0.004798 -164.055385 
0.6386250000000000 0.004934 -167.136956 
0.6395000000000000 0.005019 -171.129677 
0.6403750000000000 0.005234 -174.277460 
0.6412500000000000 0.005416 -178.034974 
0.6421250000000000 0.005589 178.293688 
0.6430000000000000 0.005726 176.562795 
0.6438750000000000 0.005899 173.357268 
0.6447500000000001 0.006146 169.073253 
0.6456250000000000 0.006184 164.794668 
0.6465000000000000 0.006371 162.131902 
0.6473750000000000 0.006658 158.801335 
0.6482500000000000 0.006723 154.636330 
0.6491250000000000 0.007084 152.274151 
0.6500000000000000 0.007381 147.497859 
0.6508750000000000 0.007601 143.554268 
0.6517500000000001 0.007772 140.946296 
0.6526250000000000 0.008096 136.930693 
0.6535000000000000 0.008399 133.291883 
0.6543750000000000 0.008650 130.103832 
0.6552500000000000 0.008976 125.985636 
0.6561250000000000 0.009226 121.867272 
0.6570000000000000 0.009493 118.199790 
0.6578750000000000 0.009889 114.958645 
0.6587500000000000 0.010154 111.121357 
0.6596250000000000 0.010768 106.383821 
0.6605000000000000 0.011188 102.069002 
0.6613750000000001 0.011469 98.735838 
0.6622500000000000 0.011962 94.705789 
0.6631250000000000 0.012594 90.668167 
0.6640000000000000 0.013219 86.196371 
0.6648750000000000 0.013657 81.620379 
0.6657500000000000 0.014219 76.316988 
0.6666250000000000 0.014858 71.842991 
0.6675000000000000 0.015538 67.049843 
0.6683750000000001 0.015992 61.920477 
0.6692500000000000 0.016851 56.598626 
0.6701250000000000 0.017311 51.736061 
0.6710000000000000 0.018377 45.801067 
0.6718750000000000 0.019077 39.996999 
0.6727500000000000 0.019820 34.611472 
0.6736250000000000 0.020516 27.765731 
0.6745000000000000 0.021102 21.409526 
0.6753750000000000 0.021791 14.958874 
0.6762500000000000 0.022416 8.282470 
0.6771250000000000 0.022850 0.741329 
0.6780000000000001 0.023439 -6.009371 
0.6788750000000000 0.023455 -13.283607 
0.6797500000000000 0.023511 -20.736658 
0.6806250000000000 0.023488 -28.124764 
0.6815000000000000 0.023400 -35.485008 
0.6823750000000000 0.022922 -42.303684 
0.6832500000000000 0.022504 -49.346290 
0.6841250000000000 0.021972 -55.824370 
0.6850000000000001 0.021444 -62.620153 
0.6858750000000000 0.020674 -69.141427 
0.6867500000000000 0.020079 -75.023185 
0.6876250000000000 0.019421 -80.862393 
0.6885000000000000 0.018742 -86.592798 
0.6893750000000000 0.018066 -91.606257 
0.6902500000000000 0.017385 -96.678255 
0.6911250000000000 0.016552 -102.183990 
0.6920000000000000 0.015896 -106.816135 
0.6928750000000000 0.015460 -111.152970 
0.6937500000000000 0.014869 -116.078579 
0.6946250000000001 0.014366 -120.163358 
0.6955000000000000 0.013859 -124.795640 
0.6963750000000000 0.013447 -128.512574 
0.6972500000000000 0.012816 -132.925323 
0.6981250000000000 0.012459 -136.693436 
0.6990000000000000 0.012237 -140.705568 
0.6998750000000000 0.011608 -144.722239 
0.7007500000000000 0.011330 -148.359639 
0.7016250000000001 0.010863 -152.213344 
0.7025000000000000 0.010560 -155.367615 
0.7033750000000000 0.010342 -159.887340 
0.7042500000000000 0.009949 -162.258884 
0.7051250000000000 0.009634 -165.138366 
0.7060000000000000 0.009394 -169.272433 
0.7068750000000000 0.009145 -172.597055 
0.7077500000000000 0.008860 -176.525615 
0.7086250000000000 0.008783 -179.570710 
0.7095000000000000 0.008460 176.577972 
0.7103750000000000 0.008133 175.163827 
0.7112500000000001 0.007910 170.856241 
0.7121250000000000 0.007834 167.849464 
0.7130000000000000 0.007604 165.065341 
0.7138750000000000 0.007521 161.717829 
0.7147500000000000 0.007331 159.372418 
0.7156250000000000 0.007045 156.440899 
0.7165000000000000 0.006838 153.369734 
0.7173750000000000 0.006854 150.821702 
0.7182500000000001 0.006534 147.355468 
0.7191250000000000 0.006554 143.998066 
