!
! C:\Users\rflab\Downloads\q2\80.S1P
!
! Touchstone 1.1 file saved by VNA.EXE V1.65 (www.ke5fx.com/gpib/readme.htm)
! 11/20/2024 11:08:46 AM
!
!    Source: HEWLETT PACKARD,8753D,0,6.14
!  Min freq: 3.000000E+008 Hz
!  Max freq: 1.000000E+009 Hz
!    Points: 801
!    Params: S21
!
!!!!!
# GHZ S MA R 50
0.3000000000000000 0.000044 -161.450622 
0.3008750000000000 0.000011 -85.200835 
0.3017500000000000 0.000155 165.386183 
0.3026250000000000 0.000053 82.027913 
0.3035000000000000 0.000073 -107.723066 
0.3043750000000000 0.000099 61.314137 
0.3052500000000000 0.000058 120.298783 
0.3061250000000000 0.000052 137.303211 
0.3070000000000000 0.000057 94.578566 
0.3078750000000000 0.000080 -90.174289 
0.3087500000000000 0.000049 141.246816 
0.3096250000000000 0.000055 -95.101610 
0.3105000000000000 0.000066 -106.371641 
0.3113750000000000 0.000060 34.135192 
0.3122500000000000 0.000090 -9.714625 
0.3131250000000000 0.000094 -105.230126 
0.3140000000000000 0.000087 -77.486094 
0.3148750000000000 0.000096 176.157236 
0.3157500000000000 0.000041 179.792691 
0.3166250000000000 0.000143 67.230801 
0.3175000000000000 0.000082 -71.816978 
0.3183750000000000 0.000109 121.068638 
0.3192500000000000 0.000042 11.864079 
0.3201250000000000 0.000049 -139.266648 
0.3210000000000000 0.000095 -58.628161 
0.3218750000000000 0.000058 62.582342 
0.3227500000000000 0.000042 103.768026 
0.3236250000000000 0.000072 66.272205 
0.3245000000000000 0.000049 33.538691 
0.3253750000000000 0.000037 -109.096852 
0.3262500000000000 0.000045 -27.456012 
0.3271250000000000 0.000037 -119.991073 
0.3280000000000000 0.000043 72.828179 
0.3288750000000000 0.000068 109.581595 
0.3297500000000000 0.000138 94.448033 
0.3306250000000000 0.000104 -100.874975 
0.3315000000000000 0.000081 -152.310861 
0.3323750000000000 0.000051 -48.969843 
0.3332500000000000 0.000063 87.024031 
0.3341250000000000 0.000036 60.407521 
0.3350000000000000 0.000048 -114.105521 
0.3358750000000000 0.000071 -55.220963 
0.3367500000000000 0.000145 -161.714582 
0.3376250000000000 0.000104 -89.731318 
0.3385000000000000 0.000042 -104.969102 
0.3393750000000000 0.000025 -80.217384 
0.3402500000000000 0.000079 82.648749 
0.3411250000000000 0.000086 -12.832346 
0.3420000000000000 0.000112 1.763118 
0.3428750000000000 0.000057 137.956344 
0.3437500000000000 0.000068 -160.812378 
0.3446250000000000 0.000052 75.015036 
0.3455000000000000 0.000060 175.443862 
0.3463750000000000 0.000080 -55.622091 
0.3472500000000000 0.000060 -131.922764 
0.3481250000000000 0.000071 103.765776 
0.3490000000000000 0.000072 95.354345 
0.3498750000000000 0.000030 -29.289640 
0.3507500000000000 0.000099 -169.694574 
0.3516250000000000 0.000085 95.201745 
0.3525000000000000 0.000139 11.294823 
0.3533750000000000 0.000155 1.061075 
0.3542500000000000 0.000037 -57.469138 
0.3551250000000000 0.000051 153.186775 
0.3560000000000000 0.000121 -63.084174 
0.3568750000000000 0.000067 -81.041992 
0.3577500000000000 0.000106 -120.822052 
0.3586250000000000 0.000073 -164.537459 
0.3595000000000000 0.000022 -136.928627 
0.3603750000000000 0.000114 -106.193389 
0.3612500000000000 0.000130 -150.363385 
0.3621250000000000 0.000089 -39.651229 
0.3630000000000000 0.000113 -177.273509 
0.3638750000000000 0.000017 18.984017 
0.3647500000000000 0.000041 -49.611687 
0.3656250000000000 0.000172 158.631477 
0.3665000000000000 0.000057 -50.833659 
0.3673750000000000 0.000048 137.576474 
0.3682500000000000 0.000036 27.587524 
0.3691250000000000 0.000084 12.023101 
0.3700000000000000 0.000020 -10.237605 
0.3708750000000000 0.000009 175.133307 
0.3717500000000000 0.000055 63.331459 
0.3726250000000000 0.000027 -139.279315 
0.3735000000000000 0.000022 -58.163962 
0.3743750000000000 0.000067 152.122813 
0.3752500000000000 0.000043 -75.622825 
0.3761250000000000 0.000034 123.914542 
0.3770000000000000 0.000088 -68.095798 
0.3778750000000000 0.000117 -93.628832 
0.3787500000000000 0.000086 -137.929346 
0.3796250000000000 0.000054 -23.582972 
0.3805000000000000 0.000030 -6.813321 
0.3813750000000000 0.000023 -149.435031 
0.3822500000000000 0.000075 44.961748 
0.3831250000000000 0.000073 9.851467 
0.3840000000000000 0.000122 -46.440947 
0.3848750000000000 0.000106 131.438184 
0.3857500000000000 0.000083 -13.463525 
0.3866250000000000 0.000084 -160.909916 
0.3875000000000000 0.000076 45.936518 
0.3883750000000000 0.000049 158.623439 
0.3892500000000000 0.000076 -0.820295 
0.3901250000000000 0.000081 -107.078195 
0.3910000000000000 0.000073 -22.234601 
0.3918750000000000 0.000068 -151.147160 
0.3927500000000000 0.000082 47.101993 
0.3936250000000000 0.000009 162.614103 
0.3945000000000000 0.000108 154.665430 
0.3953750000000000 0.000053 -9.326926 
0.3962500000000000 0.000082 66.167319 
0.3971250000000000 0.000118 -61.151019 
0.3980000000000000 0.000007 -169.820518 
0.3988750000000000 0.000042 -86.440368 
0.3997500000000000 0.000061 77.564329 
0.4006250000000000 0.000116 104.198103 
0.4015000000000000 0.000022 31.962757 
0.4023750000000000 0.000072 -6.271272 
0.4032500000000000 0.000060 94.310679 
0.4041250000000000 0.000052 -177.678827 
0.4050000000000000 0.000038 20.708931 
0.4058750000000000 0.000115 -122.047592 
0.4067500000000000 0.000045 23.716662 
0.4076250000000000 0.000080 56.294409 
0.4085000000000000 0.000072 91.854917 
0.4093750000000000 0.000050 145.153149 
0.4102500000000000 0.000037 18.520608 
0.4111250000000000 0.000026 -175.377082 
0.4120000000000000 0.000036 30.186750 
0.4128750000000000 0.000037 -88.927013 
0.4137500000000000 0.000138 81.247972 
0.4146250000000000 0.000041 83.399736 
0.4155000000000000 0.000180 -115.978327 
0.4163750000000000 0.000127 40.967863 
0.4172500000000000 0.000082 -111.427802 
0.4181250000000000 0.000086 -16.667447 
0.4190000000000000 0.000071 93.441762 
0.4198750000000000 0.000061 -178.151718 
0.4207500000000000 0.000091 102.804372 
0.4216250000000000 0.000111 55.621488 
0.4225000000000000 0.000147 106.757874 
0.4233750000000000 0.000040 1.610161 
0.4242500000000000 0.000137 -98.932389 
0.4251250000000000 0.000071 -93.101738 
0.4260000000000000 0.000070 144.906228 
0.4268750000000000 0.000031 6.587377 
0.4277500000000000 0.000067 -41.502237 
0.4286250000000000 0.000059 174.085020 
0.4295000000000000 0.000053 52.493389 
0.4303750000000000 0.000025 53.233252 
0.4312500000000000 0.000055 -86.805130 
0.4321250000000000 0.000041 135.233919 
0.4330000000000000 0.000058 47.927994 
0.4338750000000000 0.000093 17.567451 
0.4347500000000000 0.000072 -165.133629 
0.4356250000000000 0.000074 119.680081 
0.4365000000000000 0.000028 -53.835395 
0.4373750000000000 0.000011 -141.570640 
0.4382500000000000 0.000092 -131.429390 
0.4391250000000000 0.000043 174.071014 
0.4400000000000000 0.000145 19.228418 
0.4408750000000000 0.000094 133.682605 
0.4417500000000000 0.000034 62.231311 
0.4426250000000000 0.000017 76.769466 
0.4435000000000000 0.000167 82.970943 
0.4443750000000000 0.000181 115.707203 
0.4452500000000000 0.000022 -128.887883 
0.4461250000000000 0.000155 55.021053 
0.4470000000000000 0.000095 126.871236 
0.4478750000000000 0.000109 -10.412127 
0.4487500000000000 0.000056 77.868663 
0.4496250000000000 0.000030 40.227299 
0.4505000000000000 0.000084 42.469586 
0.4513750000000000 0.000027 -67.055423 
0.4522500000000000 0.000046 140.980901 
0.4531250000000000 0.000071 48.236727 
0.4540000000000000 0.000144 30.629843 
0.4548750000000000 0.000030 158.457857 
0.4557500000000000 0.000122 150.445484 
0.4566250000000000 0.000140 50.639133 
0.4575000000000000 0.000060 -132.352187 
0.4583750000000000 0.000053 15.766042 
0.4592500000000000 0.000085 20.570210 
0.4601250000000000 0.000087 -14.448868 
0.4610000000000000 0.000149 95.049751 
0.4618750000000000 0.000127 59.429167 
0.4627500000000000 0.000084 -43.121266 
0.4636250000000000 0.000077 95.009358 
0.4645000000000000 0.000020 -33.341685 
0.4653750000000000 0.000086 173.260971 
0.4662500000000000 0.000104 41.940812 
0.4671250000000000 0.000099 50.658669 
0.4680000000000000 0.000052 -83.014834 
0.4688750000000000 0.000057 26.054012 
0.4697500000000000 0.000000 135.574638 
0.4706250000000000 0.000039 111.899773 
0.4715000000000000 0.000020 57.117206 
0.4723750000000000 0.000070 179.583489 
0.4732500000000000 0.000046 -121.999192 
0.4741250000000000 0.000099 -55.295183 
0.4750000000000000 0.000134 -16.485415 
0.4758750000000000 0.000105 170.839915 
0.4767500000000000 0.000086 -135.548874 
0.4776250000000000 0.000160 -171.128998 
0.4785000000000000 0.000060 158.974159 
0.4793750000000000 0.000122 -36.231960 
0.4802500000000000 0.000102 -49.895386 
0.4811250000000000 0.000135 59.846755 
0.4820000000000000 0.000075 -57.064384 
0.4828750000000000 0.000008 35.836701 
0.4837500000000000 0.000082 94.283497 
0.4846250000000000 0.000041 153.621242 
0.4855000000000000 0.000081 60.911973 
0.4863750000000000 0.000042 -130.089323 
0.4872500000000000 0.000036 106.370047 
0.4881250000000000 0.000076 -4.401707 
0.4890000000000000 0.000134 -152.522747 
0.4898750000000000 0.000073 22.103970 
0.4907500000000000 0.000050 121.427933 
0.4916250000000000 0.000052 -48.297646 
0.4925000000000000 0.000119 -32.140639 
0.4933750000000000 0.000044 145.936982 
0.4942500000000000 0.000087 41.147687 
0.4951250000000000 0.000067 -120.586044 
0.4960000000000000 0.000100 48.065203 
0.4968750000000000 0.000151 -96.661322 
0.4977500000000000 0.000017 -116.327356 
0.4986250000000000 0.000043 -86.688625 
0.4995000000000000 0.000123 -38.316593 
0.5003750000000000 0.000073 -80.563480 
0.5012500000000000 0.000126 -95.117770 
0.5021250000000000 0.000062 -74.470764 
0.5030000000000000 0.000082 -178.173812 
0.5038750000000000 0.000051 -53.384449 
0.5047500000000000 0.000051 -142.825244 
0.5056250000000000 0.000083 -90.123393 
0.5065000000000000 0.000102 30.057153 
0.5073750000000000 0.000076 -9.340026 
0.5082500000000000 0.000072 31.488288 
0.5091250000000001 0.000206 -138.387837 
0.5100000000000000 0.000176 -149.307164 
0.5108750000000000 0.000035 128.556758 
0.5117500000000000 0.000097 118.004398 
0.5126250000000000 0.000044 176.654017 
0.5135000000000000 0.000144 -81.648613 
0.5143750000000000 0.000061 -155.854900 
0.5152500000000000 0.000150 -122.094882 
0.5161249999999999 0.000104 -79.709439 
0.5170000000000000 0.000031 87.882870 
0.5178750000000000 0.000059 166.803734 
0.5187500000000000 0.000172 -156.411048 
0.5196250000000000 0.000075 -107.040733 
0.5205000000000000 0.000141 161.646595 
0.5213750000000000 0.000156 -138.944977 
0.5222500000000000 0.000128 130.042192 
0.5231250000000000 0.000090 -168.917914 
0.5240000000000000 0.000141 -179.292381 
0.5248750000000000 0.000172 178.341423 
0.5257500000000001 0.000146 150.240943 
0.5266250000000000 0.000181 155.685254 
0.5275000000000000 0.000123 131.071527 
0.5283750000000000 0.000171 -154.782640 
0.5292500000000000 0.000132 -132.996313 
0.5301250000000000 0.000037 -156.815980 
0.5310000000000000 0.000177 176.967722 
0.5318750000000000 0.000212 -151.783333 
0.5327500000000000 0.000192 -167.542716 
0.5336250000000000 0.000182 151.349002 
0.5345000000000000 0.000156 156.163243 
0.5353750000000001 0.000218 165.460217 
0.5362500000000000 0.000140 177.094374 
0.5371250000000000 0.000199 149.191234 
0.5380000000000000 0.000100 167.403290 
0.5388750000000000 0.000199 112.557912 
0.5397500000000000 0.000128 -167.502317 
0.5406250000000000 0.000181 169.969710 
0.5415000000000000 0.000206 135.180314 
0.5423750000000001 0.000200 115.678215 
0.5432500000000000 0.000183 156.216044 
0.5441250000000000 0.000246 167.809868 
0.5450000000000000 0.000245 157.592052 
0.5458750000000000 0.000242 131.376827 
0.5467500000000000 0.000192 171.273983 
0.5476250000000000 0.000286 139.241479 
0.5485000000000000 0.000271 139.096088 
0.5493750000000000 0.000225 159.168900 
0.5502500000000000 0.000278 122.197024 
0.5511250000000000 0.000341 145.372168 
0.5520000000000001 0.000313 118.308166 
0.5528750000000000 0.000264 121.564656 
0.5537500000000000 0.000293 68.744508 
0.5546250000000000 0.000380 101.465001 
0.5555000000000000 0.000244 118.093135 
0.5563750000000000 0.000412 106.966085 
0.5572500000000000 0.000396 92.691825 
0.5581250000000000 0.000201 88.739149 
0.5590000000000001 0.000234 108.473589 
0.5598750000000000 0.000184 122.338142 
0.5607500000000000 0.000437 103.949497 
0.5616250000000000 0.000352 93.193283 
0.5625000000000000 0.000375 88.785096 
0.5633750000000000 0.000313 68.305903 
0.5642500000000000 0.000418 84.367027 
0.5651250000000000 0.000446 90.392038 
0.5660000000000000 0.000285 80.017336 
0.5668750000000000 0.000448 73.615613 
0.5677500000000000 0.000407 95.523429 
0.5686250000000001 0.000333 74.538627 
0.5695000000000000 0.000327 57.468885 
0.5703750000000000 0.000460 67.886577 
0.5712500000000000 0.000465 71.270269 
0.5721250000000000 0.000568 77.221204 
0.5730000000000000 0.000409 60.440514 
0.5738750000000000 0.000406 52.380082 
0.5747500000000000 0.000340 58.524347 
0.5756250000000001 0.000395 46.286199 
0.5765000000000000 0.000472 71.334589 
0.5773750000000000 0.000414 54.655246 
0.5782500000000000 0.000531 53.480428 
0.5791250000000000 0.000594 60.857146 
0.5800000000000000 0.000596 50.819063 
0.5808750000000000 0.000487 30.259717 
0.5817500000000000 0.000584 48.144184 
0.5826250000000000 0.000534 33.779587 
0.5835000000000000 0.000527 28.856642 
0.5843750000000000 0.000547 26.315231 
0.5852500000000001 0.000671 17.274803 
0.5861250000000000 0.000674 32.030095 
0.5870000000000000 0.000515 37.211196 
0.5878750000000000 0.000504 18.844955 
0.5887500000000000 0.000741 16.035341 
0.5896250000000000 0.000616 20.678979 
0.5905000000000000 0.000679 0.983597 
0.5913750000000000 0.000816 2.582803 
0.5922500000000001 0.000725 13.371334 
0.5931250000000000 0.000773 4.501702 
0.5940000000000000 0.000860 7.932504 
0.5948750000000000 0.000869 -1.793104 
0.5957500000000000 0.000777 -2.715967 
0.5966250000000000 0.000860 1.171491 
0.5975000000000000 0.000742 0.193201 
0.5983750000000000 0.000930 -6.372646 
0.5992500000000000 0.000923 -5.299901 
0.6001250000000000 0.000975 -15.619027 
0.6010000000000000 0.000911 -17.080392 
0.6018750000000001 0.001184 -16.147909 
0.6027500000000000 0.000995 -22.382935 
0.6036250000000000 0.001130 -25.166548 
0.6045000000000000 0.001074 -32.099394 
0.6053750000000000 0.001156 -35.965253 
0.6062500000000000 0.001218 -33.281856 
0.6071250000000000 0.001273 -35.475289 
0.6080000000000000 0.001354 -42.842081 
0.6088750000000001 0.001261 -39.866624 
0.6097500000000000 0.001385 -45.845676 
0.6106250000000000 0.001313 -53.031287 
0.6115000000000000 0.001360 -53.988686 
0.6123750000000000 0.001489 -55.337646 
0.6132500000000000 0.001426 -58.480838 
0.6141250000000000 0.001464 -58.830579 
0.6150000000000000 0.001560 -67.122261 
0.6158750000000000 0.001551 -71.324888 
0.6167500000000000 0.001792 -71.713278 
0.6176250000000000 0.001677 -69.240942 
0.6185000000000001 0.001752 -79.108286 
0.6193750000000000 0.001790 -85.511740 
0.6202500000000000 0.001852 -84.505134 
0.6211250000000000 0.001936 -88.183207 
0.6220000000000000 0.001978 -95.280403 
0.6228750000000000 0.002251 -94.659823 
0.6237500000000000 0.002115 -97.203922 
0.6246250000000000 0.002291 -101.380096 
0.6254999999999999 0.002322 -106.166425 
0.6263750000000000 0.002151 -110.502902 
0.6272500000000000 0.002237 -112.275351 
0.6281250000000000 0.002367 -116.965050 
0.6290000000000000 0.002519 -119.244480 
0.6298750000000000 0.002493 -123.115541 
0.6307500000000000 0.002629 -127.152587 
0.6316250000000000 0.002690 -131.597702 
0.6325000000000000 0.002641 -135.354786 
0.6333750000000000 0.002831 -134.785032 
0.6342500000000000 0.002884 -142.462306 
0.6351250000000001 0.003008 -143.764958 
0.6360000000000000 0.003136 -148.543174 
0.6368750000000000 0.003100 -150.950972 
0.6377500000000000 0.003347 -153.854763 
0.6386250000000000 0.003443 -157.422857 
0.6395000000000000 0.003367 -161.508596 
0.6403750000000000 0.003504 -163.496053 
0.6412500000000000 0.003688 -171.408986 
0.6421250000000000 0.003847 -173.345340 
0.6430000000000000 0.003957 -173.213720 
0.6438750000000000 0.004062 -179.909209 
0.6447500000000001 0.004233 179.344943 
0.6456250000000000 0.004260 174.050083 
0.6465000000000000 0.004384 171.294350 
0.6473750000000000 0.004625 166.497486 
0.6482500000000000 0.004792 163.581180 
0.6491250000000000 0.004969 159.308497 
0.6500000000000000 0.005086 155.743227 
0.6508750000000000 0.005307 151.831220 
0.6517500000000001 0.005312 147.248548 
0.6526250000000000 0.005651 143.196826 
0.6535000000000000 0.005758 139.165578 
0.6543750000000000 0.005896 137.678150 
0.6552500000000000 0.006121 132.182119 
0.6561250000000000 0.006407 128.480664 
0.6570000000000000 0.006667 126.239629 
0.6578750000000000 0.006967 120.741504 
0.6587500000000000 0.007112 117.234217 
0.6596250000000000 0.007363 113.575200 
0.6605000000000000 0.007680 109.618409 
0.6613750000000001 0.007944 104.640984 
0.6622500000000000 0.008249 100.770822 
0.6631250000000000 0.008657 96.385151 
0.6640000000000000 0.008913 91.903842 
0.6648750000000000 0.009355 86.329487 
0.6657500000000000 0.009725 82.905297 
0.6666250000000000 0.010233 77.644939 
0.6675000000000000 0.010595 72.736891 
0.6683750000000001 0.011180 66.903774 
0.6692500000000000 0.011616 62.027397 
0.6701250000000000 0.012165 56.501777 
0.6710000000000000 0.012726 51.587629 
0.6718750000000000 0.013090 45.082644 
0.6727500000000000 0.013595 38.823630 
0.6736250000000000 0.014173 32.195004 
0.6745000000000000 0.014617 26.416261 
0.6753750000000000 0.015031 18.814307 
0.6762500000000000 0.015340 11.587968 
0.6771250000000000 0.015806 5.439177 
0.6780000000000001 0.015923 -2.183079 
0.6788750000000000 0.016363 -9.561689 
0.6797500000000000 0.016214 -16.701830 
0.6806250000000000 0.016203 -24.798692 
0.6815000000000000 0.016068 -31.538224 
0.6823750000000000 0.015837 -38.665738 
0.6832500000000000 0.015595 -45.688781 
0.6841250000000000 0.015167 -52.286329 
0.6850000000000001 0.014714 -59.499904 
0.6858750000000000 0.014279 -65.454698 
0.6867500000000000 0.013740 -71.548073 
0.6876250000000000 0.013316 -77.446263 
0.6885000000000000 0.012835 -83.879127 
0.6893750000000000 0.012238 -88.479527 
0.6902500000000000 0.011915 -94.524274 
0.6911250000000000 0.011459 -99.555219 
0.6920000000000000 0.010952 -104.805270 
0.6928750000000000 0.010607 -108.485452 
0.6937500000000000 0.010196 -113.225685 
0.6946250000000001 0.009879 -118.314054 
0.6955000000000000 0.009517 -122.169999 
0.6963750000000000 0.009185 -127.463039 
0.6972500000000000 0.008743 -130.707046 
0.6981250000000000 0.008514 -134.437270 
0.6990000000000000 0.008286 -138.202719 
0.6998750000000000 0.007906 -142.084405 
0.7007500000000000 0.007690 -146.707016 
0.7016250000000001 0.007503 -150.022967 
0.7025000000000000 0.007045 -155.082672 
0.7033750000000000 0.007060 -157.741532 
0.7042500000000000 0.006716 -161.719414 
0.7051250000000000 0.006507 -165.623615 
0.7060000000000000 0.006372 -168.780875 
0.7068750000000000 0.006212 -172.381814 
0.7077500000000000 0.005870 -174.934094 
0.7086250000000000 0.005869 -178.801226 
0.7095000000000000 0.005746 178.939657 
0.7103750000000000 0.005424 175.860731 
0.7112500000000001 0.005300 171.913274 
0.7121250000000000 0.005147 169.536360 
0.7130000000000000 0.005187 165.491127 
0.7138750000000000 0.004935 161.103710 
0.7147500000000000 0.004779 159.316489 
0.7156250000000000 0.004679 157.735621 
0.7165000000000000 0.004519 152.661608 
0.7173750000000000 0.004403 149.152228 
0.7182500000000001 0.004381 147.815792 
0.7191250000000000 0.004210 142.410039 
0.7200000000000000 0.004220 139.808791 
