!
! C:\Users\rflab\Downloads\q2\90.S1P
!
! Touchstone 1.1 file saved by VNA.EXE V1.65 (www.ke5fx.com/gpib/readme.htm)
! 11/20/2024 11:09:31 AM
!
!    Source: HEWLETT PACKARD,8753D,0,6.14
!  Min freq: 3.000000E+008 Hz
!  Max freq: 1.000000E+009 Hz
!    Points: 801
!    Params: S21
!
!!!!!
# GHZ S MA R 50
0.3000000000000000 0.000062 66.850165 
0.3008750000000000 0.000115 162.667246 
0.3017500000000000 0.000111 134.460766 
0.3026250000000000 0.000165 -28.688457 
0.3035000000000000 0.000058 30.334341 
0.3043750000000000 0.000065 165.213288 
0.3052500000000000 0.000032 30.771035 
0.3061250000000000 0.000040 82.235922 
0.3070000000000000 0.000078 137.460178 
0.3078750000000000 0.000098 111.790942 
0.3087500000000000 0.000090 -163.200179 
0.3096250000000000 0.000020 94.824972 
0.3105000000000000 0.000032 -70.083985 
0.3113750000000000 0.000026 -3.738745 
0.3122500000000000 0.000054 57.938567 
0.3131250000000000 0.000101 -149.984971 
0.3140000000000000 0.000068 -142.328850 
0.3148750000000000 0.000048 166.749195 
0.3157500000000000 0.000157 -102.326964 
0.3166250000000000 0.000100 -115.140948 
0.3175000000000000 0.000033 -126.130811 
0.3183750000000000 0.000061 -4.685130 
0.3192500000000000 0.000130 44.342851 
0.3201250000000000 0.000146 -36.173579 
0.3210000000000000 0.000151 153.141900 
0.3218750000000000 0.000074 15.924785 
0.3227500000000000 0.000164 -156.846395 
0.3236250000000000 0.000064 -16.761018 
0.3245000000000000 0.000029 8.133498 
0.3253750000000000 0.000088 -118.438405 
0.3262500000000000 0.000140 -64.488918 
0.3271250000000000 0.000153 -86.461327 
0.3280000000000000 0.000054 -102.286695 
0.3288750000000000 0.000118 30.046716 
0.3297500000000000 0.000103 -109.228667 
0.3306250000000000 0.000052 -104.477851 
0.3315000000000000 0.000064 136.656328 
0.3323750000000000 0.000052 128.216834 
0.3332500000000000 0.000061 40.407070 
0.3341250000000000 0.000088 -103.419932 
0.3350000000000000 0.000103 -156.777162 
0.3358750000000000 0.000042 9.931301 
0.3367500000000000 0.000018 76.168424 
0.3376250000000000 0.000074 71.014694 
0.3385000000000000 0.000060 135.283009 
0.3393750000000000 0.000188 -83.970911 
0.3402500000000000 0.000069 16.180232 
0.3411250000000000 0.000067 -65.603874 
0.3420000000000000 0.000047 -102.759196 
0.3428750000000000 0.000041 64.979668 
0.3437500000000000 0.000045 -138.817180 
0.3446250000000000 0.000056 110.979843 
0.3455000000000000 0.000077 51.309043 
0.3463750000000000 0.000079 172.302793 
0.3472500000000000 0.000135 -128.207221 
0.3481250000000000 0.000088 -71.383490 
0.3490000000000000 0.000125 -105.503978 
0.3498750000000000 0.000041 -156.779529 
0.3507500000000000 0.000097 165.369542 
0.3516250000000000 0.000090 -77.673933 
0.3525000000000000 0.000046 43.745553 
0.3533750000000000 0.000039 56.105694 
0.3542500000000000 0.000044 -143.369956 
0.3551250000000000 0.000086 134.691660 
0.3560000000000000 0.000127 -141.827293 
0.3568750000000000 0.000029 57.792478 
0.3577500000000000 0.000102 50.584112 
0.3586250000000000 0.000078 122.274183 
0.3595000000000000 0.000069 -123.259598 
0.3603750000000000 0.000062 -66.137275 
0.3612500000000000 0.000020 52.797017 
0.3621250000000000 0.000061 76.598773 
0.3630000000000000 0.000035 -65.292837 
0.3638750000000000 0.000064 18.072624 
0.3647500000000000 0.000075 47.227372 
0.3656250000000000 0.000135 -88.967801 
0.3665000000000000 0.000043 -171.926363 
0.3673750000000000 0.000076 178.958272 
0.3682500000000000 0.000173 -41.443736 
0.3691250000000000 0.000169 64.981888 
0.3700000000000000 0.000085 143.002719 
0.3708750000000000 0.000017 -167.811810 
0.3717500000000000 0.000049 -5.017287 
0.3726250000000000 0.000068 86.625566 
0.3735000000000000 0.000072 154.028357 
0.3743750000000000 0.000023 149.558397 
0.3752500000000000 0.000055 36.784271 
0.3761250000000000 0.000103 -148.034464 
0.3770000000000000 0.000069 -129.602495 
0.3778750000000000 0.000087 17.436177 
0.3787500000000000 0.000115 158.946906 
0.3796250000000000 0.000030 136.878299 
0.3805000000000000 0.000082 123.725528 
0.3813750000000000 0.000128 66.658612 
0.3822500000000000 0.000093 41.028609 
0.3831250000000000 0.000109 -142.997976 
0.3840000000000000 0.000135 73.681536 
0.3848750000000000 0.000100 -93.100357 
0.3857500000000000 0.000084 -13.333603 
0.3866250000000000 0.000025 -100.935221 
0.3875000000000000 0.000127 -3.213489 
0.3883750000000000 0.000108 -110.725559 
0.3892500000000000 0.000084 8.724895 
0.3901250000000000 0.000099 140.595993 
0.3910000000000000 0.000044 33.227409 
0.3918750000000000 0.000098 76.410431 
0.3927500000000000 0.000087 -171.339346 
0.3936250000000000 0.000112 -37.128647 
0.3945000000000000 0.000142 98.082491 
0.3953750000000000 0.000108 -137.702656 
0.3962500000000000 0.000096 -28.258103 
0.3971250000000000 0.000154 74.317123 
0.3980000000000000 0.000067 117.208174 
0.3988750000000000 0.000116 130.796112 
0.3997500000000000 0.000021 -15.865191 
0.4006250000000000 0.000047 -59.401127 
0.4015000000000000 0.000033 -72.970399 
0.4023750000000000 0.000028 -67.339611 
0.4032500000000000 0.000112 -33.629997 
0.4041250000000000 0.000064 54.145133 
0.4050000000000000 0.000056 -55.683242 
0.4058750000000000 0.000009 -25.438698 
0.4067500000000000 0.000040 175.806571 
0.4076250000000000 0.000032 -16.650520 
0.4085000000000000 0.000125 107.038406 
0.4093750000000000 0.000037 163.050702 
0.4102500000000000 0.000009 -100.136926 
0.4111250000000000 0.000123 -156.643777 
0.4120000000000000 0.000019 -142.145831 
0.4128750000000000 0.000052 -154.729885 
0.4137500000000000 0.000036 110.827540 
0.4146250000000000 0.000089 -37.210397 
0.4155000000000000 0.000028 102.352953 
0.4163750000000000 0.000089 24.326110 
0.4172500000000000 0.000167 -5.335691 
0.4181250000000000 0.000049 106.237522 
0.4190000000000000 0.000134 80.440577 
0.4198750000000000 0.000047 -89.775056 
0.4207500000000000 0.000120 -111.682173 
0.4216250000000000 0.000093 30.182340 
0.4225000000000000 0.000083 -93.010763 
0.4233750000000000 0.000046 40.012659 
0.4242500000000000 0.000117 -117.062453 
0.4251250000000000 0.000055 164.863475 
0.4260000000000000 0.000075 83.769046 
0.4268750000000000 0.000052 -7.530539 
0.4277500000000000 0.000120 76.122446 
0.4286250000000000 0.000043 -149.398720 
0.4295000000000000 0.000056 33.346156 
0.4303750000000000 0.000010 -102.615111 
0.4312500000000000 0.000022 58.709616 
0.4321250000000000 0.000110 -22.851968 
0.4330000000000000 0.000045 129.190728 
0.4338750000000000 0.000097 29.148887 
0.4347500000000000 0.000101 137.823077 
0.4356250000000000 0.000032 -76.030760 
0.4365000000000000 0.000105 -144.564208 
0.4373750000000000 0.000033 179.145005 
0.4382500000000000 0.000107 -141.089051 
0.4391250000000000 0.000067 -8.245493 
0.4400000000000000 0.000056 127.788928 
0.4408750000000000 0.000151 -137.511560 
0.4417500000000000 0.000082 -92.172824 
0.4426250000000000 0.000077 -131.511134 
0.4435000000000000 0.000052 47.352578 
0.4443750000000000 0.000016 -155.786967 
0.4452500000000000 0.000039 75.237386 
0.4461250000000000 0.000022 8.419995 
0.4470000000000000 0.000049 -79.966972 
0.4478750000000000 0.000036 -56.391786 
0.4487500000000000 0.000032 -26.652922 
0.4496250000000000 0.000083 79.946335 
0.4505000000000000 0.000068 -116.525629 
0.4513750000000000 0.000093 -176.721910 
0.4522500000000000 0.000052 38.303768 
0.4531250000000000 0.000053 113.180620 
0.4540000000000000 0.000096 131.439307 
0.4548750000000000 0.000017 59.477857 
0.4557500000000000 0.000053 -79.416462 
0.4566250000000000 0.000130 71.434245 
0.4575000000000000 0.000119 -119.473700 
0.4583750000000000 0.000137 3.473997 
0.4592500000000000 0.000115 16.805065 
0.4601250000000000 0.000129 -55.119544 
0.4610000000000000 0.000103 -79.596315 
0.4618750000000000 0.000094 60.384839 
0.4627500000000000 0.000093 -10.330137 
0.4636250000000000 0.000091 -4.251818 
0.4645000000000000 0.000079 -50.134859 
0.4653750000000000 0.000121 39.698098 
0.4662500000000000 0.000050 94.268434 
0.4671250000000000 0.000073 -44.626183 
0.4680000000000000 0.000053 30.659180 
0.4688750000000000 0.000083 -40.957469 
0.4697500000000000 0.000050 102.208652 
0.4706250000000000 0.000100 172.564253 
0.4715000000000000 0.000078 -78.866646 
0.4723750000000000 0.000093 -167.849283 
0.4732500000000000 0.000105 -21.904513 
0.4741250000000000 0.000031 -119.156572 
0.4750000000000000 0.000043 43.114919 
0.4758750000000000 0.000034 -51.167587 
0.4767500000000000 0.000096 -138.793474 
0.4776250000000000 0.000162 -176.781949 
0.4785000000000000 0.000079 21.557051 
0.4793750000000000 0.000080 -33.733655 
0.4802500000000000 0.000026 -118.271855 
0.4811250000000000 0.000139 29.156136 
0.4820000000000000 0.000121 141.211941 
0.4828750000000000 0.000146 -3.454325 
0.4837500000000000 0.000080 107.428618 
0.4846250000000000 0.000114 69.962592 
0.4855000000000000 0.000080 -39.656410 
0.4863750000000000 0.000266 -71.000848 
0.4872500000000000 0.000050 -90.549700 
0.4881250000000000 0.000156 3.299733 
0.4890000000000000 0.000153 91.917588 
0.4898750000000000 0.000088 -104.009811 
0.4907500000000000 0.000073 -161.108336 
0.4916250000000000 0.000049 35.527132 
0.4925000000000000 0.000097 -44.818716 
0.4933750000000000 0.000019 -113.905910 
0.4942500000000000 0.000049 -11.437506 
0.4951250000000000 0.000039 -42.162268 
0.4960000000000000 0.000092 -98.082905 
0.4968750000000000 0.000061 140.851356 
0.4977500000000000 0.000034 110.964276 
0.4986250000000000 0.000195 -5.988999 
0.4995000000000000 0.000037 0.308313 
0.5003750000000000 0.000026 -176.311676 
0.5012500000000000 0.000076 -56.601847 
0.5021250000000000 0.000024 93.781220 
0.5030000000000000 0.000155 -11.667273 
0.5038750000000000 0.000161 -94.211260 
0.5047500000000000 0.000048 -60.746321 
0.5056250000000000 0.000077 -9.656680 
0.5065000000000000 0.000083 -161.439340 
0.5073750000000000 0.000207 -96.767698 
0.5082500000000000 0.000152 -80.035591 
0.5091250000000001 0.000048 -135.303984 
0.5100000000000000 0.000138 -111.863529 
0.5108750000000000 0.000111 -83.002670 
0.5117500000000000 0.000110 164.353190 
0.5126250000000000 0.000067 -33.159302 
0.5135000000000000 0.000078 -136.910245 
0.5143750000000000 0.000059 -72.210022 
0.5152500000000000 0.000078 -47.962685 
0.5161249999999999 0.000080 -113.652064 
0.5170000000000000 0.000170 -151.102105 
0.5178750000000000 0.000078 -131.880271 
0.5187500000000000 0.000067 -75.458560 
0.5196250000000000 0.000084 -143.370734 
0.5205000000000000 0.000085 -168.393570 
0.5213750000000000 0.000071 -31.062582 
0.5222500000000000 0.000081 -132.744343 
0.5231250000000000 0.000020 24.146966 
0.5240000000000000 0.000093 -99.488045 
0.5248750000000000 0.000052 -161.291794 
0.5257500000000001 0.000075 -176.495546 
0.5266250000000000 0.000061 -141.311610 
0.5275000000000000 0.000141 -159.755872 
0.5283750000000000 0.000185 -165.367309 
0.5292500000000000 0.000266 -144.209636 
0.5301250000000000 0.000026 -94.106161 
0.5310000000000000 0.000108 -137.670267 
0.5318750000000000 0.000118 133.947170 
0.5327500000000000 0.000097 163.479305 
0.5336250000000000 0.000120 -166.204541 
0.5345000000000000 0.000095 -102.466708 
0.5353750000000001 0.000144 179.513472 
0.5362500000000000 0.000147 -165.484629 
0.5371250000000000 0.000108 81.923336 
0.5380000000000000 0.000165 -175.316380 
0.5388750000000000 0.000132 -176.891588 
0.5397500000000000 0.000230 -173.618780 
0.5406250000000000 0.000086 166.039991 
0.5415000000000000 0.000232 140.204348 
0.5423750000000001 0.000241 145.359365 
0.5432500000000000 0.000180 156.048794 
0.5441250000000000 0.000148 162.294620 
0.5450000000000000 0.000177 -178.223339 
0.5458750000000000 0.000119 151.207463 
0.5467500000000000 0.000198 149.907701 
0.5476250000000000 0.000258 168.136435 
0.5485000000000000 0.000114 179.027324 
0.5493750000000000 0.000125 150.375561 
0.5502500000000000 0.000202 148.023749 
0.5511250000000000 0.000135 130.184790 
0.5520000000000001 0.000276 138.535016 
0.5528750000000000 0.000276 113.116643 
0.5537500000000000 0.000320 124.373267 
0.5546250000000000 0.000168 124.984123 
0.5555000000000000 0.000208 150.249278 
0.5563750000000000 0.000120 128.085682 
0.5572500000000000 0.000287 134.403853 
0.5581250000000000 0.000110 103.417789 
0.5590000000000001 0.000227 115.813224 
0.5598750000000000 0.000264 125.730637 
0.5607500000000000 0.000260 121.363296 
0.5616250000000000 0.000239 143.053141 
0.5625000000000000 0.000139 127.236399 
0.5633750000000000 0.000276 99.466899 
0.5642500000000000 0.000274 76.225191 
0.5651250000000000 0.000250 92.799036 
0.5660000000000000 0.000281 92.867111 
0.5668750000000000 0.000235 76.147411 
0.5677500000000000 0.000223 76.641878 
0.5686250000000001 0.000299 92.335034 
0.5695000000000000 0.000347 71.130713 
0.5703750000000000 0.000211 86.048466 
0.5712500000000000 0.000384 85.333598 
0.5721250000000000 0.000468 64.552195 
0.5730000000000000 0.000323 63.289613 
0.5738750000000000 0.000421 74.573793 
0.5747500000000000 0.000361 80.763777 
0.5756250000000001 0.000460 53.692452 
0.5765000000000000 0.000297 37.324284 
0.5773750000000000 0.000313 69.758315 
0.5782500000000000 0.000446 91.920387 
0.5791250000000000 0.000446 71.656557 
0.5800000000000000 0.000443 55.974546 
0.5808750000000000 0.000418 64.013654 
0.5817500000000000 0.000379 46.402307 
0.5826250000000000 0.000491 63.618341 
0.5835000000000000 0.000480 58.708931 
0.5843750000000000 0.000491 68.806345 
0.5852500000000001 0.000590 52.066108 
0.5861250000000000 0.000537 29.468549 
0.5870000000000000 0.000481 38.695865 
0.5878750000000000 0.000584 41.384619 
0.5887500000000000 0.000526 20.925122 
0.5896250000000000 0.000690 28.038114 
0.5905000000000000 0.000624 31.350549 
0.5913750000000000 0.000452 26.522814 
0.5922500000000001 0.000704 22.070817 
0.5931250000000000 0.000662 27.042583 
0.5940000000000000 0.000636 25.690163 
0.5948750000000000 0.000731 21.350588 
0.5957500000000000 0.000631 18.230528 
0.5966250000000000 0.000716 22.419842 
0.5975000000000000 0.000694 16.326758 
0.5983750000000000 0.000758 12.220573 
0.5992500000000000 0.000837 3.800506 
0.6001250000000000 0.000819 3.449440 
0.6010000000000000 0.000913 -3.060750 
0.6018750000000001 0.000729 -3.671625 
0.6027500000000000 0.000772 -0.796338 
0.6036250000000000 0.000879 -3.702897 
0.6045000000000000 0.000960 -12.883924 
0.6053750000000000 0.001073 -13.170905 
0.6062500000000000 0.000926 -24.989939 
0.6071250000000000 0.001211 -22.736555 
0.6080000000000000 0.001106 -21.754957 
0.6088750000000001 0.001080 -29.719004 
0.6097500000000000 0.001120 -34.916856 
0.6106250000000000 0.001184 -29.321137 
0.6115000000000000 0.001120 -38.066461 
0.6123750000000000 0.001180 -41.067267 
0.6132500000000000 0.001240 -44.080978 
0.6141250000000000 0.001245 -53.733042 
0.6150000000000000 0.001249 -48.702210 
0.6158750000000000 0.001411 -54.024581 
0.6167500000000000 0.001460 -58.013956 
0.6176250000000000 0.001304 -62.675717 
0.6185000000000001 0.001381 -61.537596 
0.6193750000000000 0.001534 -68.801371 
0.6202500000000000 0.001420 -74.595980 
0.6211250000000000 0.001730 -74.518581 
0.6220000000000000 0.001575 -78.180584 
0.6228750000000000 0.001699 -81.999843 
0.6237500000000000 0.001839 -87.183594 
0.6246250000000000 0.001769 -89.501788 
0.6254999999999999 0.001880 -93.435808 
0.6263750000000000 0.002055 -94.254440 
0.6272500000000000 0.001902 -99.390878 
0.6281250000000000 0.002022 -101.655825 
0.6290000000000000 0.002100 -107.567019 
0.6298750000000000 0.002204 -110.260378 
0.6307500000000000 0.002110 -112.647751 
0.6316250000000000 0.002274 -116.665785 
0.6325000000000000 0.002326 -119.497887 
0.6333750000000000 0.002368 -118.553596 
0.6342500000000000 0.002408 -129.053545 
0.6351250000000001 0.002433 -135.264055 
0.6360000000000000 0.002619 -134.940973 
0.6368750000000000 0.002555 -138.222599 
0.6377500000000000 0.002679 -141.754275 
0.6386250000000000 0.002806 -144.143707 
0.6395000000000000 0.002904 -150.860856 
0.6403750000000000 0.002909 -153.313139 
0.6412500000000000 0.003002 -156.150232 
0.6421250000000000 0.003147 -160.520472 
0.6430000000000000 0.003184 -164.592102 
0.6438750000000000 0.003342 -166.367226 
0.6447500000000001 0.003606 -171.290707 
0.6456250000000000 0.003586 -173.264792 
0.6465000000000000 0.003631 -179.311581 
0.6473750000000000 0.003803 177.157863 
0.6482500000000000 0.003974 177.482677 
0.6491250000000000 0.004179 172.205091 
0.6500000000000000 0.004143 166.796301 
0.6508750000000000 0.004419 163.142944 
0.6517500000000001 0.004405 159.773149 
0.6526250000000000 0.004536 155.955564 
0.6535000000000000 0.004881 150.117293 
0.6543750000000000 0.004863 148.452306 
0.6552500000000000 0.005153 144.603162 
0.6561250000000000 0.005453 139.839989 
0.6570000000000000 0.005512 135.450369 
0.6578750000000000 0.005676 131.480037 
0.6587500000000000 0.005880 129.490285 
0.6596250000000000 0.006184 122.163198 
0.6605000000000000 0.006414 118.462592 
0.6613750000000001 0.006614 114.589926 
0.6622500000000000 0.007004 111.190009 
0.6631250000000000 0.007150 105.993948 
0.6640000000000000 0.007511 101.843516 
0.6648750000000000 0.007879 96.592544 
0.6657500000000000 0.008119 91.780451 
0.6666250000000000 0.008507 86.381191 
0.6675000000000000 0.008798 81.541403 
0.6683750000000001 0.009212 77.070069 
0.6692500000000000 0.009642 71.729924 
0.6701250000000000 0.010048 65.562123 
0.6710000000000000 0.010492 60.785801 
0.6718750000000000 0.010915 54.092794 
0.6727500000000000 0.011356 48.360069 
0.6736250000000000 0.011630 41.226585 
0.6745000000000000 0.012126 35.298803 
0.6753750000000000 0.012621 28.406610 
0.6762500000000000 0.012797 20.589022 
0.6771250000000000 0.013173 14.173067 
0.6780000000000001 0.013254 6.780886 
0.6788750000000000 0.013362 -0.854731 
0.6797500000000000 0.013523 -8.134959 
0.6806250000000000 0.013409 -15.882709 
0.6815000000000000 0.013375 -23.091578 
0.6823750000000000 0.013274 -30.709962 
0.6832500000000000 0.012774 -38.091270 
0.6841250000000000 0.012538 -44.187990 
0.6850000000000001 0.012193 -51.247106 
0.6858750000000000 0.011730 -57.755137 
0.6867500000000000 0.011427 -64.336320 
0.6876250000000000 0.010978 -69.519987 
0.6885000000000000 0.010639 -75.174616 
0.6893750000000000 0.010259 -81.346370 
0.6902500000000000 0.009969 -86.388103 
0.6911250000000000 0.009385 -92.073150 
0.6920000000000000 0.008971 -96.724603 
0.6928750000000000 0.008832 -101.482231 
0.6937500000000000 0.008394 -106.401849 
0.6946250000000001 0.008110 -110.471268 
0.6955000000000000 0.007841 -114.283038 
0.6963750000000000 0.007615 -118.537445 
0.6972500000000000 0.007264 -123.471016 
0.6981250000000000 0.006984 -129.000113 
0.6990000000000000 0.006786 -132.730548 
0.6998750000000000 0.006570 -135.188198 
0.7007500000000000 0.006337 -138.831924 
0.7016250000000001 0.006136 -143.359840 
0.7025000000000000 0.005813 -147.012587 
0.7033750000000000 0.005868 -151.214908 
0.7042500000000000 0.005507 -155.463252 
0.7051250000000000 0.005395 -159.827401 
0.7060000000000000 0.005185 -161.396767 
0.7068750000000000 0.004953 -165.884163 
0.7077500000000000 0.004948 -168.713889 
0.7086250000000000 0.004763 -172.099071 
0.7095000000000000 0.004643 -174.705144 
0.7103750000000000 0.004482 -177.890522 
0.7112500000000001 0.004380 177.119999 
0.7121250000000000 0.004187 174.995215 
0.7130000000000000 0.003970 169.976472 
0.7138750000000000 0.004120 167.885101 
0.7147500000000000 0.003799 164.252646 
0.7156250000000000 0.003876 159.582969 
0.7165000000000000 0.003788 161.563908 
0.7173750000000000 0.003625 154.001283 
0.7182500000000001 0.003449 152.619312 
0.7191250000000000 0.003316 150.226002 
